! TOUCHSTONE file generated by CST MICROWAVE STUDIO
! Date and time: Tue Mar 18 00:01:20 2025
! Project name: oblique.cst
! Parameters = {Tilt=30; Fracture=1; B=10; D=160; F=25; Feed=2.85625; L=100; M=50; R=0.384908; S=2; Theta=90; length=57.125; wave=114.25}
! Header version: 2024
! Port assignment regex: !\s*Touchstone port\s*([0-9]+)\s*=\s*(CST MWS port|CST DES external port|CST DES block port)\s*(.+)\s* \(\"(.*)\"\)(\s*mode\s*([0-9]+))?.*
! Touchstone port assignment:
! Touchstone port 1 = CST MWS port 1 ("")
! Touchstone port 2 = CST MWS port 2 ("")
# GHz S DB R 50
1                    -0.01978556       -9.818703        -68.98023        134.4302             -200               0             -200               0
1.0076               -0.02086246       -9.919629        -68.99368        128.9399             -200               0             -200               0
1.01521              -0.02193566       -10.02101        -69.02783        123.5355             -200               0             -200               0
1.02281              -0.02299822       -10.12291        -69.08318        118.2233             -200               0             -200               0
1.03042              -0.02404288       -10.22537         -69.1603        113.0112             -200               0             -200               0
1.03802              -0.02506571       -10.32846         -69.2598        107.9085             -200               0             -200               0
1.04563              -0.02606104       -10.43227        -69.38234        102.9264             -200               0             -200               0
1.05323              -0.02702723       -10.53685        -69.52856        98.07828             -200               0             -200               0
1.06084              -0.02796382       -10.64229         -69.6991         93.3801             -200               0             -200               0
1.06844              -0.02887091       -10.74869        -69.89454        88.85094             -200               0             -200               0
1.07605              -0.02975057       -10.85611        -70.11531        84.51363             -200               0             -200               0
1.08365              -0.03060638       -10.96465        -70.36161        80.39538             -200               0             -200               0
1.09125              -0.03144499       -11.07438        -70.63322        76.52861             -200               0             -200               0
1.09886              -0.03227117       -11.18537        -70.92928        72.95173             -200               0             -200               0
1.10646              -0.03309594       -11.29771        -71.24799        69.70979             -200               0             -200               0
1.11407              -0.03392638       -11.41144        -71.58607        66.85483             -200               0             -200               0
1.12167              -0.03477495       -11.52663         -71.9382         64.4453             -200               0             -200               0
1.12928              -0.03565226       -11.64331        -72.29614        62.54387             -200               0             -200               0
1.13688              -0.03656976       -11.76152        -72.64786        61.21238             -200               0             -200               0
1.14449              -0.03754019        -11.8813        -72.97659         60.5025             -200               0             -200               0
1.15209              -0.03857607       -12.00264        -73.26051        60.44095             -200               0             -200               0
1.1597               -0.03968937       -12.12555        -73.47345        61.00989             -200               0             -200               0
1.1673               -0.04089213       -12.25003        -73.58764        62.12729             -200               0             -200               0
1.1749               -0.04219639       -12.37607        -73.57856        63.63672             -200               0             -200               0
1.18251              -0.04361028       -12.50362        -73.43076         65.3179             -200               0             -200               0
1.19011              -0.04514427       -12.63267        -73.14238        66.92125             -200               0             -200               0
1.19772              -0.04680603       -12.76317        -72.72564        68.21524             -200               0             -200               0
1.20532              -0.04860172       -12.89508        -72.20324        69.02576             -200               0             -200               0
1.21293              -0.05053721       -13.02836        -71.60254        69.25283             -200               0             -200               0
1.22053              -0.05261434       -13.16294         -70.9503         68.8646             -200               0             -200               0
1.22814              -0.05483597        -13.2988        -70.26943        67.87899             -200               0             -200               0
1.23574              -0.05720181       -13.43587         -69.5778        66.34347             -200               0             -200               0
1.24335              -0.05970992       -13.57411        -68.88841        64.31886             -200               0             -200               0
1.25095              -0.06235761       -13.71349        -68.21021        61.86877             -200               0             -200               0
1.25856              -0.06514041       -13.85399          -67.549        59.05356             -200               0             -200               0
1.26616              -0.06805403       -13.99556        -66.90835        55.92763             -200               0             -200               0
1.27376              -0.07109024       -14.13822        -66.29022         52.5385             -200               0             -200               0
1.28137              -0.07424239       -14.28194        -65.69549          48.927             -200               0             -200               0
1.28897               -0.0775034       -14.42675        -65.12433        45.12787             -200               0             -200               0
1.29658               -0.0808651       -14.57267        -64.57645        41.17053             -200               0             -200               0
1.30418              -0.08432042       -14.71972        -64.05127        37.07991             -200               0             -200               0
1.31179              -0.08786117       -14.86797        -63.54804        32.87717             -200               0             -200               0
1.31939              -0.09147986       -15.01746         -63.0659        28.58029             -200               0             -200               0
1.327                -0.09517325       -15.16827        -62.60397        24.20465             -200               0             -200               0
1.3346               -0.09893595       -15.32048        -62.16135        19.76347             -200               0             -200               0
1.34221                -0.102764       -15.47418        -61.73716        15.26819             -200               0             -200               0
1.34981               -0.1066564       -15.62946        -61.33054        10.72874             -200               0             -200               0
1.35741                -0.110615       -15.78644        -60.94067        6.153824             -200               0             -200               0
1.36502               -0.1146398       -15.94521        -60.56674        1.551125             -200               0             -200               0
1.37262               -0.1187376        -16.1059          -60.208        -3.07254             -200               0             -200               0
1.38023               -0.1229137        -16.2686        -59.86373       -7.711079             -200               0             -200               0
1.38783               -0.1271778       -16.43344        -59.53322         -12.359             -200               0             -200               0
1.39544               -0.1315397       -16.60051        -59.21582       -17.01133             -200               0             -200               0
1.40304               -0.1360129       -16.76992        -58.91089       -21.66352             -200               0             -200               0
1.41065               -0.1406118       -16.94176        -58.61779       -26.31142             -200               0             -200               0
1.41825               -0.1453505       -17.11612        -58.33593       -30.95118             -200               0             -200               0
1.42586               -0.1502494       -17.29306        -58.06472       -35.57922             -200               0             -200               0
1.43346                -0.155326       -17.47264        -57.80357       -40.19224             -200               0             -200               0
1.44106               -0.1605994       -17.65493        -57.55191       -44.78713             -200               0             -200               0
1.44867                 -0.16609       -17.83995        -57.30917       -49.36102             -200               0             -200               0
1.45627               -0.1718175       -18.02772        -57.07477        -53.9112             -200               0             -200               0
1.46388                -0.177802       -18.21826        -56.84814       -58.43516             -200               0             -200               0
1.47148               -0.1840631       -18.41156         -56.6287       -62.93058             -200               0             -200               0
1.47909               -0.1906193        -18.6076        -56.41585        -67.3953             -200               0             -200               0
1.48669               -0.1974895       -18.80635          -56.209       -71.82738             -200               0             -200               0
1.4943                -0.2046886       -19.00778        -56.00752       -76.22508             -200               0             -200               0
1.5019                -0.2122317       -19.21184        -55.81079       -80.58688             -200               0             -200               0
1.50951               -0.2201324       -19.41848        -55.61816       -84.91149             -200               0             -200               0
1.51711               -0.2284022       -19.62763        -55.42897       -89.19789             -200               0             -200               0
1.52471               -0.2370495       -19.83925        -55.24256       -93.44536             -200               0             -200               0
1.53232               -0.2460809       -20.05326        -55.05824       -97.65346             -200               0             -200               0
1.53992               -0.2555014       -20.26962        -54.87531       -101.8221             -200               0             -200               0
1.54753               -0.2653148       -20.48826        -54.69306       -105.9516             -200               0             -200               0
1.55513                -0.275521       -20.70915        -54.51081       -110.0426             -200               0             -200               0
1.56274               -0.2861199       -20.93225        -54.32784       -114.0961             -200               0             -200               0
1.57034               -0.2971076       -21.15753        -54.14348       -118.1138             -200               0             -200               0
1.57795               -0.3084815       -21.38499        -53.95703       -122.0974             -200               0             -200               0
1.58555               -0.3202366       -21.61463        -53.76787       -126.0495             -200               0             -200               0
1.59316               -0.3323682       -21.84646        -53.57538       -129.9727             -200               0             -200               0
1.60076               -0.3448687       -22.08053        -53.37899       -133.8704             -200               0             -200               0
1.60837               -0.3577352       -22.31691        -53.17818       -137.7462             -200               0             -200               0
1.61597                -0.370959       -22.55565         -52.9725       -141.6041             -200               0             -200               0
1.62357               -0.3845388       -22.79686        -52.76155       -145.4482             -200               0             -200               0
1.63118               -0.3984707       -23.04064        -52.54502       -149.2833             -200               0             -200               0
1.63878                -0.412754       -23.28714        -52.32268        -153.114             -200               0             -200               0
1.64639               -0.4273891       -23.53648        -52.09437       -156.9452             -200               0             -200               0
1.65399               -0.4423788       -23.78882        -51.86003       -160.7816             -200               0             -200               0
1.6616                -0.4577306       -24.04435        -51.61967       -164.6283             -200               0             -200               0
1.6692                -0.4734526       -24.30324         -51.3734       -168.4898             -200               0             -200               0
1.67681               -0.4895576       -24.56567        -51.12137       -172.3708             -200               0             -200               0
1.68441               -0.5060612       -24.83185        -50.86385       -176.2756             -200               0             -200               0
1.69202               -0.5229822       -25.10197        -50.60115        179.7919             -200               0             -200               0
1.69962               -0.5403428       -25.37621        -50.33362        175.8279             -200               0             -200               0
1.70722               -0.5581702       -25.65478        -50.06168        171.8293             -200               0             -200               0
1.71483               -0.5764932       -25.93786        -49.78578         167.793             -200               0             -200               0
1.72243               -0.5953424       -26.22562        -49.50641        163.7167             -200               0             -200               0
1.73004               -0.6147556       -26.51824        -49.22405        159.5982             -200               0             -200               0
1.73764               -0.6347688       -26.81587        -48.93922        155.4359             -200               0             -200               0
1.74525               -0.6554239       -27.11865        -48.65242        151.2284             -200               0             -200               0
1.75285               -0.6767627        -27.4267        -48.36416        146.9749             -200               0             -200               0
1.76046               -0.6988287       -27.74014        -48.07495        142.6748             -200               0             -200               0
1.76806               -0.7216676       -28.05906        -47.78525        138.3278             -200               0             -200               0
1.77567               -0.7453243       -28.38354        -47.49554        133.9339             -200               0             -200               0
1.78327               -0.7698451       -28.71365        -47.20625        129.4933             -200               0             -200               0
1.79087               -0.7952779       -29.04941         -46.9178        125.0067             -200               0             -200               0
1.79848               -0.8216688       -29.39089        -46.63059        120.4746             -200               0             -200               0
1.80608               -0.8490621        -29.7381        -46.34498        115.8978             -200               0             -200               0
1.81369                -0.877504       -30.09105         -46.0613        111.2773             -200               0             -200               0
1.82129               -0.9070379       -30.44976        -45.77987        106.6141             -200               0             -200               0
1.8289                -0.9377067       -30.81424        -45.50098        101.9095             -200               0             -200               0
1.8365                -0.9695525        -31.1845        -45.22489        97.16456             -200               0             -200               0
1.84411                -1.002616       -31.56054        -44.95183         92.3806             -200               0             -200               0
1.85171                -1.036937       -31.94239        -44.68202        87.55888             -200               0             -200               0
1.85932                -1.072555       -32.33009        -44.41566        82.70072             -200               0             -200               0
1.86692                -1.109508       -32.72368         -44.1529        77.80742             -200               0             -200               0
1.87452                -1.147836       -33.12322        -43.89392        72.88028             -200               0             -200               0
1.88213                -1.187579       -33.52881        -43.63883        67.92059             -200               0             -200               0
1.88973                -1.228777       -33.94054        -43.38778        62.92965             -200               0             -200               0
1.89734                -1.271473       -34.35856        -43.14085        57.90868             -200               0             -200               0
1.90494                -1.315712       -34.78303        -42.89815        52.85892             -200               0             -200               0
1.91255                -1.361544       -35.21414        -42.65975        47.78156             -200               0             -200               0
1.92015                -1.409022       -35.65212        -42.42573        42.67774             -200               0             -200               0
1.92776                -1.458206       -36.09721        -42.19614         37.5486             -200               0             -200               0
1.93536                -1.509159       -36.54969        -41.97103        32.39521             -200               0             -200               0
1.94297                -1.561956       -37.00987        -41.75045        27.21864             -200               0             -200               0
1.95057                -1.616677       -37.47809        -41.53442        22.01987             -200               0             -200               0
1.95817                -1.673414       -37.95468        -41.32299         16.7999             -200               0             -200               0
1.96578                -1.732267       -38.44004        -41.11617        11.55964             -200               0             -200               0
1.97338                -1.793347       -38.93453        -40.91397        6.300001             -200               0             -200               0
1.98099                -1.856783       -39.43855        -40.71642        1.021842             -200               0             -200               0
