! TOUCHSTONE file generated by CST MICROWAVE STUDIO
! Date and time: Tue Mar 18 00:01:23 2025
! Project name: oblique.cst
! Parameters = {Tilt=30; Fracture=1; B=12.5; D=160; F=5; Feed=2.85625; L=100; M=10; R=0.384908; S=1; Theta=270; length=57.125; wave=114.25}
! Header version: 2024
! Port assignment regex: !\s*Touchstone port\s*([0-9]+)\s*=\s*(CST MWS port|CST DES external port|CST DES block port)\s*(.+)\s* \(\"(.*)\"\)(\s*mode\s*([0-9]+))?.*
! Touchstone port assignment:
! Touchstone port 1 = CST MWS port 1 ("")
! Touchstone port 2 = CST MWS port 2 ("")
# GHz S DB R 50
1                    -0.01831384       -9.768039        -70.84752       -123.4812             -200               0             -200               0
1.00658              -0.01908576       -9.857162        -70.20351       -128.2033             -200               0             -200               0
1.01316              -0.01992571       -9.946658        -69.62327       -133.0165             -200               0             -200               0
1.01974              -0.02082796       -10.03648        -69.10075       -137.8928             -200               0             -200               0
1.02632              -0.02178561       -10.12659        -68.63105       -142.8105             -200               0             -200               0
1.03289               -0.0227914       -10.21695        -68.21018       -147.7517             -200               0             -200               0
1.03947              -0.02383588       -10.30754         -67.8349       -152.7017             -200               0             -200               0
1.04605              -0.02490815       -10.39835        -67.50257       -157.6476             -200               0             -200               0
1.05263              -0.02600069       -10.48938        -67.21106       -162.5777             -200               0             -200               0
1.05921              -0.02710025       -10.58065        -66.95864       -167.4813             -200               0             -200               0
1.06579              -0.02819599       -10.67217        -66.74396       -172.3477             -200               0             -200               0
1.07237               -0.0292818         -10.764        -66.56594       -177.1667             -200               0             -200               0
1.07895              -0.03034603       -10.85617        -66.42378        178.0727             -200               0             -200               0
1.08553               -0.0313808       -10.94876        -66.31692        173.3821             -200               0             -200               0
1.09211              -0.03238006       -11.04182        -66.24497        168.7738             -200               0             -200               0
1.09868              -0.03333846       -11.13543        -66.20771         164.262             -200               0             -200               0
1.10526              -0.03425299       -11.22969        -66.20506        159.8623             -200               0             -200               0
1.11184               -0.0351211       -11.32467          -66.237        155.5926             -200               0             -200               0
1.11842              -0.03594468       -11.42047        -66.30354        151.4738             -200               0             -200               0
1.125                 -0.0367251       -11.51717        -66.40467        147.5302             -200               0             -200               0
1.13158              -0.03746739       -11.61487        -66.54018        143.7903             -200               0             -200               0
1.13816               -0.0381771       -11.71365        -66.70959        140.2876             -200               0             -200               0
1.14474               -0.0388621       -11.81358        -66.91184        137.0616             -200               0             -200               0
1.15132              -0.03953251       -11.91474        -67.14502        134.1585             -200               0             -200               0
1.15789              -0.04019925       -12.01718        -67.40591        131.6316             -200               0             -200               0
1.16447              -0.04087349       -12.12096         -67.6893        129.5413             -200               0             -200               0
1.17105              -0.04156779       -12.22612        -67.98725        127.9532             -200               0             -200               0
1.17763              -0.04229791       -12.33267        -68.28802        126.9335             -200               0             -200               0
1.18421              -0.04307458       -12.44063        -68.57515        126.5403             -200               0             -200               0
1.19079              -0.04391264          -12.55        -68.82689        126.8096             -200               0             -200               0
1.19737              -0.04482333       -12.66076        -69.01663        127.7347             -200               0             -200               0
1.20395              -0.04582133        -12.7729        -69.11538         129.245             -200               0             -200               0
1.21053               -0.0469154       -12.88637         -69.0965        131.1924             -200               0             -200               0
1.21711              -0.04811537       -13.00112        -68.94194        133.3582             -200               0             -200               0
1.22368              -0.04942957        -13.1171        -68.64739        135.4857             -200               0             -200               0
1.23026              -0.05086412       -13.23426        -68.22359        137.3303             -200               0             -200               0
1.23684              -0.05242378       -13.35253        -67.69295        138.7035             -200               0             -200               0
1.24342              -0.05410853       -13.47183        -67.08353         139.494             -200               0             -200               0
1.25                  -0.0559229       -13.59212        -66.42326        139.6634             -200               0             -200               0
1.25658              -0.05786055       -13.71331        -65.73626        139.2281             -200               0             -200               0
1.26316              -0.05992033       -13.83537        -65.04138        138.2368             -200               0             -200               0
1.26974               -0.0620962       -13.95822        -64.35231        136.7533             -200               0             -200               0
1.27632              -0.06438117       -14.08185        -63.67842        134.8451             -200               0             -200               0
1.28289              -0.06676592        -14.2062        -63.02577        132.5761             -200               0             -200               0
1.28947               -0.0692414       -14.33127        -62.39798        130.0044             -200               0             -200               0
1.29605              -0.07179847       -14.45705        -61.79702        127.1809             -200               0             -200               0
1.30263              -0.07442379       -14.58355         -61.2237        124.1493             -200               0             -200               0
1.30921              -0.07710907       -14.71079        -60.67807        120.9471             -200               0             -200               0
1.31579              -0.07984291       -14.83881        -60.15969        117.6064             -200               0             -200               0
1.32237              -0.08261363       -14.96766        -59.66781        114.1545             -200               0             -200               0
1.32895              -0.08541449       -15.09741        -59.20148        110.6149             -200               0             -200               0
1.33553              -0.08823773       -15.22814        -58.75966        107.0079             -200               0             -200               0
1.34211              -0.09107659       -15.35994        -58.34122        103.3512             -200               0             -200               0
1.34868              -0.09392679        -15.4929        -57.94501         99.6601             -200               0             -200               0
1.35526               -0.0967867       -15.62713        -57.56987        95.94838             -200               0             -200               0
1.36184              -0.09965663       -15.76274        -57.21463        92.22819             -200               0             -200               0
1.36842               -0.1025386       -15.89985        -56.87812        88.51044             -200               0             -200               0
1.375                 -0.1054376       -16.03856        -56.55915        84.80498             -200               0             -200               0
1.38158               -0.1083614       -16.17898        -56.25654        81.12075             -200               0             -200               0
1.38816               -0.1113181       -16.32123        -55.96908         77.4659             -200               0             -200               0
1.39474               -0.1143205        -16.4654        -55.69554        73.84781             -200               0             -200               0
1.40132               -0.1173812       -16.61157        -55.43467        70.27317             -200               0             -200               0
1.40789               -0.1205149       -16.75983        -55.18516        66.74801             -200               0             -200               0
1.41447               -0.1237383       -16.91023        -54.94567        63.27766             -200               0             -200               0
1.42105               -0.1270694       -17.06284        -54.71483        59.86667             -200               0             -200               0
1.42763               -0.1305236       -17.21767         -54.4912        56.51889             -200               0             -200               0
1.43421               -0.1341223       -17.37477        -54.27331        53.23724             -200               0             -200               0
1.44079               -0.1378801       -17.53412        -54.05963        50.02375             -200               0             -200               0
1.44737               -0.1418164       -17.69572        -53.84863         46.8794             -200               0             -200               0
1.45395               -0.1459453       -17.85955        -53.63873        43.80406             -200               0             -200               0
1.46053               -0.1502835       -18.02557        -53.42836        40.79641             -200               0             -200               0
1.46711               -0.1548422       -18.19374          -53.216        37.85388             -200               0             -200               0
1.47368               -0.1596359       -18.36399        -53.00016        34.97259             -200               0             -200               0
1.48026                -0.164671       -18.53627        -52.77942        32.14738             -200               0             -200               0
1.48684               -0.1699549       -18.71051         -52.5525        29.37187             -200               0             -200               0
1.49342               -0.1754932       -18.88665        -52.31828        26.63853             -200               0             -200               0
1.5                   -0.1812862       -19.06462        -52.07578        23.93883             -200               0             -200               0
1.50658               -0.1873364       -19.24436        -51.82427        21.26348             -200               0             -200               0
1.51316               -0.1936397       -19.42582        -51.56322        18.60263             -200               0             -200               0
1.51974               -0.2001909       -19.60895        -51.29235        15.94617             -200               0             -200               0
1.52632                -0.206984       -19.79372        -51.01161        13.28401             -200               0             -200               0
1.53289               -0.2140115       -19.98012         -50.7212        10.60634             -200               0             -200               0
1.53947               -0.2212651       -20.16815        -50.42152        7.903923             -200               0             -200               0
1.54605               -0.2287331       -20.35782        -50.11318        5.168313             -200               0             -200               0
1.55263               -0.2364065       -20.54917        -49.79693         2.39202             -200               0             -200               0
1.55921               -0.2442767       -20.74227        -49.47368      -0.4313531             -200               0             -200               0
1.56579               -0.2523313       -20.93718         -49.1444       -3.307036             -200               0             -200               0
1.57237               -0.2605629       -21.13399        -48.81013        -6.23907             -200               0             -200               0
1.57895               -0.2689661       -21.33283        -48.47196       -9.230334             -200               0             -200               0
1.58553               -0.2775362       -21.53383        -48.13093        -12.2826             -200               0             -200               0
1.59211               -0.2862685       -21.73712         -47.7881       -15.39664             -200               0             -200               0
1.59868               -0.2951663       -21.94287        -47.44445       -18.57229             -200               0             -200               0
1.60526               -0.3042299       -22.15125        -47.10091        -21.8086             -200               0             -200               0
1.61184               -0.3134686       -22.36242        -46.75834       -25.10397             -200               0             -200               0
1.61842               -0.3228924       -22.57657        -46.41752       -28.45619             -200               0             -200               0
1.625                 -0.3325134       -22.79388        -46.07914       -31.86266             -200               0             -200               0
1.63158               -0.3423511       -23.01453        -45.74382       -35.32039             -200               0             -200               0
1.63816                -0.352423       -23.23868        -45.41208       -38.82613             -200               0             -200               0
1.64474               -0.3627551       -23.46649        -45.08436       -42.37649             -200               0             -200               0
1.65132               -0.3733738       -23.69813        -44.76104       -45.96791             -200               0             -200               0
1.65789                -0.384308       -23.93371        -44.44241       -49.59684             -200               0             -200               0
1.66447               -0.3955904       -24.17336        -44.12869       -53.25967             -200               0             -200               0
1.67105               -0.4072555       -24.41717        -43.82006       -56.95287             -200               0             -200               0
1.67763               -0.4193367       -24.66523        -43.51662       -60.67295             -200               0             -200               0
1.68421               -0.4318713       -24.91759        -43.21841       -64.41652             -200               0             -200               0
1.69079               -0.4448952       -25.17428        -42.92544       -68.18032             -200               0             -200               0
1.69737               -0.4584449       -25.43531        -42.63766       -71.96123             -200               0             -200               0
1.70395                -0.472555       -25.70068        -42.35498       -75.75626             -200               0             -200               0
1.71053               -0.4872619       -25.97037        -42.07729       -79.56263             -200               0             -200               0
1.71711               -0.5025963       -26.24432        -41.80441       -83.37769             -200               0             -200               0
1.72368                 -0.51859       -26.52248        -41.53616       -87.19901             -200               0             -200               0
1.73026               -0.5352701       -26.80478        -41.27232       -91.02436             -200               0             -200               0
1.73684               -0.5526646       -27.09114        -41.01264       -94.85168             -200               0             -200               0
1.74342               -0.5707945       -27.38148        -40.75685       -98.67917             -200               0             -200               0
1.75                  -0.5896808       -27.67572        -40.50467       -102.5052             -200               0             -200               0
1.75658               -0.6093402       -27.97377        -40.25579       -106.3284             -200               0             -200               0
1.76316               -0.6297864       -28.27555        -40.00989       -110.1477             -200               0             -200               0
1.76974               -0.6510308       -28.58102        -39.76664       -113.9621             -200               0             -200               0
1.77632               -0.6730833       -28.89012        -39.52572        -117.771             -200               0             -200               0
1.78289               -0.6959498       -29.20281        -39.28677       -121.5739             -200               0             -200               0
1.78947               -0.7196366        -29.5191        -39.04946       -125.3707             -200               0             -200               0
1.79605               -0.7441485         -29.839        -38.81345       -129.1615             -200               0             -200               0
1.80263               -0.7694894       -30.16256        -38.57841       -132.9465             -200               0             -200               0
1.80921                -0.795664       -30.48985        -38.34402       -136.7264             -200               0             -200               0
1.81579               -0.8226779       -30.82097        -38.10996       -140.5018             -200               0             -200               0
1.82237               -0.8505378       -31.15605        -37.87595       -144.2738             -200               0             -200               0
1.82895               -0.8792554       -31.49526        -37.64172       -148.0437             -200               0             -200               0
1.83553               -0.9088443       -31.83879        -37.40703       -151.8127             -200               0             -200               0
1.84211               -0.9393211       -32.18686        -37.17166       -155.5824             -200               0             -200               0
1.84868               -0.9707102        -32.5397        -36.93541       -159.3546             -200               0             -200               0
