! TOUCHSTONE file generated by CST MICROWAVE STUDIO
! Date and time: Tue Mar 18 00:00:45 2025
! Project name: oblique.cst
! Parameters = {Tilt=30; Fracture=1; B=10; D=160; F=5; Feed=2.85625; L=100; M=50; R=0.384908; S=1; Theta=90; length=57.125; wave=114.25}
! Header version: 2024
! Port assignment regex: !\s*Touchstone port\s*([0-9]+)\s*=\s*(CST MWS port|CST DES external port|CST DES block port)\s*(.+)\s* \(\"(.*)\"\)(\s*mode\s*([0-9]+))?.*
! Touchstone port assignment:
! Touchstone port 1 = CST MWS port 1 ("")
! Touchstone port 2 = CST MWS port 2 ("")
# GHz S DB R 50
1                    -0.02175342       -9.788212         -67.7659        172.8559             -200               0             -200               0
1.00658              -0.02245533       -9.875064        -67.69617        167.7729             -200               0             -200               0
1.01316              -0.02316077       -9.962535        -67.65419        162.7846             -200               0             -200               0
1.01974              -0.02387116       -10.05065        -67.63989        157.9006             -200               0             -200               0
1.02632              -0.02458901       -10.13945        -67.65323        153.1319             -200               0             -200               0
1.03289               -0.0253185       -10.22894        -67.69419        148.4917             -200               0             -200               0
1.03947              -0.02606116       -10.31916        -67.76273        143.9951             -200               0             -200               0
1.04605              -0.02682284       -10.41011         -67.8587        139.6599             -200               0             -200               0
1.05263              -0.02760683       -10.50183        -67.98182         135.507             -200               0             -200               0
1.05921              -0.02841765       -10.59431         -68.1315        131.5603             -200               0             -200               0
1.06579              -0.02926085       -10.68756        -68.30676        127.8481             -200               0             -200               0
1.07237              -0.03013746        -10.7816          -68.506        124.4023             -200               0             -200               0
1.07895              -0.03105602       -10.87641        -68.72673        121.2594             -200               0             -200               0
1.08553              -0.03201658       -10.97199        -68.96523        118.4598             -200               0             -200               0
1.09211              -0.03302483       -11.06833        -69.21609        116.0468             -200               0             -200               0
1.09868              -0.03408529       -11.16543        -69.47177        114.0643             -200               0             -200               0
1.10526              -0.03519693       -11.26326        -69.72199        112.5527             -200               0             -200               0
1.11184              -0.03636503       -11.36182        -69.95347        111.5419             -200               0             -200               0
1.11842              -0.03759072       -11.46108        -70.14985        111.0423             -200               0             -200               0
1.125                -0.03887253       -11.56103        -70.29241        111.0333             -200               0             -200               0
1.13158              -0.04021271       -11.66164        -70.36185        111.4535             -200               0             -200               0
1.13816              -0.04160984       -11.76291        -70.34098        112.1951             -200               0             -200               0
1.14474              -0.04306293        -11.8648          -70.218        113.1103             -200               0             -200               0
1.15132              -0.04456989       -11.96733        -69.98914         114.028             -200               0             -200               0
1.15789              -0.04612855       -12.07046        -69.65955        114.7796             -200               0             -200               0
1.16447              -0.04773446        -12.1742        -69.24205        115.2237             -200               0             -200               0
1.17105              -0.04938627       -12.27854        -68.75423         115.261             -200               0             -200               0
1.17763              -0.05107981       -12.38348        -68.21528        114.8383             -200               0             -200               0
1.18421              -0.05281018       -12.48904        -67.64336        113.9421             -200               0             -200               0
1.19079              -0.05457438       -12.59522        -67.05411        112.5874             -200               0             -200               0
1.19737              -0.05636774       -12.70204        -66.46003        110.8074             -200               0             -200               0
1.20395              -0.05818572       -12.80952        -65.87062        108.6441             -200               0             -200               0
1.21053              -0.06002649        -12.9177        -65.29276        106.1425             -200               0             -200               0
1.21711              -0.06188671        -13.0266        -64.73126        103.3465             -200               0             -200               0
1.22368              -0.06376402       -13.13626        -64.18929        100.2968             -200               0             -200               0
1.23026               -0.0656538       -13.24672        -63.66886        97.03036             -200               0             -200               0
1.23684              -0.06755592       -13.35803        -63.17111        93.57988             -200               0             -200               0
1.24342              -0.06947186       -13.47022        -62.69659        89.97411             -200               0             -200               0
1.25                 -0.07139704       -13.58335        -62.24543        86.23824             -200               0             -200               0
1.25658              -0.07333639       -13.69747        -61.81744        82.39426             -200               0             -200               0
1.26316              -0.07529056       -13.81262        -61.41229        78.46149             -200               0             -200               0
1.26974              -0.07726063       -13.92886        -61.02949        74.45693             -200               0             -200               0
1.27632               -0.0792499       -14.04622        -60.66849        70.39564             -200               0             -200               0
1.28289              -0.08126221       -14.16475        -60.32868         66.2911             -200               0             -200               0
1.28947              -0.08330252        -14.2845        -60.00945        62.15543             -200               0             -200               0
1.29605               -0.0853742        -14.4055        -59.71014        57.99968             -200               0             -200               0
1.30263              -0.08748579       -14.52779        -59.43013          53.834             -200               0             -200               0
1.30921              -0.08963923       -14.65139        -59.16875        49.66783             -200               0             -200               0
1.31579              -0.09184165       -14.77634        -58.92535        45.51005             -200               0             -200               0
1.32237              -0.09409805       -14.90265        -58.69927        41.36907             -200               0             -200               0
1.32895              -0.09641645       -15.03035        -58.48985        37.25297             -200               0             -200               0
1.33553               -0.0987995       -15.15943        -58.29637        33.16956             -200               0             -200               0
1.34211               -0.1012546       -15.28993        -58.11812        29.12645             -200               0             -200               0
1.34868               -0.1037857       -15.42183        -57.95433        25.13109             -200               0             -200               0
1.35526                -0.106397       -15.55515        -57.80418        21.19081             -200               0             -200               0
1.36184               -0.1090921       -15.68988        -57.66678        17.31283             -200               0             -200               0
1.36842               -0.1118755       -15.82604        -57.54119        13.50424             -200               0             -200               0
1.375                 -0.1147477       -15.96361        -57.42634         9.77196             -200               0             -200               0
1.38158               -0.1177098        -16.1026        -57.32106        6.122711             -200               0             -200               0
1.38816               -0.1207661       -16.24301        -57.22409        2.562882             -200               0             -200               0
1.39474               -0.1239155       -16.38484        -57.13398      -0.9015752             -200               0             -200               0
1.40132               -0.1271563       -16.52811        -57.04919         -4.2653             -200               0             -200               0
1.40789               -0.1304903       -16.67283        -56.96799       -7.523734             -200               0             -200               0
1.41447               -0.1339148       -16.81901        -56.88852       -10.67334             -200               0             -200               0
1.42105               -0.1374294       -16.96668        -56.80874       -13.71189             -200               0             -200               0
1.42763               -0.1410318       -17.11586        -56.72653       -16.63869             -200               0             -200               0
1.43421               -0.1447202       -17.26659        -56.63963       -19.45495             -200               0             -200               0
1.44079               -0.1484929        -17.4189        -56.54574       -22.16398             -200               0             -200               0
1.44737               -0.1523513       -17.57286        -56.44256       -24.77145             -200               0             -200               0
1.45395               -0.1562915        -17.7285        -56.32787        -27.2855             -200               0             -200               0
1.46053               -0.1603133       -17.88589        -56.19958       -29.71679             -200               0             -200               0
1.46711               -0.1644204       -18.04509        -56.05586       -32.07838             -200               0             -200               0
1.47368               -0.1686098       -18.20617        -55.89518       -34.38545             -200               0             -200               0
1.48026               -0.1728854       -18.36922        -55.71643       -36.65487             -200               0             -200               0
1.48684               -0.1772511       -18.53429        -55.51892       -38.90463             -200               0             -200               0
1.49342                -0.181711       -18.70149        -55.30246       -41.15318             -200               0             -200               0
1.5                   -0.1862681       -18.87087        -55.06736       -43.41873             -200               0             -200               0
1.50658               -0.1909317       -19.04254        -54.81436       -45.71858             -200               0             -200               0
1.51316               -0.1957092       -19.21656        -54.54464       -48.06848             -200               0             -200               0
1.51974               -0.2006086       -19.39303         -54.2597       -50.48219             -200               0             -200               0
1.52632                -0.205639       -19.57201        -53.96131       -52.97116             -200               0             -200               0
1.53289               -0.2108133       -19.75359        -53.65141       -55.54436             -200               0             -200               0
1.53947               -0.2161414       -19.93782        -53.33202       -58.20828             -200               0             -200               0
1.54605                -0.221637       -20.12478        -53.00518       -60.96701             -200               0             -200               0
1.55263               -0.2273127       -20.31453        -52.67287       -63.82251             -200               0             -200               0
1.55921               -0.2331833       -20.50711        -52.33698       -66.77478             -200               0             -200               0
1.56579               -0.2392609       -20.70258        -51.99927       -69.82224             -200               0             -200               0
1.57237               -0.2455602       -20.90097        -51.66131       -72.96197             -200               0             -200               0
1.57895               -0.2520958       -21.10233        -51.32455          -76.19             -200               0             -200               0
1.58553               -0.2588806       -21.30667        -50.99023       -79.50158             -200               0             -200               0
1.59211               -0.2659303       -21.51403        -50.65944       -82.89138             -200               0             -200               0
1.59868                -0.273255       -21.72443        -50.33311        -86.3537             -200               0             -200               0
1.60526                -0.280868       -21.93788        -50.01201       -89.88259             -200               0             -200               0
1.61184               -0.2887825        -22.1544        -49.69678       -93.47201             -200               0             -200               0
1.61842               -0.2970071         -22.374        -49.38791       -97.11591             -200               0             -200               0
1.625                 -0.3055541        -22.5967        -49.08581       -100.8083             -200               0             -200               0
1.63158               -0.3144305       -22.82251        -48.79077       -104.5433             -200               0             -200               0
1.63816               -0.3236456       -23.05145        -48.50298       -108.3152             -200               0             -200               0
1.64474                -0.333208       -23.28355        -48.22256       -112.1185             -200               0             -200               0
1.65132               -0.3431236       -23.51883        -47.94954       -115.9478             -200               0             -200               0
1.65789               -0.3533986       -23.75733        -47.68389        -119.798             -200               0             -200               0
1.66447               -0.3640398       -23.99909        -47.42553       -123.6643             -200               0             -200               0
1.67105               -0.3750526       -24.24416        -47.17431        -127.542             -200               0             -200               0
1.67763               -0.3864415       -24.49261        -46.93003       -131.4267             -200               0             -200               0
1.68421               -0.3982137       -24.74451        -46.69244       -135.3141             -200               0             -200               0
1.69079               -0.4103751       -24.99995        -46.46124       -139.2004             -200               0             -200               0
1.69737               -0.4229335       -25.25903         -46.2361       -143.0818             -200               0             -200               0
1.70395               -0.4358948       -25.52185        -46.01665       -146.9549             -200               0             -200               0
1.71053                 -0.44927       -25.78852        -45.80246       -150.8165             -200               0             -200               0
1.71711               -0.4630687       -26.05919        -45.59308       -154.6638             -200               0             -200               0
1.72368               -0.4773039         -26.334        -45.38802       -158.4942             -200               0             -200               0
1.73026               -0.4919895       -26.61308        -45.18677       -162.3053             -200               0             -200               0
1.73684               -0.5071417        -26.8966        -44.98876       -166.0953             -200               0             -200               0
1.74342               -0.5227801       -27.18473        -44.79343       -169.8626             -200               0             -200               0
1.75                  -0.5389264       -27.47764        -44.60017        -173.606             -200               0             -200               0
1.75658               -0.5556038        -27.7755        -44.40835       -177.3246             -200               0             -200               0
1.76316               -0.5728397        -28.0785        -44.21735        178.9818             -200               0             -200               0
1.76974               -0.5906632        -28.3868        -44.02653        175.3132             -200               0             -200               0
1.77632               -0.6091085       -28.70059        -43.83524        171.6691             -200               0             -200               0
1.78289               -0.6282097       -29.02005        -43.64285        168.0483             -200               0             -200               0
1.78947               -0.6480059       -29.34535        -43.44875        164.4494             -200               0             -200               0
1.79605               -0.6685386       -29.67665        -43.25234        160.8705             -200               0             -200               0
1.80263               -0.6898523       -30.01411        -43.05306        157.3091             -200               0             -200               0
1.80921                -0.711993       -30.35789         -42.8504        153.7622             -200               0             -200               0
1.81579               -0.7350105       -30.70813         -42.6439        150.2267             -200               0             -200               0
1.82237               -0.7589557       -31.06497        -42.43315        146.6988             -200               0             -200               0
1.82895               -0.7838831       -31.42852        -42.21784        143.1747             -200               0             -200               0
1.83553               -0.8098495        -31.7989         -41.9977        139.6502             -200               0             -200               0
1.84211               -0.8369108       -32.17621        -41.77256        136.1208             -200               0             -200               0
1.84868               -0.8651291       -32.56055        -41.54233        132.5821             -200               0             -200               0
