! TOUCHSTONE file generated by CST MICROWAVE STUDIO
! Date and time: Tue Mar 18 00:00:54 2025
! Project name: oblique.cst
! Parameters = {Tilt=30; Fracture=1; B=10; D=160; F=15; Feed=2.85625; L=100; M=30; R=0.384908; S=1; Theta=180; length=57.125; wave=114.25}
! Header version: 2024
! Port assignment regex: !\s*Touchstone port\s*([0-9]+)\s*=\s*(CST MWS port|CST DES external port|CST DES block port)\s*(.+)\s* \(\"(.*)\"\)(\s*mode\s*([0-9]+))?.*
! Touchstone port assignment:
! Touchstone port 1 = CST MWS port 1 ("")
! Touchstone port 2 = CST MWS port 2 ("")
# GHz S DB R 50
1                    -0.02243521        -9.78494         -64.6449        171.6825             -200               0             -200               0
1.0066               -0.02308317       -9.870699        -64.73592        165.1747             -200               0             -200               0
1.0132                -0.0236992       -9.957078        -64.86687        158.7322             -200               0             -200               0
1.0198               -0.02428477       -10.04415        -65.04047        152.3558             -200               0             -200               0
1.0264               -0.02484198       -10.13196        -65.26004         146.048             -200               0             -200               0
1.033                -0.02537754       -10.22059        -65.52968        139.8125             -200               0             -200               0
1.0396               -0.02589526       -10.31007        -65.85446        133.6551             -200               0             -200               0
1.0462               -0.02640319       -10.40047        -66.24072        127.5846             -200               0             -200               0
1.05281              -0.02690995       -10.49183        -66.69649        121.6135             -200               0             -200               0
1.05941              -0.02742302       -10.58417        -67.23207        115.7596             -200               0             -200               0
1.06601              -0.02795103       -10.67753        -67.86092        110.0497             -200               0             -200               0
1.07261              -0.02850544       -10.77191        -68.60108        104.5235             -200               0             -200               0
1.07921              -0.02909387       -10.86732        -69.47726        99.24341             -200               0             -200               0
1.08581              -0.02972684       -10.96377        -70.52457         94.3112             -200               0             -200               0
1.09241              -0.03041297       -11.06123         -71.7948        89.90442             -200               0             -200               0
1.09901              -0.03116123       -11.15968        -73.36811        86.35977             -200               0             -200               0
1.10561              -0.03197766        -11.2591        -75.37464        84.39308             -200               0             -200               0
1.11221              -0.03287066       -11.35945        -78.02902        85.78493             -200               0             -200               0
1.11881              -0.03384353       -11.46069        -81.57886        95.89787             -200               0             -200               0
1.12541              -0.03490045       -11.56277        -84.77777        129.0435             -200               0             -200               0
1.13201              -0.03604496       -11.66564        -82.56217        170.2911             -200               0             -200               0
1.13861              -0.03727709       -11.76925        -78.46601       -174.1672             -200               0             -200               0
1.14521              -0.03859639       -11.87355        -75.22853       -170.7894             -200               0             -200               0
1.15182              -0.04000022        -11.9785        -72.72625       -171.8011             -200               0             -200               0
1.15842              -0.04148439       -12.08405         -70.7138       -174.7276             -200               0             -200               0
1.16502              -0.04304594       -12.19017        -69.03813        -178.631             -200               0             -200               0
1.17162              -0.04467659       -12.29682        -67.60612        176.9112             -200               0             -200               0
1.17822              -0.04637083       -12.40399        -66.35844        172.1154             -200               0             -200               0
1.18482              -0.04811932       -12.51166         -65.2554        167.1033             -200               0             -200               0
1.19142              -0.04991375       -12.61983        -64.26932        161.9489             -200               0             -200               0
1.19802              -0.05174556        -12.7285        -63.38016        156.6997             -200               0             -200               0
1.20462              -0.05360521        -12.8377        -62.57301        151.3877             -200               0             -200               0
1.21122               -0.0554848       -12.94746        -61.83647        146.0357             -200               0             -200               0
1.21782              -0.05737554       -13.05782        -61.16167        140.6602             -200               0             -200               0
1.22442               -0.0592697       -13.16883        -60.54154        135.2738             -200               0             -200               0
1.23102              -0.06116092       -13.28055        -59.97042        129.8865             -200               0             -200               0
1.23762               -0.0630444       -13.39306        -59.44367        124.5065             -200               0             -200               0
1.24422              -0.06491611       -13.50643        -58.95745        119.1404             -200               0             -200               0
1.25083              -0.06677399       -13.62074        -58.50858        113.7944             -200               0             -200               0
1.25743              -0.06861659       -13.73609        -58.09435        108.4738             -200               0             -200               0
1.26403              -0.07044569       -13.85255        -57.71249        103.1836             -200               0             -200               0
1.27063              -0.07226392       -13.97021        -57.36105         97.9286             -200               0             -200               0
1.27723              -0.07407711       -14.08918        -57.03832        92.71351             -200               0             -200               0
1.28383              -0.07589066       -14.20951        -56.74286        87.54307             -200               0             -200               0
1.29043               -0.0777122        -14.3313        -56.47336         82.4221             -200               0             -200               0
1.29703              -0.07955228       -14.45461        -56.22869        77.35564             -200               0             -200               0
1.30363              -0.08142105       -14.57951        -56.00783        72.34894             -200               0             -200               0
1.31023              -0.08333122       -14.70604        -55.80982        67.40761             -200               0             -200               0
1.31683              -0.08529441       -14.83425        -55.63379        62.53764             -200               0             -200               0
1.32343              -0.08732305       -14.96417        -55.47891        57.74545             -200               0             -200               0
1.33003              -0.08943152       -15.09582        -55.34435        53.03794             -200               0             -200               0
1.33663              -0.09163182        -15.2292        -55.22929        48.42259             -200               0             -200               0
1.34323              -0.09393679       -15.36431        -55.13284        43.90744             -200               0             -200               0
1.34984              -0.09635907       -15.50113        -55.05406        39.50115             -200               0             -200               0
1.35644              -0.09890826       -15.63964        -54.99191        35.21296             -200               0             -200               0
1.36304               -0.1015947        -15.7798         -54.9452        31.05274             -200               0             -200               0
1.36964               -0.1044265       -15.92158        -54.91255        27.03086             -200               0             -200               0
1.37624               -0.1074094       -16.06492        -54.89237        23.15806             -200               0             -200               0
1.38284               -0.1105485       -16.20978        -54.88276         19.4453             -200               0             -200               0
1.38944               -0.1138467        -16.3561        -54.88151        15.90342             -200               0             -200               0
1.39604               -0.1173045       -16.50385        -54.88601        12.54269             -200               0             -200               0
1.40264               -0.1209212       -16.65296        -54.89323        9.372277             -200               0             -200               0
1.40924               -0.1246936        -16.8034        -54.89969        6.399477             -200               0             -200               0
1.41584               -0.1286195       -16.95515        -54.90144        3.628817             -200               0             -200               0
1.42244               -0.1326897       -17.10816        -54.89415        1.061038             -200               0             -200               0
1.42904               -0.1368994       -17.26243        -54.87313       -1.308003             -200               0             -200               0
1.43564               -0.1412396       -17.41796        -54.83353       -3.488336             -200               0             -200               0
1.44224               -0.1457008       -17.57475        -54.77058       -5.496662             -200               0             -200               0
1.44884               -0.1502756       -17.73285         -54.6798       -7.356692             -200               0             -200               0
1.45545               -0.1549531       -17.89228        -54.55739        -9.09885             -200               0             -200               0
1.46205               -0.1597247       -18.05311        -54.40046       -10.75925             -200               0             -200               0
1.46865               -0.1645836       -18.21541        -54.20735       -12.37793             -200               0             -200               0
1.47525               -0.1695216       -18.37926        -53.97772       -13.99656             -200               0             -200               0
1.48185               -0.1745331       -18.54477         -53.7126       -15.65585             -200               0             -200               0
1.48845               -0.1796144       -18.71204        -53.41429       -17.39319             -200               0             -200               0
1.49505               -0.1847638        -18.8812         -53.0861       -19.24066             -200               0             -200               0
1.50165               -0.1899814       -19.05237        -52.73205        -21.2238             -200               0             -200               0
1.50825               -0.1952703       -19.22571        -52.35661       -23.36111             -200               0             -200               0
1.51485               -0.2006358       -19.40133        -51.96433       -25.66421             -200               0             -200               0
1.52145               -0.2060852       -19.57938        -51.55967       -28.13852             -200               0             -200               0
1.52805               -0.2116304       -19.76001        -51.14677       -30.78421             -200               0             -200               0
1.53465               -0.2172828       -19.94334        -50.72939       -33.59733             -200               0             -200               0
1.54125                -0.223059       -20.12951        -50.31079        -36.5708             -200               0             -200               0
1.54785               -0.2289769       -20.31862        -49.89379       -39.69537             -200               0             -200               0
1.55446               -0.2350566        -20.5108        -49.48074       -42.96042             -200               0             -200               0
1.56106               -0.2413187       -20.70614        -49.07354        -46.3546             -200               0             -200               0
1.56766                -0.247787       -20.90471        -48.67376       -49.86627             -200               0             -200               0
1.57426               -0.2544851       -21.10658         -48.2826       -53.48385             -200               0             -200               0
1.58086               -0.2614382        -21.3118        -47.90101       -57.19605             -200               0             -200               0
1.58746               -0.2686702        -21.5204        -47.52967       -60.99204             -200               0             -200               0
1.59406               -0.2762065       -21.73241        -47.16909       -64.86151             -200               0             -200               0
1.60066               -0.2840701       -21.94781        -46.81959       -68.79471             -200               0             -200               0
1.60726               -0.2922858        -22.1666        -46.48136       -72.78248             -200               0             -200               0
1.61386               -0.3008735       -22.38875        -46.15448       -76.81625             -200               0             -200               0
1.62046               -0.3098543       -22.61421        -45.83891       -80.88795             -200               0             -200               0
1.62706               -0.3192459       -22.84295        -45.53457       -84.99004             -200               0             -200               0
1.63366               -0.3290648        -23.0749        -45.24126       -89.11547             -200               0             -200               0
1.64026               -0.3393227       -23.31001        -44.95877       -93.25759             -200               0             -200               0
1.64686               -0.3500325       -23.54822         -44.6868       -97.41018             -200               0             -200               0
1.65347               -0.3612004       -23.78947        -44.42502       -101.5674             -200               0             -200               0
1.66007               -0.3728355       -24.03372        -44.17304       -105.7237             -200               0             -200               0
1.66667               -0.3849391       -24.28091        -43.93046       -109.8739             -200               0             -200               0
1.67327               -0.3975139       -24.53101         -43.6968       -114.0132             -200               0             -200               0
1.67987               -0.4105594       -24.78401        -43.47158       -118.1369             -200               0             -200               0
1.68647               -0.4240731       -25.03991        -43.25423       -122.2408             -200               0             -200               0
1.69307               -0.4380525       -25.29872        -43.04419       -126.3208             -200               0             -200               0
1.69967               -0.4524944       -25.56048        -42.84083       -130.3733             -200               0             -200               0
1.70627               -0.4673931       -25.82525        -42.64348        -134.395             -200               0             -200               0
1.71287               -0.4827464       -26.09312        -42.45145       -138.3829             -200               0             -200               0
1.71947                -0.498551       -26.36419        -42.26398       -142.3342             -200               0             -200               0
1.72607                -0.514805       -26.63859         -42.0803       -146.2468             -200               0             -200               0
1.73267               -0.5315088       -26.91648        -41.89957        -150.119             -200               0             -200               0
1.73927               -0.5486649       -27.19802        -41.72096       -153.9495             -200               0             -200               0
1.74587                -0.566279       -27.48342        -41.54356       -157.7376             -200               0             -200               0
1.75248               -0.5843614       -27.77288        -41.36649       -161.4832             -200               0             -200               0
1.75908                -0.602924       -28.06664        -41.18883       -165.1868             -200               0             -200               0
1.76568               -0.6219847       -28.36494        -41.00966       -168.8496             -200               0             -200               0
1.77228               -0.6415634       -28.66801        -40.82808       -172.4735             -200               0             -200               0
1.77888               -0.6616872       -28.97613        -40.64321        -176.061             -200               0             -200               0
1.78548               -0.6823876       -29.28954        -40.45422       -179.6156             -200               0             -200               0
1.79208               -0.7036998       -29.60851        -40.26033        176.8589             -200               0             -200               0
1.79868                -0.725665       -29.93328        -40.06082        173.3576             -200               0             -200               0
1.80528               -0.7483289        -30.2641        -39.85508        169.8755             -200               0             -200               0
1.81188                -0.771741       -30.60119        -39.64261        166.4067             -200               0             -200               0
1.81848               -0.7959555       -30.94478        -39.42298        162.9451             -200               0             -200               0
1.82508               -0.8210305       -31.29507        -39.19594        159.4843             -200               0             -200               0
1.83168               -0.8470288       -31.65223        -38.96134        156.0175             -200               0             -200               0
1.83828               -0.8740157       -32.01644        -38.71915        152.5383             -200               0             -200               0
1.84488               -0.9020587       -32.38781         -38.4695        149.0401             -200               0             -200               0
1.85149               -0.9312276       -32.76647        -38.21262        145.5167             -200               0             -200               0
