! TOUCHSTONE file generated by CST MICROWAVE STUDIO
! Date and time: Tue Mar 18 00:01:27 2025
! Project name: oblique.cst
! Parameters = {Tilt=30; Fracture=1; B=12.5; D=160; F=5; Feed=2.85625; L=100; M=10; R=0.384908; S=2; Theta=180; length=57.125; wave=114.25}
! Header version: 2024
! Port assignment regex: !\s*Touchstone port\s*([0-9]+)\s*=\s*(CST MWS port|CST DES external port|CST DES block port)\s*(.+)\s* \(\"(.*)\"\)(\s*mode\s*([0-9]+))?.*
! Touchstone port assignment:
! Touchstone port 1 = CST MWS port 1 ("")
! Touchstone port 2 = CST MWS port 2 ("")
# GHz S DB R 50
1                    -0.01868663       -9.785894        -71.12508       -132.4371             -200               0             -200               0
1.0066               -0.01944411       -9.875351        -70.60107       -136.2863             -200               0             -200               0
1.0132               -0.02026303       -9.965224        -70.12161       -140.2605             -200               0             -200               0
1.0198               -0.02113647       -10.05547        -69.68436       -144.3273             -200               0             -200               0
1.0264               -0.02205867       -10.14606        -69.28718       -148.4597             -200               0             -200               0
1.033                -0.02302431       -10.23697        -68.92816       -152.6346             -200               0             -200               0
1.0396               -0.02402418       -10.32819        -68.60562        -156.832             -200               0             -200               0
1.0462               -0.02505087        -10.4197        -68.31805       -161.0337             -200               0             -200               0
1.05281              -0.02609561       -10.51152        -68.06415       -165.2232             -200               0             -200               0
1.05941               -0.0271499       -10.60366        -67.84274       -169.3847             -200               0             -200               0
1.06601              -0.02820487       -10.69614        -67.65277        -173.503             -200               0             -200               0
1.07261               -0.0292534       -10.78901        -67.49327       -177.5627             -200               0             -200               0
1.07921              -0.03028713       -10.88229        -67.36334        178.4515             -200               0             -200               0
1.08581              -0.03130138       -10.97606        -67.26206         174.556             -200               0             -200               0
1.09241               -0.0322893       -11.07037         -67.1885        170.7676             -200               0             -200               0
1.09901              -0.03324838       -11.16529        -67.14162        167.1046             -200               0             -200               0
1.10561              -0.03417494       -11.26088        -67.12018        163.5867             -200               0             -200               0
1.11221              -0.03507031       -11.35724        -67.12273         160.235             -200               0             -200               0
1.11881              -0.03593322       -11.45442        -67.14738        157.0725             -200               0             -200               0
1.12541              -0.03676743       -11.55252        -67.19178        154.1235             -200               0             -200               0
1.13201              -0.03757681       -11.65161        -67.25285         151.414             -200               0             -200               0
1.13861               -0.0383669       -11.75175        -67.32668        148.9702             -200               0             -200               0
1.14521               -0.0391453       -11.85301        -67.40826        146.8181             -200               0             -200               0
1.15182              -0.03992102       -11.95545        -67.49134        144.9812             -200               0             -200               0
1.15842              -0.04070169       -12.05912        -67.56825         143.478             -200               0             -200               0
1.16502              -0.04149976       -12.16406        -67.62993        142.3183             -200               0             -200               0
1.17162              -0.04232554        -12.2703         -67.6661        141.4993             -200               0             -200               0
1.17822              -0.04318912       -12.37786        -67.66575        141.0012             -200               0             -200               0
1.18482              -0.04410406       -12.48675          -67.618        140.7838             -200               0             -200               0
1.19142              -0.04507955       -12.59696        -67.51322        140.7857             -200               0             -200               0
1.19802              -0.04612723       -12.70849        -67.34429        140.9265             -200               0             -200               0
1.20462              -0.04725704       -12.82131        -67.10766        141.1134             -200               0             -200               0
1.21122              -0.04847719       -12.93539         -66.8039        141.2503             -200               0             -200               0
1.21782               -0.0497955       -13.05069        -66.43759        141.2483             -200               0             -200               0
1.22442              -0.05121959       -13.16716         -66.0165        141.0336             -200               0             -200               0
1.23102              -0.05275205       -13.28476        -65.55041        140.5529             -200               0             -200               0
1.23762              -0.05439666       -13.40344        -65.04991         139.774             -200               0             -200               0
1.24422              -0.05615559       -13.52314         -64.5253        138.6841             -200               0             -200               0
1.25083              -0.05802699       -13.64381        -63.98594        137.2855             -200               0             -200               0
1.25743               -0.0600107       -13.76541        -63.43982         135.592             -200               0             -200               0
1.26403              -0.06210094        -13.8879         -62.8935         133.624             -200               0             -200               0
1.27063              -0.06429419       -14.01122        -62.35214         131.406             -200               0             -200               0
1.27723              -0.06658403       -14.13537        -61.81968        128.9639             -200               0             -200               0
1.28383               -0.0689614       -14.26031        -61.29901        126.3237             -200               0             -200               0
1.29043              -0.07141965       -14.38605        -60.79218          123.51             -200               0             -200               0
1.29703              -0.07395051       -14.51259        -60.30058        120.5461             -200               0             -200               0
1.30363              -0.07654317       -14.63995        -59.82506        117.4532             -200               0             -200               0
1.31023               -0.0791908       -14.76815         -59.3661        114.2507             -200               0             -200               0
1.31683              -0.08188363       -14.89724        -58.92382        110.9561             -200               0             -200               0
1.32343              -0.08461389       -15.02727        -58.49816        107.5853             -200               0             -200               0
1.33003              -0.08737544       -15.15831        -58.08885        104.1525             -200               0             -200               0
1.33663              -0.09016254       -15.29044        -57.69549        100.6704             -200               0             -200               0
1.34323              -0.09296984       -15.42373        -57.31757        97.15064             -200               0             -200               0
1.34984              -0.09579764       -15.55828        -56.95452        93.60355             -200               0             -200               0
1.35644              -0.09864305       -15.69419        -56.60569        90.03855             -200               0             -200               0
1.36304                -0.101508       -15.83155        -56.27038        86.46411             -200               0             -200               0
1.36964               -0.1043956       -15.97046        -55.94784        82.88791             -200               0             -200               0
1.37624               -0.1073118       -16.11103         -55.6373        79.31687             -200               0             -200               0
1.38284               -0.1102638       -16.25336        -55.33793        75.75723             -200               0             -200               0
1.38944               -0.1132613       -16.39753         -55.0489        72.21457             -200               0             -200               0
1.39604               -0.1163143       -16.54363        -54.76931        68.69386             -200               0             -200               0
1.40264               -0.1194352       -16.69174        -54.49828        65.19943             -200               0             -200               0
1.40924               -0.1226386       -16.84192        -54.23487        61.73503             -200               0             -200               0
1.41584               -0.1259377       -16.99423        -53.97811        58.30379             -200               0             -200               0
1.42244               -0.1293492       -17.14871        -53.72706        54.90819             -200               0             -200               0
1.42904               -0.1328885        -17.3054        -53.48071         51.5501             -200               0             -200               0
1.43564               -0.1365703        -17.4643        -53.23808        48.23071             -200               0             -200               0
1.44224                -0.140411       -17.62544        -52.99817        44.95052             -200               0             -200               0
1.44884               -0.1444252       -17.78879        -52.75999        41.70934             -200               0             -200               0
1.45545               -0.1486257       -17.95435         -52.5226        38.50628             -200               0             -200               0
1.46205               -0.1530268       -18.12208        -52.28504        35.33974             -200               0             -200               0
1.46865               -0.1576377       -18.29196        -52.04645        32.20742             -200               0             -200               0
1.47525               -0.1624693       -18.46394        -51.80599        29.10636             -200               0             -200               0
1.48185                -0.167528       -18.63797         -51.5629        26.03299             -200               0             -200               0
1.48845                -0.172821       -18.81402        -51.31651        22.98317             -200               0             -200               0
1.49505               -0.1783507       -18.99202        -51.06626        19.95226             -200               0             -200               0
1.50165               -0.1841187       -19.17195        -50.81166        16.93529             -200               0             -200               0
1.50825               -0.1901259       -19.35376        -50.55238        13.92695             -200               0             -200               0
1.51485               -0.1963691       -19.53743        -50.28818         10.9218             -200               0             -200               0
1.52145               -0.2028452       -19.72292        -50.01893        7.914354             -200               0             -200               0
1.52805               -0.2095501       -19.91024        -49.74465        4.899198             -200               0             -200               0
1.53465               -0.2164762       -20.09939        -49.46545        1.871106             -200               0             -200               0
1.54125               -0.2236175       -20.29039        -49.18154       -1.174845             -200               0             -200               0
1.54785                -0.230967       -20.48328        -48.89324       -4.243197             -200               0             -200               0
1.55446               -0.2385174        -20.6781        -48.60094       -7.338029             -200               0             -200               0
1.56106               -0.2462624       -20.87493         -48.3051       -10.46291             -200               0             -200               0
1.56766               -0.2541959       -21.07385        -48.00622       -13.62084             -200               0             -200               0
1.57426               -0.2623138       -21.27497        -47.70485       -16.81426             -200               0             -200               0
1.58086               -0.2706134        -21.4784        -47.40157       -20.04505             -200               0             -200               0
1.58746               -0.2790923       -21.68428        -47.09694       -23.31451             -200               0             -200               0
1.59406               -0.2877536       -21.89274        -46.79154       -26.62341             -200               0             -200               0
1.60066               -0.2966008       -22.10395        -46.48594       -29.97204             -200               0             -200               0
1.60726               -0.3056401       -22.31805        -46.18068        -33.3602             -200               0             -200               0
1.61386               -0.3148823       -22.53522        -45.87626       -36.78733             -200               0             -200               0
1.62046               -0.3243389       -22.75561        -45.57318       -40.25246             -200               0             -200               0
1.62706               -0.3340269       -22.97941        -45.27185       -43.75433             -200               0             -200               0
1.63366               -0.3439651       -23.20676        -44.97269       -47.29142             -200               0             -200               0
1.64026               -0.3541757       -23.43781        -44.67605       -50.86201             -200               0             -200               0
1.64686               -0.3646842       -23.67273        -44.38224       -54.46417             -200               0             -200               0
1.65347                -0.375516       -23.91164        -44.09152       -58.09586             -200               0             -200               0
1.66007               -0.3867024       -24.15466        -43.80412       -61.75496             -200               0             -200               0
1.66667               -0.3982736        -24.4019        -43.52021       -65.43925             -200               0             -200               0
1.67327                -0.410264       -24.65344        -43.23995       -69.14651             -200               0             -200               0
1.67987               -0.4227069       -24.90936        -42.96343        -72.8745             -200               0             -200               0
1.68647               -0.4356375        -25.1697         -42.6907       -76.62101             -200               0             -200               0
1.69307               -0.4490902        -25.4345        -42.42181       -80.38385             -200               0             -200               0
1.69967               -0.4631005       -25.70377        -42.15674       -84.16092             -200               0             -200               0
1.70627               -0.4777025       -25.97753        -41.89545       -87.95016             -200               0             -200               0
1.71287               -0.4929284       -26.25574        -41.63788       -91.74962             -200               0             -200               0
1.71947               -0.5088117       -26.53838        -41.38394       -95.55745             -200               0             -200               0
1.72607               -0.5253819       -26.82541        -41.13349       -99.37191             -200               0             -200               0
1.73267               -0.5426676       -27.11678        -40.88642       -103.1914             -200               0             -200               0
1.73927               -0.5606951       -27.41243        -40.64254       -107.0144             -200               0             -200               0
1.74587               -0.5794877       -27.71231        -40.40167       -110.8397             -200               0             -200               0
1.75248               -0.5990669       -28.01637        -40.16363        -114.666             -200               0             -200               0
1.75908               -0.6194527       -28.32454        -39.92819       -118.4923             -200               0             -200               0
1.76568                -0.640662       -28.63679        -39.69513       -122.3179             -200               0             -200               0
1.77228               -0.6627134       -28.95309        -39.46423       -126.1419             -200               0             -200               0
1.77888               -0.6856162        -29.2734        -39.23523       -129.9639             -200               0             -200               0
1.78548               -0.7093876       -29.59774         -39.0079       -133.7836             -200               0             -200               0
1.79208               -0.7340383       -29.92612        -38.78198       -137.6009             -200               0             -200               0
1.79868               -0.7595806       -30.25856        -38.55724       -141.4157             -200               0             -200               0
1.80528               -0.7860273       -30.59514        -38.33342       -145.2283             -200               0             -200               0
1.81188               -0.8133919       -30.93593        -38.11031       -149.0391             -200               0             -200               0
1.81848               -0.8416903       -31.28105        -37.88766       -152.8487             -200               0             -200               0
1.82508               -0.8709394       -31.63061        -37.66527       -156.6578             -200               0             -200               0
1.83168               -0.9011605       -31.98479        -37.44293       -160.4671             -200               0             -200               0
1.83828               -0.9323775       -32.34375        -37.22047       -164.2779             -200               0             -200               0
1.84488               -0.9646192       -32.70768        -36.99772       -168.0912             -200               0             -200               0
1.85149               -0.9979193       -33.07681        -36.77453       -171.9083             -200               0             -200               0
