! TOUCHSTONE file generated by CST MICROWAVE STUDIO
! Date and time: Tue Mar 18 00:01:32 2025
! Project name: oblique.cst
! Parameters = {Tilt=30; Fracture=1; B=12.5; D=160; F=15; Feed=2.85625; L=100; M=10; R=0.384908; S=1; Theta=180; length=57.125; wave=114.25}
! Header version: 2024
! Port assignment regex: !\s*Touchstone port\s*([0-9]+)\s*=\s*(CST MWS port|CST DES external port|CST DES block port)\s*(.+)\s* \(\"(.*)\"\)(\s*mode\s*([0-9]+))?.*
! Touchstone port assignment:
! Touchstone port 1 = CST MWS port 1 ("")
! Touchstone port 2 = CST MWS port 2 ("")
# GHz S DB R 50
1                    -0.01908216       -9.790982        -68.45395       -158.1404             -200               0             -200               0
1.00662               -0.0198859       -9.879864        -68.44141       -162.9544             -200               0             -200               0
1.01325              -0.02072673       -9.969119        -68.46628        -167.642             -200               0             -200               0
1.01987              -0.02159896       -10.05874        -68.52928        -172.185             -200               0             -200               0
1.02649              -0.02249553       -10.14871        -68.63129       -176.5613             -200               0             -200               0
1.03311              -0.02340977       -10.23906        -68.77327        179.2562             -200               0             -200               0
1.03974              -0.02433692       -10.32978        -68.95613        175.3008             -200               0             -200               0
1.04636              -0.02527024       -10.42091        -69.18061        171.6138             -200               0             -200               0
1.05298               -0.0262044       -10.51246        -69.44697        168.2461             -200               0             -200               0
1.0596               -0.02713239       -10.60448         -69.7546        165.2606             -200               0             -200               0
1.06623              -0.02805249       -10.69702        -70.10127        162.7346             -200               0             -200               0
1.07285              -0.02895713       -10.79011        -70.48207        160.7613             -200               0             -200               0
1.07947               -0.0298475       -10.88382        -70.88783        159.4497             -200               0             -200               0
1.08609              -0.03072148        -10.9782        -71.30282        158.9191             -200               0             -200               0
1.09272              -0.03157734       -11.07331        -71.70209        159.2846             -200               0             -200               0
1.09934              -0.03241844       -11.16921        -72.04922        160.6258             -200               0             -200               0
1.10596              -0.03324619       -11.26597         -72.2967        162.9373             -200               0             -200               0
1.11258              -0.03406399       -11.36363        -72.39206        166.0711             -200               0             -200               0
1.11921              -0.03487799       -11.46225        -72.29133        169.7078             -200               0             -200               0
1.12583              -0.03569334       -11.56189        -71.97538        173.3998             -200               0             -200               0
1.13245              -0.03651745       -11.66258        -71.45817        176.6898             -200               0             -200               0
1.13907              -0.03735746       -11.76436        -70.78053        179.2338             -200               0             -200               0
1.1457               -0.03822271       -11.86727         -69.9943       -179.1414             -200               0             -200               0
1.15232              -0.03912182       -11.97131        -69.14798       -178.4589             -200               0             -200               0
1.15894              -0.04006263       -12.07651        -68.27939       -178.6481             -200               0             -200               0
1.16556              -0.04105426       -12.18286        -67.41475       -179.5962             -200               0             -200               0
1.17219              -0.04210658       -12.29036        -66.57056        178.8174             -200               0             -200               0
1.17881              -0.04322569         -12.399        -65.75643        176.7044             -200               0             -200               0
1.18543              -0.04441991       -12.50876        -64.97734        174.1615             -200               0             -200               0
1.19205              -0.04569621       -12.61961        -64.23533         171.269             -200               0             -200               0
1.19868              -0.04705824       -12.73151        -63.53072        168.0931             -200               0             -200               0
1.2053                -0.0485112       -12.84444        -62.86276        164.6874             -200               0             -200               0
1.21192              -0.05005741       -12.95835        -62.23018         161.096             -200               0             -200               0
1.21854              -0.05169854       -13.07321        -61.63141        157.3546             -200               0             -200               0
1.22517              -0.05343543       -13.18898        -61.06478        153.4928             -200               0             -200               0
1.23179              -0.05526508       -13.30561         -60.5286        149.5351             -200               0             -200               0
1.23841              -0.05718698       -13.42309        -60.02123        145.5022             -200               0             -200               0
1.24503               -0.0591952       -13.54137        -59.54111        141.4114             -200               0             -200               0
1.25166              -0.06128675       -13.66044        -59.08677        137.2778             -200               0             -200               0
1.25828              -0.06345528       -13.78029        -58.65681        133.1143             -200               0             -200               0
1.2649               -0.06569455       -13.90091        -58.24993        128.9323             -200               0             -200               0
1.27152              -0.06799838        -14.0223        -57.86488        124.7419             -200               0             -200               0
1.27815              -0.07035945       -14.14448         -57.5005        120.5522             -200               0             -200               0
1.28477              -0.07276911       -14.26748        -57.15567        116.3714             -200               0             -200               0
1.29139              -0.07522275       -14.39132        -56.82932         112.207             -200               0             -200               0
1.29801               -0.0777143       -14.51606         -56.5204        108.0662             -200               0             -200               0
1.30464              -0.08023823       -14.64174         -56.2279        103.9554             -200               0             -200               0
1.31126              -0.08278812       -14.76843        -55.95079         99.8808             -200               0             -200               0
1.31788              -0.08536355       -14.89619        -55.68806        95.84815             -200               0             -200               0
1.3245               -0.08796077       -15.02509        -55.43868        91.86292             -200               0             -200               0
1.33113              -0.09058083       -15.15522        -55.20161        87.93025             -200               0             -200               0
1.33775               -0.0932244       -15.28666        -54.97576        84.05494             -200               0             -200               0
1.34437              -0.09589272       -15.41948           -54.76        80.24143             -200               0             -200               0
1.35099              -0.09859253       -15.55376        -54.55316        76.49378             -200               0             -200               0
1.35762               -0.1013282       -15.68959        -54.35403        72.81554             -200               0             -200               0
1.36424               -0.1041073       -15.82703        -54.16131        69.20976             -200               0             -200               0
1.37086               -0.1069382       -15.96616        -53.97368        65.67883             -200               0             -200               0
1.37748                -0.109831       -16.10702        -53.78973         62.2244             -200               0             -200               0
1.38411               -0.1127958       -16.24968        -53.60802        58.84731             -200               0             -200               0
1.39073               -0.1158439       -16.39418        -53.42709         55.5474             -200               0             -200               0
1.39735               -0.1189875       -16.54055        -53.24541        52.32348             -200               0             -200               0
1.40397               -0.1222381       -16.68882        -53.06151        49.17318             -200               0             -200               0
1.4106                -0.1256077       -16.83899        -52.87389         46.0929             -200               0             -200               0
1.41722               -0.1291071       -16.99107        -52.68114        43.07779             -200               0             -200               0
1.42384               -0.1327471       -17.14506        -52.48192        40.12173             -200               0             -200               0
1.43046                -0.136537       -17.30094        -52.27503        37.21737             -200               0             -200               0
1.43709               -0.1404863        -17.4587        -52.05941        34.35629             -200               0             -200               0
1.44371               -0.1446013       -17.61831        -51.83421        31.52912             -200               0             -200               0
1.45033               -0.1488875       -17.77974        -51.59878        28.72577             -200               0             -200               0
1.45695               -0.1533506       -17.94296         -51.3527        25.93568             -200               0             -200               0
1.46358               -0.1579917       -18.10795        -51.09583        23.14814             -200               0             -200               0
1.4702                -0.1628123       -18.27467        -50.82825        20.35253             -200               0             -200               0
1.47682                -0.167811       -18.44311        -50.55026        17.53865             -200               0             -200               0
1.48344               -0.1729869       -18.61325        -50.26241        14.69696             -200               0             -200               0
1.49007               -0.1783359       -18.78509        -49.96542        11.81882             -200               0             -200               0
1.49669                -0.183854       -18.95862        -49.66019        8.896645             -200               0             -200               0
1.50331               -0.1895351       -19.13386         -49.3477        5.924026             -200               0             -200               0
1.50993               -0.1953732       -19.31084        -49.02905        2.895786             -200               0             -200               0
1.51656               -0.2013629       -19.48961        -48.70539      -0.1920101             -200               0             -200               0
1.52318                -0.207497       -19.67022        -48.37786       -3.342094             -200               0             -200               0
1.5298                -0.2137698       -19.85273        -48.04761       -6.556064             -200               0             -200               0
1.53642               -0.2201779       -20.03724        -47.71575       -9.834489             -200               0             -200               0
1.54305               -0.2267161       -20.22384        -47.38334       -13.17702             -200               0             -200               0
1.54967               -0.2333818       -20.41265        -47.05136       -16.58251             -200               0             -200               0
1.55629               -0.2401759       -20.60379        -46.72074       -20.04914             -200               0             -200               0
1.56291               -0.2470989        -20.7974        -46.39229       -23.57452             -200               0             -200               0
1.56954               -0.2541552       -20.99361        -46.06676       -27.15584             -200               0             -200               0
1.57616               -0.2613511       -21.19258        -45.74481       -30.78993             -200               0             -200               0
1.58278               -0.2686947       -21.39445        -45.42702       -34.47334             -200               0             -200               0
1.5894                -0.2761997       -21.59938        -45.11387       -38.20246             -200               0             -200               0
1.59603               -0.2838793       -21.80752        -44.80578       -41.97355             -200               0             -200               0
1.60265               -0.2917513       -22.01902        -44.50311       -45.78281             -200               0             -200               0
1.60927               -0.2998348       -22.23401        -44.20611       -49.62639             -200               0             -200               0
1.61589               -0.3081532       -22.45263        -43.91502       -53.50047             -200               0             -200               0
1.62252                 -0.31673         -22.675        -43.62997       -57.40129             -200               0             -200               0
1.62914               -0.3255909       -22.90122        -43.35108       -61.32512             -200               0             -200               0
1.63576               -0.3347646       -23.13139         -43.0784       -65.26833             -200               0             -200               0
1.64238               -0.3442796       -23.36559        -42.81192       -69.22738             -200               0             -200               0
1.64901               -0.3541659       -23.60387        -42.55162       -73.19884             -200               0             -200               0
1.65563               -0.3644539       -23.84629        -42.29741        -77.1794             -200               0             -200               0
1.66225                -0.375172       -24.09286        -42.04917       -81.16586             -200               0             -200               0
1.66887               -0.3863526       -24.34361        -41.80676       -85.15519             -200               0             -200               0
1.6755                 -0.398022       -24.59853        -41.56998       -89.14446             -200               0             -200               0
1.68212               -0.4102091       -24.85761        -41.33861       -93.13092             -200               0             -200               0
1.68874                 -0.42294       -25.12082        -41.11241       -97.11196             -200               0             -200               0
1.69536               -0.4362378       -25.38813         -40.8911       -101.0852             -200               0             -200               0
1.70199               -0.4501259        -25.6595        -40.67437       -105.0482             -200               0             -200               0
1.70861               -0.4646249       -25.93488        -40.46188       -108.9991             -200               0             -200               0
1.71523               -0.4797517       -26.21423        -40.25328        -112.936             -200               0             -200               0
1.72185               -0.4955231       -26.49752        -40.04818       -116.8571             -200               0             -200               0
1.72848               -0.5119518       -26.78472        -39.84619       -120.7611             -200               0             -200               0
1.7351                -0.5290512       -27.07579        -39.64687       -124.6468             -200               0             -200               0
1.74172               -0.5468291       -27.37072        -39.44979       -128.5132             -200               0             -200               0
1.74834               -0.5652967       -27.66953        -39.25448       -132.3598             -200               0             -200               0
1.75497                 -0.58446       -27.97224         -39.0605       -136.1862             -200               0             -200               0
1.76159               -0.6043272       -28.27889        -38.86736       -139.9922             -200               0             -200               0
1.76821               -0.6249043       -28.58954        -38.67459       -143.7782             -200               0             -200               0
1.77483               -0.6462012       -28.90428        -38.48173       -147.5448             -200               0             -200               0
1.78146               -0.6682266       -29.22324         -38.2883       -151.2928             -200               0             -200               0
1.78808               -0.6909902       -29.54654        -38.09385       -155.0235             -200               0             -200               0
1.7947                -0.7145065       -29.87435        -37.89796       -158.7384             -200               0             -200               0
1.80132               -0.7387918       -30.20685        -37.70022       -162.4394             -200               0             -200               0
1.80795               -0.7638663       -30.54424        -37.50025       -166.1287             -200               0             -200               0
1.81457               -0.7897556       -30.88676        -37.29772       -169.8086             -200               0             -200               0
1.82119               -0.8164876       -31.23462        -37.09232       -173.4819             -200               0             -200               0
1.82781               -0.8440979        -31.5881         -36.8838       -177.1515             -200               0             -200               0
1.83444               -0.8726281       -31.94745        -36.67196        179.1797             -200               0             -200               0
1.84106               -0.9021243       -32.31293        -36.45666        175.5084             -200               0             -200               0
1.84768               -0.9326402       -32.68481         -36.2378        171.8313             -200               0             -200               0
1.8543                -0.9642357       -33.06336        -36.01535        168.1451             -200               0             -200               0
