! TOUCHSTONE file generated by CST MICROWAVE STUDIO
! Date and time: Tue Mar 18 00:03:01 2025
! Project name: oblique.cst
! Parameters = {Tilt=40; Fracture=1; B=12.5; D=160; F=25; Feed=2.85625; L=100; M=10; R=0.384908; S=1; Theta=180; length=57.125; wave=114.25}
! Header version: 2024
! Port assignment regex: !\s*Touchstone port\s*([0-9]+)\s*=\s*(CST MWS port|CST DES external port|CST DES block port)\s*(.+)\s* \(\"(.*)\"\)(\s*mode\s*([0-9]+))?.*
! Touchstone port assignment:
! Touchstone port 1 = CST MWS port 1 ("")
! Touchstone port 2 = CST MWS port 2 ("")
# GHz S DB R 50
1                    -0.02097699       -9.854586        -66.89129       -175.6841             -200               0             -200               0
1.00662              -0.02148649       -9.942746         -67.0566        179.4053             -200               0             -200               0
1.01325               -0.0219868       -10.03169        -67.26496        174.7172             -200               0             -200               0
1.01987              -0.02248524       -10.12146        -67.51811        170.2881             -200               0             -200               0
1.02649               -0.0229861        -10.2121        -67.81764        166.1646             -200               0             -200               0
1.03311              -0.02349751       -10.30362        -68.16476         162.406             -200               0             -200               0
1.03974              -0.02402402       -10.39605        -68.55971        159.0883             -200               0             -200               0
1.04636               -0.0245752       -10.48941        -69.00086        156.3076             -200               0             -200               0
1.05298              -0.02515698        -10.5837        -69.48324        154.1839             -200               0             -200               0
1.0596               -0.02577929       -10.67892        -69.99602        152.8623             -200               0             -200               0
1.06623              -0.02644542       -10.77507        -70.51902        152.5064             -200               0             -200               0
1.07285              -0.02716352       -10.87213        -71.01808        153.2753             -200               0             -200               0
1.07947              -0.02793939       -10.97009        -71.44132        155.2705             -200               0             -200               0
1.08609              -0.02877791       -11.06892         -71.7206        158.4483             -200               0             -200               0
1.09272               -0.0296835       -11.16859        -71.78486        162.5272             -200               0             -200               0
1.09934              -0.03066038       -11.26908        -71.58591         166.974             -200               0             -200               0
1.10596               -0.0317079       -11.37034        -71.12216        171.1387             -200               0             -200               0
1.11258              -0.03283037       -11.47234        -70.43941        174.4769             -200               0             -200               0
1.11921              -0.03402461       -11.57506        -69.60791        176.6927             -200               0             -200               0
1.12583              -0.03529174       -11.67845        -68.69608        177.7322             -200               0             -200               0
1.13245              -0.03662796       -11.78249        -67.75647         177.692             -200               0             -200               0
1.13907              -0.03803047       -11.88716        -66.82379        176.7305             -200               0             -200               0
1.1457               -0.03949527       -11.99244         -65.9185        175.0127             -200               0             -200               0
1.15232              -0.04101755       -12.09831        -65.05144        172.6862             -200               0             -200               0
1.15894              -0.04259088       -12.20477        -64.22746        169.8737             -200               0             -200               0
1.16556              -0.04421262       -12.31182        -63.44789         166.674             -200               0             -200               0
1.17219              -0.04587364       -12.41947        -62.71214        163.1658             -200               0             -200               0
1.17881              -0.04756965       -12.52774        -62.01857        159.4111             -200               0             -200               0
1.18543              -0.04929469       -12.63664        -61.36508        155.4595             -200               0             -200               0
1.19205              -0.05104392       -12.74622        -60.74942        151.3503             -200               0             -200               0
1.19868              -0.05281127       -12.85651        -60.16932        147.1156             -200               0             -200               0
1.2053               -0.05459614       -12.96756        -59.62263        142.7812             -200               0             -200               0
1.21192              -0.05639138       -13.07942        -59.10732        138.3684             -200               0             -200               0
1.21854              -0.05819812       -13.19214        -58.62151        133.8952             -200               0             -200               0
1.22517              -0.06001299       -13.30578         -58.1635        129.3764             -200               0             -200               0
1.23179              -0.06183902       -13.42041        -57.73169        124.8248             -200               0             -200               0
1.23841              -0.06367585       -13.53608        -57.32464        120.2516             -200               0             -200               0
1.24503              -0.06552788       -13.65286        -56.94103        115.6664             -200               0             -200               0
1.25166               -0.0673967        -13.7708        -56.57963        111.0779             -200               0             -200               0
1.25828              -0.06928923       -13.88996         -56.2393        106.4937             -200               0             -200               0
1.2649               -0.07120977       -14.01039        -55.91897        101.9209             -200               0             -200               0
1.27152              -0.07316704       -14.13213        -55.61767        97.36603             -200               0             -200               0
1.27815              -0.07516741       -14.25522        -55.33442        92.83507             -200               0             -200               0
1.28477              -0.07721826       -14.37971        -55.06834        88.33373             -200               0             -200               0
1.29139               -0.0793287        -14.5056        -54.81852        83.86744             -200               0             -200               0
1.29801              -0.08150616       -14.63292        -54.58411        79.44137             -200               0             -200               0
1.30464              -0.08375988       -14.76168        -54.36426        75.06052             -200               0             -200               0
1.31126               -0.0860992       -14.89188        -54.15808        70.72968             -200               0             -200               0
1.31788              -0.08852866       -15.02353        -53.96471        66.45353             -200               0             -200               0
1.3245               -0.09105674        -15.1566        -53.78323        62.23654             -200               0             -200               0
1.33113              -0.09368936       -15.29108        -53.61272        58.08303             -200               0             -200               0
1.33775              -0.09643065       -15.42696         -53.4522         53.9971             -200               0             -200               0
1.34437              -0.09928533       -15.56421        -53.30064        49.98258             -200               0             -200               0
1.35099               -0.1022556       -15.70281        -53.15695        46.04301             -200               0             -200               0
1.35762               -0.1053431       -15.84274        -53.01998        42.18155             -200               0             -200               0
1.36424               -0.1085488       -15.98397        -52.88854        38.40085             -200               0             -200               0
1.37086               -0.1118705       -16.12649        -52.76134        34.70304             -200               0             -200               0
1.37748               -0.1153058       -16.27028        -52.63704        31.08952             -200               0             -200               0
1.38411               -0.1188547       -16.41533        -52.51426        27.56093             -200               0             -200               0
1.39073               -0.1225098       -16.56164        -52.39155        24.11695             -200               0             -200               0
1.39735               -0.1262669       -16.70921        -52.26744        20.75624             -200               0             -200               0
1.40397               -0.1301235       -16.85806        -52.14046        17.47635             -200               0             -200               0
1.4106                -0.1340702       -17.00821        -52.00915        14.27356             -200               0             -200               0
1.41722                -0.138104        -17.1597        -51.87209        11.14291             -200               0             -200               0
1.42384               -0.1422181       -17.31258        -51.72798        8.078188             -200               0             -200               0
1.43046               -0.1464079       -17.46688         -51.5756        5.071932             -200               0             -200               0
1.43709               -0.1506689       -17.62269         -51.4139        2.115576             -200               0             -200               0
1.44371               -0.1549971       -17.78006        -51.24201      -0.8004008             -200               0             -200               0
1.45033               -0.1593897       -17.93909         -51.0593       -3.686259             -200               0             -200               0
1.45695               -0.1638456       -18.09987        -50.86536       -6.552742             -200               0             -200               0
1.46358               -0.1683633       -18.26248        -50.66002       -9.410775             -200               0             -200               0
1.4702                -0.1729473       -18.42702        -50.44337       -12.27118             -200               0             -200               0
1.47682               -0.1775969       -18.59361        -50.21574       -15.14435             -200               0             -200               0
1.48344                 -0.18232       -18.76233        -49.97768       -18.04004             -200               0             -200               0
1.49007               -0.1871203       -18.93331        -49.72993       -20.96704             -200               0             -200               0
1.49669               -0.1920067       -19.10664         -49.4734       -23.93311             -200               0             -200               0
1.50331               -0.1969892       -19.28243        -49.20911       -26.94476             -200               0             -200               0
1.50993               -0.2020762       -19.46077        -48.93818       -30.00725             -200               0             -200               0
1.51656               -0.2072846       -19.64175        -48.66176       -33.12457             -200               0             -200               0
1.52318               -0.2126222       -19.82546        -48.38104       -36.29945             -200               0             -200               0
1.5298                -0.2181074       -20.01197        -48.09719       -39.53347             -200               0             -200               0
1.53642               -0.2237523       -20.20136        -47.81132       -42.82712             -200               0             -200               0
1.54305               -0.2295732       -20.39369        -47.52452       -46.17998             -200               0             -200               0
1.54967               -0.2355866       -20.58901        -47.23778       -49.59076             -200               0             -200               0
1.55629               -0.2418061       -20.78737        -46.95202       -53.05751             -200               0             -200               0
1.56291               -0.2482491        -20.9888        -46.66807       -56.57769             -200               0             -200               0
1.56954               -0.2549297       -21.19334        -46.38667       -60.14829             -200               0             -200               0
1.57616               -0.2618613       -21.40102        -46.10848       -63.76596             -200               0             -200               0
1.58278               -0.2690583       -21.61185        -45.83404       -67.42705             -200               0             -200               0
1.5894                -0.2765333       -21.82585        -45.56385       -71.12775             -200               0             -200               0
1.59603               -0.2842972       -22.04305        -45.29828       -74.86412             -200               0             -200               0
1.60265               -0.2923617       -22.26345        -45.03765       -78.63213             -200               0             -200               0
1.60927               -0.3007349       -22.48709         -44.7822       -82.42775             -200               0             -200               0
1.61589               -0.3094263       -22.71398        -44.53209       -86.24698             -200               0             -200               0
1.62252                -0.318443       -22.94416        -44.28745       -90.08585             -200               0             -200               0
1.62914               -0.3277932       -23.17766         -44.0483       -93.94047             -200               0             -200               0
1.63576               -0.3374815       -23.41454        -43.81464       -97.80708             -200               0             -200               0
1.64238               -0.3475142       -23.65484         -43.5864        -101.682             -200               0             -200               0
1.64901               -0.3578979       -23.89863        -43.36347       -105.5617             -200               0             -200               0
1.65563               -0.3686386         -24.146        -43.14568       -109.4429             -200               0             -200               0
1.66225               -0.3797429       -24.39705        -42.93283       -113.3223             -200               0             -200               0
1.66887               -0.3912183       -24.65186        -42.72466        -117.197             -200               0             -200               0
1.6755                -0.4030733       -24.91058        -42.52089       -121.0641             -200               0             -200               0
1.68212               -0.4153183       -25.17332        -42.32119       -124.9211             -200               0             -200               0
1.68874               -0.4279655       -25.44023         -42.1252       -128.7655             -200               0             -200               0
1.69536               -0.4410285       -25.71146        -41.93251       -132.5954             -200               0             -200               0
1.70199                -0.454525       -25.98719        -41.74271       -136.4088             -200               0             -200               0
1.70861               -0.4684725       -26.26758        -41.55533       -140.2043             -200               0             -200               0
1.71523               -0.4828962        -26.5528        -41.36991       -143.9806             -200               0             -200               0
1.72185               -0.4978198       -26.84303        -41.18594       -147.7369             -200               0             -200               0
1.72848               -0.5132698       -27.13847        -41.00292       -151.4725             -200               0             -200               0
1.7351                -0.5292815       -27.43928         -40.8203       -155.1875             -200               0             -200               0
1.74172               -0.5458873       -27.74565        -40.63758       -158.8819             -200               0             -200               0
1.74834               -0.5631272       -28.05775        -40.45422       -162.5563             -200               0             -200               0
1.75497               -0.5810411       -28.37573         -40.2697       -166.2119             -200               0             -200               0
1.76159               -0.5996733       -28.69976        -40.08352       -169.8499             -200               0             -200               0
1.76821               -0.6190717       -29.02999         -39.8952       -173.4722             -200               0             -200               0
1.77483               -0.6392869       -29.36653        -39.70429        -177.081             -200               0             -200               0
1.78146               -0.6603694       -29.70951        -39.51038        179.3213             -200               0             -200               0
1.78808               -0.6823743       -30.05901        -39.31311        175.7318             -200               0             -200               0
1.7947                -0.7053571       -30.41515        -39.11216        172.1473             -200               0             -200               0
1.80132               -0.7293765       -30.77796        -38.90726        168.5645             -200               0             -200               0
1.80795               -0.7544897       -31.14751        -38.69824        164.9799             -200               0             -200               0
1.81457               -0.7807575       -31.52383        -38.48495        161.3897             -200               0             -200               0
1.82119               -0.8082411       -31.90694        -38.26733        157.7902             -200               0             -200               0
1.82781               -0.8369982       -32.29686        -38.04539        154.1777             -200               0             -200               0
1.83444               -0.8670933       -32.69356        -37.81919        150.5484             -200               0             -200               0
1.84106               -0.8985864       -33.09704        -37.58888        146.8988             -200               0             -200               0
1.84768               -0.9315392       -33.50727        -37.35464        143.2253             -200               0             -200               0
1.8543                -0.9660137       -33.92421        -37.11671        139.5248             -200               0             -200               0
