! TOUCHSTONE file generated by CST MICROWAVE STUDIO
! Date and time: Tue Mar 18 00:01:28 2025
! Project name: oblique.cst
! Parameters = {Tilt=30; Fracture=1; B=12.5; D=160; F=5; Feed=2.85625; L=100; M=30; R=0.384908; S=2; Theta=180; length=57.125; wave=114.25}
! Header version: 2024
! Port assignment regex: !\s*Touchstone port\s*([0-9]+)\s*=\s*(CST MWS port|CST DES external port|CST DES block port)\s*(.+)\s* \(\"(.*)\"\)(\s*mode\s*([0-9]+))?.*
! Touchstone port assignment:
! Touchstone port 1 = CST MWS port 1 ("")
! Touchstone port 2 = CST MWS port 2 ("")
# GHz S DB R 50
1                    -0.02076325       -9.799665         -67.4688       -176.4499             -200               0             -200               0
1.0066               -0.02159895       -9.887643        -67.46082        178.6426             -200               0             -200               0
1.0132               -0.02245818       -9.976025        -67.48362        173.8521             -200               0             -200               0
1.0198               -0.02333784       -10.06482        -67.53747        169.1929             -200               0             -200               0
1.0264               -0.02423268       -10.15404        -67.62269        164.6815             -200               0             -200               0
1.033                -0.02513938       -10.24369        -67.73954        160.3381             -200               0             -200               0
1.0396               -0.02605445       -10.33381         -67.8882        156.1863             -200               0             -200               0
1.0462               -0.02697373        -10.4244        -68.06864        152.2546             -200               0             -200               0
1.05281              -0.02789449       -10.51551        -68.28042        148.5766             -200               0             -200               0
1.05941              -0.02881539       -10.60717        -68.52249        145.1926             -200               0             -200               0
1.06601              -0.02973445        -10.6994        -68.79281        142.1494             -200               0             -200               0
1.07261              -0.03064962       -10.79227        -69.08786        139.5015             -200               0             -200               0
1.07921              -0.03156138       -10.88579        -69.40196        137.3099             -200               0             -200               0
1.08581              -0.03247115       -10.98002        -69.72639        135.6402             -200               0             -200               0
1.09241               -0.0333794         -11.075        -70.04841        134.5571             -200               0             -200               0
1.09901              -0.03428858       -11.17076        -70.35034         134.114             -200               0             -200               0
1.10561              -0.03520271       -11.26736        -70.60913        134.3374             -200               0             -200               0
1.11221              -0.03612493       -11.36481        -70.79732        135.2058             -200               0             -200               0
1.11881              -0.03705951       -11.46316        -70.88602        136.6288             -200               0             -200               0
1.12541               -0.0380123       -11.56242        -70.85023        138.4379             -200               0             -200               0
1.13201              -0.03898785       -11.66263        -70.67508        140.3995             -200               0             -200               0
1.13861              -0.03999274       -11.76381        -70.36026        142.2545             -200               0             -200               0
1.14521              -0.04103239       -11.86595        -69.92006         143.768             -200               0             -200               0
1.15182              -0.04211227       -11.96908        -69.37906        144.7698             -200               0             -200               0
1.15842              -0.04323845       -12.07318        -68.76589        145.1677             -200               0             -200               0
1.16502              -0.04441634       -12.17826        -68.10788         144.939             -200               0             -200               0
1.17162              -0.04564979       -12.28431        -67.42793        144.1097             -200               0             -200               0
1.17822              -0.04694384       -12.39131        -66.74365        142.7335             -200               0             -200               0
1.18482              -0.04830218       -12.49924        -66.06759        140.8756             -200               0             -200               0
1.19142              -0.04972691        -12.6081         -65.4083        138.6023             -200               0             -200               0
1.19802              -0.05122028       -12.71785        -64.77121        135.9759             -200               0             -200               0
1.20462              -0.05278342       -12.82847        -64.15958        133.0521             -200               0             -200               0
1.21122              -0.05441604       -12.93995        -63.57513        129.8792             -200               0             -200               0
1.21782              -0.05611775       -13.05225        -63.01856        126.4988             -200               0             -200               0
1.22442              -0.05788585       -13.16538        -62.48993        122.9464             -200               0             -200               0
1.23102              -0.05971865        -13.2793        -61.98882         119.252             -200               0             -200               0
1.23762              -0.06161279       -13.39402         -61.5146        115.4415             -200               0             -200               0
1.24422              -0.06356309       -13.50953        -61.06645        111.5368             -200               0             -200               0
1.25083               -0.0655667       -13.62583        -60.64349         107.557             -200               0             -200               0
1.25743              -0.06761799       -13.74293        -60.24481        103.5187             -200               0             -200               0
1.26403              -0.06971245       -13.86084        -59.86948        99.43628             -200               0             -200               0
1.27063              -0.07184487        -13.9796        -59.51658        95.32273             -200               0             -200               0
1.27723              -0.07400927       -14.09922        -59.18524        91.18957             -200               0             -200               0
1.28383              -0.07620342       -14.21975        -58.87458        87.04727             -200               0             -200               0
1.29043              -0.07842271       -14.34123        -58.58375        82.90544             -200               0             -200               0
1.29703               -0.0806634       -14.46371        -58.31192        78.77302             -200               0             -200               0
1.30363              -0.08292298       -14.58724        -58.05828        74.65835             -200               0             -200               0
1.31023              -0.08520034       -14.71189          -57.822         70.5694             -200               0             -200               0
1.31683              -0.08749459       -14.83772        -57.60227        66.51376             -200               0             -200               0
1.32343              -0.08980629        -14.9648        -57.39825        62.49874             -200               0             -200               0
1.33003              -0.09213729       -15.09319        -57.20907        58.53145             -200               0             -200               0
1.33663              -0.09449071       -15.22296        -57.03383        54.61879             -200               0             -200               0
1.34323              -0.09687006       -15.35418        -56.87157        50.76749             -200               0             -200               0
1.34984              -0.09928126       -15.48692        -56.72127        46.98407             -200               0             -200               0
1.35644               -0.1017288       -15.62122        -56.58184        43.27484             -200               0             -200               0
1.36304               -0.1042205       -15.75716        -56.45208        39.64582             -200               0             -200               0
1.36964               -0.1067642       -15.89478        -56.33072        36.10266             -200               0             -200               0
1.37624               -0.1093688       -16.03412        -56.21634        32.65052             -200               0             -200               0
1.38284                -0.112042       -16.17524        -56.10743        29.29395             -200               0             -200               0
1.38944               -0.1147926       -16.31816        -56.00234         26.0367             -200               0             -200               0
1.39604               -0.1176311        -16.4629        -55.89932        22.88154             -200               0             -200               0
1.40264               -0.1205651        -16.6095        -55.79647        19.83002             -200               0             -200               0
1.40924               -0.1236038       -16.75796        -55.69184        16.88228             -200               0             -200               0
1.41584               -0.1267552       -16.90829        -55.58339        14.03678             -200               0             -200               0
1.42244               -0.1300267        -17.0605        -55.46904        11.29012             -200               0             -200               0
1.42904               -0.1334255       -17.21459        -55.34676        8.636912             -200               0             -200               0
1.43564               -0.1369568       -17.37055        -55.21458        6.069635             -200               0             -200               0
1.44224               -0.1406262       -17.52838        -55.07067        3.578688             -200               0             -200               0
1.44884               -0.1444381       -17.68807        -54.91343        1.152486             -200               0             -200               0
1.45545               -0.1483947       -17.84963        -54.74153       -1.222293             -200               0             -200               0
1.46205                -0.152498       -18.01305        -54.55397       -3.560353             -200               0             -200               0
1.46865               -0.1567496       -18.17834        -54.35015       -5.877312             -200               0             -200               0
1.47525               -0.1611482        -18.3455        -54.12986       -8.189171             -200               0             -200               0
1.48185               -0.1656953       -18.51455         -53.8933       -10.51175             -200               0             -200               0
1.48845               -0.1703876       -18.68551        -53.64108       -12.86012             -200               0             -200               0
1.49505                -0.175225       -18.85842        -53.37412       -15.24815             -200               0             -200               0
1.50165               -0.1802055       -19.03331        -53.09369       -17.68807             -200               0             -200               0
1.50825               -0.1853276       -19.21023        -52.80125        -20.1902             -200               0             -200               0
1.51485                 -0.19059       -19.38925        -52.49844       -22.76281             -200               0             -200               0
1.52145               -0.1959911       -19.57042        -52.18699       -25.41206             -200               0             -200               0
1.52805               -0.2015316       -19.75384        -51.86866       -28.14206             -200               0             -200               0
1.53465               -0.2072123       -19.93959        -51.54517       -30.95501             -200               0             -200               0
1.54125               -0.2130356       -20.12775         -51.2182       -33.85143             -200               0             -200               0
1.54785                -0.219005       -20.31845         -50.8893       -36.83031             -200               0             -200               0
1.55446               -0.2251249       -20.51178        -50.55991       -39.88945             -200               0             -200               0
1.56106               -0.2314039       -20.70786        -50.23132       -43.02558             -200               0             -200               0
1.56766               -0.2378485       -20.90681         -49.9047       -46.23467             -200               0             -200               0
1.57426               -0.2444715       -21.10873        -49.58103       -49.51208             -200               0             -200               0
1.58086                -0.251285       -21.31376        -49.26117       -52.85271             -200               0             -200               0
1.58746               -0.2583037         -21.522        -48.94586       -56.25122             -200               0             -200               0
1.59406               -0.2655428       -21.73357        -48.63567       -59.70206             -200               0             -200               0
1.60066               -0.2730218       -21.94857        -48.33108       -63.19963             -200               0             -200               0
1.60726               -0.2807603       -22.16709        -48.03245       -66.73832             -200               0             -200               0
1.61386               -0.2887787       -22.38924        -47.74003       -70.31259             -200               0             -200               0
1.62046               -0.2971006       -22.61508        -47.45399       -73.91703             -200               0             -200               0
1.62706               -0.3057483       -22.84469         -47.1744       -77.54635             -200               0             -200               0
1.63366               -0.3147469       -23.07813        -46.90126       -81.19547             -200               0             -200               0
1.64026               -0.3241203       -23.31545         -46.6345       -84.85947             -200               0             -200               0
1.64686                -0.333894       -23.55668        -46.37397       -88.53369             -200               0             -200               0
1.65347               -0.3440915       -23.80185        -46.11948       -92.21368             -200               0             -200               0
1.66007               -0.3547386       -24.05098        -45.87075       -95.89526             -200               0             -200               0
1.66667               -0.3658571       -24.30408        -45.62747        -99.5745             -200               0             -200               0
1.67327                -0.377472       -24.56114        -45.38928       -103.2478             -200               0             -200               0
1.67987               -0.3896044       -24.82215        -45.15576       -106.9117             -200               0             -200               0
1.68647               -0.4022736       -25.08712        -44.92644       -110.5634             -200               0             -200               0
1.69307               -0.4155018       -25.35602        -44.70083       -114.2001             -200               0             -200               0
1.69967               -0.4293051       -25.62883        -44.47839       -117.8195             -200               0             -200               0
1.70627               -0.4436987       -25.90555        -44.25854       -121.4197             -200               0             -200               0
1.71287               -0.4587023       -26.18616        -44.04069       -124.9992             -200               0             -200               0
1.71947                -0.474325       -26.47067         -43.8242        -128.557             -200               0             -200               0
1.72607               -0.4905844       -26.75907        -43.60843       -132.0925             -200               0             -200               0
1.73267               -0.5074896       -27.05138        -43.39273       -135.6057             -200               0             -200               0
1.73927               -0.5250536       -27.34763        -43.17645       -139.0968             -200               0             -200               0
1.74587               -0.5432878       -27.64786        -42.95893       -142.5669             -200               0             -200               0
1.75248               -0.5622036       -27.95212        -42.73954       -146.0174             -200               0             -200               0
1.75908               -0.5818118       -28.26048        -42.51767       -149.4502             -200               0             -200               0
1.76568               -0.6021264       -28.57304        -42.29276       -152.8679             -200               0             -200               0
1.77228               -0.6231612       -28.88989        -42.06428       -156.2733             -200               0             -200               0
1.77888               -0.6449317       -29.21115        -41.83176       -159.6698             -200               0             -200               0
1.78548               -0.6674554       -29.53696        -41.59479       -163.0611             -200               0             -200               0
1.79208               -0.6907537       -29.86748        -41.35305       -166.4514             -200               0             -200               0
1.79868               -0.7148492       -30.20287        -41.10629       -169.8448             -200               0             -200               0
1.80528               -0.7397689        -30.5433        -40.85433       -173.2458             -200               0             -200               0
1.81188               -0.7655434       -30.88896        -40.59712       -176.6592             -200               0             -200               0
1.81848               -0.7922087       -31.24005        -40.33464        179.9107             -200               0             -200               0
1.82508               -0.8198035       -31.59678          -40.067        176.4593             -200               0             -200               0
1.83168               -0.8483705       -31.95933        -39.79437        172.9823             -200               0             -200               0
1.83828               -0.8779597       -32.32792        -39.51699        169.4754             -200               0             -200               0
1.84488               -0.9086246       -32.70274         -39.2352         165.935             -200               0             -200               0
1.85149               -0.9404235       -33.08398        -38.94936        162.3575             -200               0             -200               0
