! TOUCHSTONE file generated by CST MICROWAVE STUDIO
! Date and time: Tue Mar 18 00:00:53 2025
! Project name: oblique.cst
! Parameters = {Tilt=30; Fracture=1; B=10; D=160; F=15; Feed=2.85625; L=100; M=10; R=0.384908; S=1; Theta=270; length=57.125; wave=114.25}
! Header version: 2024
! Port assignment regex: !\s*Touchstone port\s*([0-9]+)\s*=\s*(CST MWS port|CST DES external port|CST DES block port)\s*(.+)\s* \(\"(.*)\"\)(\s*mode\s*([0-9]+))?.*
! Touchstone port assignment:
! Touchstone port 1 = CST MWS port 1 ("")
! Touchstone port 2 = CST MWS port 2 ("")
# GHz S DB R 50
1                     -0.0185282       -9.797041        -69.34437       -140.9069             -200               0             -200               0
1.00662              -0.01938216       -9.886552        -69.10516       -145.3203             -200               0             -200               0
1.01325              -0.02028623       -9.976374        -68.89976       -149.6777             -200               0             -200               0
1.01987              -0.02123244       -10.06648        -68.72721        -153.965             -200               0             -200               0
1.02649              -0.02221308       -10.15687        -68.58666       -158.1672             -200               0             -200               0
1.03311              -0.02321869       -10.24752         -68.4773       -162.2685             -200               0             -200               0
1.03974              -0.02424098       -10.33845        -68.39832       -166.2515             -200               0             -200               0
1.04636              -0.02527081       -10.42967        -68.34886        -170.097             -200               0             -200               0
1.05298              -0.02629875       -10.52122        -68.32786       -173.7838             -200               0             -200               0
1.0596               -0.02731764       -10.61313        -68.33405       -177.2883             -200               0             -200               0
1.06623              -0.02831995       -10.70545        -68.36571        179.4159             -200               0             -200               0
1.07285              -0.02930002       -10.79825        -68.42056        176.3577             -200               0             -200               0
1.07947              -0.03025348       -10.89158        -68.49553        173.5685             -200               0             -200               0
1.08609              -0.03117565       -10.98552        -68.58645        171.0821             -200               0             -200               0
1.09272              -0.03206594       -11.08014        -68.68776        168.9323             -200               0             -200               0
1.09934              -0.03292309       -11.17553        -68.79223        167.1518             -200               0             -200               0
1.10596              -0.03375104       -11.27176        -68.89061         165.768             -200               0             -200               0
1.11258               -0.0345526       -11.36891        -68.97155        164.7977             -200               0             -200               0
1.11921              -0.03533221       -11.46704        -69.02177        164.2414             -200               0             -200               0
1.12583              -0.03609765       -11.56623        -69.02676        164.0753             -200               0             -200               0
1.13245              -0.03685724       -11.66655        -68.97201        164.2466             -200               0             -200               0
1.13907              -0.03761865       -11.76803        -68.84488        164.6709             -200               0             -200               0
1.1457               -0.03839494       -11.87073        -68.63659        165.2369             -200               0             -200               0
1.15232              -0.03919695       -11.97468        -68.34383        165.8175             -200               0             -200               0
1.15894              -0.04003364       -12.07989         -67.9694        166.2855             -200               0             -200               0
1.16556              -0.04091977       -12.18638        -67.52161        166.5293             -200               0             -200               0
1.17219              -0.04186445       -12.29415        -67.01262        166.4643             -200               0             -200               0
1.17881              -0.04288116       -12.40317        -66.45648        166.0372             -200               0             -200               0
1.18543              -0.04397721       -12.51342        -65.86724        165.2243             -200               0             -200               0
1.19205              -0.04516454       -12.62488        -65.25773        164.0255             -200               0             -200               0
1.19868              -0.04644964        -12.7375         -64.6388        162.4579             -200               0             -200               0
1.2053                -0.0478393       -12.85123         -64.0192        160.5486             -200               0             -200               0
1.21192              -0.04933831       -12.96601        -63.40565        158.3302             -200               0             -200               0
1.21854              -0.05094907       -13.08179        -62.80311        155.8368             -200               0             -200               0
1.22517              -0.05267467       -13.19851        -62.21514        153.1017             -200               0             -200               0
1.23179              -0.05451052       -13.31611        -61.64416        150.1565             -200               0             -200               0
1.23841              -0.05645869       -13.43455        -61.09173          147.03             -200               0             -200               0
1.24503              -0.05851125       -13.55377        -60.55877         143.748             -200               0             -200               0
1.25166              -0.06066557       -13.67373        -60.04572        140.3339             -200               0             -200               0
1.25828              -0.06291117        -13.7944        -59.55269        136.8083             -200               0             -200               0
1.2649               -0.06524194       -13.91576        -59.07952        133.1895             -200               0             -200               0
1.27152              -0.06764917        -14.0378        -58.62588        129.4938             -200               0             -200               0
1.27815               -0.0701228       -14.16052        -58.19131        125.7356             -200               0             -200               0
1.28477              -0.07265144       -14.28394        -57.77529        121.9278             -200               0             -200               0
1.29139              -0.07522662       -14.40808        -57.37719        118.0821             -200               0             -200               0
1.29801              -0.07783897         -14.533        -56.99637        114.2088             -200               0             -200               0
1.30464              -0.08048087       -14.65875        -56.63214        110.3175             -200               0             -200               0
1.31126              -0.08314151       -14.78538         -56.2838        106.4167             -200               0             -200               0
1.31788               -0.0858181       -14.91299        -55.95062        102.5142             -200               0             -200               0
1.3245               -0.08850575       -15.04165        -55.63185        98.61735             -200               0             -200               0
1.33113              -0.09119938       -15.17146        -55.32671        94.73274             -200               0             -200               0
1.33775              -0.09390037       -15.30252        -55.03442        90.86652             -200               0             -200               0
1.34437              -0.09660941       -15.43493        -54.75415        87.02434             -200               0             -200               0
1.35099              -0.09933042       -15.56878        -54.48509        83.21143             -200               0             -200               0
1.35762               -0.1020679       -15.70419        -54.22634        79.43255             -200               0             -200               0
1.36424               -0.1048302       -15.84124        -53.97701        75.69204             -200               0             -200               0
1.37086               -0.1076263       -15.98003        -53.73617         71.9938             -200               0             -200               0
1.37748               -0.1104664       -16.12063        -53.50285        68.34123             -200               0             -200               0
1.38411               -0.1133659       -16.26311        -53.27604        64.73725             -200               0             -200               0
1.39073               -0.1163356       -16.40755        -53.05471        61.18421             -200               0             -200               0
1.39735               -0.1193907       -16.55397         -52.8378        57.68387             -200               0             -200               0
1.40397               -0.1225465       -16.70242         -52.6242        54.23734             -200               0             -200               0
1.4106                -0.1258176       -16.85292        -52.41281        50.84503             -200               0             -200               0
1.41722               -0.1292208       -17.00548        -52.20251        47.50661             -200               0             -200               0
1.42384               -0.1327669       -17.16009        -51.99219        44.22093             -200               0             -200               0
1.43046               -0.1364724       -17.31672        -51.78076        40.98603             -200               0             -200               0
1.43709               -0.1403485       -17.47536        -51.56716        37.79913             -200               0             -200               0
1.44371               -0.1444035       -17.63597        -51.35038        34.65657             -200               0             -200               0
1.45033               -0.1486476        -17.7985         -51.1295        31.55394             -200               0             -200               0
1.45695               -0.1530878        -17.9629        -50.90368        28.48603             -200               0             -200               0
1.46358               -0.1577287       -18.12913        -50.67221        25.44699             -200               0             -200               0
1.4702                -0.1625705       -18.29713        -50.43448        22.43041             -200               0             -200               0
1.47682               -0.1676149       -18.46686        -50.19005        19.42945             -200               0             -200               0
1.48344               -0.1728593       -18.63827        -49.93861        16.43702             -200               0             -200               0
1.49007               -0.1782999       -18.81134        -49.68002         13.4459             -200               0             -200               0
1.49669               -0.1839311       -18.98603         -49.4143        10.44895             -200               0             -200               0
1.50331               -0.1897454       -19.16235        -49.14159        7.439234             -200               0             -200               0
1.50993               -0.1957322        -19.3403        -48.86221        4.410209             -200               0             -200               0
1.51656               -0.2018852        -19.5199        -48.57657        1.355832             -200               0             -200               0
1.52318               -0.2081924        -19.7012        -48.28521       -1.729322             -200               0             -200               0
1.5298                -0.2146454       -19.88426        -47.98876       -4.849981             -200               0             -200               0
1.53642                -0.221234       -20.06915         -47.6879       -8.010122             -200               0             -200               0
1.54305                -0.227951       -20.25597        -47.38337       -11.21295             -200               0             -200               0
1.54967                -0.234788       -20.44485        -47.07594       -14.46089             -200               0             -200               0
1.55629               -0.2417413       -20.63591        -46.76638       -17.75563             -200               0             -200               0
1.56291               -0.2488086        -20.8293        -46.45546       -21.09812             -200               0             -200               0
1.56954                -0.255989       -21.02519        -46.14392       -24.48869             -200               0             -200               0
1.57616               -0.2632853       -21.22374         -45.8325       -27.92703             -200               0             -200               0
1.58278               -0.2707053       -21.42513        -45.52185       -31.41233             -200               0             -200               0
1.5894                -0.2782565       -21.62955         -45.2126       -34.94333             -200               0             -200               0
1.59603               -0.2859532       -21.83718        -44.90534       -38.51834             -200               0             -200               0
1.60265               -0.2938121        -22.0482        -44.60058       -42.13537             -200               0             -200               0
1.60927               -0.3018532       -22.26279        -44.29878       -45.79218             -200               0             -200               0
1.61589               -0.3100984       -22.48112        -44.00035       -49.48629             -200               0             -200               0
1.62252               -0.3185763       -22.70334        -43.70565       -53.21508             -200               0             -200               0
1.62914               -0.3273144       -22.92959        -43.41495       -56.97582             -200               0             -200               0
1.63576               -0.3363451          -23.16        -43.12852        -60.7657             -200               0             -200               0
1.64238               -0.3457007       -23.39468        -42.84654       -64.58187             -200               0             -200               0
1.64901               -0.3554165        -23.6337        -42.56915       -68.42148             -200               0             -200               0
1.65563               -0.3655287       -23.87713        -42.29646       -72.28168             -200               0             -200               0
1.66225               -0.3760735       -24.12501        -42.02851       -76.15969             -200               0             -200               0
1.66887               -0.3870865       -24.37737        -41.76533       -80.05276             -200               0             -200               0
1.6755                -0.3986035        -24.6342        -41.50689       -83.95823             -200               0             -200               0
1.68212               -0.4106583       -24.89548        -41.25313       -87.87352             -200               0             -200               0
1.68874               -0.4232843       -25.16117        -41.00395       -91.79615             -200               0             -200               0
1.69536               -0.4365122       -25.43122        -40.75924       -95.72379             -200               0             -200               0
1.70199               -0.4503703       -25.70557        -40.51883        -99.6542             -200               0             -200               0
1.70861               -0.4648833       -25.98414        -40.28255       -103.5853             -200               0             -200               0
1.71523               -0.4800746       -26.26685        -40.05019       -107.5151             -200               0             -200               0
1.72185               -0.4959644       -26.55363         -39.8215       -111.4419             -200               0             -200               0
1.72848               -0.5125699       -26.84439        -39.59625       -115.3641             -200               0             -200               0
1.7351                -0.5299036       -27.13907        -39.37415       -119.2802             -200               0             -200               0
1.74172               -0.5479782       -27.43761        -39.15491       -123.1891             -200               0             -200               0
1.74834               -0.5668023       -27.73996        -38.93823       -127.0895             -200               0             -200               0
1.75497               -0.5863822        -28.0461        -38.72377       -130.9809             -200               0             -200               0
1.76159                -0.606723       -28.35602        -38.51122       -134.8624             -200               0             -200               0
1.76821               -0.6278305       -28.66974        -38.30024       -138.7339             -200               0             -200               0
1.77483               -0.6497059       -28.98732        -38.09047        -142.595             -200               0             -200               0
1.78146               -0.6723567        -29.3088        -37.88158       -146.4459             -200               0             -200               0
1.78808               -0.6957859       -29.63433        -37.67323        -150.287             -200               0             -200               0
1.7947                -0.7200009         -29.964        -37.46508       -154.1187             -200               0             -200               0
1.80132               -0.7450123         -30.298        -37.25681       -157.9419             -200               0             -200               0
1.80795               -0.7708324       -30.63651         -37.0481       -161.7577             -200               0             -200               0
1.81457               -0.7974788       -30.97974        -36.83868       -165.5671             -200               0             -200               0
1.82119               -0.8249735       -31.32795        -36.62825       -169.3718             -200               0             -200               0
1.82781               -0.8533437       -31.68137        -36.41659       -173.1734             -200               0             -200               0
1.83444               -0.8826231        -32.0403        -36.20347       -176.9736             -200               0             -200               0
1.84106               -0.9128527         -32.405         -35.9887        179.2255             -200               0             -200               0
1.84768               -0.9440786       -32.77579        -35.77214        175.4219             -200               0             -200               0
1.8543                -0.9763568       -33.15294        -35.55367        171.6133             -200               0             -200               0
