! TOUCHSTONE file generated by CST MICROWAVE STUDIO
! Date and time: Tue Mar 18 00:03:05 2025
! Project name: oblique.cst
! Parameters = {Tilt=40; Fracture=1; B=12.5; D=160; F=25; Feed=2.85625; L=100; M=10; R=0.384908; S=2; Theta=90; length=57.125; wave=114.25}
! Header version: 2024
! Port assignment regex: !\s*Touchstone port\s*([0-9]+)\s*=\s*(CST MWS port|CST DES external port|CST DES block port)\s*(.+)\s* \(\"(.*)\"\)(\s*mode\s*([0-9]+))?.*
! Touchstone port assignment:
! Touchstone port 1 = CST MWS port 1 ("")
! Touchstone port 2 = CST MWS port 2 ("")
# GHz S DB R 50
1                    -0.01955299       -9.795788         -68.1504       -169.4318             -200               0             -200               0
1.0066               -0.02028693       -9.884185        -68.11283        -173.374             -200               0             -200               0
1.0132               -0.02104801       -9.973099        -68.09421       -177.1462             -200               0             -200               0
1.0198                -0.0218348       -10.06253        -68.09256        179.2671             -200               0             -200               0
1.0264               -0.02264521       -10.15249        -68.10545        175.8821             -200               0             -200               0
1.033                -0.02347769       -10.24297        -68.12998        172.7156             -200               0             -200               0
1.0396               -0.02433204       -10.33401        -68.16257        169.7835             -200               0             -200               0
1.0462               -0.02520545        -10.4256        -68.19896        167.1007             -200               0             -200               0
1.05281              -0.02609714       -10.51776        -68.23405        164.6793             -200               0             -200               0
1.05941              -0.02700563       -10.61051        -68.26195        162.5267             -200               0             -200               0
1.06601              -0.02793054       -10.70388        -68.27602        160.6441             -200               0             -200               0
1.07261              -0.02887128       -10.79788        -68.26905        159.0236             -200               0             -200               0
1.07921              -0.02982885       -10.89253         -68.2336        157.6465             -200               0             -200               0
1.08581              -0.03080163       -10.98787         -68.1625        156.4822             -200               0             -200               0
1.09241              -0.03179204       -11.08391        -68.04946        155.4876             -200               0             -200               0
1.09901              -0.03280049       -11.18069        -67.88967        154.6086             -200               0             -200               0
1.10561              -0.03382888       -11.27822         -67.6804        153.7838             -200               0             -200               0
1.11221              -0.03487863       -11.37652        -67.42131        152.9488             -200               0             -200               0
1.11881              -0.03595228       -11.47563        -67.11443        152.0412             -200               0             -200               0
1.12541               -0.0370528       -11.57556        -66.76395        151.0059             -200               0             -200               0
1.13201              -0.03818282       -11.67632        -66.37564        149.7982             -200               0             -200               0
1.13861              -0.03934649       -11.77794        -65.95621        148.3856             -200               0             -200               0
1.14521              -0.04054496       -11.88043        -65.51273        146.7482             -200               0             -200               0
1.15182              -0.04178364       -11.98379         -65.0521        144.8769             -200               0             -200               0
1.15842              -0.04306482       -12.08804        -64.58067         142.772             -200               0             -200               0
1.16502              -0.04439145       -12.19319        -64.10403        140.4406             -200               0             -200               0
1.17162               -0.0457681       -12.29922        -63.62695        137.8949             -200               0             -200               0
1.17822              -0.04719633       -12.40615        -63.15338        135.1498             -200               0             -200               0
1.18482              -0.04867924       -12.51398        -62.68648        132.2222             -200               0             -200               0
1.19142              -0.05021849       -12.62269        -62.22874        129.1292             -200               0             -200               0
1.19802              -0.05181682       -12.73228        -61.78207        125.8882             -200               0             -200               0
1.20462              -0.05347586       -12.84276         -61.3479        122.5155             -200               0             -200               0
1.21122              -0.05519486       -12.95411        -60.92728        119.0269             -200               0             -200               0
1.21782              -0.05697591       -13.06632        -60.52091        115.4371             -200               0             -200               0
1.22442              -0.05881863        -13.1794        -60.12927        111.7596             -200               0             -200               0
1.23102              -0.06072256       -13.29334        -59.75262         108.007             -200               0             -200               0
1.23762              -0.06268716       -13.40813        -59.39108        104.1908             -200               0             -200               0
1.24422              -0.06471029       -13.52379        -59.04464        100.3216             -200               0             -200               0
1.25083              -0.06679157        -13.6403        -58.71319        96.40937             -200               0             -200               0
1.25743              -0.06892878       -13.75768        -58.39655        92.46299             -200               0             -200               0
1.26403              -0.07111966       -13.87595        -58.09448        88.49091             -200               0             -200               0
1.27063              -0.07336156        -13.9951        -57.80669        84.50091             -200               0             -200               0
1.27723              -0.07565364       -14.11516        -57.53284         80.5003             -200               0             -200               0
1.28383               -0.0779923       -14.23615        -57.27258        76.49592             -200               0             -200               0
1.29043              -0.08037738        -14.3581         -57.0255        72.49422             -200               0             -200               0
1.29703              -0.08280555       -14.48103        -56.79117        68.50134             -200               0             -200               0
1.30363              -0.08527528       -14.60498        -56.56915        64.52309             -200               0             -200               0
1.31023              -0.08778694       -14.72998        -56.35894        60.56504             -200               0             -200               0
1.31683              -0.09033842       -14.85607        -56.16003         56.6325             -200               0             -200               0
1.32343              -0.09293069       -14.98329        -55.97185         52.7306             -200               0             -200               0
1.33003               -0.0955634       -15.11168        -55.79383        48.86421             -200               0             -200               0
1.33663              -0.09823665       -15.24128        -55.62532        45.03801             -200               0             -200               0
1.34323               -0.1009533       -15.37215        -55.46566        41.25648             -200               0             -200               0
1.34984               -0.1037149       -15.50432        -55.31411        37.52381             -200               0             -200               0
1.35644               -0.1065233       -15.63783         -55.1699        33.84394             -200               0             -200               0
1.36304               -0.1093827       -15.77274         -55.0322        30.22053             -200               0             -200               0
1.36964               -0.1122951       -15.90907         -54.9001        26.65684             -200               0             -200               0
1.37624               -0.1152654       -16.04688        -54.77268        23.15572             -200               0             -200               0
1.38284               -0.1182974       -16.18619        -54.64891        19.71954             -200               0             -200               0
1.38944               -0.1213958       -16.32705        -54.52775         16.3501             -200               0             -200               0
1.39604               -0.1245644       -16.46949        -54.40807        13.04857             -200               0             -200               0
1.40264               -0.1278081       -16.61353        -54.28874        9.815356             -200               0             -200               0
1.40924               -0.1311312       -16.75922        -54.16856        6.650082             -200               0             -200               0
1.41584                -0.134539       -16.90656        -54.04635        3.551476             -200               0             -200               0
1.42244               -0.1380351        -17.0556        -53.92092       0.5173195             -200               0             -200               0
1.42904               -0.1416234       -17.20634         -53.7911       -2.455591             -200               0             -200               0
1.43564               -0.1453072       -17.35882        -53.65576       -5.371464             -200               0             -200               0
1.44224               -0.1490911       -17.51306        -53.51388       -8.235493             -200               0             -200               0
1.44884               -0.1529768       -17.66908        -53.36451        -11.0538             -200               0             -200               0
1.45545               -0.1569667        -17.8269        -53.20683       -13.83334             -200               0             -200               0
1.46205                -0.161064       -17.98655        -53.04018       -16.58178             -200               0             -200               0
1.46865               -0.1652695       -18.14806        -52.86407       -19.30734             -200               0             -200               0
1.47525               -0.1695845       -18.31145        -52.67817       -22.01855             -200               0             -200               0
1.48185               -0.1740095       -18.47678        -52.48238       -24.72409             -200               0             -200               0
1.48845               -0.1785471       -18.64407        -52.27676       -27.43257             -200               0             -200               0
1.49505               -0.1831967       -18.81337        -52.06155       -30.15228             -200               0             -200               0
1.50165               -0.1879587       -18.98474        -51.83717         -32.891             -200               0             -200               0
1.50825               -0.1928352       -19.15823         -51.6042       -35.65586             -200               0             -200               0
1.51485                -0.197826        -19.3339        -51.36334       -38.45317             -200               0             -200               0
1.52145               -0.2029333       -19.51184        -51.11537       -41.28836             -200               0             -200               0
1.52805               -0.2081586        -19.6921        -50.86118       -44.16587             -200               0             -200               0
1.53465               -0.2135059       -19.87478        -50.60167       -47.08917             -200               0             -200               0
1.54125               -0.2189775       -20.05997         -50.3378       -50.06078             -200               0             -200               0
1.54785               -0.2245785       -20.24776        -50.07049       -53.08228             -200               0             -200               0
1.55446               -0.2303149       -20.43824        -49.80067       -56.15437             -200               0             -200               0
1.56106                -0.236193       -20.63153        -49.52921       -59.27702             -200               0             -200               0
1.56766               -0.2422209       -20.82773        -49.25694       -62.44945             -200               0             -200               0
1.57426                -0.248409       -21.02694        -48.98463       -65.67032             -200               0             -200               0
1.58086               -0.2547674       -21.22929        -48.71297       -68.93776             -200               0             -200               0
1.58746               -0.2613095       -21.43486         -48.4426       -72.24949             -200               0             -200               0
1.59406               -0.2680497       -21.64379        -48.17408        -75.6029             -200               0             -200               0
1.60066               -0.2750021       -21.85617        -47.90787       -78.99511             -200               0             -200               0
1.60726               -0.2821833       -22.07211        -47.64439       -82.42306             -200               0             -200               0
1.61386                -0.289613        -22.2917        -47.38397       -85.88356             -200               0             -200               0
1.62046               -0.2973108       -22.51504        -47.12688       -89.37333             -200               0             -200               0
1.62706               -0.3052956       -22.74223        -46.87333        -92.8891             -200               0             -200               0
1.63366               -0.3135905       -22.97333        -46.62346       -96.42758             -200               0             -200               0
1.64026                -0.322217       -23.20844        -46.37733       -99.98553             -200               0             -200               0
1.64686               -0.3311984       -23.44761        -46.13499       -103.5598             -200               0             -200               0
1.65347               -0.3405577       -23.69091        -45.89641       -107.1474             -200               0             -200               0
1.66007               -0.3503202       -23.93839        -45.66151       -110.7453             -200               0             -200               0
1.66667               -0.3605088       -24.19009        -45.43018       -114.3508             -200               0             -200               0
1.67327                -0.371147       -24.44606        -45.20226       -117.9614             -200               0             -200               0
1.67987               -0.3822607       -24.70632        -44.97755       -121.5745             -200               0             -200               0
1.68647                -0.393872       -24.97091        -44.75582        -125.188             -200               0             -200               0
1.69307               -0.4060043       -25.23985        -44.53681          -128.8             -200               0             -200               0
1.69967                 -0.41868       -25.51315        -44.32022       -132.4087             -200               0             -200               0
1.70627               -0.4319212       -25.79084        -44.10575       -136.0125             -200               0             -200               0
1.71287               -0.4457502       -26.07294        -43.89304       -139.6104             -200               0             -200               0
1.71947               -0.4601861       -26.35946        -43.68176       -143.2012             -200               0             -200               0
1.72607               -0.4752511       -26.65042        -43.47153       -146.7844             -200               0             -200               0
1.73267               -0.4909633       -26.94585        -43.26199       -150.3595             -200               0             -200               0
1.73927                -0.507342       -27.24577        -43.05274       -153.9266             -200               0             -200               0
1.74587               -0.5244068       -27.55023        -42.84341       -157.4857             -200               0             -200               0
1.75248                -0.542176       -27.85927        -42.63363       -161.0375             -200               0             -200               0
1.75908               -0.5606687       -28.17294        -42.42305       -164.5828             -200               0             -200               0
1.76568               -0.5799035       -28.49131        -42.21131       -168.1226             -200               0             -200               0
1.77228               -0.5999013       -28.81445        -41.99809       -171.6583             -200               0             -200               0
1.77888               -0.6206814       -29.14246         -41.7831       -175.1916             -200               0             -200               0
1.78548               -0.6422663       -29.47542        -41.56607       -178.7243             -200               0             -200               0
1.79208               -0.6646792       -29.81346        -41.34677        177.7415             -200               0             -200               0
1.79868               -0.6879467        -30.1567        -41.12501        174.2035             -200               0             -200               0
1.80528               -0.7120949       -30.50528        -40.90064        170.6594             -200               0             -200               0
1.81188               -0.7371552       -30.85934        -40.67354        167.1066             -200               0             -200               0
1.81848               -0.7631606       -31.21905        -40.44367        163.5427             -200               0             -200               0
1.82508               -0.7901472       -31.58458          -40.211        159.9649             -200               0             -200               0
1.83168               -0.8181559       -31.95609        -39.97556        156.3708             -200               0             -200               0
1.83828               -0.8472311       -32.33378        -39.73743        152.7577             -200               0             -200               0
1.84488               -0.8774213       -32.71784        -39.49672        149.1233             -200               0             -200               0
1.85149               -0.9087794       -33.10845        -39.25359        145.4652             -200               0             -200               0
