! TOUCHSTONE file generated by CST MICROWAVE STUDIO
! Date and time: Tue Mar 18 00:00:58 2025
! Project name: oblique.cst
! Parameters = {Tilt=30; Fracture=1; B=10; D=160; F=15; Feed=2.85625; L=100; M=30; R=0.384908; S=2; Theta=90; length=57.125; wave=114.25}
! Header version: 2024
! Port assignment regex: !\s*Touchstone port\s*([0-9]+)\s*=\s*(CST MWS port|CST DES external port|CST DES block port)\s*(.+)\s* \(\"(.*)\"\)(\s*mode\s*([0-9]+))?.*
! Touchstone port assignment:
! Touchstone port 1 = CST MWS port 1 ("")
! Touchstone port 2 = CST MWS port 2 ("")
# GHz S DB R 50
1                    -0.02174466        -9.78327        -65.36439        168.3491             -200               0             -200               0
1.0066               -0.02232898       -9.869809        -65.47823          162.27             -200               0             -200               0
1.0132               -0.02289499       -9.957056         -65.6332        156.2916             -200               0             -200               0
1.0198               -0.02344626       -10.04506        -65.83205        150.4234             -200               0             -200               0
1.0264               -0.02398878       -10.13386        -66.07812        144.6781             -200               0             -200               0
1.033                -0.02452618       -10.22351        -66.37547        139.0729             -200               0             -200               0
1.0396                -0.0250664       -10.31405        -66.72904        133.6311             -200               0             -200               0
1.0462               -0.02561643       -10.40549        -67.14486        128.3842             -200               0             -200               0
1.05281              -0.02618244       -10.49786        -67.63028        123.3753             -200               0             -200               0
1.05941              -0.02677556       -10.59117        -68.19431        118.6648             -200               0             -200               0
1.06601              -0.02740068       -10.68544        -68.84792        114.3389             -200               0             -200               0
1.07261              -0.02806622       -10.78066        -69.60424        110.5233             -200               0             -200               0
1.07921               -0.0287813       -10.87682        -70.47838        107.4071             -200               0             -200               0
1.08581              -0.02955097       -10.97391        -71.48573        105.2816             -200               0             -200               0
1.09241              -0.03038171        -11.0719        -72.63609        104.6058             -200               0             -200               0
1.09901              -0.03127897       -11.17077        -73.91601        106.0991             -200               0             -200               0
1.10561                -0.032249       -11.27049         -75.2424        110.8039             -200               0             -200               0
1.11221              -0.03329235       -11.37101        -76.37021        119.7829             -200               0             -200               0
1.11881              -0.03441174       -11.47231        -76.84569        132.7193             -200               0             -200               0
1.12541              -0.03561001       -11.57434        -76.32306        146.3306             -200               0             -200               0
1.13201              -0.03688526       -11.67706         -75.0087        156.6901             -200               0             -200               0
1.13861              -0.03823659       -11.78045        -73.37963        162.6763             -200               0             -200               0
1.14521              -0.03966156       -11.88446        -71.74636        165.1549             -200               0             -200               0
1.15182              -0.04115572       -11.98908        -70.22807        165.2398             -200               0             -200               0
1.15842              -0.04271375       -12.09427        -68.85175        163.7456             -200               0             -200               0
1.16502              -0.04433317       -12.20002        -67.61156        161.1979             -200               0             -200               0
1.17162              -0.04600538       -12.30632        -66.49264        157.9302             -200               0             -200               0
1.17822              -0.04772466       -12.41318        -65.47932        154.1577             -200               0             -200               0
1.18482              -0.04948356        -12.5206        -64.55762        150.0233             -200               0             -200               0
1.19142              -0.05127793       -12.62859        -63.71574        145.6246             -200               0             -200               0
1.19802              -0.05309796       -12.73719        -62.94391        141.0302             -200               0             -200               0
1.20462              -0.05493986       -12.84642        -62.23407        136.2898             -200               0             -200               0
1.21122              -0.05679859       -12.95634        -61.57959        131.4402             -200               0             -200               0
1.21782              -0.05866709       -13.06698        -60.97495        126.5095             -200               0             -200               0
1.22442              -0.06054284        -13.1784        -60.41556        121.5194             -200               0             -200               0
1.23102              -0.06242301       -13.29066        -59.89757        116.4872             -200               0             -200               0
1.23762              -0.06430791       -13.40383        -59.41771        111.4271             -200               0             -200               0
1.24422              -0.06619539       -13.51797        -58.97322        106.3507             -200               0             -200               0
1.25083              -0.06808643       -13.63315        -58.56173         101.268             -200               0             -200               0
1.25743              -0.06998524       -13.74944        -58.18119        96.18769             -200               0             -200               0
1.26403              -0.07189417        -13.8669        -57.82985        91.11754             -200               0             -200               0
1.27063              -0.07381917        -13.9856        -57.50617        86.06461             -200               0             -200               0
1.27723              -0.07576666       -14.10559         -57.2088        81.03552             -200               0             -200               0
1.28383              -0.07774471       -14.22693        -56.93655        76.03656             -200               0             -200               0
1.29043              -0.07975855       -14.34967        -56.68835         71.0739             -200               0             -200               0
1.29703              -0.08182063       -14.47383        -56.46327        66.15364             -200               0             -200               0
1.30363              -0.08393709       -14.59945        -56.26042        61.28194             -200               0             -200               0
1.31023              -0.08611938       -14.72656        -56.07899         56.4651             -200               0             -200               0
1.31683                -0.088376       -14.85517        -55.91823        51.70966             -200               0             -200               0
1.32343              -0.09071588       -14.98528        -55.77739        47.02244             -200               0             -200               0
1.33003              -0.09315022       -15.11689        -55.65573        42.41061             -200               0             -200               0
1.33663              -0.09568493       -15.24998         -55.5525        37.88176             -200               0             -200               0
1.34323               -0.0983281       -15.38455        -55.46689        33.44393             -200               0             -200               0
1.34984                -0.101085       -15.52058        -55.39803        29.10562             -200               0             -200               0
1.35644               -0.1039638       -15.65802        -55.34495        24.87584             -200               0             -200               0
1.36304               -0.1069659       -15.79686        -55.30655        20.76405             -200               0             -200               0
1.36964               -0.1100932       -15.93706        -55.28155        16.78012             -200               0             -200               0
1.37624               -0.1133498       -16.07859        -55.26848        12.93421             -200               0             -200               0
1.38284               -0.1167319       -16.22143        -55.26559        9.236606             -200               0             -200               0
1.38944               -0.1202416       -16.36555        -55.27086        5.697427             -200               0             -200               0
1.39604               -0.1238731       -16.51093        -55.28191        2.326289             -200               0             -200               0
1.40264               -0.1276233       -16.65755        -55.29599      -0.8682133             -200               0             -200               0
1.40924               -0.1314867       -16.80542        -55.30995       -3.879121             -200               0             -200               0
1.41584                -0.135459       -16.95453        -55.32025       -6.701877             -200               0             -200               0
1.42244               -0.1395324       -17.10491        -55.32296       -9.335201             -200               0             -200               0
1.42904                -0.143701       -17.25657        -55.31387         -11.782             -200               0             -200               0
1.43564               -0.1479562       -17.40955        -55.28858       -14.05026             -200               0             -200               0
1.44224               -0.1522948        -17.5639        -55.24273       -16.15376             -200               0             -200               0
1.44884               -0.1567071       -17.71969        -55.17215       -18.11243             -200               0             -200               0
1.45545               -0.1611908       -17.87698        -55.07321       -19.95227             -200               0             -200               0
1.46205               -0.1657387       -18.03584        -54.94302       -21.70458             -200               0             -200               0
1.46865               -0.1703487       -18.19638        -54.77968       -23.40467             -200               0             -200               0
1.47525               -0.1750191        -18.3587        -54.58247       -25.09002             -200               0             -200               0
1.48185               -0.1797501        -18.5229        -54.35186        -26.7981             -200               0             -200               0
1.48845               -0.1845426       -18.68908        -54.08949       -28.56422             -200               0             -200               0
1.49505               -0.1893998       -18.85738        -53.79799       -30.41972             -200               0             -200               0
1.50165               -0.1943296       -19.02789        -53.48076       -32.39054             -200               0             -200               0
1.50825               -0.1993354       -19.20075        -53.14168        -34.4966             -200               0             -200               0
1.51485               -0.2044298       -19.37606         -52.7849       -36.75156             -200               0             -200               0
1.52145               -0.2096235       -19.55395        -52.41455       -39.16325             -200               0             -200               0
1.52805               -0.2149285        -19.7345        -52.03458       -41.73437             -200               0             -200               0
1.53465               -0.2203595       -19.91783        -51.64864       -44.46334             -200               0             -200               0
1.54125                -0.225933       -20.10403           -51.26       -47.34525             -200               0             -200               0
1.54785               -0.2316654       -20.29317        -50.87151       -50.37274             -200               0             -200               0
1.55446               -0.2375762       -20.48534        -50.48559       -53.53671             -200               0             -200               0
1.56106               -0.2436817       -20.68057        -50.10428       -56.82706             -200               0             -200               0
1.56766                -0.250003       -20.87894        -49.72925       -60.23307             -200               0             -200               0
1.57426               -0.2565582       -21.08049        -49.36183       -63.74384             -200               0             -200               0
1.58086               -0.2633669       -21.28522        -49.00308       -67.34857             -200               0             -200               0
1.58746               -0.2704475       -21.49317        -48.65381       -71.03671             -200               0             -200               0
1.59406                -0.277817       -21.70434        -48.31463        -74.7981             -200               0             -200               0
1.60066               -0.2854924       -21.91873        -47.98594       -78.62302             -200               0             -200               0
1.60726               -0.2934891       -22.13634        -47.66803       -82.50226             -200               0             -200               0
1.61386               -0.3018207       -22.35715        -47.36103       -86.42709             -200               0             -200               0
1.62046               -0.3105012       -22.58116        -47.06499       -90.38927             -200               0             -200               0
1.62706               -0.3195401       -22.80835        -46.77984       -94.38102             -200               0             -200               0
1.63366               -0.3289482       -23.03871        -46.50545       -98.39499             -200               0             -200               0
1.64026               -0.3387329       -23.27222        -46.24161       -102.4243             -200               0             -200               0
1.64686               -0.3489003       -23.50889        -45.98805       -106.4623             -200               0             -200               0
1.65347               -0.3594565       -23.74873        -45.74446       -110.5029             -200               0             -200               0
1.66007               -0.3704061       -23.99174        -45.51043       -114.5402             -200               0             -200               0
1.66667               -0.3817509       -24.23794        -45.28555       -118.5687             -200               0             -200               0
1.67327               -0.3934946       -24.48739        -45.06933       -122.5832             -200               0             -200               0
1.67987                -0.405638       -24.74013        -44.86123       -126.5788             -200               0             -200               0
1.68647               -0.4181843       -24.99623        -44.66067       -130.5508             -200               0             -200               0
1.69307               -0.4311353       -25.25578        -44.46701       -134.4951             -200               0             -200               0
1.69967               -0.4444956       -25.51887        -44.27958       -138.4076             -200               0             -200               0
1.70627               -0.4582669       -25.78561        -44.09763       -142.2849             -200               0             -200               0
1.71287                -0.472456       -26.05615        -43.92038       -146.1239             -200               0             -200               0
1.71947               -0.4870704       -26.33063        -43.74698       -149.9217             -200               0             -200               0
1.72607               -0.5021192        -26.6092        -43.57655       -153.6764             -200               0             -200               0
1.73267               -0.5176137       -26.89204        -43.40818       -157.3862             -200               0             -200               0
1.73927               -0.5335696       -27.17935        -43.24088       -161.0501             -200               0             -200               0
1.74587               -0.5500032       -27.47129        -43.07367       -164.6678             -200               0             -200               0
1.75248               -0.5669358       -27.76809        -42.90553       -168.2397             -200               0             -200               0
1.75908               -0.5843909       -28.06994        -42.73544        -171.767             -200               0             -200               0
1.76568               -0.6023954       -28.37706         -42.5624       -175.2516             -200               0             -200               0
1.77228               -0.6209788       -28.68966        -42.38541       -178.6964             -200               0             -200               0
1.77888                -0.640177       -29.00794        -42.20354         177.895             -200               0             -200               0
1.78548               -0.6600272       -29.33211        -42.01591        174.5181             -200               0             -200               0
1.79208               -0.6805691       -29.66238        -41.82172        171.1676             -200               0             -200               0
1.79868               -0.7018465       -29.99892        -41.62029        167.8376             -200               0             -200               0
1.80528               -0.7239069       -30.34195        -41.41106        164.5216             -200               0             -200               0
1.81188               -0.7467999       -30.69162        -41.19358        161.2125             -200               0             -200               0
1.81848               -0.7705778       -31.04811        -40.96759        157.9031             -200               0             -200               0
1.82508               -0.7952954       -31.41156        -40.73293        154.5857             -200               0             -200               0
1.83168               -0.8210093       -31.78214        -40.48965         151.253             -200               0             -200               0
1.83828               -0.8477806       -32.15996         -40.2379        147.8976             -200               0             -200               0
1.84488               -0.8756677       -32.54515        -39.97802        144.5124             -200               0             -200               0
1.85149               -0.9047359       -32.93783        -39.71043        141.0911             -200               0             -200               0
