! TOUCHSTONE file generated by CST MICROWAVE STUDIO
! Date and time: Tue Mar 18 00:02:14 2025
! Project name: oblique.cst
! Parameters = {Tilt=40; Fracture=1; B=10; D=160; F=15; Feed=2.85625; L=100; M=50; R=0.384908; S=1; Theta=180; length=57.125; wave=114.25}
! Header version: 2024
! Port assignment regex: !\s*Touchstone port\s*([0-9]+)\s*=\s*(CST MWS port|CST DES external port|CST DES block port)\s*(.+)\s* \(\"(.*)\"\)(\s*mode\s*([0-9]+))?.*
! Touchstone port assignment:
! Touchstone port 1 = CST MWS port 1 ("")
! Touchstone port 2 = CST MWS port 2 ("")
# GHz S DB R 50
1                    -0.02120842       -9.795596        -67.02259        158.8127             -200               0             -200               0
1.0066                 -0.021947       -9.883362         -67.0318        152.7516             -200               0             -200               0
1.0132               -0.02269551        -9.97169         -67.0755        146.7809             -200               0             -200               0
1.0198               -0.02345502        -10.0606        -67.15494        140.9061             -200               0             -200               0
1.0264               -0.02422622       -10.15012        -67.27169        135.1353             -200               0             -200               0
1.033                -0.02500922       -10.24026        -67.42766        129.4787             -200               0             -200               0
1.0396               -0.02580515       -10.33104        -67.62514          123.95             -200               0             -200               0
1.0462               -0.02661563       -10.42249        -67.86687        118.5667             -200               0             -200               0
1.05281              -0.02744233       -10.51463        -68.15608        113.3517             -200               0             -200               0
1.05941              -0.02828797       -10.60746        -68.49656        108.3347             -200               0             -200               0
1.06601              -0.02915277       -10.70101        -68.89273        103.5553             -200               0             -200               0
1.07261              -0.03004095        -10.7953        -69.34964        99.06587             -200               0             -200               0
1.07921              -0.03095384       -10.89033         -69.8729        94.93726             -200               0             -200               0
1.08581               -0.0318943       -10.98612        -70.46837         91.2664             -200               0             -200               0
1.09241              -0.03286426       -11.08267        -71.14146        88.18746             -200               0             -200               0
1.09901              -0.03386714       -11.17999         -71.8953         85.8877             -200               0             -200               0
1.10561              -0.03490439       -11.27809         -72.7269        84.62771             -200               0             -200               0
1.11221              -0.03597863       -11.37697        -73.61918        84.76043             -200               0             -200               0
1.11881               -0.0370924       -11.47663        -74.52592        86.72449             -200               0             -200               0
1.12541              -0.03824721       -11.57707        -75.34916         90.9441             -200               0             -200               0
1.13201              -0.03944428        -11.6783        -75.92395        97.52327             -200               0             -200               0
1.13861               -0.0406846        -11.7803        -76.05803        105.7705             -200               0             -200               0
1.14521              -0.04196884       -11.88308        -75.65376        114.1164             -200               0             -200               0
1.15182               -0.0432985       -11.98665        -74.79467        120.9447             -200               0             -200               0
1.15842               -0.0446742       -12.09099        -73.67039        125.4812             -200               0             -200               0
1.16502              -0.04609387        -12.1961        -72.45073        127.7816             -200               0             -200               0
1.17162              -0.04755846         -12.302        -71.23889        128.2589             -200               0             -200               0
1.17822              -0.04906622       -12.40868        -70.08434        127.3571             -200               0             -200               0
1.18482                -0.050617       -12.51614        -69.00572        125.4381             -200               0             -200               0
1.19142              -0.05220842        -12.6244        -68.00663        122.7706             -200               0             -200               0
1.19802              -0.05384051       -12.73347        -67.08404        119.5483             -200               0             -200               0
1.20462              -0.05551117       -12.84336        -66.23244        115.9106             -200               0             -200               0
1.21122              -0.05721877       -12.95409        -65.44574        111.9583             -200               0             -200               0
1.21782              -0.05896191       -13.06567        -64.71802        107.7661             -200               0             -200               0
1.22442              -0.06073976       -13.17813        -64.04393        103.3894             -200               0             -200               0
1.23102              -0.06255013        -13.2915        -63.41871        98.87088             -200               0             -200               0
1.23762              -0.06439288        -13.4058        -62.83819        94.24339             -200               0             -200               0
1.24422              -0.06626681       -13.52106        -62.29878          89.533             -200               0             -200               0
1.25083              -0.06817192       -13.63733        -61.79733        84.76069             -200               0             -200               0
1.25743              -0.07010936       -13.75463        -61.33111        79.94364             -200               0             -200               0
1.26403              -0.07207902         -13.873        -60.89775        75.09622             -200               0             -200               0
1.27063              -0.07408132       -13.99248        -60.49517        70.23068             -200               0             -200               0
1.27723              -0.07611874       -14.11312        -60.12153        65.35766             -200               0             -200               0
1.28383              -0.07819347       -14.23494        -59.77523        60.48658             -200               0             -200               0
1.29043              -0.08030809         -14.358        -59.45482        55.62596             -200               0             -200               0
1.29703              -0.08246628       -14.48232        -59.15901         50.7837             -200               0             -200               0
1.30363              -0.08467113       -14.60795        -58.88663         45.9672             -200               0             -200               0
1.31023              -0.08692696       -14.73492        -58.63662        41.18354             -200               0             -200               0
1.31683              -0.08923787       -14.86327        -58.40798        36.43964             -200               0             -200               0
1.32343              -0.09160956       -14.99303        -58.19977        31.74232             -200               0             -200               0
1.33003              -0.09404706       -15.12423        -58.01108        27.09843             -200               0             -200               0
1.33663              -0.09655417       -15.25689        -57.84105        22.51488             -200               0             -200               0
1.34323              -0.09913746       -15.39103        -57.68877         17.9987             -200               0             -200               0
1.34984               -0.1018021       -15.52669        -57.55333         13.5571             -200               0             -200               0
1.35644               -0.1045532       -15.66388         -57.4338        9.197487             -200               0             -200               0
1.36304               -0.1073965       -15.80262        -57.32912        4.927462             -200               0             -200               0
1.36964               -0.1103366       -15.94291        -57.23821       0.7547849             -200               0             -200               0
1.37624               -0.1133782       -16.08478        -57.15981       -3.312659             -200               0             -200               0
1.38284               -0.1165266       -16.22823        -57.09254       -7.266957             -200               0             -200               0
1.38944               -0.1197855       -16.37327        -57.03487       -11.10031             -200               0             -200               0
1.39604               -0.1231592       -16.51992        -56.98502        -14.8052             -200               0             -200               0
1.40264               -0.1266505       -16.66819        -56.94103        -18.3747             -200               0             -200               0
1.40924               -0.1302627       -16.81808        -56.90068       -21.80271             -200               0             -200               0
1.41584               -0.1339988       -16.96961        -56.86148       -25.08443             -200               0             -200               0
1.42244                -0.137861       -17.12279        -56.82073       -28.21679             -200               0             -200               0
1.42904               -0.1418529       -17.27764        -56.77546       -31.19895             -200               0             -200               0
1.43564               -0.1459738       -17.43417        -56.72254       -34.03289             -200               0             -200               0
1.44224               -0.1502275       -17.59241        -56.65873       -36.72384             -200               0             -200               0
1.44884               -0.1546151       -17.75239        -56.58077       -39.28081             -200               0             -200               0
1.45545               -0.1591385       -17.91413        -56.48553       -41.71676             -200               0             -200               0
1.46205                  -0.1638       -18.07768        -56.37015       -44.04866             -200               0             -200               0
1.46865               -0.1685999       -18.24305        -56.23219       -46.29726             -200               0             -200               0
1.47525               -0.1735425       -18.41029        -56.06976        -48.4864             -200               0             -200               0
1.48185               -0.1786292       -18.57946        -55.88171       -50.64218             -200               0             -200               0
1.48845               -0.1838627       -18.75059        -55.66762       -52.79173             -200               0             -200               0
1.49505               -0.1892473       -18.92374        -55.42789       -54.96202             -200               0             -200               0
1.50165                -0.194788       -19.09896        -55.16364       -57.17856             -200               0             -200               0
1.50825               -0.2004885       -19.27631        -54.87667        -59.4643             -200               0             -200               0
1.51485               -0.2063548       -19.45585        -54.56931       -61.83884             -200               0             -200               0
1.52145                -0.212393       -19.63763        -54.24424       -64.31791             -200               0             -200               0
1.52805               -0.2186103       -19.82172        -53.90437       -66.91321             -200               0             -200               0
1.53465               -0.2250151       -20.00817        -53.55269       -69.63247             -200               0             -200               0
1.54125               -0.2316161       -20.19704        -53.19212       -72.47984             -200               0             -200               0
1.54785               -0.2384212       -20.38839        -52.82542       -75.45629             -200               0             -200               0
1.55446               -0.2454424       -20.58228        -52.45518       -78.56016             -200               0             -200               0
1.56106               -0.2526888       -20.77874        -52.08369       -81.78773             -200               0             -200               0
1.56766               -0.2601724       -20.97784        -51.71301       -85.13368             -200               0             -200               0
1.57426               -0.2679049       -21.17963         -51.3449       -88.59156             -200               0             -200               0
1.58086               -0.2758983       -21.38414        -50.98088       -92.15418             -200               0             -200               0
1.58746               -0.2841644       -21.59141         -50.6222       -95.81388             -200               0             -200               0
1.59406               -0.2927147       -21.80149        -50.26993       -99.56281             -200               0             -200               0
1.60066               -0.3015635       -22.01439        -49.92489       -103.3931             -200               0             -200               0
1.60726               -0.3107219       -22.23016        -49.58778        -107.297             -200               0             -200               0
1.61386               -0.3202032       -22.44882        -49.25911        -111.267             -200               0             -200               0
1.62046               -0.3300179       -22.67039        -48.93928       -115.2957             -200               0             -200               0
1.62706                -0.340179        -22.8949        -48.62855       -119.3763             -200               0             -200               0
1.63366               -0.3506968       -23.12237        -48.32713        -123.502             -200               0             -200               0
1.64026               -0.3615837       -23.35282         -48.0351       -127.6665             -200               0             -200               0
1.64686               -0.3728488       -23.58628        -47.75249       -131.8638             -200               0             -200               0
1.65347               -0.3845035       -23.82277        -47.47926       -136.0883             -200               0             -200               0
1.66007               -0.3965569       -24.06233        -47.21533       -140.3345             -200               0             -200               0
1.66667               -0.4090182       -24.30497        -46.96056       -144.5973             -200               0             -200               0
1.67327               -0.4218986       -24.55075        -46.71477        -148.872             -200               0             -200               0
1.67987               -0.4352065        -24.7997        -46.47774       -153.1538             -200               0             -200               0
1.68647               -0.4489506       -25.05187        -46.24921       -157.4385             -200               0             -200               0
1.69307               -0.4631416       -25.30731         -46.0289        -161.722             -200               0             -200               0
1.69967               -0.4777885       -25.56609        -45.81649       -166.0004             -200               0             -200               0
1.70627               -0.4929018       -25.82828        -45.61162       -170.2699             -200               0             -200               0
1.71287               -0.5084918       -26.09394        -45.41392       -174.5272             -200               0             -200               0
1.71947               -0.5245716       -26.36317        -45.22297        -178.769             -200               0             -200               0
1.72607               -0.5411537       -26.63606        -45.03833        177.0078             -200               0             -200               0
1.73267               -0.5582515       -26.91269        -44.85953        172.8059             -200               0             -200               0
1.73927               -0.5758808       -27.19319        -44.68607        168.6279             -200               0             -200               0
1.74587               -0.5940584       -27.47765        -44.51742        164.4762             -200               0             -200               0
1.75248               -0.6128046        -27.7662        -44.35302        160.3527             -200               0             -200               0
1.75908                -0.632138       -28.05894        -44.19228        156.2592             -200               0             -200               0
1.76568               -0.6520833       -28.35602        -44.03459        152.1972             -200               0             -200               0
1.77228               -0.6726626       -28.65754        -43.87932        148.1677             -200               0             -200               0
1.77888               -0.6939039       -28.96363        -43.72581        144.1714             -200               0             -200               0
1.78548               -0.7158375       -29.27442        -43.57339        140.2086             -200               0             -200               0
1.79208               -0.7384918       -29.59003        -43.42138        136.2792             -200               0             -200               0
1.79868               -0.7619013       -29.91058         -43.2691        132.3827             -200               0             -200               0
1.80528               -0.7861025       -30.23618        -43.11586        128.5179             -200               0             -200               0
1.81188               -0.8111304       -30.56694          -42.961        124.6833             -200               0             -200               0
1.81848               -0.8370265       -30.90297        -42.80386        120.8769             -200               0             -200               0
1.82508                 -0.86383       -31.24436        -42.64384        117.0962             -200               0             -200               0
1.83168               -0.8915842       -31.59119        -42.48034        113.3383             -200               0             -200               0
1.83828               -0.9203355       -31.94357        -42.31284        109.5996             -200               0             -200               0
1.84488                -0.950126       -32.30154        -42.14088        105.8764             -200               0             -200               0
1.85149               -0.9810058       -32.66519        -41.96405        102.1645             -200               0             -200               0
