! TOUCHSTONE file generated by CST MICROWAVE STUDIO
! Date and time: Tue Mar 18 00:02:12 2025
! Project name: oblique.cst
! Parameters = {Tilt=40; Fracture=1; B=10; D=160; F=15; Feed=2.85625; L=100; M=30; R=0.384908; S=1; Theta=90; length=57.125; wave=114.25}
! Header version: 2024
! Port assignment regex: !\s*Touchstone port\s*([0-9]+)\s*=\s*(CST MWS port|CST DES external port|CST DES block port)\s*(.+)\s* \(\"(.*)\"\)(\s*mode\s*([0-9]+))?.*
! Touchstone port assignment:
! Touchstone port 1 = CST MWS port 1 ("")
! Touchstone port 2 = CST MWS port 2 ("")
# GHz S DB R 50
1                     -0.0221999       -9.786466         -65.0441        173.0245             -200               0             -200               0
1.0066               -0.02287182       -9.872479        -65.12664        166.6814             -200               0             -200               0
1.0132               -0.02351721       -9.959084        -65.24903        160.4125             -200               0             -200               0
1.0198               -0.02413621       -10.04634        -65.41385        154.2208             -200               0             -200               0
1.0264               -0.02473366        -10.1343        -65.62429        148.1114             -200               0             -200               0
1.033                -0.02531067       -10.22303        -65.88423        142.0914             -200               0             -200               0
1.0396               -0.02587263       -10.31258        -66.19848         136.171             -200               0             -200               0
1.0462               -0.02642458       -10.40299        -66.57303        130.3644             -200               0             -200               0
1.05281              -0.02697468        -10.4943         -67.0154        124.6915             -200               0             -200               0
1.05941              -0.02752876       -10.58656        -67.53513        119.1804             -200               0             -200               0
1.06601              -0.02809593       -10.67978        -68.14454        113.8716             -200               0             -200               0
1.07261              -0.02868443       -10.77399        -68.85977        108.8249             -200               0             -200               0
1.07921              -0.02930277        -10.8692        -69.70237        104.1322             -200               0             -200               0
1.08581               -0.0299592        -10.9654         -70.7017        99.94009             -200               0             -200               0
1.09241              -0.03066221       -11.06261        -71.89841        96.49627             -200               0             -200               0
1.09901              -0.03141942       -11.16079        -73.34886        94.24779             -200               0             -200               0
1.10561              -0.03223832       -11.25993        -75.12654        94.06807             -200               0             -200               0
1.11221              -0.03312531          -11.36        -77.29462        97.80167             -200               0             -200               0
1.11881               -0.0340863       -11.46097        -79.70552        109.3106             -200               0             -200               0
1.12541              -0.03512445        -11.5628        -81.22423        132.9045             -200               0             -200               0
1.13201              -0.03624314       -11.66544        -80.08403        159.3364             -200               0             -200               0
1.13861               -0.0374438       -11.76886        -77.42165        174.3699             -200               0             -200               0
1.14521              -0.03872674       -11.87301        -74.81351        -179.939             -200               0             -200               0
1.15182               -0.0400903       -11.97785        -72.59299       -179.0216             -200               0             -200               0
1.15842              -0.04153266       -12.08334        -70.72277        179.4578             -200               0             -200               0
1.16502              -0.04305025       -12.18944        -69.12634         176.589             -200               0             -200               0
1.17162               -0.0446369       -12.29612        -67.74168        172.9165             -200               0             -200               0
1.17822              -0.04628761       -12.40337        -66.52366        168.7356             -200               0             -200               0
1.18482               -0.0479951       -12.51117        -65.43972        164.2185             -200               0             -200               0
1.19142              -0.04975227       -12.61951        -64.46604         159.472             -200               0             -200               0
1.19802              -0.05155118       -12.72839        -63.58483        154.5659             -200               0             -200               0
1.20462              -0.05338355       -12.83784        -62.78253        149.5476             -200               0             -200               0
1.21122              -0.05524167       -12.94787        -62.04861        144.4505             -200               0             -200               0
1.21782              -0.05711857       -13.05852        -61.37477        139.2994             -200               0             -200               0
1.22442              -0.05900532       -13.16984        -60.75433        134.1127             -200               0             -200               0
1.23102              -0.06089776       -13.28188        -60.18189        128.9049             -200               0             -200               0
1.23762              -0.06278895       -13.39469        -59.65299        123.6876             -200               0             -200               0
1.24422              -0.06467564       -13.50835        -59.16394        118.4702             -200               0             -200               0
1.25083              -0.06655486       -13.62294        -58.71162        113.2611             -200               0             -200               0
1.25743              -0.06842564       -13.73853        -58.29342        108.0672             -200               0             -200               0
1.26403              -0.07028785        -13.8552         -57.9071         102.895             -200               0             -200               0
1.27063              -0.07214374       -13.97304        -57.55073        97.75043             -200               0             -200               0
1.27723              -0.07399781       -14.09214        -57.22264        92.63909             -200               0             -200               0
1.28383              -0.07585455       -14.21256        -56.92137        87.56647             -200               0             -200               0
1.29043              -0.07772061       -14.33438        -56.64563        82.53802             -200               0             -200               0
1.29703              -0.07960542       -14.45768        -56.39428        77.55925             -200               0             -200               0
1.30363              -0.08151716       -14.58252        -56.16626         72.6358             -200               0             -200               0
1.31023              -0.08346736       -14.70895        -55.96063        67.77357             -200               0             -200               0
1.31683              -0.08546643       -14.83701        -55.77648        62.97871             -200               0             -200               0
1.32343              -0.08752608       -14.96675        -55.61294        58.25774             -200               0             -200               0
1.33003              -0.08966001       -15.09818        -55.46916        53.61758             -200               0             -200               0
1.33663              -0.09188029       -15.23133        -55.34428        49.06559             -200               0             -200               0
1.34323              -0.09419747       -15.36618        -55.23738        44.60964             -200               0             -200               0
1.34984              -0.09662444       -15.50274         -55.1475        40.25805             -200               0             -200               0
1.35644              -0.09917089       -15.64098        -55.07354        36.01967             -200               0             -200               0
1.36304               -0.1018473       -15.78089         -55.0143        31.90377             -200               0             -200               0
1.36964               -0.1046621       -15.92243        -54.96839        27.92003             -200               0             -200               0
1.37624               -0.1076211       -16.06555        -54.93421        24.07835             -200               0             -200               0
1.38284                -0.110731       -16.21023        -54.90989        20.38868             -200               0             -200               0
1.38944               -0.1139949       -16.35641        -54.89328        16.86071             -200               0             -200               0
1.39604               -0.1174136       -16.50405        -54.88185        13.50346             -200               0             -200               0
1.40264               -0.1209891       -16.65311        -54.87273        10.32477             -200               0             -200               0
1.40924               -0.1247187       -16.80354        -54.86264        7.330615             -200               0             -200               0
1.41584               -0.1285994       -16.95532        -54.84793        4.524354             -200               0             -200               0
1.42244               -0.1326267       -17.10842        -54.82458        1.905824             -200               0             -200               0
1.42904               -0.1367948       -17.26284        -54.78837      -0.5295488             -200               0             -200               0
1.43564               -0.1410971       -17.41855         -54.7349       -2.791562             -200               0             -200               0
1.44224               -0.1455247       -17.57558        -54.65991       -4.895848             -200               0             -200               0
1.44884               -0.1500705       -17.73394        -54.55941        -6.86409             -200               0             -200               0
1.45545               -0.1547258       -17.89368           -54.43       -8.723736             -200               0             -200               0
1.46205               -0.1594822       -18.05483        -54.26911       -10.50711             -200               0             -200               0
1.46865               -0.1643325       -18.21747         -54.0752       -12.24993             -200               0             -200               0
1.47525               -0.1692699       -18.38167        -53.84789        -13.9894             -200               0             -200               0
1.48185                -0.174289       -18.54753        -53.58798       -15.76208             -200               0             -200               0
1.48845               -0.1793847       -18.71514        -53.29738       -17.60186             -200               0             -200               0
1.49505               -0.1845563       -18.88463        -52.97889       -19.53826             -200               0             -200               0
1.50165               -0.1898027       -19.05611        -52.63602       -21.59529             -200               0             -200               0
1.50825               -0.1951265       -19.22971        -52.27267       -23.79093             -200               0             -200               0
1.51485               -0.2005319       -19.40557        -51.89293       -26.13712             -200               0             -200               0
1.52145               -0.2060266       -19.58382        -51.50081       -28.64025             -200               0             -200               0
1.52805                -0.211618       -19.76459        -51.10013        -31.3019             -200               0             -200               0
1.53465                 -0.21732       -19.94802        -50.69439       -34.11969             -200               0             -200               0
1.54125               -0.2231467       -20.13424        -50.28667       -37.08824             -200               0             -200               0
1.54785               -0.2291145       -20.32336        -49.87969       -40.19993             -200               0             -200               0
1.55446               -0.2352408        -20.5155        -49.47571       -43.44565             -200               0             -200               0
1.56106               -0.2415471       -20.71074        -49.07665       -46.81541             -200               0             -200               0
1.56766               -0.2480557       -20.90918        -48.68406       -50.29873             -200               0             -200               0
1.57426               -0.2547892       -21.11089        -48.29919       -53.88505             -200               0             -200               0
1.58086                -0.261771       -21.31592        -47.92302       -57.56392             -200               0             -200               0
1.58746               -0.2690258       -21.52432        -47.55629       -61.32522             -200               0             -200               0
1.59406               -0.2765774        -21.7361        -47.19955       -65.15922             -200               0             -200               0
1.60066               -0.2844504       -21.95127        -46.85318       -69.05665             -200               0             -200               0
1.60726               -0.2926671       -22.16983        -46.51743       -73.00873             -200               0             -200               0
1.61386               -0.3012489       -22.39177        -46.19242       -77.00719             -200               0             -200               0
1.62046               -0.3102171       -22.61704        -45.87818       -81.04424             -200               0             -200               0
1.62706               -0.3195895       -22.84561        -45.57463       -85.11254             -200               0             -200               0
1.63366               -0.3293839       -23.07743        -45.28166        -89.2052             -200               0             -200               0
1.64026               -0.3396129       -23.31244        -44.99906       -93.31572             -200               0             -200               0
1.64686               -0.3502902       -23.55061        -44.72658         -97.438             -200               0             -200               0
1.65347               -0.3614249       -23.79186        -44.46392       -101.5663             -200               0             -200               0
1.66007               -0.3730237       -24.03615        -44.21072       -105.6952             -200               0             -200               0
1.66667               -0.3850916       -24.28344         -43.9666       -109.8195             -200               0             -200               0
1.67327               -0.3976314       -24.53371        -43.73112       -113.9345             -200               0             -200               0
1.67987               -0.4106456       -24.78691         -43.5038       -118.0357             -200               0             -200               0
1.68647               -0.4241317       -25.04305        -43.28413       -122.1189             -200               0             -200               0
1.69307               -0.4380889       -25.30216        -43.07154         -126.18             -200               0             -200               0
1.69967               -0.4525133       -25.56425        -42.86543       -130.2156             -200               0             -200               0
1.70627               -0.4674041       -25.82938        -42.66518       -134.2223             -200               0             -200               0
1.71287                -0.482754       -26.09763        -42.47008       -138.1971             -200               0             -200               0
1.71947                -0.498564        -26.3691        -42.27943       -142.1376             -200               0             -200               0
1.72607               -0.5148318        -26.6439        -42.09247       -146.0415             -200               0             -200               0
1.73267               -0.5315582       -26.92219         -41.9084       -149.9072             -200               0             -200               0
1.73927               -0.5487452       -27.20413         -41.7264       -153.7334             -200               0             -200               0
1.74587               -0.5663985       -27.48991        -41.54562       -157.5194             -200               0             -200               0
1.75248               -0.5845259       -27.77972        -41.36519       -161.2652             -200               0             -200               0
1.75908               -0.6031404        -28.0738        -41.18423       -164.9712             -200               0             -200               0
1.76568               -0.6222588       -28.37237        -41.00186       -168.6385             -200               0             -200               0
1.77228               -0.6418997       -28.67568         -40.8172        -172.269             -200               0             -200               0
1.77888               -0.6620892       -28.98398        -40.62942       -175.8652             -200               0             -200               0
1.78548                -0.682858       -29.29754        -40.43772       -179.4302             -200               0             -200               0
1.79208               -0.7042394       -29.61659        -40.24133        177.0321             -200               0             -200               0
1.79868               -0.7262725        -29.9414        -40.03959        173.5173             -200               0             -200               0
1.80528               -0.7490036       -30.27221         -39.8319        170.0203             -200               0             -200               0
1.81188               -0.7724794       -30.60925        -39.61777        166.5356             -200               0             -200               0
1.81848               -0.7967548       -30.95274         -39.3968        163.0574             -200               0             -200               0
1.82508               -0.8218851        -31.3029        -39.16873        159.5795             -200               0             -200               0
1.83168               -0.8479336       -31.65991        -38.93341        156.0955             -200               0             -200               0
1.83828               -0.8749639       -32.02393        -38.69082        152.5992             -200               0             -200               0
1.84488               -0.9030431       -32.39511        -38.44105        149.0842             -200               0             -200               0
1.85149               -0.9322426       -32.77358        -38.18434        145.5445             -200               0             -200               0
