! TOUCHSTONE file generated by CST MICROWAVE STUDIO
! Date and time: Tue Mar 18 00:02:52 2025
! Project name: oblique.cst
! Parameters = {Tilt=40; Fracture=1; B=12.5; D=160; F=15; Feed=2.85625; L=100; M=10; R=0.384908; S=1; Theta=90; length=57.125; wave=114.25}
! Header version: 2024
! Port assignment regex: !\s*Touchstone port\s*([0-9]+)\s*=\s*(CST MWS port|CST DES external port|CST DES block port)\s*(.+)\s* \(\"(.*)\"\)(\s*mode\s*([0-9]+))?.*
! Touchstone port assignment:
! Touchstone port 1 = CST MWS port 1 ("")
! Touchstone port 2 = CST MWS port 2 ("")
# GHz S DB R 50
1                    -0.01906141       -9.790709        -68.57012       -156.8918             -200               0             -200               0
1.0066               -0.01986541       -9.879324         -68.5409         -161.63             -200               0             -200               0
1.0132               -0.02070621       -9.968307        -68.54805       -166.2455             -200               0             -200               0
1.0198               -0.02157815       -10.05765         -68.5921       -170.7205             -200               0             -200               0
1.0264               -0.02247585       -10.14734        -68.67368       -175.0339             -200               0             -200               0
1.033                 -0.0233926       -10.23739        -68.79345       -179.1596             -200               0             -200               0
1.0396               -0.02432151       -10.32782        -68.95203        176.9337             -200               0             -200               0
1.0462               -0.02525756       -10.41863        -69.14978        173.2846             -200               0             -200               0
1.05281              -0.02619335       -10.50987        -69.38661          169.94             -200               0             -200               0
1.05941              -0.02712433       -10.60157        -69.66154        166.9571             -200               0             -200               0
1.06601              -0.02804533       -10.69376        -69.97209        164.4052             -200               0             -200               0
1.07261              -0.02895343       -10.78651        -70.31341        162.3665             -200               0             -200               0
1.07921              -0.02984458       -10.87985        -70.67686        160.9355             -200               0             -200               0
1.08581              -0.03072037       -10.97386         -71.0483        160.2141             -200               0             -200               0
1.09241              -0.03157749       -11.06859          -71.406        160.2993             -200               0             -200               0
1.09901              -0.03241931        -11.1641        -71.71896         161.259             -200               0             -200               0
1.10561              -0.03324568       -11.26045        -71.94715        163.0934             -200               0             -200               0
1.11221              -0.03406206        -11.3577        -72.04593        165.6914             -200               0             -200               0
1.11881              -0.03487303       -11.45591        -71.97579        168.8034             -200               0             -200               0
1.12541               -0.0356837       -11.55511        -71.71509         172.065             -200               0             -200               0
1.13201              -0.03650262       -11.65537        -71.26843        175.0778             -200               0             -200               0
1.13861              -0.03733622       -11.75671        -70.66466        177.5108             -200               0             -200               0
1.14521              -0.03819343       -11.85916        -69.94612        179.1637             -200               0             -200               0
1.15182              -0.03908221       -11.96275        -69.15634        179.9689             -200               0             -200               0
1.15842              -0.04001201       -12.06749        -68.33204        179.9559             -200               0             -200               0
1.16502              -0.04099085       -12.17338        -67.50049        179.2067             -200               0             -200               0
1.17162               -0.0420297       -12.28042        -66.68012        177.8226             -200               0             -200               0
1.17822              -0.04313391        -12.3886        -65.88249        175.9045             -200               0             -200               0
1.18482              -0.04431304       -12.49789        -65.11429        173.5436             -200               0             -200               0
1.19142              -0.04557186       -12.60827        -64.37894        170.8184             -200               0             -200               0
1.19802              -0.04691663       -12.71972        -63.67779        167.7946             -200               0             -200               0
1.20462              -0.04835149       -12.83219        -63.01091        164.5268             -200               0             -200               0
1.21122              -0.04987978       -12.94564        -62.37759        161.0597             -200               0             -200               0
1.21782              -0.05150279       -13.06004        -61.77671        157.4306             -200               0             -200               0
1.22442              -0.05322119       -13.17535        -61.20692        153.6702             -200               0             -200               0
1.23102              -0.05503317       -13.29153        -60.66678         149.804             -200               0             -200               0
1.23762              -0.05693723       -13.40854        -60.15484        145.8536             -200               0             -200               0
1.24422              -0.05893008       -13.52636        -59.66968        141.8374             -200               0             -200               0
1.25083              -0.06100565       -13.64497        -59.20993         137.771             -200               0             -200               0
1.25743              -0.06315977       -13.76434        -58.77427         133.668             -200               0             -200               0
1.26403              -0.06538565       -13.88448        -58.36147        129.5403             -200               0             -200               0
1.27063              -0.06767642       -14.00538        -57.97033        125.3985             -200               0             -200               0
1.27723              -0.07002555       -14.12707        -57.59974        121.2519             -200               0             -200               0
1.28383              -0.07242525       -14.24955        -57.24862        117.1091             -200               0             -200               0
1.29043              -0.07486943       -14.37286        -56.91593         112.978             -200               0             -200               0
1.29703              -0.07735148       -14.49704        -56.60065        108.8657             -200               0             -200               0
1.30363              -0.07986697       -14.62216        -56.30179        104.7789             -200               0             -200               0
1.31023              -0.08240921       -14.74825        -56.01837        100.7238             -200               0             -200               0
1.31683              -0.08497614        -14.8754        -55.74941        96.70643             -200               0             -200               0
1.32343              -0.08756462       -15.00366        -55.49391        92.73224             -200               0             -200               0
1.33003              -0.09017646       -15.13313        -55.25087        88.80643             -200               0             -200               0
1.33663               -0.0928089       -15.26387        -55.01923        84.93388             -200               0             -200               0
1.34323              -0.09546661       -15.39598        -54.79791         81.1191             -200               0             -200               0
1.34984              -0.09815263       -15.52952        -54.58581        77.36621             -200               0             -200               0
1.35644               -0.1008727       -15.66458        -54.38174        73.67889             -200               0             -200               0
1.36304               -0.1036341       -15.80124        -54.18448        70.06032             -200               0             -200               0
1.36964               -0.1064435       -15.93955        -53.99276        66.51308             -200               0             -200               0
1.37624               -0.1093128       -16.07958        -53.80524        63.03909             -200               0             -200               0
1.38284               -0.1122503       -16.22139        -53.62055        59.63947             -200               0             -200               0
1.38944               -0.1152681       -16.36502        -53.43726        56.31446             -200               0             -200               0
1.39604               -0.1183773       -16.51051        -53.25394        53.06333             -200               0             -200               0
1.40264               -0.1215897       -16.65788        -53.06913        49.88426             -200               0             -200               0
1.40924               -0.1249174       -16.80715         -52.8814        46.77427             -200               0             -200               0
1.41584                -0.128372       -16.95832        -52.68935        43.72922             -200               0             -200               0
1.42244               -0.1319632       -17.11139        -52.49166        40.74371             -200               0             -200               0
1.42904               -0.1357019       -17.26635        -52.28711        37.81119             -200               0             -200               0
1.43564               -0.1395964       -17.42318        -52.07463        34.92403             -200               0             -200               0
1.44224               -0.1436549       -17.58187         -51.8533        32.07359             -200               0             -200               0
1.44884               -0.1478822       -17.74238        -51.62241         29.2505             -200               0             -200               0
1.45545               -0.1522857       -17.90468        -51.38145        26.44481             -200               0             -200               0
1.46205               -0.1568654       -18.06874        -51.13017        23.64629             -200               0             -200               0
1.46865               -0.1616233       -18.23454        -50.86851        20.84467             -200               0             -200               0
1.47525               -0.1665615       -18.40204         -50.5967        18.02998             -200               0             -200               0
1.48185                -0.171676       -18.57125        -50.31512        15.19271             -200               0             -200               0
1.48845               -0.1769642       -18.74214        -50.02439        12.32414             -200               0             -200               0
1.49505               -0.1824213       -18.91471        -49.72529        9.416442             -200               0             -200               0
1.50165               -0.1880437       -19.08899        -49.41871        6.462877             -200               0             -200               0
1.50825               -0.1938245       -19.26498        -49.10566        3.457843             -200               0             -200               0
1.51485               -0.1997567       -19.44272        -48.78721       0.3969219             -200               0             -200               0
1.52145                -0.205837       -19.62228        -48.46447        -2.72314             -200               0             -200               0
1.52805               -0.2120569       -19.80371        -48.13854       -5.904476             -200               0             -200               0
1.53465               -0.2184117        -19.9871        -47.81051       -9.148184             -200               0             -200               0
1.54125               -0.2248975       -20.17253        -47.48143       -12.45442             -200               0             -200               0
1.54785               -0.2315122       -20.36012        -47.15228       -15.82252             -200               0             -200               0
1.55446               -0.2382533       -20.54998        -46.82399       -19.25109             -200               0             -200               0
1.56106               -0.2451223       -20.74225        -46.49741       -22.73814             -200               0             -200               0
1.56766               -0.2521235       -20.93706        -46.17329       -26.28121             -200               0             -200               0
1.57426               -0.2592601       -21.13456        -45.85234       -29.87743             -200               0             -200               0
1.58086               -0.2665403       -21.33489        -45.53514        -33.5236             -200               0             -200               0
1.58746               -0.2739767       -21.53822        -45.22223       -37.21635             -200               0             -200               0
1.59406               -0.2815824       -21.74469        -44.91405       -40.95211             -200               0             -200               0
1.60066               -0.2893722       -21.95443        -44.61097       -44.72723             -200               0             -200               0
1.60726               -0.2973668       -22.16762        -44.31331         -48.538             -200               0             -200               0
1.61386               -0.3055856       -22.38436        -44.02132       -52.38069             -200               0             -200               0
1.62046               -0.3140527       -22.60478        -43.73517        -56.2516             -200               0             -200               0
1.62706               -0.3227944       -22.82901        -43.45499       -60.14708             -200               0             -200               0
1.63366                -0.331836       -23.05712        -43.18087       -64.06353             -200               0             -200               0
1.64026               -0.3412071       -23.28921        -42.91284       -67.99744             -200               0             -200               0
1.64686               -0.3509359       -23.52534        -42.65088        -71.9454             -200               0             -200               0
1.65347                -0.361053       -23.76557        -42.39494       -75.90409             -200               0             -200               0
1.66007               -0.3715884       -24.00993        -42.14493       -79.87032             -200               0             -200               0
1.66667               -0.3825706       -24.25843        -41.90071       -83.84104             -200               0             -200               0
1.67327                -0.394029       -24.51108        -41.66213       -87.81329             -200               0             -200               0
1.67987               -0.4059918       -24.76787        -41.42898       -91.78429             -200               0             -200               0
1.68647               -0.4184852       -25.02878        -41.20104       -95.75139             -200               0             -200               0
1.69307               -0.4315342       -25.29378        -40.97805       -99.71211             -200               0             -200               0
1.69967               -0.4451602       -25.56283        -40.75972       -103.6641             -200               0             -200               0
1.70627               -0.4593869       -25.83589        -40.54574       -107.6053             -200               0             -200               0
1.71287               -0.4742297       -26.11293        -40.33577       -111.5337             -200               0             -200               0
1.71947                -0.489708       -26.39389        -40.12944       -115.4476             -200               0             -200               0
1.72607               -0.5058347       -26.67874        -39.92638       -119.3454             -200               0             -200               0
1.73267               -0.5226228       -26.96746        -39.72617       -123.2259             -200               0             -200               0
1.73927               -0.5400836       -27.26004        -39.52839        -127.088             -200               0             -200               0
1.74587               -0.5582254       -27.55646        -39.33259       -130.9309             -200               0             -200               0
1.75248               -0.5770561       -27.85675        -39.13833       -134.7541             -200               0             -200               0
1.75908               -0.5965841       -28.16095        -38.94515       -138.5575             -200               0             -200               0
1.76568               -0.6168154        -28.4691        -38.75258        -142.341             -200               0             -200               0
1.77228               -0.6377594       -28.78129        -38.56015       -146.1052             -200               0             -200               0
1.77888                -0.659424       -29.09763         -38.3674       -149.8506             -200               0             -200               0
1.78548               -0.6818198       -29.41822        -38.17389       -153.5785             -200               0             -200               0
1.79208               -0.7049566       -29.74324        -37.97917         -157.29             -200               0             -200               0
1.79868               -0.7288534       -30.07284        -37.78284        -160.987             -200               0             -200               0
1.80528               -0.7535271       -30.40723         -37.5845       -164.6713             -200               0             -200               0
1.81188               -0.7790004       -30.74661        -37.38381       -168.3452             -200               0             -200               0
1.81848               -0.8053004       -31.09122        -37.18044       -172.0113             -200               0             -200               0
1.82508               -0.8324593       -31.44129        -36.97413       -175.6722             -200               0             -200               0
1.83168                -0.860516       -31.79709        -36.76464       -179.3309             -200               0             -200               0
1.83828                -0.889514       -32.15888        -36.55181        177.0096             -200               0             -200               0
1.84488               -0.9195035        -32.5269         -36.3355         173.346             -200               0             -200               0
1.85149               -0.9505414       -32.90143        -36.11567        169.6751             -200               0             -200               0
