! TOUCHSTONE file generated by CST MICROWAVE STUDIO
! Date and time: Tue Mar 18 00:02:15 2025
! Project name: oblique.cst
! Parameters = {Tilt=40; Fracture=1; B=10; D=160; F=15; Feed=2.85625; L=100; M=50; R=0.384908; S=1; Theta=270; length=57.125; wave=114.25}
! Header version: 2024
! Port assignment regex: !\s*Touchstone port\s*([0-9]+)\s*=\s*(CST MWS port|CST DES external port|CST DES block port)\s*(.+)\s* \(\"(.*)\"\)(\s*mode\s*([0-9]+))?.*
! Touchstone port assignment:
! Touchstone port 1 = CST MWS port 1 ("")
! Touchstone port 2 = CST MWS port 2 ("")
# GHz S DB R 50
1                    -0.02109048       -9.796903        -67.45242        159.5331             -200               0             -200               0
1.00658              -0.02184012       -9.884517         -67.4538        153.6774             -200               0             -200               0
1.01316              -0.02260336       -9.972675        -67.48895        147.9164             -200               0             -200               0
1.01974              -0.02337999       -10.06139        -67.55894        142.2574             -200               0             -200               0
1.02632              -0.02417017       -10.15069         -67.6651        136.7099             -200               0             -200               0
1.03289              -0.02497411       -10.24058        -67.80902        131.2863             -200               0             -200               0
1.03947              -0.02579091       -10.33108         -67.9926        126.0019             -200               0             -200               0
1.04605              -0.02662328       -10.42222        -68.21808        120.8768             -200               0             -200               0
1.05263              -0.02747031       -10.51401          -68.488        115.9363             -200               0             -200               0
1.05921               -0.0283352       -10.60647        -68.80526        111.2131             -200               0             -200               0
1.06579              -0.02921758       -10.69962        -69.17304        106.7494             -200               0             -200               0
1.07237              -0.03011964       -10.79347        -69.59469        102.6001             -200               0             -200               0
1.07895              -0.03104413       -10.88805        -70.07344        98.83782             -200               0             -200               0
1.08553              -0.03199226       -10.98336        -70.61182        95.55807             -200               0             -200               0
1.09211              -0.03296638       -11.07942        -71.21056        92.88773             -200               0             -200               0
1.09868              -0.03396822       -11.17624        -71.86641        90.99381             -200               0             -200               0
1.10526              -0.03500123       -11.27383         -72.5683        90.09083             -200               0             -200               0
1.11184              -0.03606623        -11.3722        -73.29072        90.43767             -200               0             -200               0
1.11842              -0.03716676       -11.47135        -73.98419         92.3028             -200               0             -200               0
1.125                -0.03830368       -11.57129        -74.56594        95.86161             -200               0             -200               0
1.13158              -0.03947858       -11.67201        -74.92301        101.0044             -200               0             -200               0
1.13816              -0.04069487       -11.77354          -74.946        107.1467             -200               0             -200               0
1.14474              -0.04195218       -11.87585        -74.58865        113.2935             -200               0             -200               0
1.15132              -0.04325245       -11.97897        -73.89994        118.4582             -200               0             -200               0
1.15789              -0.04459569       -12.08288        -72.99008        122.0731             -200               0             -200               0
1.16447               -0.0459834       -12.18759        -71.97121        124.0418             -200               0             -200               0
1.17105              -0.04741547       -12.29311        -70.92472        124.5456             -200               0             -200               0
1.17763              -0.04889188       -12.39942        -69.89895        123.8546             -200               0             -200               0
1.18421              -0.05041187       -12.50654        -68.91859        122.2271             -200               0             -200               0
1.19079              -0.05197523       -12.61448        -67.99415        119.8769             -200               0             -200               0
1.19737              -0.05358111       -12.72324        -67.12848        116.9707             -200               0             -200               0
1.20395              -0.05522858       -12.83283        -66.32053        113.6353             -200               0             -200               0
1.21053               -0.0569166       -12.94326        -65.56747        109.9669             -200               0             -200               0
1.21711              -0.05864351       -13.05455         -64.8658        106.0389             -200               0             -200               0
1.22368              -0.06040903       -13.16672        -64.21187        101.9074             -200               0             -200               0
1.23026              -0.06221085       -13.27978        -63.60222        97.61641             -200               0             -200               0
1.23684              -0.06404946       -13.39376        -63.03361        93.20049             -200               0             -200               0
1.24342              -0.06592321        -13.5087        -62.50315        88.68731             -200               0             -200               0
1.25                 -0.06783136       -13.62461        -62.00822        84.09939             -200               0             -200               0
1.25658              -0.06977472       -13.74153        -61.54649        79.45529             -200               0             -200               0
1.26316               -0.0717523       -13.85949         -61.1159        74.77059             -200               0             -200               0
1.26974               -0.0737657       -13.97852         -60.7146        70.05858             -200               0             -200               0
1.27632              -0.07581527       -14.09868        -60.34094         65.3308             -200               0             -200               0
1.28289              -0.07790206       -14.21998        -59.99346        60.59743             -200               0             -200               0
1.28947              -0.08002836       -14.34247        -59.67081        55.86766             -200               0             -200               0
1.29605              -0.08219763       -14.46619        -59.37181        51.14988             -200               0             -200               0
1.30263              -0.08441171       -14.59118        -59.09533        46.45191             -200               0             -200               0
1.30921              -0.08667402       -14.71747        -58.84035        41.78118             -200               0             -200               0
1.31579              -0.08898951        -14.8451        -58.60592        37.14483             -200               0             -200               0
1.32237              -0.09135951       -14.97411        -58.39112        32.54983             -200               0             -200               0
1.32895              -0.09379122       -15.10453        -58.19506        28.00309             -200               0             -200               0
1.33553              -0.09628829       -15.23638        -58.01688         23.5115             -200               0             -200               0
1.34211              -0.09885746        -15.3697        -57.85568        19.08197             -200               0             -200               0
1.34868               -0.1015012       -15.50451        -57.71057        14.72151             -200               0             -200               0
1.35526               -0.1042267       -15.64084        -57.58059        10.43724             -200               0             -200               0
1.36184                -0.107037        -15.7787        -57.46473        6.236362             -200               0             -200               0
1.36842               -0.1099405       -15.91813        -57.36189        2.126142             -200               0             -200               0
1.375                 -0.1129402       -16.05912        -57.27086        -1.88612             -200               0             -200               0
1.38158               -0.1160415       -16.20171        -57.19031       -5.793195             -200               0             -200               0
1.38816               -0.1192498        -16.3459        -57.11873       -9.588052             -200               0             -200               0
1.39474               -0.1225692        -16.4917        -57.05447       -13.26402             -200               0             -200               0
1.40132               -0.1260034       -16.63913        -56.99566       -16.81504             -200               0             -200               0
1.40789               -0.1295548       -16.78821        -56.94022        -20.2359             -200               0             -200               0
1.41447               -0.1332301       -16.93893        -56.88589       -23.52263             -200               0             -200               0
1.42105               -0.1370311       -17.09132        -56.83017       -26.67283             -200               0             -200               0
1.42763               -0.1409596       -17.24539         -56.7704       -29.68616             -200               0             -200               0
1.43421               -0.1450188       -17.40115        -56.70377       -32.56471             -200               0             -200               0
1.44079               -0.1492131       -17.55863        -56.62739       -35.31345             -200               0             -200               0
1.44737               -0.1535407       -17.71785        -56.53837       -37.94054             -200               0             -200               0
1.45395               -0.1580076       -17.87882        -56.43394       -40.45753             -200               0             -200               0
1.46053               -0.1626138       -18.04159        -56.31157       -42.87936             -200               0             -200               0
1.46711               -0.1673625       -18.20618        -56.16908       -45.22415             -200               0             -200               0
1.47368               -0.1722551       -18.37263        -56.00478       -47.51269             -200               0             -200               0
1.48026               -0.1772945       -18.54097        -55.81754       -49.76774             -200               0             -200               0
1.48684               -0.1824848       -18.71125         -55.6069       -52.01306             -200               0             -200               0
1.49342               -0.1878267       -18.88351        -55.37306       -54.27246             -200               0             -200               0
1.5                   -0.1933264        -19.0578        -55.11687        -56.5687             -200               0             -200               0
1.50658               -0.1989866       -19.23418        -54.83976       -58.92262             -200               0             -200               0
1.51316               -0.2048128       -19.41269        -54.54363       -61.35236             -200               0             -200               0
1.51974                 -0.21081        -19.5934        -54.23075       -63.87294             -200               0             -200               0
1.52632               -0.2169851       -19.77635        -53.90362       -66.49595             -200               0             -200               0
1.53289               -0.2233446       -19.96161        -53.56484       -69.22958             -200               0             -200               0
1.53947                -0.229897       -20.14924        -53.21702       -72.07884             -200               0             -200               0
1.54605               -0.2366504       -20.33928        -52.86266       -75.04587             -200               0             -200               0
1.55263                -0.243613       -20.53181        -52.50412       -78.13033             -200               0             -200               0
1.55921               -0.2507961       -20.72686        -52.14358       -81.32988             -200               0             -200               0
1.56579               -0.2582083        -20.9245        -51.78297       -84.64055             -200               0             -200               0
1.57237               -0.2658619       -21.12477        -51.42401        -88.0572             -200               0             -200               0
1.57895               -0.2737671       -21.32772        -51.06818       -91.57382             -200               0             -200               0
1.58553               -0.2819371        -21.5334        -50.71674       -95.18384             -200               0             -200               0
1.59211               -0.2903824       -21.74184        -50.37077       -98.88036             -200               0             -200               0
1.59868               -0.2991154       -21.95308        -50.03113       -102.6563             -200               0             -200               0
1.60526               -0.3081491       -22.16716        -49.69856       -106.5047             -200               0             -200               0
1.61184               -0.3174953       -22.38411        -49.37361       -110.4185             -200               0             -200               0
1.61842               -0.3271662       -22.60396        -49.05672        -114.391             -200               0             -200               0
1.625                 -0.3371737       -22.82673        -48.74824       -118.4157             -200               0             -200               0
1.63158               -0.3475298       -23.05246        -48.44838       -122.4862             -200               0             -200               0
1.63816               -0.3582456       -23.28117         -48.1573       -126.5965             -200               0             -200               0
1.64474               -0.3693327       -23.51288        -47.87507       -130.7409             -200               0             -200               0
1.65132               -0.3808022       -23.74762        -47.60169       -134.9139             -200               0             -200               0
1.65789               -0.3926645       -23.98543        -47.33713       -139.1104             -200               0             -200               0
1.66447               -0.4049291       -24.22632        -47.08129       -143.3252             -200               0             -200               0
1.67105               -0.4176072       -24.47034        -46.83402       -147.5539             -200               0             -200               0
1.67763               -0.4307073       -24.71753        -46.59514       -151.7918             -200               0             -200               0
1.68421               -0.4442422       -24.96792        -46.36445       -156.0347             -200               0             -200               0
1.69079               -0.4582182       -25.22156        -46.14167       -160.2787             -200               0             -200               0
1.69737               -0.4726472       -25.47853        -45.92653         -164.52             -200               0             -200               0
1.70395                 -0.48754       -25.73886         -45.7187       -168.7548             -200               0             -200               0
1.71053               -0.5029069       -26.00264        -45.51785       -172.9799             -200               0             -200               0
1.71711               -0.5187602       -26.26993        -45.32359        -177.192             -200               0             -200               0
1.72368               -0.5351118       -26.54083        -45.13551        178.6119             -200               0             -200               0
1.73026                -0.551976       -26.81543        -44.95318        174.4345             -200               0             -200               0
1.73684               -0.5693663       -27.09381        -44.77614        170.2783             -200               0             -200               0
1.74342               -0.5872998       -27.37608        -44.60388        166.1458             -200               0             -200               0
1.75                  -0.6057939       -27.66235        -44.43588        162.0388             -200               0             -200               0
1.75658               -0.6248673       -27.95274        -44.27161        157.9592             -200               0             -200               0
1.76316               -0.6445417       -28.24736        -44.11048        153.9085             -200               0             -200               0
1.76974               -0.6648395       -28.54632         -43.9519        149.8878             -200               0             -200               0
1.77632               -0.6857878       -28.84976        -43.79525        145.8979             -200               0             -200               0
1.78289               -0.7074118       -29.15779        -43.63991        141.9391             -200               0             -200               0
1.78947               -0.7297417       -29.47054        -43.48523        138.0116             -200               0             -200               0
1.79605               -0.7528074       -29.78811        -43.33056         134.115             -200               0             -200               0
1.80263               -0.7766438       -30.11064        -43.17526        130.2483             -200               0             -200               0
1.80921               -0.8012873       -30.43823         -43.0187        126.4104             -200               0             -200               0
1.81579               -0.8267735       -30.77098        -42.86025        122.5994             -200               0             -200               0
1.82237               -0.8531425       -31.10901        -42.69931        118.8133             -200               0             -200               0
1.82895               -0.8804359       -31.45241        -42.53532        115.0492             -200               0             -200               0
1.83553               -0.9086966       -31.80125        -42.36777        111.3043             -200               0             -200               0
1.84211               -0.9379681       -32.15563         -42.1962        107.5749             -200               0             -200               0
1.84868                -0.968298       -32.51561        -42.02019        103.8574             -200               0             -200               0
