! TOUCHSTONE file generated by CST MICROWAVE STUDIO
! Date and time: Tue Mar 18 00:02:52 2025
! Project name: oblique.cst
! Parameters = {Tilt=40; Fracture=1; B=12.5; D=160; F=15; Feed=2.85625; L=100; M=10; R=0.384908; S=1; Theta=180; length=57.125; wave=114.25}
! Header version: 2024
! Port assignment regex: !\s*Touchstone port\s*([0-9]+)\s*=\s*(CST MWS port|CST DES external port|CST DES block port)\s*(.+)\s* \(\"(.*)\"\)(\s*mode\s*([0-9]+))?.*
! Touchstone port assignment:
! Touchstone port 1 = CST MWS port 1 ("")
! Touchstone port 2 = CST MWS port 2 ("")
# GHz S DB R 50
1                     -0.0190522       -9.790759        -68.57603       -156.8193             -200               0             -200               0
1.0066               -0.01985645       -9.879384        -68.54585       -161.5543             -200               0             -200               0
1.0132               -0.02069922       -9.968372          -68.552       -166.1667             -200               0             -200               0
1.0198               -0.02157258       -10.05772        -68.59498       -170.6389             -200               0             -200               0
1.0264               -0.02247228       -10.14741        -68.67542       -174.9496             -200               0             -200               0
1.033                -0.02339168       -10.23747        -68.79397        -179.073             -200               0             -200               0
1.0396               -0.02432276       -10.32789        -68.95121        177.0223             -200               0             -200               0
1.0462               -0.02526051        -10.4187         -69.1475        173.3745             -200               0             -200               0
1.05281              -0.02619696       -10.50993        -69.38273        170.0305             -200               0             -200               0
1.05941              -0.02712978       -10.60162        -69.65589        167.0471             -200               0             -200               0
1.06601              -0.02805263        -10.6938        -69.96452        164.4933             -200               0             -200               0
1.07261              -0.02896212       -10.78653        -70.30373        162.4506             -200               0             -200               0
1.07921              -0.02985522       -10.87987        -70.66493        161.0129             -200               0             -200               0
1.08581              -0.03072929       -10.97386        -71.03405        160.2813             -200               0             -200               0
1.09241              -0.03158734       -11.06858        -71.38953        160.3518             -200               0             -200               0
1.09901              -0.03242801       -11.16408        -71.70061        161.2916             -200               0             -200               0
1.10561              -0.03325373       -11.26041        -71.92764        163.1013             -200               0             -200               0
1.11221              -0.03406992       -11.35765        -72.02634        165.6713             -200               0             -200               0
1.11881              -0.03487909       -11.45585        -71.95749        168.7553             -200               0             -200               0
1.12541              -0.03568902       -11.55505        -71.69936        171.9928             -200               0             -200               0
1.13201              -0.03650603       -11.65529        -71.25614        174.9888             -200               0             -200               0
1.13861              -0.03733716       -11.75663        -70.65612        177.4134             -200               0             -200               0
1.14521              -0.03819182       -11.85908        -69.94114        179.0652             -200               0             -200               0
1.15182              -0.03907853       -11.96267         -69.1544        179.8747             -200               0             -200               0
1.15842              -0.04000664       -12.06741        -68.33255        179.8693             -200               0             -200               0
1.16502              -0.04098378        -12.1733        -67.50286        179.1293             -200               0             -200               0
1.17162              -0.04202023       -12.28035        -66.68386        177.7549             -200               0             -200               0
1.17822              -0.04312204       -12.38854        -65.88721        175.8463             -200               0             -200               0
1.18482              -0.04429977       -12.49784        -65.11967        173.4944             -200               0             -200               0
1.19142              -0.04555815       -12.60824        -64.38474        170.7775             -200               0             -200               0
1.19802              -0.04690083        -12.7197        -63.68383        167.7614             -200               0             -200               0
1.20462              -0.04833571       -12.83218        -63.01704        164.5005             -200               0             -200               0
1.21122              -0.04986452       -12.94565        -62.38371        161.0397             -200               0             -200               0
1.21782              -0.05148753       -13.06006        -61.78274        157.4163             -200               0             -200               0
1.22442              -0.05320649       -13.17539        -61.21279        153.6609             -200               0             -200               0
1.23102              -0.05501903       -13.29158        -60.67245        149.7993             -200               0             -200               0
1.23762              -0.05692526        -13.4086        -60.16027         145.853             -200               0             -200               0
1.24422              -0.05891933       -13.52644        -59.67483        141.8405             -200               0             -200               0
1.25083              -0.06099663       -13.64505        -59.21477        137.7774             -200               0             -200               0
1.25743               -0.0631537       -13.76443        -58.77879        133.6774             -200               0             -200               0
1.26403              -0.06538161       -13.88458        -58.36564        129.5523             -200               0             -200               0
1.27063                -0.067675       -14.00548        -57.97415        125.4128             -200               0             -200               0
1.27723              -0.07002575       -14.12716         -57.6032        121.2682             -200               0             -200               0
1.28383               -0.0724283       -14.24963         -57.2517        117.1273             -200               0             -200               0
1.29043              -0.07487487       -14.37294        -56.91861        112.9977             -200               0             -200               0
1.29703              -0.07735934       -14.49712        -56.60294        108.8866             -200               0             -200               0
1.30363              -0.07987543       -14.62221        -56.30368        104.8008             -200               0             -200               0
1.31023               -0.0824197        -14.7483        -56.01986        100.7466             -200               0             -200               0
1.31683              -0.08498672       -14.87543         -55.7505        96.72975             -200               0             -200               0
1.32343              -0.08757752       -15.00368        -55.49459        92.75586             -200               0             -200               0
1.33003              -0.09018839       -15.13313        -55.25114        88.83013             -200               0             -200               0
1.33663              -0.09282095       -15.26386        -55.01909        84.95741             -200               0             -200               0
1.34323              -0.09547771       -15.39595        -54.79738        81.14221             -200               0             -200               0
1.34984              -0.09816279       -15.52947        -54.58489        77.38865             -200               0             -200               0
1.35644               -0.1008806       -15.66452        -54.38043        73.70042             -200               0             -200               0
1.36304               -0.1036399       -15.80116        -54.18281        70.08069             -200               0             -200               0
1.36964               -0.1064486       -15.93947        -53.99074        66.53205             -200               0             -200               0
1.37624               -0.1093146       -16.07949         -53.8029         63.0564             -200               0             -200               0
1.38284               -0.1122495        -16.2213         -53.6179         59.6549             -200               0             -200               0
1.38944               -0.1152646       -16.36493        -53.43434        56.32778             -200               0             -200               0
1.39604                -0.118371       -16.51042        -53.25078        53.07433             -200               0             -200               0
1.40264               -0.1215799       -16.65779        -53.06577        49.89277             -200               0             -200               0
1.40924               -0.1249061       -16.80707        -52.87789        46.78013             -200               0             -200               0
1.41584               -0.1283574       -16.95825        -52.68573         43.7323             -200               0             -200               0
1.42244               -0.1319463       -17.11134        -52.48798        40.74393             -200               0             -200               0
1.42904               -0.1356842       -17.26632        -52.28343        37.80852             -200               0             -200               0
1.43564               -0.1395771       -17.42317          -52.071        34.91846             -200               0             -200               0
1.44224               -0.1436347       -17.58188        -51.84977         32.0652             -200               0             -200               0
1.44884               -0.1478636       -17.74241        -51.61903        29.23938             -200               0             -200               0
1.45545               -0.1522662       -17.90472        -51.37828        26.43113             -200               0             -200               0
1.46205               -0.1568474       -18.06881        -51.12724        23.63024             -200               0             -200               0
1.46865               -0.1616077       -18.23462        -50.86588        20.82651             -200               0             -200               0
1.47525                -0.166547       -18.40215        -50.59439        18.00996             -200               0             -200               0
1.48185                -0.171663       -18.57137        -50.31316        15.17114             -200               0             -200               0
1.48845               -0.1769545       -18.74228         -50.0228        12.30131             -200               0             -200               0
1.49505               -0.1824148       -18.91486        -49.72408        9.392678             -200               0             -200               0
1.50165               -0.1880406       -19.08914        -49.41789        6.438489             -200               0             -200               0
1.50825               -0.1938262       -19.26513        -49.10523        3.433135             -200               0             -200               0
1.51485               -0.1997624       -19.44288        -48.78716       0.3721838             -200               0             -200               0
1.52145               -0.2058465       -19.62243        -48.46479       -2.747639             -200               0             -200               0
1.52805               -0.2120702       -19.80385        -48.13921       -5.928491             -200               0             -200               0
1.53465               -0.2184286       -19.98722        -47.81152       -9.171494             -200               0             -200               0
1.54125               -0.2249177       -20.17263        -47.48274       -12.47683             -200               0             -200               0
1.54785               -0.2315341        -20.3602        -47.15389       -15.84386             -200               0             -200               0
1.55446               -0.2382779       -20.55004        -46.82586       -19.27121             -200               0             -200               0
1.56106               -0.2451489       -20.74228        -46.49952       -22.75694             -200               0             -200               0
1.56766               -0.2521503       -20.93706        -46.17562       -26.29858             -200               0             -200               0
1.57426               -0.2592863       -21.13453        -45.85485       -29.89329             -200               0             -200               0
1.58086               -0.2665668       -21.33483        -45.53781        -33.5379             -200               0             -200               0
1.58746               -0.2740022       -21.53813        -45.22504       -37.22905             -200               0             -200               0
1.59406               -0.2816052       -21.74457        -44.91697       -40.96319             -200               0             -200               0
1.60066               -0.2893926       -21.95429        -44.61399       -44.73667             -200               0             -200               0
1.60726               -0.2973835       -22.16745         -44.3164        -48.5458             -200               0             -200               0
1.61386               -0.3055984       -22.38417        -44.02445       -52.38686             -200               0             -200               0
1.62046               -0.3140608       -22.60458        -43.73833       -56.25617             -200               0             -200               0
1.62706               -0.3227965       -22.82879        -43.45817       -60.15007             -200               0             -200               0
1.63366               -0.3318337        -23.0569        -43.18404       -64.06497             -200               0             -200               0
1.64026               -0.3411991       -23.28899        -42.91598       -67.99737             -200               0             -200               0
1.64686               -0.3509222       -23.52513        -42.65398       -71.94386             -200               0             -200               0
1.65347               -0.3610344       -23.76537        -42.39799       -75.90113             -200               0             -200               0
1.66007               -0.3715645       -24.00975         -42.1479         -79.866             -200               0             -200               0
1.66667               -0.3825417       -24.25827         -41.9036       -83.83541             -200               0             -200               0
1.67327               -0.3939968       -24.51095        -41.66493       -87.80641             -200               0             -200               0
1.67987                -0.405956       -24.76777        -41.43167       -91.77623             -200               0             -200               0
1.68647               -0.4184473       -25.02872        -41.20362       -95.74222             -200               0             -200               0
1.69307               -0.4314936       -25.29376         -40.9805        -99.7019             -200               0             -200               0
1.69967               -0.4451188       -25.56285        -40.76203       -103.6529             -200               0             -200               0
1.70627                -0.459345       -25.83596        -40.54791       -107.5932             -200               0             -200               0
1.71287               -0.4741911       -26.11304        -40.33779       -111.5208             -200               0             -200               0
1.71947               -0.4896711       -26.39404         -40.1313        -115.434             -200               0             -200               0
1.72607               -0.5058011       -26.67893        -39.92807       -119.3311             -200               0             -200               0
1.73267               -0.5225942       -26.96769        -39.72769        -123.211             -200               0             -200               0
1.73927               -0.5400598       -27.26029        -39.52973       -127.0727             -200               0             -200               0
1.74587               -0.5582075       -27.55674        -39.33376       -130.9152             -200               0             -200               0
1.75248               -0.5770449       -27.85706        -39.13932       -134.7381             -200               0             -200               0
1.75908               -0.5965798       -28.16127        -38.94595       -138.5413             -200               0             -200               0
1.76568               -0.6168197       -28.46942         -38.7532       -142.3248             -200               0             -200               0
1.77228               -0.6377713       -28.78161        -38.56059       -146.0889             -200               0             -200               0
1.77888               -0.6594437       -29.09793        -38.36766       -149.8345             -200               0             -200               0
1.78548               -0.6818468       -29.41851        -38.17397       -153.5625             -200               0             -200               0
1.79208                -0.704992       -29.74349        -37.97908       -157.2744             -200               0             -200               0
1.79868               -0.7288945       -30.07306        -37.78259       -160.9717             -200               0             -200               0
1.80528               -0.7535737        -30.4074        -37.58409       -164.6565             -200               0             -200               0
1.81188               -0.7790518       -30.74674        -37.38325       -168.3309             -200               0             -200               0
1.81848               -0.8053557       -31.09129        -37.17974       -171.9976             -200               0             -200               0
1.82508               -0.8325171        -31.4413        -36.97329       -175.6592             -200               0             -200               0
1.83168               -0.8605751       -31.79704        -36.76369       -179.3186             -200               0             -200               0
1.83828               -0.8895723       -32.15876        -36.55075         177.021             -200               0             -200               0
1.84488               -0.9195587       -32.52672        -36.33435        173.3566             -200               0             -200               0
1.85149               -0.9505931       -32.90119        -36.11443        169.6849             -200               0             -200               0
