! TOUCHSTONE file generated by CST MICROWAVE STUDIO
! Date and time: Tue Mar 18 00:03:07 2025
! Project name: oblique.cst
! Parameters = {Tilt=40; Fracture=1; B=12.5; D=160; F=25; Feed=2.85625; L=100; M=30; R=0.384908; S=2; Theta=180; length=57.125; wave=114.25}
! Header version: 2024
! Port assignment regex: !\s*Touchstone port\s*([0-9]+)\s*=\s*(CST MWS port|CST DES external port|CST DES block port)\s*(.+)\s* \(\"(.*)\"\)(\s*mode\s*([0-9]+))?.*
! Touchstone port assignment:
! Touchstone port 1 = CST MWS port 1 ("")
! Touchstone port 2 = CST MWS port 2 ("")
# GHz S DB R 50
1                    -0.02153024       -9.790865        -66.63563         164.229             -200               0             -200               0
1.00658               -0.0220429       -9.876777        -66.63045        158.6622             -200               0             -200               0
1.01316              -0.02252118       -9.963476        -66.65632        153.2061             -200               0             -200               0
1.01974              -0.02297108       -10.05103        -66.71379        147.8708             -200               0             -200               0
1.02632              -0.02340094        -10.1395        -66.80358        142.6686             -200               0             -200               0
1.03289              -0.02382012       -10.22894        -66.92647        137.6144             -200               0             -200               0
1.03947               -0.0242362        -10.3194        -67.08331         132.727             -200               0             -200               0
1.04605              -0.02466068       -10.41092        -67.27498        128.0293             -200               0             -200               0
1.05263              -0.02510479       -10.50351         -67.5023        123.5494             -200               0             -200               0
1.05921              -0.02558004       -10.59719        -67.76587        119.3217             -200               0             -200               0
1.06579              -0.02609782       -10.69197        -68.06588        115.3887             -200               0             -200               0
1.07237              -0.02667034       -10.78783        -68.40176         111.802             -200               0             -200               0
1.07895              -0.02730697       -10.88475        -68.77169        108.6244             -200               0             -200               0
1.08553              -0.02801848        -10.9827        -69.17179        105.9308             -200               0             -200               0
1.09211              -0.02881336       -11.08164        -69.59501        103.8082             -200               0             -200               0
1.09868              -0.02969873       -11.18152        -70.02954        102.3523             -200               0             -200               0
1.10526               -0.0306815       -11.28229        -70.45699        101.6585             -200               0             -200               0
1.11184               -0.0317646       -11.38389        -70.85058        101.8026             -200               0             -200               0
1.11842              -0.03295205       -11.48625        -71.17464        102.8094             -200               0             -200               0
1.125                -0.03424334       -11.58931        -71.38723        104.6115             -200               0             -200               0
1.13158              -0.03563732       -11.69301        -71.44765        107.0161             -200               0             -200               0
1.13816              -0.03713297       -11.79728        -71.32785        109.7072             -200               0             -200               0
1.14474              -0.03872538       -11.90208        -71.02256         112.304             -200               0             -200               0
1.15132              -0.04040677       -12.00735        -70.55136        114.4545             -200               0             -200               0
1.15789              -0.04217033       -12.11306        -69.95113        115.9131             -200               0             -200               0
1.16447              -0.04400768       -12.21918        -69.26434        116.5648             -200               0             -200               0
1.17105               -0.0459087       -12.32568        -68.52956        116.4026             -200               0             -200               0
1.17763              -0.04786434       -12.43256        -67.77706        115.4869             -200               0             -200               0
1.18421              -0.04986293       -12.53983        -67.02824        113.9089             -200               0             -200               0
1.19079              -0.05189577        -12.6475        -66.29714        111.7666             -200               0             -200               0
1.19737              -0.05395014       -12.75562        -65.59232        109.1521             -200               0             -200               0
1.20395              -0.05601953       -12.86422        -64.91854        106.1464             -200               0             -200               0
1.21053              -0.05809258       -12.97335        -64.27814        102.8185             -200               0             -200               0
1.21711              -0.06016324       -13.08309        -63.67186        99.22589             -200               0             -200               0
1.22368              -0.06222579       -13.19351         -63.0995        95.41605             -200               0             -200               0
1.23026              -0.06427556       -13.30469        -62.56031         91.4284             -200               0             -200               0
1.23684              -0.06630984       -13.41672        -62.05324        87.29558             -200               0             -200               0
1.24342              -0.06832784       -13.52969         -61.5771        83.04482             -200               0             -200               0
1.25                 -0.07033224       -13.64369        -61.13064        78.69899             -200               0             -200               0
1.25658              -0.07232623       -13.75882        -60.71264         74.2775             -200               0             -200               0
1.26316              -0.07431475       -13.87516        -60.32194          69.797             -200               0             -200               0
1.26974              -0.07630419       -13.99281        -59.95741        65.27194             -200               0             -200               0
1.27632              -0.07830678       -14.11182        -59.61803        60.71502             -200               0             -200               0
1.28289              -0.08032998       -14.23228        -59.30283        56.13757             -200               0             -200               0
1.28947              -0.08238706       -14.35424        -59.01093        51.54986             -200               0             -200               0
1.29605              -0.08448995       -14.47775         -58.7415        46.96131             -200               0             -200               0
1.30263              -0.08665173       -14.60284        -58.49376        42.38072             -200               0             -200               0
1.30921              -0.08888864       -14.72953          -58.267        37.81646             -200               0             -200               0
1.31579              -0.09121152       -14.85783        -58.06053        33.27659             -200               0             -200               0
1.32237              -0.09363502       -14.98773         -57.8737        28.76898             -200               0             -200               0
1.32895              -0.09617208       -15.11922        -57.70586        24.30145             -200               0             -200               0
1.33553              -0.09883412       -15.25227        -57.55639        19.88183             -200               0             -200               0
1.34211               -0.1016319       -15.38683        -57.42462        15.51807             -200               0             -200               0
1.34868               -0.1045735       -15.52286        -57.30988        11.21827             -200               0             -200               0
1.35526               -0.1076668        -15.6603        -57.21143        6.990785             -200               0             -200               0
1.36184               -0.1109161        -15.7991         -57.1285        2.844211             -200               0             -200               0
1.36842               -0.1143249       -15.93919        -57.06017       -1.212563             -200               0             -200               0
1.375                 -0.1178946       -16.08051        -57.00547       -5.170381             -200               0             -200               0
1.38158               -0.1216234         -16.223        -56.96322       -9.019862             -200               0             -200               0
1.38816               -0.1255086        -16.3666         -56.9321       -12.75148             -200               0             -200               0
1.39474               -0.1295466       -16.51127        -56.91056       -16.35569             -200               0             -200               0
1.40132               -0.1337274       -16.65697        -56.89681       -19.82318             -200               0             -200               0
1.40789               -0.1380436       -16.80367        -56.88878        -23.1451             -200               0             -200               0
1.41447                -0.142488       -16.95136        -56.88409       -26.31349             -200               0             -200               0
1.42105               -0.1470476       -17.10003        -56.88001       -29.32175             -200               0             -200               0
1.42763               -0.1517114        -17.2497        -56.87351       -32.16519             -200               0             -200               0
1.43421               -0.1564699       -17.40041        -56.86124       -34.84177             -200               0             -200               0
1.44079               -0.1613121       -17.55219        -56.83957       -37.35275             -200               0             -200               0
1.44737               -0.1662255       -17.70512        -56.80473       -39.70343             -200               0             -200               0
1.45395               -0.1712026       -17.85927        -56.75288       -41.90376             -200               0             -200               0
1.46053               -0.1762361       -18.01474        -56.68031       -43.96872             -200               0             -200               0
1.46711               -0.1813175       -18.17162        -56.58364        -45.9184             -200               0             -200               0
1.47368               -0.1864452       -18.33005        -56.46002       -47.77762             -200               0             -200               0
1.48026               -0.1916154       -18.49014        -56.30732       -49.57512             -200               0             -200               0
1.48684               -0.1968291       -18.65202        -56.12432       -51.34231             -200               0             -200               0
1.49342               -0.2020903       -18.81584        -55.91078       -53.11166             -200               0             -200               0
1.5                   -0.2074047       -18.98173        -55.66743       -54.91501             -200               0             -200               0
1.50658               -0.2127804       -19.14982        -55.39596        -56.7819             -200               0             -200               0
1.51316               -0.2182284       -19.32025        -55.09879       -58.73825             -200               0             -200               0
1.51974               -0.2237639       -19.49314        -54.77895       -60.80537             -200               0             -200               0
1.52632               -0.2294025        -19.6686        -54.43985       -62.99954             -200               0             -200               0
1.53289               -0.2351604       -19.84675        -54.08503       -65.33195             -200               0             -200               0
1.53947               -0.2410596       -20.02766        -53.71805       -67.80901             -200               0             -200               0
1.54605               -0.2471198       -20.21141        -53.34231       -70.43295             -200               0             -200               0
1.55263               -0.2533626       -20.39806        -52.96095       -73.20248             -200               0             -200               0
1.55921               -0.2598121       -20.58765        -52.57679       -76.11354             -200               0             -200               0
1.56579               -0.2664897        -20.7802        -52.19232       -79.15998             -200               0             -200               0
1.57237               -0.2734182       -20.97571        -51.80969       -82.33419             -200               0             -200               0
1.57895               -0.2806158       -21.17418         -51.4307       -85.62759             -200               0             -200               0
1.58553               -0.2881056       -21.37559        -51.05684       -89.03106             -200               0             -200               0
1.59211               -0.2959046       -21.57988        -50.68935       -92.53528             -200               0             -200               0
1.59868               -0.3040284       -21.78701        -50.32918       -96.13093             -200               0             -200               0
1.60526               -0.3124905       -21.99693        -49.97711       -99.80888             -200               0             -200               0
1.61184               -0.3213027       -22.20956        -49.63369       -103.5603             -200               0             -200               0
1.61842               -0.3304722       -22.42485        -49.29935       -107.3768             -200               0             -200               0
1.625                 -0.3400058       -22.64272        -48.97436       -111.2503             -200               0             -200               0
1.63158               -0.3499045       -22.86312        -48.65889       -115.1731             -200               0             -200               0
1.63816               -0.3601715       -23.08599        -48.35301       -119.1383             -200               0             -200               0
1.64474               -0.3708007       -23.31129        -48.05669       -123.1389             -200               0             -200               0
1.65132               -0.3817882       -23.53899        -47.76985       -127.1687             -200               0             -200               0
1.65789               -0.3931281       -23.76908        -47.49234       -131.2218             -200               0             -200               0
1.66447                 -0.40481       -24.00157        -47.22395       -135.2925             -200               0             -200               0
1.67105               -0.4168266       -24.23649        -46.96445       -139.3757             -200               0             -200               0
1.67763               -0.4291643       -24.47389        -46.71353       -143.4665             -200               0             -200               0
1.68421               -0.4418148       -24.71385        -46.47086       -147.5603             -200               0             -200               0
1.69079               -0.4547679       -24.95649        -46.23608       -151.6529             -200               0             -200               0
1.69737               -0.4680132       -25.20192        -46.00878       -155.7403             -200               0             -200               0
1.70395               -0.4815451        -25.4503        -45.78854       -159.8189             -200               0             -200               0
1.71053               -0.4953569       -25.70182        -45.57488       -163.8851             -200               0             -200               0
1.71711               -0.5094476       -25.95668        -45.36733       -167.9361             -200               0             -200               0
1.72368               -0.5238163       -26.21511        -45.16535       -171.9689             -200               0             -200               0
1.73026               -0.5384698       -26.47734        -44.96839       -175.9811             -200               0             -200               0
1.73684               -0.5534155       -26.74363        -44.77589       -179.9706             -200               0             -200               0
1.74342               -0.5686672       -27.01425        -44.58725        176.0646             -200               0             -200               0
1.75                  -0.5842434       -27.28947        -44.40185        172.1258             -200               0             -200               0
1.75658               -0.6001662       -27.56957        -44.21905        168.2142             -200               0             -200               0
1.76316               -0.6164638       -27.85483         -44.0382        164.3304             -200               0             -200               0
1.76974               -0.6331672       -28.14552        -43.85865        160.4747             -200               0             -200               0
1.77632               -0.6503157        -28.4419        -43.67973        156.6469             -200               0             -200               0
1.78289               -0.6679483       -28.74423        -43.50079        152.8465             -200               0             -200               0
1.78947                -0.686112       -29.05275        -43.32116        149.0724             -200               0             -200               0
1.79605               -0.7048563       -29.36767        -43.14023         145.323             -200               0             -200               0
1.80263               -0.7242322       -29.68919        -42.95738        141.5964             -200               0             -200               0
1.80921               -0.7442957        -30.0175        -42.77204          137.89             -200               0             -200               0
1.81579               -0.7651028       -30.35273        -42.58369        134.2011             -200               0             -200               0
1.82237               -0.7867127       -30.69504        -42.39184        130.5263             -200               0             -200               0
1.82895               -0.8091864       -31.04453         -42.1961         126.862             -200               0             -200               0
1.83553               -0.8325831       -31.40129         -41.9961        123.2044             -200               0             -200               0
1.84211               -0.8569622       -31.76538        -41.79157        119.5493             -200               0             -200               0
1.84868               -0.8823845       -32.13685        -41.58233        115.8923             -200               0             -200               0
