! TOUCHSTONE file generated by CST MICROWAVE STUDIO
! Date and time: Tue Mar 18 00:02:27 2025
! Project name: oblique.cst
! Parameters = {Tilt=40; Fracture=1; B=10; D=160; F=25; Feed=2.85625; L=100; M=30; R=0.384908; S=2; Theta=90; length=57.125; wave=114.25}
! Header version: 2024
! Port assignment regex: !\s*Touchstone port\s*([0-9]+)\s*=\s*(CST MWS port|CST DES external port|CST DES block port)\s*(.+)\s* \(\"(.*)\"\)(\s*mode\s*([0-9]+))?.*
! Touchstone port assignment:
! Touchstone port 1 = CST MWS port 1 ("")
! Touchstone port 2 = CST MWS port 2 ("")
# GHz S DB R 50
1                    -0.02172107        -9.78252        -66.05492        164.3262             -200               0             -200               0
1.0066               -0.02220677       -9.868449        -66.07913        158.5807             -200               0             -200               0
1.0132               -0.02265441       -9.955205        -66.13646        152.9467             -200               0             -200               0
1.0198               -0.02307257       -10.04286        -66.22793        147.4344             -200               0             -200               0
1.0264               -0.02346994       -10.13147        -66.35473        142.0564             -200               0             -200               0
1.033                -0.02385427        -10.2211        -66.51826        136.8288             -200               0             -200               0
1.0396               -0.02423897       -10.31179        -66.72008        131.7717             -200               0             -200               0
1.0462               -0.02463395       -10.40357        -66.96193        126.9106             -200               0             -200               0
1.05281              -0.02505151       -10.49648        -67.24561        122.2775             -200               0             -200               0
1.05941               -0.0255055        -10.5905        -67.57293        117.9128             -200               0             -200               0
1.06601               -0.0260073       -10.68566        -67.94541        113.8679             -200               0             -200               0
1.07261              -0.02656932       -10.78191        -68.36401        110.2081             -200               0             -200               0
1.07921              -0.02720165       -10.87925        -68.82837         107.016             -200               0             -200               0
1.08581              -0.02791637       -10.97763        -69.33579        104.3956             -200               0             -200               0
1.09241              -0.02872118       -11.07699        -69.87939        102.4748             -200               0             -200               0
1.09901              -0.02962392       -11.17729        -70.44531        101.4045             -200               0             -200               0
1.10561              -0.03063069       -11.27846        -71.00883        101.3465             -200               0             -200               0
1.11221              -0.03174414       -11.38043        -71.52998        102.4411             -200               0             -200               0
1.11881              -0.03296748       -11.48313        -71.95123        104.7426             -200               0             -200               0
1.12541              -0.03430042        -11.5865        -72.20282        108.1261             -200               0             -200               0
1.13201              -0.03573886       -11.69047        -72.22078        112.2176             -200               0             -200               0
1.13861               -0.0372819       -11.79496        -71.97345        116.4315             -200               0             -200               0
1.14521              -0.03892097       -11.89993        -71.47775        120.1479             -200               0             -200               0
1.15182              -0.04065115       -12.00533        -70.79022        122.9151             -200               0             -200               0
1.15842              -0.04246075       -12.11112        -69.98119        124.5348             -200               0             -200               0
1.16502               -0.0443436       -12.21726        -69.11297        125.0159             -200               0             -200               0
1.17162              -0.04628565       -12.32375        -68.23085         124.481             -200               0             -200               0
1.17822               -0.0482773       -12.43058        -67.36371        123.0907             -200               0             -200               0
1.18482              -0.05030784       -12.53777        -66.52816        121.0021             -200               0             -200               0
1.19142              -0.05236282       -12.64534        -65.73273        118.3518             -200               0             -200               0
1.19802              -0.05443588       -12.75333          -64.981        115.2522             -200               0             -200               0
1.20462              -0.05651372       -12.86178        -64.27369        111.7938             -200               0             -200               0
1.21122              -0.05858838       -12.97078        -63.60996        108.0483             -200               0             -200               0
1.21782              -0.06065409       -13.08039        -62.98818        104.0728             -200               0             -200               0
1.22442              -0.06270325       -13.19068        -62.40632        99.91278             -200               0             -200               0
1.23102               -0.0647341       -13.30177        -61.86231        95.60502             -200               0             -200               0
1.23762              -0.06674202       -13.41373        -61.35407        91.17924             -200               0             -200               0
1.24422              -0.06873071       -13.52666        -60.87966        86.65989             -200               0             -200               0
1.25083              -0.07069943       -13.64067        -60.43726         82.0673             -200               0             -200               0
1.25743              -0.07265569       -13.75585        -60.02524        77.41862             -200               0             -200               0
1.26403              -0.07460401       -13.87229        -59.64209        72.72852             -200               0             -200               0
1.27063              -0.07655481       -13.99008        -59.28647        68.00972             -200               0             -200               0
1.27723              -0.07851682       -14.10928        -58.95714        63.27347             -200               0             -200               0
1.28383              -0.08050302       -14.22997        -58.65301        58.52986             -200               0             -200               0
1.29043              -0.08252571        -14.3522        -58.37309        53.78812             -200               0             -200               0
1.29703              -0.08459831         -14.476        -58.11647        49.05683             -200               0             -200               0
1.30363               -0.0867371       -14.60142        -57.88233        44.34412             -200               0             -200               0
1.31023              -0.08895228       -14.72845         -57.6699        39.65785             -200               0             -200               0
1.31683              -0.09126247        -14.8571        -57.47847        35.00568             -200               0             -200               0
1.32343               -0.0936785       -14.98735        -57.30737        30.39525             -200               0             -200               0
1.33003              -0.09621364       -15.11919        -57.15594        25.83429             -200               0             -200               0
1.33663              -0.09887976       -15.25255        -57.02353        21.33064             -200               0             -200               0
1.34323               -0.1016859       -15.38741        -56.90947        16.89242             -200               0             -200               0
1.34984               -0.1046404        -15.5237        -56.81308        12.52801             -200               0             -200               0
1.35644               -0.1077488       -15.66136         -56.7336        8.246183             -200               0             -200               0
1.36304               -0.1110158       -15.80032        -56.67021        4.056089             -200               0             -200               0
1.36964               -0.1144411       -15.94053        -56.62196      -0.0327087             -200               0             -200               0
1.37624               -0.1180255        -16.0819        -56.58779        -4.01025             -200               0             -200               0
1.38284               -0.1217671       -16.22439        -56.56644       -7.866237             -200               0             -200               0
1.38944               -0.1256567       -16.36794        -56.55644       -11.59014             -200               0             -200               0
1.39604                -0.129692        -16.5125        -56.55608       -15.17137             -200               0             -200               0
1.40264                -0.133862       -16.65804        -56.56333       -18.59954             -200               0             -200               0
1.40924               -0.1381573       -16.80455        -56.57583       -21.86485             -200               0             -200               0
1.41584               -0.1425667       -16.95201        -56.59084       -24.95856             -200               0             -200               0
1.42244               -0.1470788       -17.10043        -56.60521       -27.87362             -200               0             -200               0
1.42904                 -0.15168       -17.24986        -56.61542       -30.60543             -200               0             -200               0
1.43564               -0.1563599       -17.40031        -56.61756       -33.15268             -200               0             -200               0
1.44224               -0.1611061       -17.55187        -56.60744        -35.5183             -200               0             -200               0
1.44884               -0.1659093       -17.70461         -56.5807        -37.7103             -200               0             -200               0
1.45545               -0.1707588       -17.85862        -56.53301       -39.74243             -200               0             -200               0
1.46205               -0.1756483       -18.01402        -56.46026       -41.63458             -200               0             -200               0
1.46865               -0.1805719       -18.17091        -56.35885       -43.41264             -200               0             -200               0
1.47525               -0.1855269       -18.32944        -56.22596       -45.10771             -200               0             -200               0
1.48185               -0.1905134       -18.48974        -56.05974       -46.75483             -200               0             -200               0
1.48845               -0.1955317       -18.65195        -55.85949       -48.39113             -200               0             -200               0
1.49505               -0.2005889       -18.81622        -55.62572       -50.05367             -200               0             -200               0
1.50165               -0.2056923        -18.9827        -55.36005       -51.77737             -200               0             -200               0
1.50825               -0.2108535       -19.15151        -55.06513       -53.59315             -200               0             -200               0
1.51485               -0.2160843       -19.32281         -54.7443       -55.52665             -200               0             -200               0
1.52145               -0.2214026       -19.49671        -54.40144       -57.59748             -200               0             -200               0
1.52805               -0.2268252       -19.67333        -54.04065       -59.81912             -200               0             -200               0
1.53465               -0.2323731       -19.85276        -53.66599       -62.19931             -200               0             -200               0
1.54125               -0.2380675        -20.0351         -53.2814       -64.74072             -200               0             -200               0
1.54785               -0.2439306       -20.22039        -52.89046       -67.44181             -200               0             -200               0
1.55446               -0.2499862        -20.4087        -52.49642       -70.29778             -200               0             -200               0
1.56106               -0.2562578       -20.60004        -52.10207        -73.3014             -200               0             -200               0
1.56766                -0.262769       -20.79445        -51.70983       -76.44378             -200               0             -200               0
1.57426               -0.2695412        -20.9919        -51.32169       -79.71499             -200               0             -200               0
1.58086               -0.2765955       -21.19237         -50.9393       -83.10455             -200               0             -200               0
1.58746               -0.2839524       -21.39584        -50.56398       -86.60185             -200               0             -200               0
1.59406               -0.2916283       -21.60225        -50.19677       -90.19632             -200               0             -200               0
1.60066               -0.2996391       -21.81155        -49.83846       -93.87771             -200               0             -200               0
1.60726               -0.3079967       -22.02366        -49.48965       -97.63619             -200               0             -200               0
1.61386               -0.3167115       -22.23853        -49.15075       -101.4624             -200               0             -200               0
1.62046                -0.325789       -22.45607        -48.82202       -105.3474             -200               0             -200               0
1.62706               -0.3352338       -22.67624        -48.50361       -109.2829             -200               0             -200               0
1.63366               -0.3450472       -22.89896        -48.19556        -113.261             -200               0             -200               0
1.64026                -0.355227       -23.12419        -47.89781       -117.2744             -200               0             -200               0
1.64686               -0.3657694       -23.35189        -47.61024       -121.3163             -200               0             -200               0
1.65347               -0.3766681       -23.58206        -47.33266       -125.3802             -200               0             -200               0
1.66007               -0.3879139       -23.81468        -47.06483         -129.46             -200               0             -200               0
1.66667               -0.3994986       -24.04978        -46.80646       -133.5502             -200               0             -200               0
1.67327               -0.4114107       -24.28741         -46.5572       -137.6454             -200               0             -200               0
1.67987               -0.4236408       -24.52765        -46.31667       -141.7408             -200               0             -200               0
1.68647               -0.4361791       -24.77059        -46.08445       -145.8317             -200               0             -200               0
1.69307               -0.4490132       -25.01634         -45.8601       -149.9139             -200               0             -200               0
1.69967               -0.4621384       -25.26508        -45.64311       -153.9833             -200               0             -200               0
1.70627               -0.4755476       -25.51697        -45.43296       -158.0364             -200               0             -200               0
1.71287               -0.4892385        -25.7722        -45.22909       -162.0699             -200               0             -200               0
1.71947               -0.5032109       -26.03101        -45.03092       -166.0806             -200               0             -200               0
1.72607               -0.5174682       -26.29363        -44.83781        -170.066             -200               0             -200               0
1.73267               -0.5320192       -26.56031        -44.64912       -174.0238             -200               0             -200               0
1.73927               -0.5468758       -26.83132        -44.46416       -177.9521             -200               0             -200               0
1.74587               -0.5620543       -27.10694        -44.28222        178.1507             -200               0             -200               0
1.75248               -0.5775781       -27.38744        -44.10259        174.2855             -200               0             -200               0
1.75908               -0.5934733       -27.67311        -43.92452         170.453             -200               0             -200               0
1.76568               -0.6097713       -27.96422        -43.74726        166.6532             -200               0             -200               0
1.77228               -0.6265073       -28.26104        -43.57005        162.8857             -200               0             -200               0
1.77888               -0.6437238       -28.56382        -43.39213        159.1496             -200               0             -200               0
1.78548               -0.6614655       -28.87282        -43.21278        155.4433             -200               0             -200               0
1.79208                -0.679781       -29.18827        -43.03128        151.7648             -200               0             -200               0
1.79868               -0.6987212       -29.51035        -42.84696        148.1115             -200               0             -200               0
1.80528               -0.7183422       -29.83928        -42.65917        144.4802             -200               0             -200               0
1.81188               -0.7387008        -30.1752        -42.46736        140.8674             -200               0             -200               0
1.81848               -0.7598559       -30.51827        -42.27102         137.269             -200               0             -200               0
1.82508                -0.781868        -30.8686        -42.06972        133.6805             -200               0             -200               0
1.83168               -0.8047983       -31.22629        -41.86312        130.0971             -200               0             -200               0
1.83828               -0.8287075       -31.59143        -41.65098         126.514             -200               0             -200               0
1.84488               -0.8536566       -31.96407        -41.43314        122.9259             -200               0             -200               0
1.85149               -0.8797078       -32.34426        -41.20954        119.3277             -200               0             -200               0
