! TOUCHSTONE file generated by CST MICROWAVE STUDIO
! Date and time: Tue Mar 18 00:02:57 2025
! Project name: oblique.cst
! Parameters = {Tilt=40; Fracture=1; B=12.5; D=160; F=15; Feed=2.85625; L=100; M=10; R=0.384908; S=2; Theta=180; length=57.125; wave=114.25}
! Header version: 2024
! Port assignment regex: !\s*Touchstone port\s*([0-9]+)\s*=\s*(CST MWS port|CST DES external port|CST DES block port)\s*(.+)\s* \(\"(.*)\"\)(\s*mode\s*([0-9]+))?.*
! Touchstone port assignment:
! Touchstone port 1 = CST MWS port 1 ("")
! Touchstone port 2 = CST MWS port 2 ("")
# GHz S DB R 50
1                    -0.01913323       -9.779886        -69.94802       -154.8657             -200               0             -200               0
1.0066                -0.0198487       -9.868399        -69.84172       -158.2141             -200               0             -200               0
1.0132               -0.02060147       -9.957401        -69.75174        -161.429             -200               0             -200               0
1.0198                -0.0213894       -10.04688        -69.67604       -164.4967             -200               0             -200               0
1.0264               -0.02221034       -10.13683        -69.61221       -167.4036             -200               0             -200               0
1.033                -0.02306088       -10.22725        -69.55747       -170.1365             -200               0             -200               0
1.0396               -0.02393754       -10.31814        -69.50858       -172.6837             -200               0             -200               0
1.0462               -0.02483571        -10.4095         -69.4618       -175.0349             -200               0             -200               0
1.05281               -0.0257536       -10.50135        -69.41287        -177.183             -200               0             -200               0
1.05941              -0.02668684       -10.59371        -69.35706       -179.1249             -200               0             -200               0
1.06601              -0.02763236       -10.68658        -69.28923        179.1375             -200               0             -200               0
1.07261              -0.02858701          -10.78          -69.204        177.5956             -200               0             -200               0
1.07921              -0.02954899         -10.874        -69.09599        176.2334             -200               0             -200               0
1.08581              -0.03051539       -10.96861        -68.96013        175.0271             -200               0             -200               0
1.09241              -0.03148576       -11.06386        -68.79201        173.9448             -200               0             -200               0
1.09901              -0.03245859        -11.1598        -68.58825         172.948             -200               0             -200               0
1.10561              -0.03343472       -11.25645         -68.3468        171.9935             -200               0             -200               0
1.11221              -0.03441415       -11.35387        -68.06714         171.036             -200               0             -200               0
1.11881              -0.03539978       -11.45209         -67.7503        170.0307             -200               0             -200               0
1.12541              -0.03639358       -11.55114        -67.39872         168.937             -200               0             -200               0
1.13201              -0.03739802       -11.65108        -67.01603          167.72             -200               0             -200               0
1.13861               -0.0384172       -11.75192        -66.60666        166.3523             -200               0             -200               0
1.14521              -0.03945537        -11.8537        -66.17546        164.8144             -200               0             -200               0
1.15182              -0.04051837       -11.95645        -65.72743        163.0946             -200               0             -200               0
1.15842              -0.04160999       -12.06019        -65.26737        161.1881             -200               0             -200               0
1.16502              -0.04273595       -12.16494        -64.79972        159.0958             -200               0             -200               0
1.17162              -0.04390243       -12.27071        -64.32846        156.8228             -200               0             -200               0
1.17822              -0.04511432       -12.37751        -63.85702        154.3779             -200               0             -200               0
1.18482              -0.04637759       -12.48535         -63.3883        151.7716             -200               0             -200               0
1.19142              -0.04769646       -12.59421         -62.9247        149.0159             -200               0             -200               0
1.19802              -0.04907668        -12.7041        -62.46815        146.1235             -200               0             -200               0
1.20462              -0.05052266       -12.81501        -62.02016        143.1072             -200               0             -200               0
1.21122               -0.0520373       -12.92692        -61.58192        139.9793             -200               0             -200               0
1.21782              -0.05362371       -13.03982         -61.1543        136.7521             -200               0             -200               0
1.22442              -0.05528384       -13.15369        -60.73793         133.437             -200               0             -200               0
1.23102              -0.05702032       -13.26852        -60.33323        130.0447             -200               0             -200               0
1.23762              -0.05883255       -13.38428        -59.94047        126.5855             -200               0             -200               0
1.24422              -0.06072156       -13.50097        -59.55975        123.0687             -200               0             -200               0
1.25083              -0.06268522       -13.61856        -59.19108         119.503             -200               0             -200               0
1.25743              -0.06472315       -13.73705        -58.83437        115.8966             -200               0             -200               0
1.26403              -0.06683196       -13.85642        -58.48946        112.2571             -200               0             -200               0
1.27063              -0.06900946       -13.97668        -58.15613        108.5913             -200               0             -200               0
1.27723              -0.07125178       -14.09783        -57.83408        104.9057             -200               0             -200               0
1.28383              -0.07355644       -14.21987          -57.523        101.2063             -200               0             -200               0
1.29043              -0.07591789       -14.34281        -57.22252        97.49869             -200               0             -200               0
1.29703               -0.0783337       -14.46668        -56.93224        93.78797             -200               0             -200               0
1.30363              -0.08079842        -14.5915        -56.65173        90.07891             -200               0             -200               0
1.31023              -0.08330945        -14.7173        -56.38054        86.37593             -200               0             -200               0
1.31683              -0.08586347       -14.84412        -56.11818        82.68311             -200               0             -200               0
1.32343              -0.08845738       -14.97201        -55.86414        79.00419             -200               0             -200               0
1.33003              -0.09108884         -15.101        -55.61789        75.34259             -200               0             -200               0
1.33663              -0.09375737       -15.23117        -55.37889        71.70141             -200               0             -200               0
1.34323              -0.09646143       -15.36255        -55.14654        68.08342             -200               0             -200               0
1.34984              -0.09920067       -15.49521        -54.92027        64.49109             -200               0             -200               0
1.35644               -0.1019774       -15.62921        -54.69945        60.92652             -200               0             -200               0
1.36304               -0.1047931       -15.76462        -54.48346        57.39146             -200               0             -200               0
1.36964               -0.1076516       -15.90149        -54.27166        53.88733             -200               0             -200               0
1.37624                -0.110556       -16.03988        -54.06339        50.41513             -200               0             -200               0
1.38284                -0.113512       -16.17986        -53.85801        46.97549             -200               0             -200               0
1.38944                -0.116524       -16.32148        -53.65483        43.56863             -200               0             -200               0
1.39604                  -0.1196        -16.4648        -53.45323        40.19437             -200               0             -200               0
1.40264               -0.1227463       -16.60986        -53.25254        36.85206             -200               0             -200               0
1.40924               -0.1259716       -16.75671        -53.05215        33.54069             -200               0             -200               0
1.41584               -0.1292821       -16.90539        -52.85146        30.25879             -200               0             -200               0
1.42244               -0.1326864       -17.05593        -52.64988        27.00449             -200               0             -200               0
1.42904               -0.1361926       -17.20837        -52.44691        23.77554             -200               0             -200               0
1.43564               -0.1398104       -17.36272        -52.24204        20.56934             -200               0             -200               0
1.44224               -0.1435448       -17.51901        -52.03487        17.38296             -200               0             -200               0
1.44884               -0.1474062       -17.67725        -51.82501        14.21321             -200               0             -200               0
1.45545               -0.1513994       -17.83746        -51.61217        11.05666             -200               0             -200               0
1.46205               -0.1555321       -17.99965        -51.39613        7.909753             -200               0             -200               0
1.46865                 -0.15981       -18.16383        -51.17671        4.768812             -200               0             -200               0
1.47525               -0.1642378          -18.33        -50.95384        1.630145             -200               0             -200               0
1.48185               -0.1688196       -18.49817         -50.7275         -1.5099             -200               0             -200               0
1.48845               -0.1735599       -18.66835        -50.49775       -4.654876             -200               0             -200               0
1.49505               -0.1784604       -18.84055        -50.26471       -7.808165             -200               0             -200               0
1.50165               -0.1835252        -19.0148        -50.02858       -10.97293             -200               0             -200               0
1.50825               -0.1887539       -19.19109        -49.78958       -14.15207             -200               0             -200               0
1.51485                -0.194149       -19.36947        -49.54799       -17.34816             -200               0             -200               0
1.52145                 -0.19971       -19.54997        -49.30416       -20.56347             -200               0             -200               0
1.52805               -0.2054382       -19.73261        -49.05841       -23.79988             -200               0             -200               0
1.53465               -0.2113333       -19.91746        -48.81114       -27.05892             -200               0             -200               0
1.54125               -0.2173964       -20.10455        -48.56273       -30.34174             -200               0             -200               0
1.54785               -0.2236279       -20.29396        -48.31357       -33.64914             -200               0             -200               0
1.55446               -0.2300293       -20.48574        -48.06406       -36.98154             -200               0             -200               0
1.56106                -0.236602          -20.68        -47.81459       -40.33905             -200               0             -200               0
1.56766               -0.2433489       -20.87679        -47.56552       -43.72145             -200               0             -200               0
1.57426               -0.2502746       -21.07623        -47.31721       -47.12824             -200               0             -200               0
1.58086               -0.2573824       -21.27841        -47.06999       -50.55865             -200               0             -200               0
1.58746               -0.2646799       -21.48343        -46.82417       -54.01167             -200               0             -200               0
1.59406               -0.2721738        -21.6914        -46.58002       -57.48611             -200               0             -200               0
1.60066               -0.2798739       -21.90244        -46.33778       -60.98057             -200               0             -200               0
1.60726               -0.2877912       -22.11667        -46.09768       -64.49353             -200               0             -200               0
1.61386               -0.2959373       -22.33419        -45.85989       -68.02335             -200               0             -200               0
1.62046               -0.3043274       -22.55514        -45.62456       -71.56828             -200               0             -200               0
1.62706               -0.3129762       -22.77961        -45.39179       -75.12651             -200               0             -200               0
1.63366                -0.321902       -23.00773        -45.16166        -78.6962             -200               0             -200               0
1.64026               -0.3311235       -23.23961        -44.93422       -82.27546             -200               0             -200               0
1.64686                -0.340661       -23.47535        -44.70948       -85.86244             -200               0             -200               0
1.65347               -0.3505366       -23.71505         -44.4874       -89.45528             -200               0             -200               0
1.66007                -0.360773        -23.9588        -44.26795       -93.05217             -200               0             -200               0
1.66667               -0.3713943       -24.20669        -44.05102       -96.65137             -200               0             -200               0
1.67327               -0.3824246       -24.45881        -43.83651       -100.2512             -200               0             -200               0
1.67987               -0.3938906       -24.71522        -43.62428       -103.8501             -200               0             -200               0
1.68647               -0.4058201       -24.97599        -43.41414       -107.4466             -200               0             -200               0
1.69307               -0.4182358       -25.24118        -43.20591       -111.0395             -200               0             -200               0
1.69967               -0.4311682       -25.51084        -42.99936       -114.6274             -200               0             -200               0
1.70627               -0.4446435       -25.78502        -42.79426       -118.2094             -200               0             -200               0
1.71287               -0.4586881       -26.06375        -42.59036       -121.7847             -200               0             -200               0
1.71947               -0.4733304       -26.34709        -42.38736       -125.3526             -200               0             -200               0
1.72607               -0.4885966       -26.63506          -42.185       -128.9127             -200               0             -200               0
1.73267               -0.5045139       -26.92769        -41.98297       -132.4647             -200               0             -200               0
1.73927               -0.5211094       -27.22501        -41.78097       -136.0086             -200               0             -200               0
1.74587               -0.5384086       -27.52706        -41.57869       -139.5447             -200               0             -200               0
1.75248               -0.5564407       -27.83387        -41.37584       -143.0734             -200               0             -200               0
1.75908                -0.575229       -28.14547        -41.17211       -146.5954             -200               0             -200               0
1.76568               -0.5948039       -28.46191        -40.96721       -150.1116             -200               0             -200               0
1.77228               -0.6151914       -28.78322        -40.76086       -153.6232             -200               0             -200               0
1.77888               -0.6364197       -29.10945        -40.55282       -157.1315             -200               0             -200               0
1.78548               -0.6585172       -29.44066        -40.34283       -160.6381             -200               0             -200               0
1.79208               -0.6815145       -29.77691         -40.1307       -164.1447             -200               0             -200               0
1.79868               -0.7054423       -30.11826        -39.91623       -167.6532             -200               0             -200               0
1.80528                -0.730333       -30.46478        -39.69929       -171.1658             -200               0             -200               0
1.81188               -0.7562219       -30.81657        -39.47974       -174.6845             -200               0             -200               0
1.81848               -0.7831452       -31.17368        -39.25752       -178.2117             -200               0             -200               0
1.82508               -0.8111426       -31.53623        -39.03259        178.2504             -200               0             -200               0
1.83168               -0.8402554       -31.90429        -38.80493        174.6994             -200               0             -200               0
1.83828               -0.8705274       -32.27796        -38.57458        171.1329             -200               0             -200               0
1.84488               -0.9020075       -32.65734        -38.34162        167.5488             -200               0             -200               0
1.85149               -0.9347454       -33.04251        -38.10615        163.9448             -200               0             -200               0
