! TOUCHSTONE file generated by CST MICROWAVE STUDIO
! Date and time: Tue Mar 18 00:01:37 2025
! Project name: oblique.cst
! Parameters = {Tilt=30; Fracture=1; B=12.5; D=160; F=15; Feed=2.85625; L=100; M=10; R=0.384908; S=2; Theta=270; length=57.125; wave=114.25}
! Header version: 2024
! Port assignment regex: !\s*Touchstone port\s*([0-9]+)\s*=\s*(CST MWS port|CST DES external port|CST DES block port)\s*(.+)\s* \(\"(.*)\"\)(\s*mode\s*([0-9]+))?.*
! Touchstone port assignment:
! Touchstone port 1 = CST MWS port 1 ("")
! Touchstone port 2 = CST MWS port 2 ("")
# GHz S DB R 50
1                    -0.01916981       -9.781227        -70.28629       -149.7358             -200               0             -200               0
1.00658              -0.01988588       -9.869466        -70.08604       -152.9486             -200               0             -200               0
1.01316              -0.02064004       -9.958188        -69.90098       -156.0892             -200               0             -200               0
1.01974              -0.02142814       -10.04738        -69.72958       -159.1467             -200               0             -200               0
1.02632              -0.02225001       -10.13704        -69.57017       -162.1107             -200               0             -200               0
1.03289              -0.02309975       -10.22716        -69.42084       -164.9712             -200               0             -200               0
1.03947              -0.02397588       -10.31775         -69.2795       -167.7195             -200               0             -200               0
1.04605              -0.02487326        -10.4088         -69.1438       -170.3479             -200               0             -200               0
1.05263              -0.02579019       -10.50033        -69.01117       -172.8503             -200               0             -200               0
1.05921              -0.02672168       -10.59237        -68.87878       -175.2225             -200               0             -200               0
1.06579              -0.02766475       -10.68491        -68.74362        -177.463             -200               0             -200               0
1.07237               -0.0286167         -10.778        -68.60253       -179.5729             -200               0             -200               0
1.07895              -0.02957576       -10.87167        -68.45224        178.4428             -200               0             -200               0
1.08553              -0.03053849       -10.96593        -68.28955        176.5757             -200               0             -200               0
1.09211              -0.03150446       -11.06084        -68.11137        174.8135             -200               0             -200               0
1.09868              -0.03247313       -11.15642        -67.91494        173.1397             -200               0             -200               0
1.10526              -0.03344393       -11.25272        -67.69793        171.5343             -200               0             -200               0
1.11184              -0.03441878       -11.34978        -67.45858        169.9747             -200               0             -200               0
1.11842              -0.03539863       -11.44763        -67.19584         168.436             -200               0             -200               0
1.125                -0.03638536       -11.54632         -66.9094        166.8926             -200               0             -200               0
1.13158              -0.03738358       -11.64588        -66.59971        165.3191             -200               0             -200               0
1.13816              -0.03839637       -11.74635        -66.26791         163.692             -200               0             -200               0
1.14474              -0.03942684       -11.84775         -65.9158          161.99             -200               0             -200               0
1.15132              -0.04048198       -11.95012        -65.54562        160.1954             -200               0             -200               0
1.15789              -0.04156506       -12.05347        -65.15996        158.2939             -200               0             -200               0
1.16447              -0.04268284       -12.15782        -64.76161        156.2753             -200               0             -200               0
1.17105              -0.04384042       -12.26319        -64.35339         154.133             -200               0             -200               0
1.17763              -0.04504276       -12.36959        -63.93806        151.8639             -200               0             -200               0
1.18421              -0.04629638       -12.47701        -63.51825        149.4678             -200               0             -200               0
1.19079              -0.04760595       -12.58546        -63.09637        146.9469             -200               0             -200               0
1.19737              -0.04897623       -12.69494        -62.67457        144.3054             -200               0             -200               0
1.20395              -0.05041113       -12.80542        -62.25476         141.549             -200               0             -200               0
1.21053               -0.0519151        -12.9169        -61.83859        138.6843             -200               0             -200               0
1.21711              -0.05349076       -13.02936        -61.42745        135.7188             -200               0             -200               0
1.22368              -0.05514066       -13.14279         -61.0225        132.6601             -200               0             -200               0
1.23026              -0.05686625       -13.25717        -60.62469        129.5162             -200               0             -200               0
1.23684              -0.05866817       -13.37248        -60.23476        126.2952             -200               0             -200               0
1.24342              -0.06054583       -13.48871        -59.85331        123.0046             -200               0             -200               0
1.25                 -0.06249864       -13.60583        -59.48078        119.6523             -200               0             -200               0
1.25658              -0.06452476       -13.72384        -59.11749        116.2454             -200               0             -200               0
1.26316              -0.06662236       -13.84272        -58.76363         112.791             -200               0             -200               0
1.26974              -0.06878879       -13.96249         -58.4193        109.2957             -200               0             -200               0
1.27632              -0.07102016       -14.08313        -58.08454        105.7658             -200               0             -200               0
1.28289              -0.07331296       -14.20465        -57.75929        102.2073             -200               0             -200               0
1.28947              -0.07566339       -14.32706        -57.44344        98.62582             -200               0             -200               0
1.29605              -0.07806681       -14.45039        -57.13683        95.02663             -200               0             -200               0
1.30263              -0.08051991       -14.57466        -56.83924        91.41471             -200               0             -200               0
1.30921              -0.08301928       -14.69989        -56.55041        87.79472             -200               0             -200               0
1.31579              -0.08556035       -14.82613        -56.27006        84.17102             -200               0             -200               0
1.32237              -0.08814119       -14.95342        -55.99783        80.54767             -200               0             -200               0
1.32895              -0.09075942       -15.08181        -55.73339        76.92845             -200               0             -200               0
1.33553              -0.09341278       -15.21134        -55.47632        73.31685             -200               0             -200               0
1.34211              -0.09610255       -15.34209        -55.22622        69.71607             -200               0             -200               0
1.34868              -0.09882605       -15.47409        -54.98263        66.12904             -200               0             -200               0
1.35526                -0.101586       -15.60741         -54.7451        62.55839             -200               0             -200               0
1.36184               -0.1043835       -15.74213        -54.51312        59.00647             -200               0             -200               0
1.36842               -0.1072234       -15.87829         -54.2862        55.47529             -200               0             -200               0
1.375                 -0.1101071       -16.01595        -54.06381        51.96659             -200               0             -200               0
1.38158               -0.1130405       -16.15519         -53.8454        48.48178             -200               0             -200               0
1.38816               -0.1160301       -16.29605        -53.63045        45.02192             -200               0             -200               0
1.39474               -0.1190807       -16.43859        -53.41839        41.58774             -200               0             -200               0
1.40132               -0.1222007       -16.58285        -53.20866        38.17962             -200               0             -200               0
1.40789               -0.1253967       -16.72889        -53.00072        34.79759             -200               0             -200               0
1.41447               -0.1286765       -16.87674        -52.79403        31.44131             -200               0             -200               0
1.42105               -0.1320483       -17.02644        -52.58804         28.1101             -200               0             -200               0
1.42763               -0.1355204       -17.17802        -52.38225        24.80291             -200               0             -200               0
1.43421               -0.1391017        -17.3315        -52.17618        21.51836             -200               0             -200               0
1.44079               -0.1427977        -17.4869        -51.96936        18.25475             -200               0             -200               0
1.44737               -0.1466194       -17.64424        -51.76139        15.01007             -200               0             -200               0
1.45395               -0.1505714       -17.80354         -51.5519        11.78205             -200               0             -200               0
1.46053               -0.1546606        -17.9648        -51.34055        8.568196             -200               0             -200               0
1.46711               -0.1588928       -18.12802        -51.12707        5.365799             -200               0             -200               0
1.47368                -0.163274       -18.29323        -50.91125        2.172022             -200               0             -200               0
1.48026               -0.1678079       -18.46042        -50.69293       -1.016067             -200               0             -200               0
1.48684               -0.1724988        -18.6296          -50.472       -4.201449             -200               0             -200               0
1.49342               -0.1773489       -18.80079        -50.24843       -7.387091             -200               0             -200               0
1.5                   -0.1823607         -18.974        -50.02223        -10.5759             -200               0             -200               0
1.50658               -0.1875364       -19.14924        -49.79346       -13.77068             -200               0             -200               0
1.51316               -0.1928764       -19.32654        -49.56225       -16.97407             -200               0             -200               0
1.51974               -0.1983816       -19.50592        -49.32877       -20.18852             -200               0             -200               0
1.52632                -0.204053       -19.68743        -49.09322       -23.41624             -200               0             -200               0
1.53289               -0.2098893       -19.87111        -48.85584       -26.65919             -200               0             -200               0
1.53947               -0.2158927       -20.05701         -48.6169       -29.91906             -200               0             -200               0
1.54605               -0.2220615       -20.24519         -48.3767       -33.19723             -200               0             -200               0
1.55263               -0.2284002       -20.43571        -48.13553        -36.4948             -200               0             -200               0
1.55921               -0.2349073       -20.62866        -47.89372       -39.81256             -200               0             -200               0
1.56579               -0.2415868       -20.82411        -47.65158       -43.15101             -200               0             -200               0
1.57237                -0.248441       -21.02216        -47.40942       -46.51036             -200               0             -200               0
1.57895               -0.2554753       -21.22291        -47.16755       -49.89056             -200               0             -200               0
1.58553               -0.2626959       -21.42645        -46.92626       -53.29131             -200               0             -200               0
1.59211               -0.2701078        -21.6329        -46.68584       -56.71205             -200               0             -200               0
1.59868                -0.277723       -21.84236        -46.44654       -60.15206             -200               0             -200               0
1.60526               -0.2855494       -22.05495        -46.20859       -63.61037             -200               0             -200               0
1.61184               -0.2935989        -22.2708        -45.97219       -67.08592             -200               0             -200               0
1.61842               -0.3018863          -22.49        -45.73754       -70.57744             -200               0             -200               0
1.625                 -0.3104269       -22.71269        -45.50479        -74.0836             -200               0             -200               0
1.63158               -0.3192377       -22.93897        -45.27405       -77.60296             -200               0             -200               0
1.63816               -0.3283351       -23.16894        -45.04543       -81.13399             -200               0             -200               0
1.64474               -0.3377413       -23.40273        -44.81898       -84.67516             -200               0             -200               0
1.65132               -0.3474762       -23.64042        -44.59474       -88.22488             -200               0             -200               0
1.65789               -0.3575628       -23.88212        -44.37271       -91.78156             -200               0             -200               0
1.66447                -0.368025        -24.1279        -44.15287       -95.34365             -200               0             -200               0
1.67105               -0.3788866       -24.37786        -43.93516       -98.90963             -200               0             -200               0
1.67763               -0.3901727       -24.63205        -43.71949        -102.478             -200               0             -200               0
1.68421               -0.4019102       -24.89057        -43.50576       -106.0474             -200               0             -200               0
1.69079               -0.4141243       -25.15344        -43.29383       -109.6165             -200               0             -200               0
1.69737               -0.4268429       -25.42075        -43.08354       -113.1842             -200               0             -200               0
1.70395               -0.4400923       -25.69253        -42.87471       -116.7493             -200               0             -200               0
1.71053               -0.4538986       -25.96882        -42.66714       -120.3109             -200               0             -200               0
1.71711               -0.4682895       -26.24966        -42.46061       -123.8683             -200               0             -200               0
1.72368               -0.4832912       -26.53508        -42.25487       -127.4209             -200               0             -200               0
1.73026               -0.4989312       -26.82513        -42.04969       -130.9681             -200               0             -200               0
1.73684               -0.5152356       -27.11982        -41.84481       -134.5099             -200               0             -200               0
1.74342               -0.5322307       -27.41919        -41.63996       -138.0462             -200               0             -200               0
1.75                  -0.5499421       -27.72327        -41.43487       -141.5771             -200               0             -200               0
1.75658               -0.5683978       -28.03209        -41.22927        -145.103             -200               0             -200               0
1.76316               -0.5876227        -28.3457         -41.0229       -148.6246             -200               0             -200               0
1.76974               -0.6076455       -28.66412        -40.81551       -152.1426             -200               0             -200               0
1.77632               -0.6284918       -28.98741        -40.60684       -155.6581             -200               0             -200               0
1.78289                -0.650191       -29.31562        -40.39667       -159.1722             -200               0             -200               0
1.78947               -0.6727712       -29.64881        -40.18479       -162.6863             -200               0             -200               0
1.79605               -0.6962635       -29.98704        -39.97101       -166.2021             -200               0             -200               0
1.80263               -0.7206986       -30.33038        -39.75517       -169.7212             -200               0             -200               0
1.80921               -0.7461104       -30.67891        -39.53712       -173.2455             -200               0             -200               0
1.81579               -0.7725347        -31.0327        -39.31677        -176.777             -200               0             -200               0
1.82237                -0.800009       -31.39185        -39.09405        179.6824             -200               0             -200               0
1.82895               -0.8285726       -31.75645        -38.86891        176.1306             -200               0             -200               0
1.83553               -0.8582696       -32.12658        -38.64136        172.5653             -200               0             -200               0
1.84211               -0.8891458       -32.50235        -38.41142        168.9845             -200               0             -200               0
1.84868               -0.9212501       -32.88384        -38.17915        165.3862             -200               0             -200               0
