! TOUCHSTONE file generated by CST MICROWAVE STUDIO
! Date and time: Tue Mar 18 00:01:16 2025
! Project name: oblique.cst
! Parameters = {Tilt=30; Fracture=1; B=10; D=160; F=25; Feed=2.85625; L=100; M=30; R=0.384908; S=2; Theta=270; length=57.125; wave=114.25}
! Header version: 2024
! Port assignment regex: !\s*Touchstone port\s*([0-9]+)\s*=\s*(CST MWS port|CST DES external port|CST DES block port)\s*(.+)\s* \(\"(.*)\"\)(\s*mode\s*([0-9]+))?.*
! Touchstone port assignment:
! Touchstone port 1 = CST MWS port 1 ("")
! Touchstone port 2 = CST MWS port 2 ("")
# GHz S DB R 50
1                    -0.02171923       -9.781543        -66.06796         164.415             -200               0             -200               0
1.0066                -0.0222054       -9.867463        -66.09114        158.6744             -200               0             -200               0
1.0132               -0.02265569       -9.954206        -66.14738        153.0454             -200               0             -200               0
1.0198               -0.02307551       -10.04184        -66.23769        147.5381             -200               0             -200               0
1.0264               -0.02347355       -10.13044        -66.36324        142.1649             -200               0             -200               0
1.033                -0.02386025       -10.22005         -66.5254        136.9421             -200               0             -200               0
1.0396               -0.02424529       -10.31072        -66.72573        131.8897             -200               0             -200               0
1.0462               -0.02464118       -10.40248        -66.96592        127.0331             -200               0             -200               0
1.05281              -0.02506081       -10.49536        -67.24774         122.404             -200               0             -200               0
1.05941              -0.02551531       -10.58936        -67.57296        118.0429             -200               0             -200               0
1.06601               -0.0260177       -10.68448        -67.94308        114.0008             -200               0             -200               0
1.07261              -0.02657985       -10.78071        -68.35897        110.3424             -200               0             -200               0
1.07921              -0.02721291       -10.87801        -68.82025        107.1497             -200               0             -200               0
1.08581              -0.02792686       -10.97635        -69.32416        104.5256             -200               0             -200               0
1.09241              -0.02873133       -11.07568        -69.86382        102.5968             -200               0             -200               0
1.09901              -0.02963327       -11.17595        -70.42545        101.5119             -200               0             -200               0
1.10561              -0.03063872       -11.27709        -70.98458        101.4303             -200               0             -200               0
1.11221              -0.03175033       -11.37903        -71.50175        102.4901             -200               0             -200               0
1.11881               -0.0329718        -11.4817        -71.92033        104.7447             -200               0             -200               0
1.12541              -0.03430129       -11.58504        -72.17162        108.0724             -200               0             -200               0
1.13201              -0.03573781       -11.68898        -72.19241        112.1074             -200               0             -200               0
1.13861              -0.03727729       -11.79345        -71.95084         116.275             -200               0             -200               0
1.14521              -0.03891483        -11.8984        -71.46263        119.9632             -200               0             -200               0
1.15182              -0.04064132       -12.00377        -70.78274        122.7212             -200               0             -200               0
1.15842              -0.04244881       -12.10954        -69.98044        124.3462             -200               0             -200               0
1.16502              -0.04432839       -12.21567        -69.11759        124.8415             -200               0             -200               0
1.17162              -0.04626823       -12.32214        -68.23949        124.3249             -200               0             -200               0
1.17822              -0.04825759       -12.42896        -67.37524        122.9541             -200               0             -200               0
1.18482              -0.05028475       -12.53613        -66.54171        120.8846             -200               0             -200               0
1.19142              -0.05233948       -12.64369        -65.74765         118.252             -200               0             -200               0
1.19802               -0.0544102       -12.75166         -64.9968        115.1687             -200               0             -200               0
1.20462              -0.05648673       -12.86011        -64.29003         111.725             -200               0             -200               0
1.21122              -0.05856118       -12.96909        -63.62659        107.9926             -200               0             -200               0
1.21782              -0.06062575       -13.07868        -63.00488         104.029             -200               0             -200               0
1.22442              -0.06267477       -13.18897        -62.42298        99.87973             -200               0             -200               0
1.23102              -0.06470498       -13.30004         -61.8788        95.58165             -200               0             -200               0
1.23762              -0.06671402       -13.41198        -61.37032        91.16463             -200               0             -200               0
1.24422              -0.06870282        -13.5249        -60.89559        86.65324             -200               0             -200               0
1.25083               -0.0706729       -13.63888        -60.45284        82.06792             -200               0             -200               0
1.25743              -0.07262949       -13.75404        -60.04042        77.42589             -200               0             -200               0
1.26403              -0.07457943       -13.87045        -59.65683        72.74188             -200               0             -200               0
1.27063              -0.07653082        -13.9882        -59.30074        68.02867             -200               0             -200               0
1.27723              -0.07849466       -14.10737        -58.97092        63.29757             -200               0             -200               0
1.28383              -0.08048133       -14.22802        -58.66628        58.55869             -200               0             -200               0
1.29043              -0.08250462       -14.35021        -58.38582         53.8213             -200               0             -200               0
1.29703              -0.08457781       -14.47397        -58.12864        49.09401             -200               0             -200               0
1.30363               -0.0867153       -14.59934        -57.89392        44.38497             -200               0             -200               0
1.31023              -0.08893193       -14.72633        -57.68089        39.70202             -200               0             -200               0
1.31683              -0.09124054       -14.85493        -57.48884        35.05287             -200               0             -200               0
1.32343              -0.09365617       -14.98513         -57.3171        30.44515             -200               0             -200               0
1.33003              -0.09618988       -15.11691        -57.16502        25.88657             -200               0             -200               0
1.33663              -0.09885353       -15.25022        -57.03193        21.38498             -200               0             -200               0
1.34323               -0.1016567       -15.38502        -56.91717        16.94848             -200               0             -200               0
1.34984               -0.1046084       -15.52126        -56.82006        12.58545             -200               0             -200               0
1.35644               -0.1077138       -15.65886        -56.73984        8.304617             -200               0             -200               0
1.36304               -0.1109768       -15.79778        -56.67569         4.11512             -200               0             -200               0
1.36964               -0.1143982       -15.93793        -56.62667      0.02648797             -200               0             -200               0
1.37624                -0.117979       -16.07925        -56.59171       -3.951358             -200               0             -200               0
1.38284               -0.1217144       -16.22169        -56.56956       -7.808159             -200               0             -200               0
1.38944               -0.1256004       -16.36519        -56.55877       -11.53343             -200               0             -200               0
1.39604                -0.129631       -16.50971        -56.55762       -15.11662             -200               0             -200               0
1.40264               -0.1337957       -16.65521        -56.56409        -18.5474             -200               0             -200               0
1.40924               -0.1380867       -16.80168        -56.57584       -21.81601             -200               0             -200               0
1.41584               -0.1424907       -16.94909        -56.59013       -24.91372             -200               0             -200               0
1.42244               -0.1469978       -17.09748        -56.60386        -27.8335             -200               0             -200               0
1.42904               -0.1515951       -17.24686         -56.6135       -30.57075             -200               0             -200               0
1.43564               -0.1562708       -17.39728        -56.61518       -33.12412             -200               0             -200               0
1.44224               -0.1610136       -17.54881        -56.60473       -35.49645             -200               0             -200               0
1.44884               -0.1658126       -17.70151        -56.57782        -37.6956             -200               0             -200               0
1.45545               -0.1706588       -17.85548        -56.53013       -39.73518             -200               0             -200               0
1.46205               -0.1755458       -18.01083        -56.45757       -41.63484             -200               0             -200               0
1.46865               -0.1804669       -18.16769        -56.35654       -43.42021             -200               0             -200               0
1.47525               -0.1854195       -18.32616        -56.22422       -45.12212             -200               0             -200               0
1.48185               -0.1904034       -18.48641        -56.05874       -46.77536             -200               0             -200               0
1.48845               -0.1954203       -18.64858        -55.85937       -48.41681             -200               0             -200               0
1.49505               -0.2004759       -18.81279        -55.62659        -50.0834             -200               0             -200               0
1.50165               -0.2055781       -18.97921        -55.36199       -51.80992             -200               0             -200               0
1.50825               -0.2107368       -19.14796        -55.06814       -53.62728             -200               0             -200               0
1.51485               -0.2159663       -19.31919         -54.7484       -55.56117             -200               0             -200               0
1.52145               -0.2212819       -19.49302        -54.40657       -57.63129             -200               0             -200               0
1.52805                -0.226703       -19.66956        -54.04674       -59.85127             -200               0             -200               0
1.53465               -0.2322477       -19.84891        -53.67296       -62.22902             -200               0             -200               0
1.54125               -0.2379391       -20.03115        -53.28914       -64.76736             -200               0             -200               0
1.54785               -0.2437985       -20.21635        -52.89888       -67.46491             -200               0             -200               0
1.55446               -0.2498502       -20.40457        -52.50539       -70.31701             -200               0             -200               0
1.56106               -0.2561178       -20.59581        -52.11151       -73.31657             -200               0             -200               0
1.56766                -0.262622       -20.79012        -51.71964       -76.45478             -200               0             -200               0
1.57426               -0.2693885       -20.98746        -51.33178       -79.72181             -200               0             -200               0
1.58086               -0.2764359       -21.18783        -50.94958       -83.10726             -200               0             -200               0
1.58746               -0.2837838       -21.39119        -50.57439       -86.60053             -200               0             -200               0
1.59406               -0.2914527        -21.5975        -50.20724       -90.19113             -200               0             -200               0
1.60066                -0.299454       -21.80668        -49.84894       -93.86883             -200               0             -200               0
1.60726               -0.3078002       -22.01869        -49.50008        -97.6238             -200               0             -200               0
1.61386               -0.3165047       -22.23344        -49.16108       -101.4467             -200               0             -200               0
1.62046               -0.3255712       -22.45088        -48.83222       -105.3286             -200               0             -200               0
1.62706               -0.3350034       -22.67093        -48.51365       -109.2613             -200               0             -200               0
1.63366               -0.3448047       -22.89355         -48.2054       -113.2368             -200               0             -200               0
1.64026               -0.3549718       -23.11867        -47.90743       -117.2479             -200               0             -200               0
1.64686               -0.3655013       -23.34627        -47.61962       -121.2876             -200               0             -200               0
1.65347               -0.3763861       -23.57633        -47.34179       -125.3495             -200               0             -200               0
1.66007               -0.3876191       -23.80885        -47.07369       -129.4277             -200               0             -200               0
1.66667               -0.3991909       -24.04385        -46.81504       -133.5164             -200               0             -200               0
1.67327               -0.4110897       -24.28138        -46.56549       -137.6104             -200               0             -200               0
1.67987               -0.4233069       -24.52151        -46.32467       -141.7048             -200               0             -200               0
1.68647                -0.435831       -24.76434        -46.09216       -145.7949             -200               0             -200               0
1.69307               -0.4486528       -25.00999        -45.86751       -149.8765             -200               0             -200               0
1.69967               -0.4617645       -25.25861        -45.65024       -153.9456             -200               0             -200               0
1.70627               -0.4751609       -25.51039         -45.4398       -157.9986             -200               0             -200               0
1.71287               -0.4888385        -25.7655        -45.23566        -162.032             -200               0             -200               0
1.71947               -0.5027968       -26.02418        -45.03722        -166.043             -200               0             -200               0
1.72607               -0.5170418       -26.28667        -44.84386       -170.0289             -200               0             -200               0
1.73267               -0.5315792       -26.55321        -44.65493       -173.9874             -200               0             -200               0
1.73927               -0.5464208       -26.82408        -44.46976       -177.9164             -200               0             -200               0
1.74587               -0.5615856       -27.09954        -44.28763        178.1853             -200               0             -200               0
1.75248               -0.5770943       -27.37988        -44.10784         174.319             -200               0             -200               0
1.75908               -0.5929741       -27.66538        -43.92963        170.4852             -200               0             -200               0
1.76568               -0.6092558       -27.95631        -43.75225         166.684             -200               0             -200               0
1.77228               -0.6259751       -28.25294        -43.57496        162.9151             -200               0             -200               0
1.77888               -0.6431729       -28.55553        -43.39701        159.1774             -200               0             -200               0
1.78548                -0.660894       -28.86432        -43.21765        155.4695             -200               0             -200               0
1.79208               -0.6791882       -29.17954        -43.03618        151.7894             -200               0             -200               0
1.79868               -0.6981058       -29.50141        -42.85192        148.1345             -200               0             -200               0
1.80528               -0.7177024        -29.8301        -42.66424        144.5017             -200               0             -200               0
1.81188               -0.7380349       -30.16579        -42.47258        140.8874             -200               0             -200               0
1.81848                -0.759161       -30.50861        -42.27641        137.2876             -200               0             -200               0
1.82508               -0.7811426       -30.85868        -42.07532        133.6979             -200               0             -200               0
1.83168               -0.8040404       -31.21612        -41.86896        130.1135             -200               0             -200               0
1.83828                -0.827915       -31.58099        -41.65708        126.5294             -200               0             -200               0
1.84488               -0.8528275       -31.95335        -41.43953        122.9407             -200               0             -200               0
1.85149               -0.8788386       -32.33328        -41.21625         119.342             -200               0             -200               0
