! TOUCHSTONE file generated by CST MICROWAVE STUDIO
! Date and time: Tue Mar 18 00:02:30 2025
! Project name: oblique.cst
! Parameters = {Tilt=40; Fracture=1; B=12.5; D=160; F=5; Feed=2.85625; L=100; M=10; R=0.384908; S=1; Theta=180; length=57.125; wave=114.25}
! Header version: 2024
! Port assignment regex: !\s*Touchstone port\s*([0-9]+)\s*=\s*(CST MWS port|CST DES external port|CST DES block port)\s*(.+)\s* \(\"(.*)\"\)(\s*mode\s*([0-9]+))?.*
! Touchstone port assignment:
! Touchstone port 1 = CST MWS port 1 ("")
! Touchstone port 2 = CST MWS port 2 ("")
# GHz S DB R 50
1                    -0.01841424       -9.767662         -70.8115       -122.4329             -200               0             -200               0
1.00658              -0.01917445       -9.856674        -70.15803       -127.2535             -200               0             -200               0
1.01316              -0.02000074       -9.946075        -69.57003       -132.1558             -200               0             -200               0
1.01974              -0.02088688       -10.03582        -69.04108       -137.1137             -200               0             -200               0
1.02632              -0.02182686       -10.12586        -68.56599       -142.1065             -200               0             -200               0
1.03289              -0.02281391       -10.21618        -68.14057       -147.1178             -200               0             -200               0
1.03947              -0.02383803       -10.30675        -67.76145       -152.1336             -200               0             -200               0
1.04605              -0.02489135       -10.39757        -67.42586       -157.1418             -200               0             -200               0
1.05263               -0.0259622       -10.48862        -67.13159       -162.1314             -200               0             -200               0
1.05921              -0.02704264       -10.57994        -66.87686       -167.0923             -200               0             -200               0
1.06579              -0.02812176       -10.67153        -66.66026       -172.0144             -200               0             -200               0
1.07237              -0.02919145       -10.76345        -66.48069       -176.8877             -200               0             -200               0
1.07895              -0.03024217       -10.85572        -66.33734        178.2982             -200               0             -200               0
1.08553              -0.03126617       -10.94842        -66.22964        173.5544             -200               0             -200               0
1.09211                -0.032258       -11.04161         -66.1572        168.8931             -200               0             -200               0
1.09868              -0.03321238       -11.13536        -66.11984        164.3279             -200               0             -200               0
1.10526              -0.03412546       -11.22975        -66.11748        159.8742             -200               0             -200               0
1.11184              -0.03499675       -11.32487        -66.15018        155.5496             -200               0             -200               0
1.11842              -0.03582677        -11.4208        -66.21802        151.3746             -200               0             -200               0
1.125                -0.03661649       -11.51763        -66.32106        147.3733             -200               0             -200               0
1.13158              -0.03737051       -11.61544        -66.45924         143.574             -200               0             -200               0
1.13816              -0.03809502       -11.71432        -66.63221        140.0101             -200               0             -200               0
1.14474              -0.03879697       -11.81433        -66.83914        136.7214             -200               0             -200               0
1.15132              -0.03948646       -11.91555        -67.07835        133.7544             -200               0             -200               0
1.15789              -0.04017244       -12.01803        -67.34691        131.1635             -200               0             -200               0
1.16447              -0.04086819       -12.12183        -67.63996        129.0109             -200               0             -200               0
1.17105               -0.0415838       -12.22698        -67.94989         127.365             -200               0             -200               0
1.17763              -0.04233428        -12.3335        -68.26526        126.2967             -200               0             -200               0
1.18421              -0.04312998       -12.44141        -68.56971        125.8705             -200               0             -200               0
1.19079              -0.04398572       -12.55071        -68.84117        126.1301             -200               0             -200               0
1.19737              -0.04491312       -12.66139        -69.05212        127.0776             -200               0             -200               0
1.20395              -0.04592363       -12.77342        -69.17188        128.6487             -200               0             -200               0
1.21053              -0.04702812       -12.88677        -69.17151        130.6966             -200               0             -200               0
1.21711              -0.04823567       -13.00139        -69.03059         132.995             -200               0             -200               0
1.22368              -0.04955405       -13.11724        -68.74323        135.2728             -200               0             -200               0
1.23026              -0.05098921       -13.23426        -68.31988        137.2676             -200               0             -200               0
1.23684              -0.05254523       -13.35239        -67.78396        138.7757             -200               0             -200               0
1.24342              -0.05422569       -13.47157        -67.16523        139.6768             -200               0             -200               0
1.25                 -0.05602915       -13.59173         -66.4934          139.93             -200               0             -200               0
1.25658              -0.05795585       -13.71282          -65.794        139.5531             -200               0             -200               0
1.26316              -0.06000062       -13.83478        -65.08686        138.5989             -200               0             -200               0
1.26974              -0.06215968       -13.95757        -64.38626        137.1357             -200               0             -200               0
1.27632              -0.06442607       -14.08113        -63.70183        135.2346             -200               0             -200               0
1.28289               -0.0667909       -14.20545        -63.03973        132.9634             -200               0             -200               0
1.28947              -0.06924618       -14.33051        -62.40358        130.3825             -200               0             -200               0
1.29605              -0.07178259        -14.4563        -61.79527        127.5448             -200               0             -200               0
1.30263              -0.07438855       -14.58283        -61.21551        124.4955             -200               0             -200               0
1.30921              -0.07705464       -14.71012        -60.66428        121.2733             -200               0             -200               0
1.31579              -0.07977061       -14.83822        -60.14103        117.9108             -200               0             -200               0
1.32237              -0.08252681       -14.96716        -59.64493        114.4361             -200               0             -200               0
1.32895               -0.0853149       -15.09702        -59.17497         110.873             -200               0             -200               0
1.33553              -0.08812785       -15.22786        -58.73003        107.2421             -200               0             -200               0
1.34211              -0.09095978       -15.35979        -58.30894        103.5613             -200               0             -200               0
1.34868              -0.09380592       -15.49288         -57.9105        99.84611             -200               0             -200               0
1.35526              -0.09666598       -15.62725        -57.53351        96.11035             -200               0             -200               0
1.36184              -0.09953885       -15.76299        -57.17678        92.36628             -200               0             -200               0
1.36842               -0.1024266       -15.90022         -56.8391        88.62488             -200               0             -200               0
1.375                 -0.1053353       -16.03905        -56.51928        84.89606             -200               0             -200               0
1.38158               -0.1082703       -16.17958         -56.2161        81.18883             -200               0             -200               0
1.38816               -0.1112417       -16.32192        -55.92836        77.51137             -200               0             -200               0
1.39474               -0.1142606       -16.46616         -55.6548        73.87114             -200               0             -200               0
1.40132               -0.1173383       -16.61239        -55.39417        70.27489             -200               0             -200               0
1.40789               -0.1204914       -16.76068        -55.14516        66.72874             -200               0             -200               0
1.41447               -0.1237336       -16.91109        -54.90641        63.23807             -200               0             -200               0
1.42105               -0.1270831       -17.06369        -54.67656        59.80757             -200               0             -200               0
1.42763               -0.1305564        -17.2185        -54.45414        56.44116             -200               0             -200               0
1.43421               -0.1341705       -17.37554        -54.23768        53.14192             -200               0             -200               0
1.44079                -0.137944       -17.53482        -54.02566        49.91197             -200               0             -200               0
1.44737               -0.1418918       -17.69634         -53.8165        46.75244             -200               0             -200               0
1.45395               -0.1460313       -17.86008        -53.60863        43.66333             -200               0             -200               0
1.46053               -0.1503758       -18.02599        -53.40046        40.64346             -200               0             -200               0
1.46711               -0.1549399       -18.19405        -53.19042        37.69037             -200               0             -200               0
1.47368               -0.1597329       -18.36418          -52.977         34.8003             -200               0             -200               0
1.48026               -0.1647654       -18.53635        -52.75877        31.96816             -200               0             -200               0
1.48684               -0.1700438       -18.71049         -52.5344        29.18763             -200               0             -200               0
1.49342               -0.1755728       -18.88652        -52.30273        26.45118             -200               0             -200               0
1.5                   -0.1813553       -19.06441        -52.06274        23.75027             -200               0             -200               0
1.50658               -0.1873906       -19.24408        -51.81367        21.07553             -200               0             -200               0
1.51316               -0.1936769       -19.42548        -51.55494          18.417             -200               0             -200               0
1.51974               -0.2002109       -19.60858        -51.28625        15.76442             -200               0             -200               0
1.52632               -0.2069845       -19.79334        -51.00753        13.10751             -200               0             -200               0
1.53289               -0.2139935       -19.97975        -50.71894        10.43624             -200               0             -200               0
1.53947               -0.2212268       -20.16781        -50.42087        7.741168             -200               0             -200               0
1.54605               -0.2286763       -20.35754        -50.11393        5.013586             -200               0             -200               0
1.55263               -0.2363325       -20.54897        -49.79886        2.245779             -200               0             -200               0
1.55921               -0.2441861       -20.74217        -49.47657      -0.5688718             -200               0             -200               0
1.56579               -0.2522273        -20.9372        -49.14804         -3.4358             -200               0             -200               0
1.57237               -0.2604488       -21.13415        -48.81434       -6.359226             -200               0             -200               0
1.57895               -0.2688446       -21.33314        -48.47654       -9.342186             -200               0             -200               0
1.58553               -0.2774096        -21.5343        -48.13574       -12.38658             -200               0             -200               0
1.59211               -0.2861415       -21.73775          -47.793       -15.49326             -200               0             -200               0
1.59868               -0.2950426       -21.94368        -47.44931       -18.66215             -200               0             -200               0
1.60526                -0.304114       -22.15221        -47.10564       -21.89235             -200               0             -200               0
1.61184               -0.3133629       -22.36355        -46.76286       -25.18227             -200               0             -200               0
1.61842               -0.3228008       -22.57785        -46.42176       -28.52973             -200               0             -200               0
1.625                 -0.3324394        -22.7953        -46.08306       -31.93211             -200               0             -200               0
1.63158               -0.3422969       -23.01606        -45.74739        -35.3864             -200               0             -200               0
1.63816               -0.3523924       -23.24031        -45.41528       -38.88934             -200               0             -200               0
1.64474               -0.3627495       -23.46821        -45.08718       -42.43748             -200               0             -200               0
1.65132               -0.3733944       -23.69989        -44.76349       -46.02725             -200               0             -200               0
1.65789               -0.3843561        -23.9355         -44.4445       -49.65503             -200               0             -200               0
1.66447               -0.3956662       -24.17515        -44.13044       -53.31719             -200               0             -200               0
1.67105                -0.407357       -24.41895         -43.8215       -57.01014             -200               0             -200               0
1.67763               -0.4194643       -24.66695        -43.51777       -60.73034             -200               0             -200               0
1.68421                -0.432022       -24.91924        -43.21931       -64.47436             -200               0             -200               0
1.69079               -0.4450674       -25.17583        -42.92613       -68.23891             -200               0             -200               0
1.69737               -0.4586355       -25.43676        -42.63818        -72.0208             -200               0             -200               0
1.70395               -0.4727614         -25.702        -42.35538       -75.81702             -200               0             -200               0
1.71053               -0.4874789       -25.97154         -42.0776       -79.62473             -200               0             -200               0
1.71711               -0.5028208       -26.24535        -41.80468       -83.44127             -200               0             -200               0
1.72368               -0.5188188       -26.52337        -41.53643       -87.26415             -200               0             -200               0
1.73026               -0.5354993       -26.80552        -41.27264       -91.09109             -200               0             -200               0
1.73684               -0.5528884       -27.09174        -41.01305       -94.92003             -200               0             -200               0
1.74342               -0.5710104       -27.38195        -40.75739       -98.74912             -200               0             -200               0
1.75                  -0.5898844       -27.67607        -40.50539       -102.5767             -200               0             -200               0
1.75658               -0.6095288       -27.97402        -40.25672       -106.4014             -200               0             -200               0
1.76316               -0.6299568       -28.27573        -40.01107       -110.2221             -200               0             -200               0
1.76974                -0.651181       -28.58114         -39.7681       -114.0377             -200               0             -200               0
1.77632               -0.6732115       -28.89021        -39.52749       -117.8477             -200               0             -200               0
1.78289               -0.6960541       -29.20291        -39.28888       -121.6515             -200               0             -200               0
1.78947               -0.7197177       -29.51923        -39.05193       -125.4491             -200               0             -200               0
1.79605                -0.744206        -29.8392         -38.8163       -129.2404             -200               0             -200               0
1.80263               -0.7695248       -30.16285        -38.58166       -133.0257             -200               0             -200               0
1.80921               -0.7956781       -30.49026        -38.34768       -136.8057             -200               0             -200               0
1.81579               -0.8226734       -30.82152        -38.11404        -140.581             -200               0             -200               0
1.82237               -0.8505188       -31.15679        -37.88046       -144.3526             -200               0             -200               0
1.82895               -0.8792242       -31.49619        -37.64666       -148.1219             -200               0             -200               0
1.83553               -0.9088038       -31.83994        -37.41238         -151.89             -200               0             -200               0
1.84211               -0.9392766       -32.18823        -37.17742       -155.6587             -200               0             -200               0
1.84868               -0.9706666       -32.54132        -36.94157       -159.4296             -200               0             -200               0
