! TOUCHSTONE file generated by CST MICROWAVE STUDIO
! Date and time: Tue Mar 18 00:01:04 2025
! Project name: oblique.cst
! Parameters = {Tilt=30; Fracture=1; B=10; D=160; F=25; Feed=2.85625; L=100; M=50; R=0.384908; S=1; Theta=180; length=57.125; wave=114.25}
! Header version: 2024
! Port assignment regex: !\s*Touchstone port\s*([0-9]+)\s*=\s*(CST MWS port|CST DES external port|CST DES block port)\s*(.+)\s* \(\"(.*)\"\)(\s*mode\s*([0-9]+))?.*
! Touchstone port assignment:
! Touchstone port 1 = CST MWS port 1 ("")
! Touchstone port 2 = CST MWS port 2 ("")
# GHz S DB R 50
1                    -0.02006473       -9.780852        -68.20091        152.7016             -200               0             -200               0
1.00662              -0.02074313       -9.868717        -68.15916         146.938             -200               0             -200               0
1.01325              -0.02143075       -9.957146        -68.14788          141.28             -200               0             -200               0
1.01987              -0.02212866       -10.04616        -68.16743        135.7357             -200               0             -200               0
1.02649              -0.02283652       -10.13579        -68.21829        130.3152             -200               0             -200               0
1.03311              -0.02355442       -10.22604        -68.30104        125.0309             -200               0             -200               0
1.03974              -0.02428396       -10.31695        -68.41634        119.8982             -200               0             -200               0
1.04636              -0.02502462       -10.40852         -68.5649        114.9362             -200               0             -200               0
1.05298              -0.02577907       -10.50079        -68.74739        110.1678             -200               0             -200               0
1.0596               -0.02654782       -10.59376        -68.96439        105.6215             -200               0             -200               0
1.06623              -0.02733355       -10.68747        -69.21618        101.3317             -200               0             -200               0
1.07285              -0.02813727       -10.78194        -69.50257        97.34056             -200               0             -200               0
1.07947              -0.02896226       -10.87717        -69.82252         93.6989             -200               0             -200               0
1.08609              -0.02981015       -10.97318        -70.17361        90.46777             -200               0             -200               0
1.09272              -0.03068473       -11.06999        -70.55126        87.71892             -200               0             -200               0
1.09934              -0.03158668       -11.16761        -70.94766        85.53384             -200               0             -200               0
1.10596              -0.03252039       -11.26605        -71.35035        83.99953             -200               0             -200               0
1.11258              -0.03348721       -11.36531        -71.74059        83.19842             -200               0             -200               0
1.11921              -0.03449007       -11.46542        -72.09207        83.18931             -200               0             -200               0
1.12583              -0.03553234       -11.56636        -72.37103        83.97816             -200               0             -200               0
1.13245              -0.03661507       -11.66815        -72.53928        85.48331             -200               0             -200               0
1.13907              -0.03774018       -11.77078        -72.56138        87.51132             -200               0             -200               0
1.1457               -0.03891018       -11.87426        -72.41439        89.76635             -200               0             -200               0
1.15232              -0.04012554       -11.97859        -72.09583        91.90481             -200               0             -200               0
1.15894               -0.0413883       -12.08377        -71.62456        93.61485             -200               0             -200               0
1.16556               -0.0426993        -12.1898          -71.034        94.67914             -200               0             -200               0
1.17219              -0.04405804       -12.29669        -70.36226        94.99382             -200               0             -200               0
1.17881              -0.04546528       -12.40443         -69.6442        94.54951             -200               0             -200               0
1.18543              -0.04692144       -12.51303        -68.90758        93.39705             -200               0             -200               0
1.19205              -0.04842505        -12.6225         -68.1724        91.61643             -200               0             -200               0
1.19868              -0.04997682       -12.73285        -67.45209         89.2955             -200               0             -200               0
1.2053               -0.05157525       -12.84408        -66.75507        86.51831             -200               0             -200               0
1.21192              -0.05322022       -12.95622        -66.08622        83.35982             -200               0             -200               0
1.21854              -0.05491059       -13.06927        -65.44805        79.88443             -200               0             -200               0
1.22517              -0.05664597       -13.18326        -64.84155        76.14643             -200               0             -200               0
1.23179              -0.05842485       -13.29821        -64.26674        72.19106             -200               0             -200               0
1.23841              -0.06024833       -13.41414        -63.72305        68.05598             -200               0             -200               0
1.24503              -0.06211415       -13.53108        -63.20958        63.77251             -200               0             -200               0
1.25166              -0.06402454       -13.64907        -62.72529        59.36685             -200               0             -200               0
1.25828              -0.06597858       -13.76813        -62.26901          54.861             -200               0             -200               0
1.2649               -0.06797747        -13.8883        -61.83961        50.27359             -200               0             -200               0
1.27152              -0.07002356       -14.00962        -61.43597        45.62054             -200               0             -200               0
1.27815              -0.07211793       -14.13212        -61.05701        40.91555             -200               0             -200               0
1.28477              -0.07426241       -14.25585        -60.70173        36.17058             -200               0             -200               0
1.29139              -0.07646194       -14.38084        -60.36917        31.39613             -200               0             -200               0
1.29801              -0.07871847       -14.50712        -60.05845        26.60157             -200               0             -200               0
1.30464              -0.08103645       -14.63475        -59.76874        21.79535             -200               0             -200               0
1.31126              -0.08342095       -14.76374        -59.49927        16.98519             -200               0             -200               0
1.31788              -0.08587646       -14.89414        -59.24931        12.17821             -200               0             -200               0
1.3245               -0.08840943       -15.02596        -59.01818        7.381111             -200               0             -200               0
1.33113              -0.09102521       -15.15927        -58.80523        2.600233             -200               0             -200               0
1.33775              -0.09373015       -15.29405        -58.60985       -2.158329             -200               0             -200               0
1.34437              -0.09652942       -15.43035        -58.43142       -6.888656             -200               0             -200               0
1.35099              -0.09943146       -15.56818        -58.26936       -11.58494             -200               0             -200               0
1.35762               -0.1024414       -15.70756        -58.12308       -16.24142             -200               0             -200               0
1.36424               -0.1055662       -15.84849        -57.99198       -20.85236             -200               0             -200               0
1.37086                -0.108813         -15.991        -57.87544       -25.41201             -200               0             -200               0
1.37748               -0.1121864       -16.13507        -57.77282       -29.91456             -200               0             -200               0
1.38411               -0.1156938       -16.28073        -57.68343       -34.35415             -200               0             -200               0
1.39073               -0.1193398       -16.42796        -57.60654       -38.72487             -200               0             -200               0
1.39735               -0.1231305       -16.57677        -57.54133       -43.02076             -200               0             -200               0
1.40397               -0.1270688       -16.72716        -57.48693       -47.23588             -200               0             -200               0
1.4106                -0.1311601       -16.87912        -57.44236       -51.36431             -200               0             -200               0
1.41722               -0.1354069       -17.03265        -57.40652       -55.40024             -200               0             -200               0
1.42384               -0.1398151       -17.18775         -57.3782       -59.33814             -200               0             -200               0
1.43046               -0.1443844       -17.34442        -57.35605       -63.17279             -200               0             -200               0
1.43709                -0.149118       -17.50267        -57.33858       -66.89954             -200               0             -200               0
1.44371               -0.1540181       -17.66249        -57.32413       -70.51445             -200               0             -200               0
1.45033               -0.1590855        -17.8239         -57.3109       -74.01458             -200               0             -200               0
1.45695               -0.1643226        -17.9869        -57.29695        -77.3982             -200               0             -200               0
1.46358               -0.1697292       -18.15152         -57.2802       -80.66513             -200               0             -200               0
1.4702                -0.1753071       -18.31777        -57.25847       -83.81699             -200               0             -200               0
1.47682               -0.1810566       -18.48568        -57.22955       -86.85747             -200               0             -200               0
1.48344               -0.1869789       -18.65527        -57.19121       -89.79255             -200               0             -200               0
1.49007               -0.1930753       -18.82658        -57.14129       -92.63066             -200               0             -200               0
1.49669               -0.1993481       -18.99966         -57.0778       -95.38264             -200               0             -200               0
1.50331               -0.2057998       -19.17453        -56.99898        -98.0617             -200               0             -200               0
1.50993               -0.2124325       -19.35126        -56.90339       -100.6831             -200               0             -200               0
1.51656               -0.2192498       -19.52987        -56.78997       -103.2637             -200               0             -200               0
1.52318               -0.2262558       -19.71045        -56.65812       -105.8214             -200               0             -200               0
1.5298                -0.2334558       -19.89302        -56.50771       -108.3746             -200               0             -200               0
1.53642               -0.2408546       -20.07766         -56.3391       -110.9414             -200               0             -200               0
1.54305               -0.2484619       -20.26442         -56.1531       -113.5389             -200               0             -200               0
1.54967               -0.2562816       -20.45334        -55.95093       -116.1828             -200               0             -200               0
1.55629                -0.264324        -20.6445        -55.73413       -118.8865             -200               0             -200               0
1.56291               -0.2725993       -20.83795        -55.50452       -121.6613             -200               0             -200               0
1.56954               -0.2811164       -21.03373        -55.26407       -124.5161             -200               0             -200               0
1.57616               -0.2898862       -21.23189        -55.01484       -127.4571             -200               0             -200               0
1.58278                 -0.29892       -21.43249        -54.75891       -130.4883             -200               0             -200               0
1.5894                -0.3082312       -21.63555        -54.49831       -133.6113             -200               0             -200               0
1.59603               -0.3178304       -21.84112        -54.23496        -136.826             -200               0             -200               0
1.60265               -0.3277307       -22.04923        -53.97066       -140.1306             -200               0             -200               0
1.60927               -0.3379462       -22.25991        -53.70706       -143.5218             -200               0             -200               0
1.61589               -0.3484892       -22.47317        -53.44563       -146.9953             -200               0             -200               0
1.62252               -0.3593717       -22.68903        -53.18767       -150.5461             -200               0             -200               0
1.62914               -0.3706069       -22.90752        -52.93434       -154.1684             -200               0             -200               0
1.63576               -0.3822074       -23.12864         -52.6866       -157.8559             -200               0             -200               0
1.64238               -0.3941844       -23.35239        -52.44529       -161.6023             -200               0             -200               0
1.64901               -0.4065504       -23.57879        -52.21109       -165.4007             -200               0             -200               0
1.65563               -0.4193147       -23.80784        -51.98456       -169.2445             -200               0             -200               0
1.66225               -0.4324888       -24.03953        -51.76615       -173.1269             -200               0             -200               0
1.66887               -0.4460802       -24.27389        -51.55619        -177.041             -200               0             -200               0
1.6755                -0.4601002       -24.51091        -51.35491        179.0198             -200               0             -200               0
1.68212               -0.4745568       -24.75059        -51.16244        175.0621             -200               0             -200               0
1.68874               -0.4894561       -24.99297        -50.97886        171.0926             -200               0             -200               0
1.69536               -0.5048056       -25.23806        -50.80412        167.1176             -200               0             -200               0
1.70199               -0.5206135       -25.48588        -50.63812        163.1434             -200               0             -200               0
1.70861               -0.5368855       -25.73646        -50.48068        159.1764             -200               0             -200               0
1.71523               -0.5536285       -25.98985        -50.33153        155.2226             -200               0             -200               0
1.72185               -0.5708494       -26.24609        -50.19035        151.2879             -200               0             -200               0
1.72848               -0.5885555       -26.50525        -50.05671        147.3783             -200               0             -200               0
1.7351                 -0.606753       -26.76739        -49.93012        143.4993             -200               0             -200               0
1.74172               -0.6254519       -27.03258        -49.80998        139.6564             -200               0             -200               0
1.74834               -0.6446606       -27.30092        -49.69563        135.8548             -200               0             -200               0
1.75497               -0.6643888       -27.57249        -49.58629        132.0995             -200               0             -200               0
1.76159               -0.6846502       -27.84741        -49.48111        128.3949             -200               0             -200               0
1.76821               -0.7054573       -28.12577        -49.37913        124.7452             -200               0             -200               0
1.77483               -0.7268249       -28.40771        -49.27928        121.1538             -200               0             -200               0
1.78146               -0.7487711       -28.69334        -49.18042        117.6236             -200               0             -200               0
1.78808               -0.7713131       -28.98279         -49.0813        114.1567             -200               0             -200               0
1.7947                -0.7944747        -29.2762         -48.9806        110.7541             -200               0             -200               0
1.80132               -0.8182785       -29.57369        -48.87693        107.4159             -200               0             -200               0
1.80795               -0.8427506       -29.87542        -48.76886        104.1411             -200               0             -200               0
1.81457               -0.8679195        -30.1815        -48.65493         100.927             -200               0             -200               0
1.82119               -0.8938155       -30.49208        -48.53371        97.77003             -200               0             -200               0
1.82781               -0.9204718       -30.80729        -48.40381        94.66475             -200               0             -200               0
1.83444               -0.9479241       -31.12724        -48.26392         91.6045             -200               0             -200               0
1.84106               -0.9762104       -31.45207        -48.11288         88.5812             -200               0             -200               0
1.84768                 -1.00537       -31.78188        -47.94966        85.58553             -200               0             -200               0
1.8543                 -1.035445       -32.11678         -47.7735        82.60712             -200               0             -200               0
