! TOUCHSTONE file generated by CST MICROWAVE STUDIO
! Date and time: Tue Mar 18 00:01:28 2025
! Project name: oblique.cst
! Parameters = {Tilt=30; Fracture=1; B=12.5; D=160; F=5; Feed=2.85625; L=100; M=30; R=0.384908; S=2; Theta=90; length=57.125; wave=114.25}
! Header version: 2024
! Port assignment regex: !\s*Touchstone port\s*([0-9]+)\s*=\s*(CST MWS port|CST DES external port|CST DES block port)\s*(.+)\s* \(\"(.*)\"\)(\s*mode\s*([0-9]+))?.*
! Touchstone port assignment:
! Touchstone port 1 = CST MWS port 1 ("")
! Touchstone port 2 = CST MWS port 2 ("")
# GHz S DB R 50
1                    -0.02074877       -9.799615          -67.449       -176.5632             -200               0             -200               0
1.0066               -0.02158364       -9.887584        -67.44253        178.5188             -200               0             -200               0
1.0132               -0.02244244       -9.975963        -67.46694        173.7181             -200               0             -200               0
1.0198               -0.02332062       -10.06476        -67.52255        169.0487             -200               0             -200               0
1.0264                -0.0242145       -10.15397        -67.60966        164.5275             -200               0             -200               0
1.033                 -0.0251197       -10.24362        -67.72859        160.1744             -200               0             -200               0
1.0396               -0.02603374       -10.33373        -67.87955        156.0133             -200               0             -200               0
1.0462               -0.02695248       -10.42433        -68.06253        152.0729             -200               0             -200               0
1.05281              -0.02787267       -10.51544        -68.27716         148.387             -200               0             -200               0
1.05941              -0.02879239        -10.6071        -68.52241        144.9962             -200               0             -200               0
1.06601              -0.02970981       -10.69934        -68.79629         141.948             -200               0             -200               0
1.07261              -0.03062485       -10.79221        -69.09532        139.2975             -200               0             -200               0
1.07921              -0.03153541       -10.88574        -69.41381        137.1067             -200               0             -200               0
1.08581              -0.03244451       -10.97997        -69.74305        135.4426             -200               0             -200               0
1.09241              -0.03335256       -11.07496        -70.07018        134.3713             -200               0             -200               0
1.09901              -0.03426151       -11.17073        -70.37729         133.948             -200               0             -200               0
1.10561                -0.035176       -11.26733        -70.64097        134.2005             -200               0             -200               0
1.11221              -0.03609751       -11.36479        -70.83321        135.1077             -200               0             -200               0
1.11881              -0.03703242       -11.46314         -70.9245        136.5778             -200               0             -200               0
1.12541              -0.03798556       -11.56241        -70.88931        138.4387             -200               0             -200               0
1.13201              -0.03896246       -11.66263        -70.71255        140.4515             -200               0             -200               0
1.13861               -0.0399673       -11.76381        -70.39411        142.3514             -200               0             -200               0
1.14521              -0.04100734       -11.86595        -69.94888        143.8997             -200               0             -200               0
1.15182              -0.04208821       -11.96908        -69.40215        144.9245             -200               0             -200               0
1.15842              -0.04321541       -12.07319        -68.78322        145.3344             -200               0             -200               0
1.16502              -0.04439329       -12.17827        -68.11983        145.1088             -200               0             -200               0
1.17162              -0.04562783       -12.28431        -67.43517        144.2759             -200               0             -200               0
1.17822              -0.04692247       -12.39131        -66.74687        142.8918             -200               0             -200               0
1.18482               -0.0482814       -12.49924         -66.0675        141.0231             -200               0             -200               0
1.19142              -0.04970785       -12.60809        -65.40552        138.7377             -200               0             -200               0
1.19802              -0.05120082       -12.71784        -64.76628        136.0985             -200               0             -200               0
1.20462              -0.05276467       -12.82846        -64.15295        133.1618             -200               0             -200               0
1.21122              -0.05439749       -12.93993        -63.56719        129.9763             -200               0             -200               0
1.21782              -0.05609882       -13.05223        -63.00963        126.5837             -200               0             -200               0
1.22442              -0.05786663       -13.16535        -62.48026        123.0197             -200               0             -200               0
1.23102              -0.05969913       -13.27927        -61.97864        119.3143             -200               0             -200               0
1.23762              -0.06159245       -13.39398        -61.50408        115.4934             -200               0             -200               0
1.24422              -0.06354294       -13.50948        -61.05574         111.579             -200               0             -200               0
1.25083              -0.06554567       -13.62578        -60.63273        107.5901             -200               0             -200               0
1.25743              -0.06759646       -13.74287         -60.2341        103.5432             -200               0             -200               0
1.26403              -0.06968948       -13.86078        -59.85891        99.45286             -200               0             -200               0
1.27063              -0.07182093       -13.97953        -59.50625        95.33185             -200               0             -200               0
1.27723              -0.07398538       -14.09915        -59.17521        91.19172             -200               0             -200               0
1.28383              -0.07617844       -14.21968        -58.86491        87.04294             -200               0             -200               0
1.29043              -0.07839663       -14.34116        -58.57451        82.89508             -200               0             -200               0
1.29703              -0.08063622       -14.46364        -58.30316        78.75707             -200               0             -200               0
1.30363              -0.08289521       -14.58718        -58.05004        74.63726             -200               0             -200               0
1.31023              -0.08517127       -14.71183        -57.81434        70.54358             -200               0             -200               0
1.31683               -0.0874649       -14.83767        -57.59522        66.48364             -200               0             -200               0
1.32343              -0.08977597       -14.96475        -57.39185        62.46475             -200               0             -200               0
1.33003              -0.09210607       -15.09314        -57.20335        58.49401             -200               0             -200               0
1.33663              -0.09445942       -15.22292        -57.02883        54.57835             -200               0             -200               0
1.34323              -0.09683894       -15.35415        -56.86732        50.72451             -200               0             -200               0
1.34984              -0.09924943       -15.48689        -56.71779        46.93901             -200               0             -200               0
1.35644               -0.1016972        -15.6212        -56.57916         43.2282             -200               0             -200               0
1.36304               -0.1041894       -15.75713        -56.45021         39.5981             -200               0             -200               0
1.36964               -0.1067334       -15.89476        -56.32967        36.05439             -200               0             -200               0
1.37624               -0.1093384       -16.03411        -56.21613        32.60227             -200               0             -200               0
1.38284               -0.1120115       -16.17523        -56.10805        29.24629             -200               0             -200               0
1.38944               -0.1147631       -16.31815        -56.00378        25.99023             -200               0             -200               0
1.39604               -0.1176014       -16.46289        -55.90155        22.83688             -200               0             -200               0
1.40264               -0.1205361       -16.60949        -55.79947        19.78778             -200               0             -200               0
1.40924               -0.1235753       -16.75795        -55.69556        16.84305             -200               0             -200               0
1.41584               -0.1267268       -16.90828        -55.58777        14.00114             -200               0             -200               0
1.42244               -0.1299984       -17.06048        -55.47402        11.25863             -200               0             -200               0
1.42904               -0.1333974       -17.21456        -55.35224        8.610047             -200               0             -200               0
1.43564               -0.1369299       -17.37052        -55.22047        6.047807             -200               0             -200               0
1.44224               -0.1405995       -17.52835        -55.07686         3.56221             -200               0             -200               0
1.44884                -0.144411       -17.68804         -54.9198        1.141558             -200               0             -200               0
1.45545               -0.1483674       -17.84959        -54.74796       -1.227599             -200               0             -200               0
1.46205               -0.1524705         -18.013        -54.56035       -3.560095             -200               0             -200               0
1.46865               -0.1567207       -18.17829        -54.35635       -5.871681             -200               0             -200               0
1.47525               -0.1611195       -18.34544        -54.13577       -8.178486             -200               0             -200               0
1.48185               -0.1656651       -18.51449        -53.89882       -10.49644             -200               0             -200               0
1.48845                -0.170357       -18.68545        -53.64613       -12.84071             -200               0             -200               0
1.49505               -0.1751934       -18.85835        -53.37863       -15.22522             -200               0             -200               0
1.50165               -0.1801725       -19.03324        -53.09761       -17.66226             -200               0             -200               0
1.50825               -0.1852935       -19.21016        -52.80455       -20.16217             -200               0             -200               0
1.51485               -0.1905542       -19.38917         -52.5011        -22.7332             -200               0             -200               0
1.52145               -0.1959546       -19.57035        -52.18901       -25.38149             -200               0             -200               0
1.52805               -0.2014933       -19.75377        -51.87005       -28.11111             -200               0             -200               0
1.53465               -0.2071733       -19.93952        -51.54596       -30.92423             -200               0             -200               0
1.54125               -0.2129951       -20.12769        -51.21841       -33.82128             -200               0             -200               0
1.54785               -0.2189637       -20.31839        -50.88898       -36.80123             -200               0             -200               0
1.55446               -0.2250831       -20.51173        -50.55911       -39.86177             -200               0             -200               0
1.56106               -0.2313607       -20.70781        -50.23009        -42.9996             -200               0             -200               0
1.56766               -0.2378048       -20.90676        -49.90308       -46.21064             -200               0             -200               0
1.57426               -0.2444278        -21.1087        -49.57907       -49.49016             -200               0             -200               0
1.58086               -0.2512405       -21.31373        -49.25894       -52.83306             -200               0             -200               0
1.58746               -0.2582592       -21.52198        -48.94339       -56.23393             -200               0             -200               0
1.59406               -0.2654983       -21.73355        -48.63301       -59.68718             -200               0             -200               0
1.60066               -0.2729774       -21.94856        -48.32828       -63.18718             -200               0             -200               0
1.60726               -0.2807156       -22.16709        -48.02955       -66.72831             -200               0             -200               0
1.61386               -0.2887349       -22.38923        -47.73708       -70.30498             -200               0             -200               0
1.62046                -0.297057       -22.61508        -47.45102       -73.91177             -200               0             -200               0
1.62706               -0.3057055        -22.8447        -47.17144       -77.54337             -200               0             -200               0
1.63366               -0.3147044       -23.07814        -46.89836       -81.19468             -200               0             -200               0
1.64026               -0.3240784       -23.31545        -46.63168       -84.86077             -200               0             -200               0
1.64686               -0.3338526       -23.55669        -46.37126       -88.53696             -200               0             -200               0
1.65347               -0.3440507       -23.80186         -46.1169       -92.21879             -200               0             -200               0
1.66007               -0.3546973       -24.05098        -45.86833       -95.90208             -200               0             -200               0
1.66667               -0.3658174       -24.30407        -45.62524       -99.58288             -200               0             -200               0
1.67327               -0.3774325       -24.56113        -45.38725       -103.2576             -200               0             -200               0
1.67987               -0.3895642       -24.82214        -45.15394       -106.9228             -200               0             -200               0
1.68647               -0.4022339        -25.0871        -44.92485       -110.5755             -200               0             -200               0
1.69307               -0.4154602       -25.35598        -44.69948       -114.2131             -200               0             -200               0
1.69967               -0.4292631       -25.62879        -44.47729       -117.8332             -200               0             -200               0
1.70627               -0.4436566        -25.9055         -44.2577        -121.434             -200               0             -200               0
1.71287               -0.4586576       -26.18611        -44.04011       -125.0139             -200               0             -200               0
1.71947               -0.4742802       -26.47061        -43.82388       -128.5719             -200               0             -200               0
1.72607               -0.4905372         -26.759        -43.60837       -132.1074             -200               0             -200               0
1.73267               -0.5074409       -27.05131        -43.39293       -135.6203             -200               0             -200               0
1.73927               -0.5250029       -27.34756         -43.1769       -139.1111             -200               0             -200               0
1.74587               -0.5432354       -27.64778        -42.95962       -142.5807             -200               0             -200               0
1.75248               -0.5621479       -27.95204        -42.74046       -146.0306             -200               0             -200               0
1.75908               -0.5817545       -28.26041        -42.51881       -149.4626             -200               0             -200               0
1.76568               -0.6020667       -28.57297        -42.29409       -152.8793             -200               0             -200               0
1.77228                -0.623099       -28.88982        -42.06578       -156.2836             -200               0             -200               0
1.77888               -0.6448674       -29.21109        -41.83342        -159.679             -200               0             -200               0
1.78548               -0.6673882       -29.53691        -41.59658        -163.069             -200               0             -200               0
1.79208                -0.690684       -29.86743        -41.35495       -166.4579             -200               0             -200               0
1.79868               -0.7147779       -30.20283        -41.10827       -169.8499             -200               0             -200               0
1.80528               -0.7396962       -30.54328        -40.85638       -173.2496             -200               0             -200               0
1.81188               -0.7654697       -30.88895         -40.5992       -176.6615             -200               0             -200               0
1.81848               -0.7921333       -31.24006        -40.33674        179.9098             -200               0             -200               0
1.82508               -0.8197266        -31.5968        -40.06909        176.4597             -200               0             -200               0
1.83168               -0.8482932       -31.95936        -39.79643         172.984             -200               0             -200               0
1.83828               -0.8778815       -32.32797          -39.519        169.4784             -200               0             -200               0
1.84488               -0.9085455        -32.7028        -39.23714        165.9392             -200               0             -200               0
1.85149               -0.9403443       -33.08406        -38.95122        162.3628             -200               0             -200               0
