! TOUCHSTONE file generated by CST MICROWAVE STUDIO
! Date and time: Tue Mar 18 00:01:02 2025
! Project name: oblique.cst
! Parameters = {Tilt=30; Fracture=1; B=10; D=160; F=25; Feed=2.85625; L=100; M=10; R=0.384908; S=1; Theta=270; length=57.125; wave=114.25}
! Header version: 2024
! Port assignment regex: !\s*Touchstone port\s*([0-9]+)\s*=\s*(CST MWS port|CST DES external port|CST DES block port)\s*(.+)\s* \(\"(.*)\"\)(\s*mode\s*([0-9]+))?.*
! Touchstone port assignment:
! Touchstone port 1 = CST MWS port 1 ("")
! Touchstone port 2 = CST MWS port 2 ("")
# GHz S DB R 50
1                    -0.02066853       -9.784707        -68.77328       -160.0412             -200               0             -200               0
1.00658              -0.02124824       -9.871275        -68.73961       -163.6226             -200               0             -200               0
1.01316              -0.02181819       -9.958508        -68.72404       -167.0121             -200               0             -200               0
1.01974              -0.02238208       -10.04644        -68.72402       -170.1913             -200               0             -200               0
1.02632              -0.02294317       -10.13512        -68.73637       -173.1414             -200               0             -200               0
1.03289               -0.0235058       -10.22458        -68.75721       -175.8439             -200               0             -200               0
1.03947              -0.02407441       -10.31484        -68.78184       -178.2817             -200               0             -200               0
1.04605              -0.02465357       -10.40594         -68.8046        179.5591             -200               0             -200               0
1.05263              -0.02525051       -10.49789        -68.81892        177.6873             -200               0             -200               0
1.05921              -0.02587114       -10.59071        -68.81732         176.104             -200               0             -200               0
1.06579              -0.02651925        -10.6844        -68.79168        174.8001             -200               0             -200               0
1.07237              -0.02720372       -10.77898        -68.73367        173.7536             -200               0             -200               0
1.07895              -0.02792875       -10.87444        -68.63533        172.9283             -200               0             -200               0
1.08553              -0.02870026       -10.97078        -68.48979        172.2737             -200               0             -200               0
1.09211              -0.02952287       -11.06797        -68.29212        171.7273             -200               0             -200               0
1.09868               -0.0304027       -11.16601        -68.03986        171.2189             -200               0             -200               0
1.10526              -0.03134256       -11.26487        -67.73338        170.6763             -200               0             -200               0
1.11184              -0.03234581       -11.36454        -67.37576        170.0317             -200               0             -200               0
1.11842              -0.03341416       -11.46498         -66.9724        169.2273             -200               0             -200               0
1.125                -0.03454967       -11.56617        -66.53024        168.2181             -200               0             -200               0
1.13158              -0.03575257       -11.66809        -66.05706         166.974             -200               0             -200               0
1.13816              -0.03702224       -11.77071        -65.56071        165.4786             -200               0             -200               0
1.14474              -0.03835783         -11.874        -65.04863        163.7274             -200               0             -200               0
1.15132              -0.03975748       -11.97795        -64.52745        161.7251             -200               0             -200               0
1.15789              -0.04121717       -12.08253        -64.00288        159.4832             -200               0             -200               0
1.16447              -0.04273413       -12.18775        -63.47964        157.0174             -200               0             -200               0
1.17105              -0.04430457       -12.29358        -62.96151        154.3458             -200               0             -200               0
1.17763              -0.04592382       -12.40003        -62.45147        151.4876             -200               0             -200               0
1.18421              -0.04758707        -12.5071        -61.95177        148.4619             -200               0             -200               0
1.19079              -0.04928922        -12.6148        -61.46409         145.287             -200               0             -200               0
1.19737              -0.05102657       -12.72316        -60.98961        141.9806             -200               0             -200               0
1.20395               -0.0527931        -12.8322        -60.52915        138.5588             -200               0             -200               0
1.21053              -0.05458607       -12.94194        -60.08321        135.0366             -200               0             -200               0
1.21711              -0.05640108       -13.05243        -59.65206        131.4278             -200               0             -200               0
1.22368              -0.05823501        -13.1637         -59.2358        127.7447             -200               0             -200               0
1.23026              -0.06008617        -13.2758        -58.83436        123.9989             -200               0             -200               0
1.23684              -0.06195265       -13.38878        -58.44758        120.2006             -200               0             -200               0
1.24342              -0.06383401        -13.5027        -58.07521        116.3592             -200               0             -200               0
1.25                 -0.06573129        -13.6176        -57.71694        112.4834             -200               0             -200               0
1.25658              -0.06764545       -13.73354        -57.37241        108.5809             -200               0             -200               0
1.26316              -0.06957903       -13.85057         -57.0412         104.659             -200               0             -200               0
1.26974              -0.07153607       -13.96875        -56.72289        100.7242             -200               0             -200               0
1.27632               -0.0735203       -14.08812          -56.417        96.78257             -200               0             -200               0
1.28289              -0.07553699       -14.20873        -56.12306        92.83979             -200               0             -200               0
1.28947              -0.07759221       -14.33063        -55.84055          88.901             -200               0             -200               0
1.29605               -0.0796926       -14.45384        -55.56895        84.97099             -200               0             -200               0
1.30263              -0.08184496        -14.5784        -55.30771        81.05421             -200               0             -200               0
1.30921              -0.08405651       -14.70433        -55.05628        77.15476             -200               0             -200               0
1.31579              -0.08633395       -14.83165        -54.81406        73.27642             -200               0             -200               0
1.32237              -0.08868593       -14.96038        -54.58045        69.42266             -200               0             -200               0
1.32895              -0.09111759       -15.09052        -54.35484        65.59665             -200               0             -200               0
1.33553               -0.0936359       -15.22207        -54.13659        61.80124             -200               0             -200               0
1.34211              -0.09624862       -15.35503        -53.92503        58.03895             -200               0             -200               0
1.34868              -0.09895925       -15.48938        -53.71949          54.312             -200               0             -200               0
1.35526               -0.1017728       -15.62512        -53.51926        50.62223             -200               0             -200               0
1.36184               -0.1046937       -15.76223        -53.32365        46.97112             -200               0             -200               0
1.36842               -0.1077227        -15.9007        -53.13191        43.35976             -200               0             -200               0
1.375                 -0.1108631       -16.04051        -52.94333        39.78885             -200               0             -200               0
1.38158               -0.1141144       -16.18164        -52.75715        36.25863             -200               0             -200               0
1.38816               -0.1174769       -16.32409        -52.57264         32.7689             -200               0             -200               0
1.39474               -0.1209485       -16.46784        -52.38907          29.319             -200               0             -200               0
1.40132               -0.1245279       -16.61289        -52.20572         25.9078             -200               0             -200               0
1.40789               -0.1282103       -16.75925         -52.0219        22.53368             -200               0             -200               0
1.41447               -0.1319929       -16.90692        -51.83695        19.19457             -200               0             -200               0
1.42105               -0.1358721       -17.05592        -51.65025        15.88792             -200               0             -200               0
1.42763               -0.1398425       -17.20627        -51.46123        12.61078             -200               0             -200               0
1.43421               -0.1438992       -17.35802        -51.26939        9.359809             -200               0             -200               0
1.44079               -0.1480379        -17.5112        -51.07428        6.131317             -200               0             -200               0
1.44737               -0.1522546       -17.66587        -50.87554        2.921352             -200               0             -200               0
1.45395               -0.1565461       -17.82209        -50.67288      -0.2742536             -200               0             -200               0
1.46053               -0.1609081       -17.97992         -50.4661       -3.459796             -200               0             -200               0
1.46711               -0.1653402       -18.13946         -50.2551       -6.639623             -200               0             -200               0
1.47368               -0.1698395       -18.30077        -50.03983       -9.818053             -200               0             -200               0
1.48026               -0.1744076       -18.46397        -49.82035        -12.9993             -200               0             -200               0
1.48684               -0.1790457       -18.62912        -49.59681       -16.18737             -200               0             -200               0
1.49342               -0.1837567       -18.79636        -49.36939       -19.38605             -200               0             -200               0
1.5                   -0.1885457       -18.96576        -49.13838       -22.59879             -200               0             -200               0
1.50658               -0.1934194       -19.13744         -48.9041       -25.82869             -200               0             -200               0
1.51316               -0.1983847        -19.3115        -48.66693       -29.07844             -200               0             -200               0
1.51974               -0.2034511       -19.48804        -48.42726       -32.35032             -200               0             -200               0
1.52632               -0.2086301       -19.66716        -48.18555       -35.64617             -200               0             -200               0
1.53289                -0.213933       -19.84894        -47.94223       -38.96737             -200               0             -200               0
1.53947               -0.2193741       -20.03349        -47.69777       -42.31492             -200               0             -200               0
1.54605               -0.2249661       -20.22087        -47.45262       -45.68934             -200               0             -200               0
1.55263               -0.2307258       -20.41116        -47.20722       -49.09081             -200               0             -200               0
1.55921               -0.2366678       -20.60442        -46.96201       -52.51911             -200               0             -200               0
1.56579               -0.2428097       -20.80072         -46.7174        -55.9737             -200               0             -200               0
1.57237               -0.2491666        -21.0001        -46.47375       -59.45373             -200               0             -200               0
1.57895               -0.2557563        -21.2026        -46.23141       -62.95811             -200               0             -200               0
1.58553               -0.2625935       -21.40826        -45.99072       -66.48547             -200               0             -200               0
1.59211               -0.2696945        -21.6171        -45.75193       -70.03429             -200               0             -200               0
1.59868               -0.2770748       -21.82915        -45.51529       -73.60288             -200               0             -200               0
1.60526               -0.2847484       -22.04442          -45.281       -77.18939             -200               0             -200               0
1.61184               -0.2927278       -22.26293        -45.04923       -80.79192             -200               0             -200               0
1.61842               -0.3010272        -22.4847        -44.82009       -84.40847             -200               0             -200               0
1.625                 -0.3096568       -22.70973        -44.59368       -88.03699             -200               0             -200               0
1.63158               -0.3186272       -22.93804        -44.37003       -91.67544             -200               0             -200               0
1.63816               -0.3279486       -23.16965        -44.14916       -95.32178             -200               0             -200               0
1.64474               -0.3376281       -23.40458        -43.93104       -98.97398             -200               0             -200               0
1.65132               -0.3476746       -23.64288        -43.71561       -102.6301             -200               0             -200               0
1.65789               -0.3580957       -23.88457        -43.50277       -106.2883             -200               0             -200               0
1.66447               -0.3688968       -24.12971        -43.29239       -109.9467             -200               0             -200               0
1.67105               -0.3800861       -24.37836        -43.08431       -113.6037             -200               0             -200               0
1.67763               -0.3916694       -24.63059        -42.87834       -117.2577             -200               0             -200               0
1.68421               -0.4036552       -24.88648        -42.67427       -120.9073             -200               0             -200               0
1.69079               -0.4160504       -25.14615        -42.47185       -124.5514             -200               0             -200               0
1.69737               -0.4288653       -25.40969        -42.27083       -128.1888             -200               0             -200               0
1.70395               -0.4421107       -25.67724        -42.07093       -131.8187             -200               0             -200               0
1.71053                -0.455798       -25.94893        -41.87184       -135.4406             -200               0             -200               0
1.71711               -0.4699429       -26.22491        -41.67325        -139.054             -200               0             -200               0
1.72368               -0.4845618       -26.50533        -41.47486       -142.6588             -200               0             -200               0
1.73026               -0.4996753       -26.79037        -41.27632        -146.255             -200               0             -200               0
1.73684               -0.5153048       -27.08018        -41.07732       -149.8429             -200               0             -200               0
1.74342               -0.5314771       -27.37496        -40.87753       -153.4233             -200               0             -200               0
1.75                  -0.5482211       -27.67488        -40.67664       -156.9969             -200               0             -200               0
1.75658               -0.5655685       -27.98011        -40.47435       -160.5648             -200               0             -200               0
1.76316                -0.583557       -28.29083        -40.27037       -164.1283             -200               0             -200               0
1.76974               -0.6022241       -28.60722        -40.06443       -167.6891             -200               0             -200               0
1.77632               -0.6216137       -28.92943        -39.85631       -171.2489             -200               0             -200               0
1.78289               -0.6417721       -29.25763        -39.64578       -174.8097             -200               0             -200               0
1.78947               -0.6627465       -29.59195        -39.43268       -178.3736             -200               0             -200               0
1.79605               -0.6845927       -29.93253        -39.21687        178.0571             -200               0             -200               0
1.80263               -0.7073636       -30.27946        -38.99825          174.48             -200               0             -200               0
1.80921                -0.731117       -30.63286        -38.77675        170.8927             -200               0             -200               0
1.81579               -0.7559135        -30.9928        -38.55237        167.2927             -200               0             -200               0
1.82237               -0.7818141       -31.35933        -38.32512        163.6774             -200               0             -200               0
1.82895               -0.8088825       -31.73249        -38.09507        160.0445             -200               0             -200               0
1.83553               -0.8371834       -32.11231        -37.86232        156.3915             -200               0             -200               0
1.84211               -0.8667823       -32.49878        -37.62701        152.7162             -200               0             -200               0
1.84868                -0.897746       -32.89188        -37.38933        149.0162             -200               0             -200               0
