! TOUCHSTONE file generated by CST MICROWAVE STUDIO
! Date and time: Tue Mar 18 00:02:03 2025
! Project name: oblique.cst
! Parameters = {Tilt=40; Fracture=1; B=10; D=160; F=5; Feed=2.85625; L=100; M=10; R=0.384908; S=1; Theta=270; length=57.125; wave=114.25}
! Header version: 2024
! Port assignment regex: !\s*Touchstone port\s*([0-9]+)\s*=\s*(CST MWS port|CST DES external port|CST DES block port)\s*(.+)\s* \(\"(.*)\"\)(\s*mode\s*([0-9]+))?.*
! Touchstone port assignment:
! Touchstone port 1 = CST MWS port 1 ("")
! Touchstone port 2 = CST MWS port 2 ("")
# GHz S DB R 50
1                    -0.01813452       -9.781276        -69.85285       -115.7778             -200               0             -200               0
1.00658              -0.01887433       -9.870897        -69.20271       -121.3228             -200               0             -200               0
1.01316              -0.01968604       -9.960934        -68.62051       -126.8697             -200               0             -200               0
1.01974              -0.02056716       -10.05134        -68.09922       -132.4094             -200               0             -200               0
1.02632              -0.02150774       -10.14206        -67.63328       -137.9344             -200               0             -200               0
1.03289              -0.02250503       -10.23305         -67.2183       -143.4382             -200               0             -200               0
1.03947              -0.02354649        -10.3243        -66.85077       -148.9148             -200               0             -200               0
1.04605              -0.02462351       -10.41578        -66.52792       -154.3588             -200               0             -200               0
1.05263              -0.02572731       -10.50747        -66.24753       -159.7645             -200               0             -200               0
1.05921              -0.02684432       -10.59941        -66.00792       -165.1262             -200               0             -200               0
1.06579              -0.02796761       -10.69158        -65.80778       -170.4378             -200               0             -200               0
1.07237              -0.02908236       -10.78404         -65.6462       -175.6927             -200               0             -200               0
1.07895              -0.03018338       -10.87681        -65.52259        179.1165             -200               0             -200               0
1.08553               -0.0312572       -10.96997        -65.43664        173.9983             -200               0             -200               0
1.09211              -0.03229899       -11.06356        -65.38833        168.9624             -200               0             -200               0
1.09868              -0.03330188       -11.15767         -65.3779        164.0199             -200               0             -200               0
1.10526              -0.03426033       -11.25238        -65.40581        159.1842             -200               0             -200               0
1.11184              -0.03517327       -11.34778        -65.47279        154.4713             -200               0             -200               0
1.11842              -0.03603687       -11.44395        -65.57975        149.9003             -200               0             -200               0
1.125                -0.03685332       -11.54099        -65.72777        145.4943             -200               0             -200               0
1.13158              -0.03762652       -11.63901        -65.91809        141.2819             -200               0             -200               0
1.13816              -0.03836231       -11.73807        -66.15195        137.2981             -200               0             -200               0
1.14474              -0.03906464       -11.83828        -66.43049        133.5864             -200               0             -200               0
1.15132              -0.03974377       -11.93972        -66.75443        130.2012             -200               0             -200               0
1.15789              -0.04041194       -12.04244        -67.12367        127.2101             -200               0             -200               0
1.16447              -0.04107781       -12.14651        -67.53651        124.6975             -200               0             -200               0
1.17105              -0.04175628       -12.25198        -67.98846        122.7666             -200               0             -200               0
1.17763              -0.04245992       -12.35889        -68.47041        121.5407             -200               0             -200               0
1.18421              -0.04320384       -12.46726        -68.96587        121.1582             -200               0             -200               0
1.19079              -0.04400102        -12.5771        -69.44762        121.7565             -200               0             -200               0
1.19737              -0.04486587        -12.6884        -69.87457        123.4355             -200               0             -200               0
1.20395              -0.04581129       -12.80114        -70.19179        126.1955             -200               0             -200               0
1.21053              -0.04685092       -12.91531        -70.33804        129.8631             -200               0             -200               0
1.21711              -0.04799546       -13.03084        -70.26323        134.0548             -200               0             -200               0
1.22368              -0.04925404        -13.1477        -69.94905        138.2398             -200               0             -200               0
1.23026              -0.05063381       -13.26583        -69.41777        141.8971             -200               0             -200               0
1.23684              -0.05214423       -13.38516        -68.72146        144.6659             -200               0             -200               0
1.24342              -0.05378531       -13.50562          -67.921        146.3954             -200               0             -200               0
1.25                 -0.05556264       -13.62714        -67.06962         147.101             -200               0             -200               0
1.25658              -0.05747437       -13.74966        -66.20642        146.8901             -200               0             -200               0
1.26316              -0.05951818        -13.8731        -65.35685        145.9021             -200               0             -200               0
1.26974              -0.06169132       -13.99742        -64.53601        144.2751             -200               0             -200               0
1.27632              -0.06398465       -14.12255        -63.75196        142.1312             -200               0             -200               0
1.28289               -0.0663946       -14.24844        -63.00833        139.5727             -200               0             -200               0
1.28947              -0.06890782       -14.37509        -62.30609        136.6829             -200               0             -200               0
1.29605              -0.07151716       -14.50245        -61.64469        133.5294             -200               0             -200               0
1.30263              -0.07421114       -14.63053        -61.02275        130.1666             -200               0             -200               0
1.30921               -0.0769769       -14.75935        -60.43845        126.6387             -200               0             -200               0
1.31579              -0.07980364       -14.88892        -59.88983        122.9818             -200               0             -200               0
1.32237              -0.08268121       -15.01929         -59.3749        119.2256             -200               0             -200               0
1.32895              -0.08559951       -15.15052         -58.8917         115.395             -200               0             -200               0
1.33553              -0.08854744       -15.28267        -58.43836        111.5109             -200               0             -200               0
1.34211              -0.09151853       -15.41583        -58.01311        107.5914             -200               0             -200               0
1.34868              -0.09450671       -15.55011        -57.61425        103.6519             -200               0             -200               0
1.35526              -0.09750705       -15.68559        -57.24019        99.70635             -200               0             -200               0
1.36184               -0.1005182       -15.82239         -56.8894        95.76686             -200               0             -200               0
1.36842               -0.1035424       -15.96063        -56.56042        91.84451             -200               0             -200               0
1.375                   -0.10658       -16.10043        -56.25179         87.9494             -200               0             -200               0
1.38158               -0.1096377       -16.24191        -55.96213         84.0908             -200               0             -200               0
1.38816               -0.1127244       -16.38517        -55.69002        80.27731             -200               0             -200               0
1.39474               -0.1158493       -16.53034        -55.43405        76.51693             -200               0             -200               0
1.40132               -0.1190251        -16.6775        -55.19277        72.81707             -200               0             -200               0
1.40789               -0.1222671       -16.82676        -54.96471        69.18458             -200               0             -200               0
1.41447               -0.1255894       -16.97818        -54.74831        65.62571             -200               0             -200               0
1.42105               -0.1290127       -17.13184        -54.54196        62.14605             -200               0             -200               0
1.42763                -0.132553       -17.28779        -54.34397         58.7504             -200               0             -200               0
1.43421               -0.1362296       -17.44605        -54.15258         55.4427             -200               0             -200               0
1.44079               -0.1400619       -17.60665        -53.96592        52.22584             -200               0             -200               0
1.44737               -0.1440685       -17.76958        -53.78207        49.10149             -200               0             -200               0
1.45395               -0.1482688       -17.93483        -53.59905        46.06998             -200               0             -200               0
1.46053                -0.152679       -18.10237        -53.41484        43.13005             -200               0             -200               0
1.46711               -0.1573156       -18.27215        -53.22742        40.27875             -200               0             -200               0
1.47368               -0.1621898       -18.44412         -53.0348        37.51133             -200               0             -200               0
1.48026               -0.1673155       -18.61823        -52.83508        34.82114             -200               0             -200               0
1.48684               -0.1727017       -18.79439        -52.62651        32.19969             -200               0             -200               0
1.49342               -0.1783557       -18.97253        -52.40752        29.63675             -200               0             -200               0
1.5                   -0.1842792       -19.15258        -52.17681        27.12057             -200               0             -200               0
1.50658               -0.1904765       -19.33446        -51.93336        24.63813             -200               0             -200               0
1.51316               -0.1969457       -19.51811        -51.67651        22.17559             -200               0             -200               0
1.51974               -0.2036816       -19.70347        -51.40591        19.71874             -200               0             -200               0
1.52632               -0.2106801       -19.89048        -51.12163         17.2534             -200               0             -200               0
1.53289               -0.2179337       -20.07912        -50.82405        14.76594             -200               0             -200               0
1.53947               -0.2254317       -20.26936        -50.51386        12.24373             -200               0             -200               0
1.54605               -0.2331626       -20.46121        -50.19205          9.6754             -200               0             -200               0
1.55263                -0.241117       -20.65468        -49.85981        7.051204             -200               0             -200               0
1.55921               -0.2492813       -20.84982         -49.5185        4.363107             -200               0             -200               0
1.56579               -0.2576444       -21.04668        -49.16959        1.604884             -200               0             -200               0
1.57237               -0.2661952       -21.24536        -48.81457       -1.227912             -200               0             -200               0
1.57895               -0.2749234       -21.44596        -48.45496       -4.138048             -200               0             -200               0
1.58553               -0.2838204       -21.64861        -48.09222       -7.126739             -200               0             -200               0
1.59211                -0.292882       -21.85344        -47.72775       -10.19386             -200               0             -200               0
1.59868                -0.302104       -22.06063        -47.36285       -13.33809             -200               0             -200               0
1.60526               -0.3114871       -22.27035        -46.99869       -16.55718             -200               0             -200               0
1.61184               -0.3210331       -22.48278        -46.63635       -19.84808             -200               0             -200               0
1.61842               -0.3307499       -22.69812        -46.27676       -23.20713             -200               0             -200               0
1.625                 -0.3406483       -22.91658        -45.92073       -26.63025             -200               0             -200               0
1.63158               -0.3507428       -23.13835        -45.56896       -30.11303             -200               0             -200               0
1.63816               -0.3610534       -23.36362        -45.22204       -33.65088             -200               0             -200               0
1.64474                  -0.3716        -23.5926        -44.88043       -37.23909             -200               0             -200               0
1.65132               -0.3824123       -23.82545         -44.5445       -40.87294             -200               0             -200               0
1.65789               -0.3935182       -24.06235        -44.21455       -44.54774             -200               0             -200               0
1.66447               -0.4049498       -24.30345        -43.89078       -48.25889             -200               0             -200               0
1.67105               -0.4167441       -24.54887        -43.57331       -52.00193             -200               0             -200               0
1.67763               -0.4289376       -24.79872         -43.2622       -55.77252             -200               0             -200               0
1.68421               -0.4415697       -25.05309        -42.95745       -59.56653             -200               0             -200               0
1.69079               -0.4546816       -25.31204          -42.659          -63.38             -200               0             -200               0
1.69737               -0.4683116        -25.5756        -42.36674       -67.20919             -200               0             -200               0
1.70395               -0.4825028       -25.84378        -42.08052       -71.05058             -200               0             -200               0
1.71053                -0.497293       -26.11658        -41.80013       -74.90085             -200               0             -200               0
1.71711               -0.5127216       -26.39395        -41.52536       -78.75695             -200               0             -200               0
1.72368               -0.5288249       -26.67584        -41.25593       -82.61605             -200               0             -200               0
1.73026               -0.5456372       -26.96218        -40.99154       -86.47556             -200               0             -200               0
1.73684               -0.5631904       -27.25288        -40.73188       -90.33315             -200               0             -200               0
1.74342               -0.5815117       -27.54784        -40.47659       -94.18676             -200               0             -200               0
1.75                  -0.6006272       -27.84697         -40.2253       -98.03459             -200               0             -200               0
1.75658               -0.6205575       -28.15016        -39.97763       -101.8751             -200               0             -200               0
1.76316               -0.6413211        -28.4573        -39.73318       -105.7071             -200               0             -200               0
1.76974               -0.6629329       -28.76831        -39.49153       -109.5295             -200               0             -200               0
1.77632               -0.6854054       -29.08309        -39.25227       -113.3418             -200               0             -200               0
1.78289               -0.7087453        -29.4016        -39.01497       -117.1436             -200               0             -200               0
1.78947                -0.732961       -29.72378         -38.7792       -120.9347             -200               0             -200               0
1.79605               -0.7580548       -30.04961        -38.54456       -124.7154             -200               0             -200               0
1.80263                 -0.78403        -30.3791        -38.31063       -128.4863             -200               0             -200               0
1.80921                -0.810888       -30.71229        -38.07702       -132.2481             -200               0             -200               0
1.81579               -0.8386336       -31.04926        -37.84335        -136.002             -200               0             -200               0
1.82237               -0.8672682       -31.39011        -37.60928       -139.7494             -200               0             -200               0
1.82895               -0.8967983       -31.73499        -37.37447       -143.4917             -200               0             -200               0
1.83553                 -0.92723       -32.08407        -37.13863       -147.2309             -200               0             -200               0
1.84211               -0.9585766       -32.43757        -36.90151        -150.969             -200               0             -200               0
1.84868               -0.9908543       -32.79574        -36.66288       -154.7082             -200               0             -200               0
