! TOUCHSTONE file generated by CST MICROWAVE STUDIO
! Date and time: Tue Mar 18 00:00:53 2025
! Project name: oblique.cst
! Parameters = {Tilt=30; Fracture=1; B=10; D=160; F=15; Feed=2.85625; L=100; M=30; R=0.384908; S=1; Theta=90; length=57.125; wave=114.25}
! Header version: 2024
! Port assignment regex: !\s*Touchstone port\s*([0-9]+)\s*=\s*(CST MWS port|CST DES external port|CST DES block port)\s*(.+)\s* \(\"(.*)\"\)(\s*mode\s*([0-9]+))?.*
! Touchstone port assignment:
! Touchstone port 1 = CST MWS port 1 ("")
! Touchstone port 2 = CST MWS port 2 ("")
# GHz S DB R 50
1                    -0.02243443        -9.78493        -64.64387         171.674             -200               0             -200               0
1.0066               -0.02308235        -9.87069        -64.73494        165.1656             -200               0             -200               0
1.0132               -0.02369836        -9.95707        -64.86595        158.7224             -200               0             -200               0
1.0198               -0.02428392       -10.04414        -65.03961        152.3454             -200               0             -200               0
1.0264               -0.02484214       -10.13196        -65.25925        146.0369             -200               0             -200               0
1.033                -0.02537719       -10.22058        -65.52897        139.8005             -200               0             -200               0
1.0396               -0.02589543       -10.31007        -65.85382        133.6423             -200               0             -200               0
1.0462               -0.02640335       -10.40047        -66.24017        127.5708             -200               0             -200               0
1.05281              -0.02691014       -10.49182        -66.69604        121.5985             -200               0             -200               0
1.05941              -0.02742321       -10.58417        -67.23173        115.7434             -200               0             -200               0
1.06601              -0.02795229       -10.67752        -67.86072        110.0319             -200               0             -200               0
1.07261              -0.02850568        -10.7719        -68.60105        104.5038             -200               0             -200               0
1.07921              -0.02909468       -10.86731        -69.47745        99.22141             -200               0             -200               0
1.08581              -0.02972818       -10.96376        -70.52506        94.28628             -200               0             -200               0
1.09241              -0.03041434       -11.06122        -71.79573         89.8757             -200               0             -200               0
1.09901              -0.03116212       -11.15967        -73.36972        86.32588             -200               0             -200               0
1.10561              -0.03197908       -11.25909        -75.37745        84.35197             -200               0             -200               0
1.11221              -0.03287158       -11.35944         -78.0343        85.73412             -200               0             -200               0
1.11881              -0.03384453       -11.46068        -81.59018        95.84214             -200               0             -200               0
1.12541              -0.03490198       -11.56275        -84.79819        129.0556             -200               0             -200               0
1.13201               -0.0360465       -11.66562        -82.57128         170.377             -200               0             -200               0
1.13861              -0.03727762       -11.76923        -78.46788        -174.103             -200               0             -200               0
1.14521              -0.03859692       -11.87353         -75.2284       -170.7444             -200               0             -200               0
1.15182              -0.03999977       -11.97848        -72.72549       -171.7679             -200               0             -200               0
1.15842              -0.04148498       -12.08403        -70.71282       -174.7019             -200               0             -200               0
1.16502              -0.04304598       -12.19015        -69.03708       -178.6105             -200               0             -200               0
1.17162              -0.04467664       -12.29681        -67.60506         176.928             -200               0             -200               0
1.17822              -0.04637037       -12.40397        -66.35739        172.1293             -200               0             -200               0
1.18482              -0.04811884       -12.51164        -65.25439         167.115             -200               0             -200               0
1.19142              -0.04991324       -12.61981        -64.26834        161.9588             -200               0             -200               0
1.19802              -0.05174453       -12.72848        -63.37923        156.7081             -200               0             -200               0
1.20462              -0.05360463       -12.83769        -62.57211        151.3949             -200               0             -200               0
1.21122              -0.05548363       -12.94745        -61.83562        146.0418             -200               0             -200               0
1.21782              -0.05737434       -13.05781        -61.16085        140.6654             -200               0             -200               0
1.22442              -0.05926901       -13.16882        -60.54077        135.2782             -200               0             -200               0
1.23102              -0.06116017       -13.28055        -59.96969        129.8902             -200               0             -200               0
1.23762              -0.06304414       -13.39306        -59.44298        124.5095             -200               0             -200               0
1.24422              -0.06491537       -13.50642         -58.9568        119.1429             -200               0             -200               0
1.25083              -0.06677316       -13.62074        -58.50797        113.7964             -200               0             -200               0
1.25743               -0.0686163       -13.73608        -58.09378        108.4753             -200               0             -200               0
1.26403              -0.07044585       -13.85254        -57.71197        103.1847             -200               0             -200               0
1.27063              -0.07226414       -13.97021        -57.36056        97.92936             -200               0             -200               0
1.27723              -0.07407733       -14.08917        -57.03788        92.71394             -200               0             -200               0
1.28383              -0.07589092        -14.2095        -56.74246         87.5432             -200               0             -200               0
1.29043              -0.07771303       -14.33129          -56.473        82.42196             -200               0             -200               0
1.29703              -0.07955308        -14.4546        -56.22838        77.35526             -200               0             -200               0
1.30363              -0.08142242        -14.5795        -56.00755        72.34835             -200               0             -200               0
1.31023              -0.08333263       -14.70603        -55.80959        67.40684             -200               0             -200               0
1.31683              -0.08529538       -14.83424         -55.6336        62.53672             -200               0             -200               0
1.32343              -0.08732453       -14.96416        -55.47877        57.74439             -200               0             -200               0
1.33003               -0.0894327       -15.09581        -55.34426        53.03678             -200               0             -200               0
1.33663              -0.09163315       -15.22918        -55.22924        48.42137             -200               0             -200               0
1.34323              -0.09393864       -15.36429        -55.13283        43.90618             -200               0             -200               0
1.34984              -0.09636049       -15.50111         -55.0541        39.49988             -200               0             -200               0
1.35644              -0.09891026       -15.63962          -54.992        35.21172             -200               0             -200               0
1.36304               -0.1015957       -15.77978        -54.94533        31.05157             -200               0             -200               0
1.36964               -0.1044271       -15.92155        -54.91273        27.02979             -200               0             -200               0
1.37624               -0.1074102       -16.06489        -54.89259        23.15714             -200               0             -200               0
1.38284               -0.1105486       -16.20975        -54.88303        19.44456             -200               0             -200               0
1.38944               -0.1138464       -16.35607        -54.88181        15.90291             -200               0             -200               0
1.39604               -0.1173041       -16.50382        -54.88635        12.54246             -200               0             -200               0
1.40264               -0.1209199       -16.65293        -54.89359        9.372364             -200               0             -200               0
1.40924               -0.1246933       -16.80338        -54.90007        6.399925             -200               0             -200               0
1.41584               -0.1286182       -16.95512        -54.90184        3.629663             -200               0             -200               0
1.42244               -0.1326884       -17.10813        -54.89455         1.06231             -200               0             -200               0
1.42904               -0.1368969        -17.2624        -54.87351       -1.306286             -200               0             -200               0
1.43564                -0.141237       -17.41793        -54.83389       -3.486169             -200               0             -200               0
1.44224               -0.1456982       -17.57473         -54.7709       -5.494062             -200               0             -200               0
1.44884               -0.1502719       -17.73282        -54.68008       -7.353691             -200               0             -200               0
1.45545               -0.1549497       -17.89226         -54.5576       -9.095505             -200               0             -200               0
1.46205               -0.1597218       -18.05309         -54.4006       -10.75563             -200               0             -200               0
1.46865               -0.1645796       -18.21539        -54.20741       -12.37413             -200               0             -200               0
1.47525               -0.1695173       -18.37924        -53.97769       -13.99267             -200               0             -200               0
1.48185               -0.1745293       -18.54475        -53.71249       -15.65198             -200               0             -200               0
1.48845                -0.179611       -18.71203        -53.41409       -17.38944             -200               0             -200               0
1.49505               -0.1847602       -18.88119        -53.08582       -19.23713             -200               0             -200               0
1.50165               -0.1899779       -19.05237         -52.7317       -21.22056             -200               0             -200               0
1.50825               -0.1952672        -19.2257        -52.35618       -23.35822             -200               0             -200               0
1.51485                -0.200632       -19.40133        -51.96385       -25.66172             -200               0             -200               0
1.52145               -0.2060818       -19.57938        -51.55914       -28.13646             -200               0             -200               0
1.52805               -0.2116275       -19.76001        -51.14621       -30.78262             -200               0             -200               0
1.53465               -0.2172804       -19.94334         -50.7288       -33.59621             -200               0             -200               0
1.54125               -0.2230568       -20.12951         -50.3102       -36.57014             -200               0             -200               0
1.54785                -0.228975       -20.31863        -49.89319       -39.69517             -200               0             -200               0
1.55446               -0.2350547       -20.51081        -49.48013       -42.96067             -200               0             -200               0
1.56106               -0.2413175       -20.70614        -49.07295       -46.35528             -200               0             -200               0
1.56766               -0.2477857       -20.90471        -48.67317       -49.86736             -200               0             -200               0
1.57426               -0.2544838       -21.10658        -48.28204       -53.48533             -200               0             -200               0
1.58086                -0.261437        -21.3118        -47.90047       -57.19789             -200               0             -200               0
1.58746               -0.2686696        -21.5204        -47.52916       -60.99423             -200               0             -200               0
1.59406               -0.2762055       -21.73241         -47.1686       -64.86401             -200               0             -200               0
1.60066               -0.2840702       -21.94781        -46.81913       -68.79751             -200               0             -200               0
1.60726               -0.2922854        -22.1666        -46.48094       -72.78555             -200               0             -200               0
1.61386               -0.3008733       -22.38874        -46.15409       -76.81957             -200               0             -200               0
1.62046               -0.3098546       -22.61421        -45.83857        -80.8915             -200               0             -200               0
1.62706               -0.3192462       -22.84294        -45.53427        -84.9938             -200               0             -200               0
1.63366               -0.3290642       -23.07489        -45.24101        -89.1194             -200               0             -200               0
1.64026               -0.3393222          -23.31        -44.95856       -93.26169             -200               0             -200               0
1.64686                -0.350032       -23.54821        -44.68664       -97.41442             -200               0             -200               0
1.65347               -0.3611999       -23.78946         -44.4249       -101.5717             -200               0             -200               0
1.66007               -0.3728352       -24.03371        -44.17298       -105.7281             -200               0             -200               0
1.66667               -0.3849382        -24.2809        -43.93044       -109.8784             -200               0             -200               0
1.67327               -0.3975128         -24.531        -43.69684       -114.0177             -200               0             -200               0
1.67987               -0.4105579         -24.784        -43.47166       -118.1415             -200               0             -200               0
1.68647               -0.4240719        -25.0399        -43.25436       -122.2453             -200               0             -200               0
1.69307               -0.4380514       -25.29871        -43.04437       -126.3254             -200               0             -200               0
1.69967               -0.4524928       -25.56047        -42.84106       -130.3779             -200               0             -200               0
1.70627                -0.467392       -25.82524        -42.64377       -134.3995             -200               0             -200               0
1.71287               -0.4827453       -26.09311        -42.45179       -138.3872             -200               0             -200               0
1.71947               -0.4985497       -26.36418        -42.26437       -142.3384             -200               0             -200               0
1.72607               -0.5148025       -26.63858        -42.08074       -146.2509             -200               0             -200               0
1.73267               -0.5315067       -26.91647        -41.90006       -150.1229             -200               0             -200               0
1.73927               -0.5486628       -27.19802        -41.72149       -153.9532             -200               0             -200               0
1.74587               -0.5662776       -27.48341        -41.54414        -157.741             -200               0             -200               0
1.75248               -0.5843604       -27.77288        -41.36711       -161.4863             -200               0             -200               0
1.75908               -0.6029236       -28.06664        -41.18948       -165.1896             -200               0             -200               0
1.76568               -0.6219839       -28.36493        -41.01035       -168.8521             -200               0             -200               0
1.77228               -0.6415627       -28.66801         -40.8288       -172.4756             -200               0             -200               0
1.77888               -0.6616874       -28.97612        -40.64396       -176.0628             -200               0             -200               0
1.78548               -0.6823876       -29.28954        -40.45498       -179.6169             -200               0             -200               0
1.79208               -0.7036999        -29.6085         -40.2611        176.8579             -200               0             -200               0
1.79868               -0.7256652       -29.93327         -40.0616        173.3571             -200               0             -200               0
1.80528               -0.7483288       -30.26408        -39.85587        169.8753             -200               0             -200               0
1.81188               -0.7717408       -30.60118        -39.64338         166.407             -200               0             -200               0
1.81848               -0.7959557       -30.94477        -39.42375        162.9458             -200               0             -200               0
1.82508               -0.8210309       -31.29505         -39.1967        159.4853             -200               0             -200               0
1.83168               -0.8470289       -31.65222        -38.96207         156.019             -200               0             -200               0
1.83828               -0.8740153       -32.01641        -38.71986        152.5401             -200               0             -200               0
1.84488               -0.9020573       -32.38779        -38.47018        149.0422             -200               0             -200               0
1.85149               -0.9312266       -32.76644        -38.21326        145.5191             -200               0             -200               0
