! TOUCHSTONE file generated by CST MICROWAVE STUDIO
! Date and time: Tue Mar 18 00:02:26 2025
! Project name: oblique.cst
! Parameters = {Tilt=40; Fracture=1; B=10; D=160; F=25; Feed=2.85625; L=100; M=10; R=0.384908; S=2; Theta=180; length=57.125; wave=114.25}
! Header version: 2024
! Port assignment regex: !\s*Touchstone port\s*([0-9]+)\s*=\s*(CST MWS port|CST DES external port|CST DES block port)\s*(.+)\s* \(\"(.*)\"\)(\s*mode\s*([0-9]+))?.*
! Touchstone port assignment:
! Touchstone port 1 = CST MWS port 1 ("")
! Touchstone port 2 = CST MWS port 2 ("")
# GHz S DB R 50
1                    -0.01930007       -9.776866        -68.72552       -163.1352             -200               0             -200               0
1.00658               -0.0200532       -9.864918        -68.61507       -166.7022             -200               0             -200               0
1.01316              -0.02083737       -9.953446        -68.51824       -170.1391             -200               0             -200               0
1.01974              -0.02165175       -10.04245          -68.433       -173.4363             -200               0             -200               0
1.02632              -0.02249344       -10.13193        -68.35705       -176.5846             -200               0             -200               0
1.03289              -0.02335943       -10.22189         -68.2878       -179.5754             -200               0             -200               0
1.03947               -0.0242476       -10.31233        -68.22237        177.5983             -200               0             -200               0
1.04605              -0.02515512       -10.40328         -68.1575        174.9416             -200               0             -200               0
1.05263               -0.0260787       -10.49474        -68.08966         172.457             -200               0             -200               0
1.05921               -0.0270179       -10.58674        -68.01504        170.1437             -200               0             -200               0
1.06579              -0.02796865       -10.67929        -67.92965        167.9967             -200               0             -200               0
1.07237              -0.02893077       -10.77243        -67.82946        166.0062             -200               0             -200               0
1.07895              -0.02990252       -10.86618        -67.71054        164.1575             -200               0             -200               0
1.08553              -0.03088376       -10.96057         -67.5693        162.4302             -200               0             -200               0
1.09211              -0.03187509       -11.05564        -67.40269        160.7993             -200               0             -200               0
1.09868              -0.03287475        -11.1514        -67.20841        159.2353             -200               0             -200               0
1.10526              -0.03388638       -11.24791        -66.98509        157.7061             -200               0             -200               0
1.11184               -0.0349112       -11.34518        -66.73237        156.1784             -200               0             -200               0
1.11842              -0.03595043       -11.44326        -66.45093        154.6193             -200               0             -200               0
1.125                -0.03700888       -11.54216        -66.14242        152.9986             -200               0             -200               0
1.13158              -0.03808793       -11.64191         -65.8093        151.2893             -200               0             -200               0
1.13816              -0.03919253       -11.74254        -65.45462        149.4697             -200               0             -200               0
1.14474              -0.04032677       -11.84407        -65.08185        147.5229             -200               0             -200               0
1.15132              -0.04149478        -11.9465        -64.69463        145.4375             -200               0             -200               0
1.15789              -0.04270087       -12.04987        -64.29657        143.2071             -200               0             -200               0
1.16447              -0.04394992       -12.15416        -63.89115        140.8294             -200               0             -200               0
1.17105              -0.04524538       -12.25939        -63.48157        138.3058             -200               0             -200               0
1.17763              -0.04659194       -12.36556        -63.07071        135.6408             -200               0             -200               0
1.18421               -0.0479938       -12.47266         -62.6611        132.8407             -200               0             -200               0
1.19079              -0.04945371       -12.58069        -62.25492        129.9135             -200               0             -200               0
1.19737              -0.05097561       -12.68964          -61.854        126.8682             -200               0             -200               0
1.20395              -0.05256127        -12.7995        -61.45987        123.7142             -200               0             -200               0
1.21053              -0.05421269       -12.91025        -61.07375        120.4612             -200               0             -200               0
1.21711              -0.05593086       -13.02189        -60.69665        117.1188             -200               0             -200               0
1.22368              -0.05771602        -13.1344        -60.32931        113.6965             -200               0             -200               0
1.23026              -0.05956959       -13.24778        -59.97234        110.2036             -200               0             -200               0
1.23684              -0.06148986         -13.362        -59.62616        106.6487             -200               0             -200               0
1.24342              -0.06347489       -13.47706        -59.29106        103.0403             -200               0             -200               0
1.25                 -0.06552382       -13.59296        -58.96722         99.3864             -200               0             -200               0
1.25658              -0.06763347       -13.70969        -58.65471        95.69442             -200               0             -200               0
1.26316              -0.06980194       -13.82726        -58.35354        91.97155             -200               0             -200               0
1.26974              -0.07202473       -13.94567        -58.06364        88.22452             -200               0             -200               0
1.27632              -0.07430021       -14.06494        -57.78489        84.45974             -200               0             -200               0
1.28289              -0.07662396       -14.18508        -57.51708        80.68323             -200               0             -200               0
1.28947              -0.07899328       -14.30612           -57.26        76.90075             -200               0             -200               0
1.29605              -0.08140488       -14.42808        -57.01338        73.11772             -200               0             -200               0
1.30263              -0.08385616         -14.551        -56.77688        69.33934             -200               0             -200               0
1.30921              -0.08634286       -14.67491        -56.55018        65.57051             -200               0             -200               0
1.31579              -0.08886569       -14.79985        -56.33286        61.81593             -200               0             -200               0
1.32237              -0.09142143       -14.92588        -56.12452        58.08003             -200               0             -200               0
1.32895              -0.09401003       -15.05303        -55.92468        54.36703             -200               0             -200               0
1.33553              -0.09663153       -15.18136        -55.73284        50.68093             -200               0             -200               0
1.34211              -0.09928617       -15.31092        -55.54847        47.02544             -200               0             -200               0
1.34868                -0.101976       -15.44176        -55.37098        43.40407             -200               0             -200               0
1.35526               -0.1047021       -15.57394        -55.19977        39.82003             -200               0             -200               0
1.36184               -0.1074686       -15.70751        -55.03417        36.27623             -200               0             -200               0
1.36842                -0.110279       -15.84253        -54.87349        32.77525             -200               0             -200               0
1.375                 -0.1131366       -15.97904        -54.71699        29.31932             -200               0             -200               0
1.38158               -0.1160483       -16.11708        -54.56392        25.91025             -200               0             -200               0
1.38816               -0.1190181        -16.2567        -54.41347        22.54944             -200               0             -200               0
1.39474               -0.1220513       -16.39795        -54.26481        19.23775             -200               0             -200               0
1.40132               -0.1251553       -16.54086         -54.1171        15.97556             -200               0             -200               0
1.40789               -0.1283358       -16.68546        -53.96947        12.76265             -200               0             -200               0
1.41447               -0.1315987       -16.83178        -53.82106        9.598218             -200               0             -200               0
1.42105               -0.1349494       -16.97985        -53.67102        6.480818             -200               0             -200               0
1.42763               -0.1383949       -17.12968        -53.51851        3.408363             -200               0             -200               0
1.43421               -0.1419405       -17.28131        -53.36272       0.3781203             -200               0             -200               0
1.44079               -0.1455909       -17.43474        -53.20291       -2.613276             -200               0             -200               0
1.44737               -0.1493506       -17.58999        -53.03839       -5.569785             -200               0             -200               0
1.45395               -0.1532238       -17.74707        -52.86855       -8.495914             -200               0             -200               0
1.46053               -0.1572138       -17.90601        -52.69286       -11.39664             -200               0             -200               0
1.46711               -0.1613232       -18.06682        -52.51092       -14.27733             -200               0             -200               0
1.47368               -0.1655538       -18.22951         -52.3224       -17.14361             -200               0             -200               0
1.48026               -0.1699078        -18.3941        -52.12714       -20.00129             -200               0             -200               0
1.48684               -0.1743864       -18.56064        -51.92505       -22.85622             -200               0             -200               0
1.49342               -0.1789896       -18.72913        -51.71618       -25.71413             -200               0             -200               0
1.5                   -0.1837171       -18.89963         -51.5007       -28.58059             -200               0             -200               0
1.50658                 -0.18857       -19.07217        -51.27887       -31.46084             -200               0             -200               0
1.51316               -0.1935477        -19.2468        -51.05105       -34.35971             -200               0             -200               0
1.51974               -0.1986508       -19.42359        -50.81769       -37.28154             -200               0             -200               0
1.52632               -0.2038785       -19.60258         -50.5793       -40.23013             -200               0             -200               0
1.53289               -0.2092329       -19.78388        -50.33643       -43.20868             -200               0             -200               0
1.53947               -0.2147136       -19.96753        -50.08969       -46.21978             -200               0             -200               0
1.54605               -0.2203245       -20.15365        -49.83969       -49.26544             -200               0             -200               0
1.55263               -0.2260669       -20.34232        -49.58706       -52.34703             -200               0             -200               0
1.55921               -0.2319478       -20.53364        -49.33243       -55.46538             -200               0             -200               0
1.56579               -0.2379707       -20.72773        -49.07639       -58.62077             -200               0             -200               0
1.57237               -0.2441429        -20.9247        -48.81953         -61.813             -200               0             -200               0
1.57895                -0.250473       -21.12465        -48.56239       -65.04142             -200               0             -200               0
1.58553               -0.2569708       -21.32772        -48.30548       -68.30503             -200               0             -200               0
1.59211               -0.2636499       -21.53401        -48.04927       -71.60245             -200               0             -200               0
1.59868               -0.2705237       -21.74366        -47.79417       -74.93206             -200               0             -200               0
1.60526               -0.2776057       -21.95677        -47.54054         -78.292             -200               0             -200               0
1.61184               -0.2849138       -22.17346        -47.28871       -81.68023             -200               0             -200               0
1.61842               -0.2924664       -22.39385        -47.03894       -85.09456             -200               0             -200               0
1.625                 -0.3002847       -22.61804        -46.79144       -88.53273             -200               0             -200               0
1.63158               -0.3083898       -22.84612         -46.5464       -91.99242             -200               0             -200               0
1.63816                -0.316804        -23.0782        -46.30392       -95.47127             -200               0             -200               0
1.64474               -0.3255518       -23.31436        -46.06409       -98.96695             -200               0             -200               0
1.65132               -0.3346585       -23.55468        -45.82695       -102.4771             -200               0             -200               0
1.65789               -0.3441476       -23.79921        -45.59247       -105.9996             -200               0             -200               0
1.66447               -0.3540484       -24.04803        -45.36063       -109.5323             -200               0             -200               0
1.67105                -0.364384       -24.30118        -45.13133        -113.073             -200               0             -200               0
1.67763               -0.3751838        -24.5587        -44.90446       -116.6198             -200               0             -200               0
1.68421               -0.3864727       -24.82063        -44.67987       -120.1711             -200               0             -200               0
1.69079               -0.3982768       -25.08698         -44.4574       -123.7251             -200               0             -200               0
1.69737                -0.410623       -25.35779        -44.23683       -127.2805             -200               0             -200               0
1.70395               -0.4235365       -25.63307        -44.01795        -130.836             -200               0             -200               0
1.71053               -0.4370413       -25.91282        -43.80052       -134.3904             -200               0             -200               0
1.71711               -0.4511634       -26.19706        -43.58427       -137.9431             -200               0             -200               0
1.72368               -0.4659231       -26.48579        -43.36894       -141.4934             -200               0             -200               0
1.73026               -0.4813468       -26.77902        -43.15425       -145.0408             -200               0             -200               0
1.73684               -0.4974534       -27.07675        -42.93991       -148.5853             -200               0             -200               0
1.74342                -0.514266       -27.37901        -42.72564       -152.1268             -200               0             -200               0
1.75                   -0.531805       -27.68581        -42.51115       -155.6658             -200               0             -200               0
1.75658               -0.5500909       -27.99718        -42.29617       -159.2028             -200               0             -200               0
1.76316                -0.569144       -28.31314        -42.08043       -162.7385             -200               0             -200               0
1.76974               -0.5889845       -28.63375        -41.86368       -166.2739             -200               0             -200               0
1.77632               -0.6096349       -28.95904        -41.64569       -169.8103             -200               0             -200               0
1.78289               -0.6311162       -29.28911        -41.42625        -173.349             -200               0             -200               0
1.78947               -0.6534512         -29.624        -41.20517       -176.8915             -200               0             -200               0
1.79605               -0.6766635       -29.96381         -40.9823        179.5604             -200               0             -200               0
1.80263               -0.7007788       -30.30865        -40.75751        176.0049             -200               0             -200               0
1.80921               -0.7258251       -30.65862         -40.5307        172.4401             -200               0             -200               0
1.81579               -0.7518327       -31.01384        -40.30182        168.8641             -200               0             -200               0
1.82237               -0.7788346       -31.37444        -40.07084        165.2747             -200               0             -200               0
1.82895               -0.8068663       -31.74057        -39.83777        161.6699             -200               0             -200               0
1.83553               -0.8359667       -32.11238        -39.60266        158.0477             -200               0             -200               0
1.84211               -0.8661804       -32.49001        -39.36558        154.4062             -200               0             -200               0
1.84868               -0.8975553       -32.87363        -39.12664        150.7433             -200               0             -200               0
