! TOUCHSTONE file generated by CST MICROWAVE STUDIO
! Date and time: Tue Mar 18 00:02:21 2025
! Project name: oblique.cst
! Parameters = {Tilt=40; Fracture=1; B=10; D=160; F=25; Feed=2.85625; L=100; M=10; R=0.384908; S=1; Theta=180; length=57.125; wave=114.25}
! Header version: 2024
! Port assignment regex: !\s*Touchstone port\s*([0-9]+)\s*=\s*(CST MWS port|CST DES external port|CST DES block port)\s*(.+)\s* \(\"(.*)\"\)(\s*mode\s*([0-9]+))?.*
! Touchstone port assignment:
! Touchstone port 1 = CST MWS port 1 ("")
! Touchstone port 2 = CST MWS port 2 ("")
# GHz S DB R 50
1                    -0.02063904       -9.785151        -68.81404       -159.5084             -200               0             -200               0
1.00658              -0.02122252       -9.871751        -68.77176       -163.0644             -200               0             -200               0
1.01316              -0.02179734       -9.959014        -68.74705        -166.433             -200               0             -200               0
1.01974              -0.02236735       -10.04697         -68.7373       -169.5967             -200               0             -200               0
1.02632               -0.0229342       -10.13567        -68.73939       -172.5378             -200               0             -200               0
1.03289              -0.02350169       -10.22514        -68.74948       -175.2388             -200               0             -200               0
1.03947              -0.02407748        -10.3154        -68.76297        -177.684             -200               0             -200               0
1.04605              -0.02466292        -10.4065        -68.77441       -179.8609             -200               0             -200               0
1.05263               -0.0252653       -10.49843        -68.77746        178.2382             -200               0             -200               0
1.05921              -0.02589046       -10.59124          -68.765        176.6135             -200               0             -200               0
1.06579              -0.02654433       -10.68491        -68.72936        175.2554             -200               0             -200               0
1.07237              -0.02723208       -10.77947        -68.66266        174.1426             -200               0             -200               0
1.07895              -0.02796047        -10.8749        -68.55745        173.2406             -200               0             -200               0
1.08553              -0.02873392        -10.9712         -68.4073        172.5015             -200               0             -200               0
1.09211              -0.02955847       -11.06836        -68.20756        171.8667             -200               0             -200               0
1.09868              -0.03043819       -11.16636        -67.95586        171.2703             -200               0             -200               0
1.10526              -0.03137795       -11.26519        -67.65244        170.6446             -200               0             -200               0
1.11184              -0.03237889       -11.36483        -67.30006        169.9254             -200               0             -200               0
1.11842              -0.03344392       -11.46524        -66.90362        169.0576             -200               0             -200               0
1.125                -0.03457642       -11.56641        -66.46953        167.9977             -200               0             -200               0
1.13158              -0.03577516        -11.6683        -66.00503        166.7159             -200               0             -200               0
1.13816              -0.03703944        -11.7709        -65.51753         165.195             -200               0             -200               0
1.14474              -0.03836997       -11.87419        -65.01407        163.4293             -200               0             -200               0
1.15132              -0.03976333       -11.97813        -64.50104        161.4219             -200               0             -200               0
1.15789                -0.041217       -12.08272        -63.98398        159.1826             -200               0             -200               0
1.16447              -0.04272825       -12.18794        -63.46752        156.7255             -200               0             -200               0
1.17105              -0.04429271       -12.29379         -62.9554        154.0673             -200               0             -200               0
1.17763               -0.0459068       -12.40026        -62.45061        151.2259             -200               0             -200               0
1.18421              -0.04756521       -12.50737        -61.95543        148.2193             -200               0             -200               0
1.19079              -0.04926292       -12.61511        -61.47158        145.0652             -200               0             -200               0
1.19737              -0.05099716       -12.72351         -61.0003        141.7805             -200               0             -200               0
1.20395              -0.05276098       -12.83259        -60.54246        138.3808             -200               0             -200               0
1.21053              -0.05455226       -12.94237        -60.09863        134.8808             -200               0             -200               0
1.21711              -0.05636644       -13.05291        -59.66912        131.2939             -200               0             -200               0
1.22368              -0.05820119       -13.16423        -59.25408        127.6323             -200               0             -200               0
1.23026              -0.06005319       -13.27638        -58.85348        123.9073             -200               0             -200               0
1.23684              -0.06192207       -13.38941        -58.46722         120.129             -200               0             -200               0
1.24342              -0.06380699       -13.50336        -58.09506        116.3068             -200               0             -200               0
1.25                 -0.06570746        -13.6183        -57.73674        112.4492             -200               0             -200               0
1.25658              -0.06762655       -13.73428        -57.39191         108.564             -200               0             -200               0
1.26316              -0.06956577       -13.85134         -57.0602        104.6583             -200               0             -200               0
1.26974              -0.07152808       -13.96954        -56.74118        100.7387             -200               0             -200               0
1.27632              -0.07351892       -14.08893        -56.43443        96.81125             -200               0             -200               0
1.28289              -0.07554142       -14.20956        -56.13947        92.88154             -200               0             -200               0
1.28947              -0.07760214       -14.33145         -55.8558        88.95473             -200               0             -200               0
1.29605              -0.07970869       -14.45467        -55.58293         85.0356             -200               0             -200               0
1.30263              -0.08186597       -14.57922        -55.32032        81.12859             -200               0             -200               0
1.30921              -0.08408201       -14.70514        -55.06741         77.2378             -200               0             -200               0
1.31579               -0.0863641       -14.83245        -54.82365        73.36698             -200               0             -200               0
1.32237              -0.08871828       -14.96116        -54.58844        69.51962             -200               0             -200               0
1.32895              -0.09115222       -15.09128        -54.36118        65.69887             -200               0             -200               0
1.33553              -0.09367282       -15.22281        -54.14124        61.90758             -200               0             -200               0
1.34211              -0.09628569       -15.35574        -53.92798        58.14828             -200               0             -200               0
1.34868               -0.0989954       -15.49007        -53.72072        54.42317             -200               0             -200               0
1.35526               -0.1018075       -15.62579         -53.5188        50.73411             -200               0             -200               0
1.36184               -0.1047255       -15.76289         -53.3215         47.0826             -200               0             -200               0
1.36842               -0.1077521       -15.90134        -53.12812        43.46975             -200               0             -200               0
1.375                 -0.1108878       -16.04115        -52.93794        39.89628             -200               0             -200               0
1.38158               -0.1141349       -16.18228        -52.75024        36.36248             -200               0             -200               0
1.38816               -0.1174925       -16.32473        -52.56429        32.86819             -200               0             -200               0
1.39474               -0.1209596       -16.46849        -52.37938        29.41283             -200               0             -200               0
1.40132               -0.1245334       -16.61357         -52.1948        25.99533             -200               0             -200               0
1.40789               -0.1282108       -16.75995        -52.00987        22.61416             -200               0             -200               0
1.41447                -0.131989       -16.90766        -51.82395        19.26733             -200               0             -200               0
1.42105               -0.1358636        -17.0567        -51.63643        15.95243             -200               0             -200               0
1.42763               -0.1398304       -17.20711        -51.44674         12.6666             -200               0             -200               0
1.43421               -0.1438846       -17.35891        -51.25439        9.406635             -200               0             -200               0
1.44079               -0.1480218       -17.51215        -51.05893        6.168975             -200               0             -200               0
1.44737               -0.1522379       -17.66688        -50.86001        2.949799             -200               0             -200               0
1.45395               -0.1565291       -17.82316        -50.65733      -0.2549271             -200               0             -200               0
1.46053               -0.1608934       -17.98107        -50.45069       -3.449371             -200               0             -200               0
1.46711               -0.1653273       -18.14067        -50.23997       -6.637758             -200               0             -200               0
1.47368                -0.169831       -18.30205        -50.02513       -9.824294             -200               0             -200               0
1.48026               -0.1744039        -18.4653        -49.80621       -13.01308             -200               0             -200               0
1.48684               -0.1790482       -18.63053        -49.58333       -16.20807             -200               0             -200               0
1.49342               -0.1837669       -18.79781        -49.35668       -19.41294             -200               0             -200               0
1.5                   -0.1885639       -18.96727        -49.12652       -22.63111             -200               0             -200               0
1.50658               -0.1934462         -19.139        -48.89315       -25.86563             -200               0             -200               0
1.51316               -0.1984202        -19.3131        -48.65694       -29.11917             -200               0             -200               0
1.51974               -0.2034965       -19.48967        -48.41827       -32.39401             -200               0             -200               0
1.52632               -0.2086849       -19.66881        -48.17756       -35.69199             -200               0             -200               0
1.53289               -0.2139975       -19.85061        -47.93525       -39.01453             -200               0             -200               0
1.53947                -0.219447       -20.03516        -47.69178       -42.36263             -200               0             -200               0
1.54605               -0.2250483       -20.22255         -47.4476       -45.73689             -200               0             -200               0
1.55263               -0.2308155       -20.41284        -47.20314        -49.1375             -200               0             -200               0
1.55921               -0.2367659       -20.60609        -46.95882       -52.56432             -200               0             -200               0
1.56579                -0.242914       -20.80238        -46.71504       -56.01685             -200               0             -200               0
1.57237               -0.2492774       -21.00174        -46.47216       -59.49433             -200               0             -200               0
1.57895                -0.255871       -21.20423        -46.23054       -62.99568             -200               0             -200               0
1.58553               -0.2627119       -21.40987        -45.99048       -66.51964             -200               0             -200               0
1.59211               -0.2698157        -21.6187        -45.75226       -70.06473             -200               0             -200               0
1.59868               -0.2771969       -21.83073        -45.51612       -73.62932             -200               0             -200               0
1.60526               -0.2848705         -22.046        -45.28225       -77.21162             -200               0             -200               0
1.61184               -0.2928502        -22.2645        -45.05082       -80.80977             -200               0             -200               0
1.61842                -0.301148       -22.48627        -44.82195       -84.42183             -200               0             -200               0
1.625                  -0.309775        -22.7113        -44.59573        -88.0458             -200               0             -200               0
1.63158               -0.3187432       -22.93963        -44.37221       -91.67969             -200               0             -200               0
1.63816               -0.3280608       -23.17126         -44.1514       -95.32149             -200               0             -200               0
1.64474                -0.337738       -23.40623        -43.93327       -98.96923             -200               0             -200               0
1.65132                -0.347781       -23.64456        -43.71776        -102.621             -200               0             -200               0
1.65789                -0.358199        -23.8863        -43.50478       -106.2749             -200               0             -200               0
1.66447               -0.3689984        -24.1315         -43.2942       -109.9292             -200               0             -200               0
1.67105               -0.3801868       -24.38021        -43.08587       -113.5823             -200               0             -200               0
1.67763               -0.3917696       -24.63251         -42.8796       -117.2327             -200               0             -200               0
1.68421               -0.4037551       -24.88849        -42.67519       -120.8789             -200               0             -200               0
1.69079               -0.4161513       -25.14824        -42.47239       -124.5198             -200               0             -200               0
1.69737               -0.4289685       -25.41187        -42.27095       -128.1543             -200               0             -200               0
1.70395                -0.442217       -25.67952        -42.07059       -131.7817             -200               0             -200               0
1.71053               -0.4559096        -25.9513        -41.87102       -135.4013             -200               0             -200               0
1.71711               -0.4700609       -26.22738        -41.67193       -139.0128             -200               0             -200               0
1.72368               -0.4846875       -26.50789        -41.47301       -142.6159             -200               0             -200               0
1.73026               -0.4998087       -26.79302        -41.27394       -146.2108             -200               0             -200               0
1.73684               -0.5154485       -27.08293        -41.07439       -149.7978             -200               0             -200               0
1.74342               -0.5316312        -27.3778        -40.87406       -153.3775             -200               0             -200               0
1.75                   -0.548387        -27.6778        -40.67262       -156.9507             -200               0             -200               0
1.75658               -0.5657473       -27.98311        -40.46979       -160.5186             -200               0             -200               0
1.76316               -0.5837477       -28.29392        -40.26528       -164.0825             -200               0             -200               0
1.76974               -0.6024269       -28.61038        -40.05883       -167.6438             -200               0             -200               0
1.77632               -0.6218299       -28.93266        -39.85021       -171.2045             -200               0             -200               0
1.78289                -0.642001       -29.26092        -39.63921       -174.7664             -200               0             -200               0
1.78947                 -0.66299       -29.59531        -39.42566       -178.3316             -200               0             -200               0
1.79605               -0.6848481       -29.93594        -39.20942        178.0976             -200               0             -200               0
1.80263               -0.7076308       -30.28293        -38.99041        174.5188             -200               0             -200               0
1.80921               -0.7313965       -30.63639        -38.76856        170.9296             -200               0             -200               0
1.81579               -0.7562037       -30.99639        -38.54385        167.3276             -200               0             -200               0
1.82237               -0.7821145       -31.36298         -38.3163        163.7102             -200               0             -200               0
1.82895               -0.8091929       -31.73622          -38.086        160.0752             -200               0             -200               0
1.83553               -0.8375028       -32.11611        -37.85302        156.4199             -200               0             -200               0
1.84211               -0.8671102       -32.50266        -37.61753        152.7423             -200               0             -200               0
1.84868               -0.8980821       -32.89586        -37.37968        149.0401             -200               0             -200               0
