! TOUCHSTONE file generated by CST MICROWAVE STUDIO
! Date and time: Tue Mar 18 00:00:44 2025
! Project name: oblique.cst
! Parameters = {Tilt=30; Fracture=1; B=10; D=160; F=5; Feed=2.85625; L=100; M=30; R=0.384908; S=1; Theta=270; length=57.125; wave=114.25}
! Header version: 2024
! Port assignment regex: !\s*Touchstone port\s*([0-9]+)\s*=\s*(CST MWS port|CST DES external port|CST DES block port)\s*(.+)\s* \(\"(.*)\"\)(\s*mode\s*([0-9]+))?.*
! Touchstone port assignment:
! Touchstone port 1 = CST MWS port 1 ("")
! Touchstone port 2 = CST MWS port 2 ("")
# GHz S DB R 50
1                     -0.0200606       -9.793494        -68.54654       -162.9513             -200               0             -200               0
1.0066               -0.02091656       -9.882085        -68.37665       -167.3334             -200               0             -200               0
1.0132               -0.02181479        -9.97104        -68.23177       -171.6579             -200               0             -200               0
1.0198               -0.02275028       -10.06034        -68.11133       -175.9145             -200               0             -200               0
1.0264               -0.02371569       -10.14998        -68.01478        179.9077             -200               0             -200               0
1.033                -0.02470666       -10.23996        -67.94154        175.8203             -200               0             -200               0
1.0396               -0.02571545       -10.33028        -67.89098         171.836             -200               0             -200               0
1.0462               -0.02673673       -10.42095        -67.86236        167.9684             -200               0             -200               0
1.05281              -0.02776326       -10.51201        -67.85481        164.2323             -200               0             -200               0
1.05941              -0.02878977       -10.60347        -67.86722        160.6439             -200               0             -200               0
1.06601              -0.02980914       -10.69537        -67.89823        157.2207             -200               0             -200               0
1.07261              -0.03082085       -10.78777        -67.94606        153.9814             -200               0             -200               0
1.07921              -0.03181786       -10.88069        -68.00846        150.9459             -200               0             -200               0
1.08581              -0.03279867       -10.97421        -68.08255        148.1345             -200               0             -200               0
1.09241              -0.03376127       -11.06838         -68.1647        145.5675             -200               0             -200               0
1.09901              -0.03470654       -11.16324         -68.2504        143.2643             -200               0             -200               0
1.10561              -0.03563591       -11.25887        -68.33414         141.241             -200               0             -200               0
1.11221              -0.03654965       -11.35532        -68.40935        139.5091             -200               0             -200               0
1.11881              -0.03745396       -11.45265        -68.46849        138.0725             -200               0             -200               0
1.12541              -0.03835077       -11.55091         -68.5032        136.9243             -200               0             -200               0
1.13201              -0.03924686       -11.65014         -68.5048        136.0446             -200               0             -200               0
1.13861               -0.0401492        -11.7504        -68.46482         135.398             -200               0             -200               0
1.14521              -0.04106492       -11.85171        -68.37588        134.9338             -200               0             -200               0
1.15182              -0.04200187        -11.9541        -68.23253        134.5876             -200               0             -200               0
1.15842              -0.04296767        -12.0576        -68.03193        134.2859             -200               0             -200               0
1.16502              -0.04397063       -12.16221        -67.77425        133.9524             -200               0             -200               0
1.17162              -0.04501989       -12.26795        -67.46268        133.5152             -200               0             -200               0
1.17822              -0.04612275        -12.3748        -67.10286        132.9123             -200               0             -200               0
1.18482              -0.04728677       -12.48275        -66.70221         132.096             -200               0             -200               0
1.19142              -0.04851817        -12.5918        -66.26904        131.0345             -200               0             -200               0
1.19802                -0.049825        -12.7019        -65.81176        129.7106             -200               0             -200               0
1.20462              -0.05120914       -12.81304         -65.3383        128.1203             -200               0             -200               0
1.21122              -0.05267527       -12.92517        -64.85576        126.2694             -200               0             -200               0
1.21782               -0.0542266       -13.03828        -64.37017        124.1708             -200               0             -200               0
1.22442              -0.05586264       -13.15231        -63.88654         121.842             -200               0             -200               0
1.23102              -0.05758524       -13.26723        -63.40885        119.3028             -200               0             -200               0
1.23762              -0.05939111       -13.38301        -62.94021        116.5742             -200               0             -200               0
1.24422              -0.06127815       -13.49963        -62.48298        113.6769             -200               0             -200               0
1.25083               -0.0632413       -13.61705        -62.03889        110.6309             -200               0             -200               0
1.25743              -0.06527812       -13.73526        -61.60919        107.4553             -200               0             -200               0
1.26403              -0.06738083       -13.85425        -61.19469        104.1678             -200               0             -200               0
1.27063              -0.06954262       -13.97401        -60.79592        100.7847             -200               0             -200               0
1.27723              -0.07175773       -14.09456        -60.41314        97.32092             -200               0             -200               0
1.28383               -0.0740186       -14.21591        -60.04642         93.7904             -200               0             -200               0
1.29043              -0.07631757       -14.33809         -59.6957        90.20578             -200               0             -200               0
1.29703              -0.07864775       -14.46113        -59.36077        86.57869             -200               0             -200               0
1.30363              -0.08100336       -14.58509        -59.04133        82.91989             -200               0             -200               0
1.31023              -0.08337976       -14.71001        -58.73703        79.23931             -200               0             -200               0
1.31683              -0.08576985       -14.83596        -58.44742        75.54619             -200               0             -200               0
1.32343              -0.08817029       -14.96302          -58.172        71.84914             -200               0             -200               0
1.33003              -0.09058139       -15.09126        -57.91025        68.15623             -200               0             -200               0
1.33663              -0.09299855       -15.22076        -57.66154        64.47504             -200               0             -200               0
1.34323              -0.09542575       -15.35161        -57.42525         60.8127             -200               0             -200               0
1.34984               -0.0978629       -15.48389        -57.20066        57.17593             -200               0             -200               0
1.35644               -0.1003149        -15.6177        -56.98704        53.57108             -200               0             -200               0
1.36304               -0.1027875       -15.75311        -56.78358        50.00407             -200               0             -200               0
1.36964               -0.1052855       -15.89022         -56.5894        46.48043             -200               0             -200               0
1.37624                -0.107819       -16.02908        -56.40358         43.0053             -200               0             -200               0
1.38284                -0.110397       -16.16979        -56.22513         39.5833             -200               0             -200               0
1.38944               -0.1130307       -16.31239        -56.05297        36.21854             -200               0             -200               0
1.39604                -0.115729       -16.45695        -55.88599        32.91455             -200               0             -200               0
1.40264                -0.118506       -16.60351        -55.72298        29.67418             -200               0             -200               0
1.40924               -0.1213739        -16.7521        -55.56269         26.4995             -200               0             -200               0
1.41584               -0.1243429       -16.90277        -55.40381        23.39175             -200               0             -200               0
1.42244               -0.1274282       -17.05551        -55.24501        20.35118             -200               0             -200               0
1.42904               -0.1306389       -17.21036        -55.08491        17.37702             -200               0             -200               0
1.43564               -0.1339865       -17.36729        -54.92214        14.46734             -200               0             -200               0
1.44224               -0.1374824       -17.52632        -54.75536        11.61906             -200               0             -200               0
1.44884               -0.1411354       -17.68743        -54.58328         8.82789             -200               0             -200               0
1.45545               -0.1449534        -17.8506         -54.4047         6.08834             -200               0             -200               0
1.46205               -0.1489424       -18.01581         -54.2185        3.393802             -200               0             -200               0
1.46865               -0.1531077       -18.18306        -54.02377       0.7366492             -200               0             -200               0
1.47525                -0.157453       -18.35231        -53.81972       -1.891605             -200               0             -200               0
1.48185                -0.161982       -18.52356        -53.60579       -4.500099             -200               0             -200               0
1.48845               -0.1666957       -18.69678        -53.38163       -7.098386             -200               0             -200               0
1.49505               -0.1715926       -18.87199        -53.14711       -9.696171             -200               0             -200               0
1.50165               -0.1766726       -19.04918        -52.90234       -12.30304             -200               0             -200               0
1.50825                -0.181933       -19.22837        -52.64763        -14.9282             -200               0             -200               0
1.51485                -0.187372       -19.40957        -52.38349       -17.58023             -200               0             -200               0
1.52145               -0.1929862       -19.59283         -52.1106       -20.26689             -200               0             -200               0
1.52805                -0.198773       -19.77819         -51.8298       -22.99498             -200               0             -200               0
1.53465               -0.2047294       -19.96571        -51.54203       -25.77018             -200               0             -200               0
1.54125                -0.210853       -20.15546        -51.24829       -28.59706             -200               0             -200               0
1.54785               -0.2171432       -20.34753        -50.94966       -31.47903             -200               0             -200               0
1.55446               -0.2235998       -20.54202         -50.6472       -34.41837             -200               0             -200               0
1.56106               -0.2302234       -20.73902        -50.34199       -37.41631             -200               0             -200               0
1.56766               -0.2370189       -20.93866        -50.03506       -40.47311             -200               0             -200               0
1.57426               -0.2439886       -21.14106        -49.72737       -43.58817             -200               0             -200               0
1.58086               -0.2511434       -21.34636        -49.41986       -46.76012             -200               0             -200               0
1.58746               -0.2584892       -21.55467        -49.11336       -49.98695             -200               0             -200               0
1.59406               -0.2660415       -21.76615        -48.80862       -53.26612             -200               0             -200               0
1.60066               -0.2738121       -21.98091        -48.50633       -56.59464             -200               0             -200               0
1.60726                -0.281819       -22.19911        -48.20706       -59.96919             -200               0             -200               0
1.61386               -0.2900806       -22.42086        -47.91133        -63.3862             -200               0             -200               0
1.62046               -0.2986209       -22.64628        -47.61956       -66.84192             -200               0             -200               0
1.62706               -0.3074607       -22.87549        -47.33208       -70.33247             -200               0             -200               0
1.63366               -0.3166264       -23.10858        -47.04917       -73.85392             -200               0             -200               0
1.64026               -0.3261442       -23.34565        -46.77101       -77.40231             -200               0             -200               0
1.64686                -0.336045       -23.58678        -46.49773       -80.97374             -200               0             -200               0
1.65347               -0.3463551       -23.83201        -46.22939       -84.56433             -200               0             -200               0
1.66007               -0.3571057       -24.08141        -45.96599       -88.17032             -200               0             -200               0
1.66667               -0.3683267       -24.33499        -45.70748       -91.78805             -200               0             -200               0
1.67327               -0.3800482       -24.59278        -45.45373       -95.41402             -200               0             -200               0
1.67987               -0.3922996       -24.85478        -45.20458       -99.04488             -200               0             -200               0
1.68647               -0.4051099       -25.12099        -44.95983       -102.6775             -200               0             -200               0
1.69307               -0.4185066       -25.39138        -44.71922       -106.3088             -200               0             -200               0
1.69967               -0.4325164       -25.66592        -44.48245       -109.9362             -200               0             -200               0
1.70627               -0.4471643       -25.94457        -44.24917       -113.5571             -200               0             -200               0
1.71287               -0.4624733       -26.22731        -44.01902       -117.1693             -200               0             -200               0
1.71947               -0.4784648       -26.51408        -43.79159       -120.7708             -200               0             -200               0
1.72607               -0.4951594       -26.80483        -43.56644       -124.3602             -200               0             -200               0
1.73267               -0.5125733       -27.09954         -43.3431       -127.9359             -200               0             -200               0
1.73927               -0.5307245       -27.39816         -43.1211       -131.4971             -200               0             -200               0
1.74587               -0.5496262       -27.70066        -42.89992       -135.0431             -200               0             -200               0
1.75248               -0.5692933       -28.00704        -42.67908       -138.5738             -200               0             -200               0
1.75908               -0.5897371       -28.31729        -42.45804       -142.0893             -200               0             -200               0
1.76568               -0.6109716       -28.63142         -42.2363       -145.5902             -200               0             -200               0
1.77228               -0.6330043       -28.94946        -42.01336       -149.0774             -200               0             -200               0
1.77888               -0.6558518       -29.27147        -41.78873       -152.5524             -200               0             -200               0
1.78548               -0.6795232        -29.5975        -41.56194        -156.017             -200               0             -200               0
1.79208                -0.704034       -29.92764        -41.33257       -159.4731             -200               0             -200               0
1.79868               -0.7294001         -30.262        -41.10024       -162.9234             -200               0             -200               0
1.80528               -0.7556386       -30.60071        -40.86459       -166.3707             -200               0             -200               0
1.81188               -0.7827707       -30.94391        -40.62535        -169.818             -200               0             -200               0
1.81848               -0.8108198       -31.29175        -40.38226       -173.2685             -200               0             -200               0
1.82508               -0.8398154       -31.64441        -40.13517       -176.7259             -200               0             -200               0
1.83168               -0.8697898       -32.00208        -39.88397        179.8064             -200               0             -200               0
1.83828               -0.9007792       -32.36494        -39.62863        176.3247             -200               0             -200               0
1.84488               -0.9328255       -32.73321        -39.36915        172.8254             -200               0             -200               0
1.85149               -0.9659781       -33.10707        -39.10565         169.305             -200               0             -200               0
