! TOUCHSTONE file generated by CST MICROWAVE STUDIO
! Date and time: Tue Mar 18 00:02:55 2025
! Project name: oblique.cst
! Parameters = {Tilt=40; Fracture=1; B=12.5; D=160; F=15; Feed=2.85625; L=100; M=50; R=0.384908; S=1; Theta=180; length=57.125; wave=114.25}
! Header version: 2024
! Port assignment regex: !\s*Touchstone port\s*([0-9]+)\s*=\s*(CST MWS port|CST DES external port|CST DES block port)\s*(.+)\s* \(\"(.*)\"\)(\s*mode\s*([0-9]+))?.*
! Touchstone port assignment:
! Touchstone port 1 = CST MWS port 1 ("")
! Touchstone port 2 = CST MWS port 2 ("")
# GHz S DB R 50
1                    -0.02121988       -9.862582        -68.27781        156.2309             -200               0             -200               0
1.0066               -0.02197149       -9.951201        -68.28353        150.6372             -200               0             -200               0
1.0132               -0.02273826       -10.04038        -68.32258        145.1506             -200               0             -200               0
1.0198               -0.02352361       -10.13015        -68.39578        139.7814             -200               0             -200               0
1.0264               -0.02432519        -10.2205        -68.50416        134.5425             -200               0             -200               0
1.033                -0.02514322       -10.31147        -68.64891        129.4503             -200               0             -200               0
1.0396               -0.02598119       -10.40306         -68.8314        124.5249             -200               0             -200               0
1.0462               -0.02683655       -10.49529         -69.0531        119.7914             -200               0             -200               0
1.05281              -0.02771218       -10.58818        -69.31556        115.2813             -200               0             -200               0
1.05941              -0.02860777       -10.68173        -69.62027        111.0339             -200               0             -200               0
1.06601              -0.02952559       -10.77597        -69.96841        107.0987             -200               0             -200               0
1.07261              -0.03046644       -10.87091        -70.36054        103.5381             -200               0             -200               0
1.07921              -0.03143255       -10.96656        -70.79594        100.4303             -200               0             -200               0
1.08581              -0.03242415       -11.06293        -71.27157        97.87264             -200               0             -200               0
1.09241              -0.03344366       -11.16003        -71.78049        95.98322             -200               0             -200               0
1.09901              -0.03449281       -11.25788        -72.30934        94.89943             -200               0             -200               0
1.10561              -0.03557249       -11.35649        -72.83501        94.76671             -200               0             -200               0
1.11221              -0.03668556       -11.45585        -73.32096        95.70973             -200               0             -200               0
1.11881              -0.03783237       -11.55599        -73.71544        97.77711             -200               0             -200               0
1.12541              -0.03901376        -11.6569        -73.95587        100.8637             -200               0             -200               0
1.13201              -0.04023325       -11.75859        -73.98359        104.6486             -200               0             -200               0
1.13861              -0.04149011       -11.86108        -73.76615        108.6193             -200               0             -200               0
1.14521              -0.04278573       -11.96435        -73.31279        112.2106             -200               0             -200               0
1.15182               -0.0441215       -12.06843        -72.66973        114.9818             -200               0             -200               0
1.15842              -0.04549727       -12.17331         -71.8996        116.7089             -200               0             -200               0
1.16502              -0.04691379         -12.279        -71.06125        117.3631             -200               0             -200               0
1.17162              -0.04837025       -12.38551        -70.19973        117.0349             -200               0             -200               0
1.17822              -0.04987013       -12.49284        -69.34514        115.8638             -200               0             -200               0
1.18482              -0.05140882       -12.60101        -68.51569        113.9946             -200               0             -200               0
1.19142              -0.05299012       -12.71003        -67.72139        111.5581             -200               0             -200               0
1.19802              -0.05461038        -12.8199        -66.96695        108.6645             -200               0             -200               0
1.20462              -0.05627222       -12.93064        -66.25398        105.4038             -200               0             -200               0
1.21122              -0.05797338       -13.04227        -65.58226        101.8483             -200               0             -200               0
1.21782              -0.05971366        -13.1548        -64.95057        98.05605             -200               0             -200               0
1.22442              -0.06149281       -13.26825         -64.3572        94.07379             -200               0             -200               0
1.23102              -0.06331028       -13.38265        -63.80026        89.93921             -200               0             -200               0
1.23762              -0.06516793       -13.49801        -63.27781        85.68307             -200               0             -200               0
1.24422              -0.06706344       -13.61437        -62.78794        81.33072             -200               0             -200               0
1.25083              -0.06899765       -13.73175         -62.3289        76.90327             -200               0             -200               0
1.25743              -0.07097046       -13.85017          -61.899        72.41855             -200               0             -200               0
1.26403              -0.07298464       -13.96968        -61.49671        67.89178             -200               0             -200               0
1.27063              -0.07504083       -14.09029        -61.12062        63.33618             -200               0             -200               0
1.27723              -0.07713859       -14.21205        -60.76943        58.76336             -200               0             -200               0
1.28383               -0.0792806       -14.33498        -60.44191        54.18371             -200               0             -200               0
1.29043              -0.08146982       -14.45912        -60.13697        49.60663             -200               0             -200               0
1.29703              -0.08370686        -14.5845        -59.85355        45.04077             -200               0             -200               0
1.30363               -0.0859963       -14.71115        -59.59066        40.49423             -200               0             -200               0
1.31023              -0.08834011       -14.83911        -59.34737        35.97468             -200               0             -200               0
1.31683              -0.09074238       -14.96841        -59.12277        31.48946             -200               0             -200               0
1.32343              -0.09320509       -15.09908        -58.91596         27.0457             -200               0             -200               0
1.33003              -0.09573459       -15.23115        -58.72606        22.65037             -200               0             -200               0
1.33663              -0.09833444       -15.36465        -58.55216        18.31037             -200               0             -200               0
1.34323               -0.1010067       -15.49961        -58.39333        14.03251             -200               0             -200               0
1.34984               -0.1037583       -15.63604        -58.24859        9.823561             -200               0             -200               0
1.35644               -0.1065927       -15.77398        -58.11691        5.690227             -200               0             -200               0
1.36304               -0.1095124       -15.91345        -57.99718        1.639137             -200               0             -200               0
1.36964               -0.1125263       -16.05448        -57.88817       -2.323235             -200               0             -200               0
1.37624               -0.1156347       -16.19707        -57.78857        -6.19064             -200               0             -200               0
1.38284               -0.1188439       -16.34125        -57.69692        -9.95718             -200               0             -200               0
1.38944               -0.1221577       -16.48705        -57.61163       -13.61747             -200               0             -200               0
1.39604               -0.1255808       -16.63447        -57.53094       -17.16682             -200               0             -200               0
1.40264               -0.1291161       -16.78355        -57.45295       -20.60149             -200               0             -200               0
1.40924               -0.1327671        -16.9343         -57.3756       -23.91894             -200               0             -200               0
1.41584               -0.1365392       -17.08673        -57.29669       -27.11812             -200               0             -200               0
1.42244               -0.1404359       -17.24086         -57.2139       -30.19984             -200               0             -200               0
1.42904               -0.1444587       -17.39673        -57.12483       -33.16697             -200               0             -200               0
1.43564               -0.1486116       -17.55434        -57.02708       -36.02478             -200               0             -200               0
1.44224               -0.1528982       -17.71374        -56.91826       -38.78109             -200               0             -200               0
1.44884               -0.1573229       -17.87494        -56.79616       -41.44635             -200               0             -200               0
1.45545               -0.1618864       -18.03797        -56.65874        -44.0336             -200               0             -200               0
1.46205               -0.1665944       -18.20286         -56.5043        -46.5582             -200               0             -200               0
1.46865               -0.1714483       -18.36965        -56.33153       -49.03745             -200               0             -200               0
1.47525               -0.1764523       -18.53836        -56.13957       -51.49001             -200               0             -200               0
1.48185               -0.1816113       -18.70905        -55.92807       -53.93525             -200               0             -200               0
1.48845               -0.1869285       -18.88174         -55.6972       -56.39248             -200               0             -200               0
1.49505               -0.1924071       -19.05649         -55.4476       -58.88026             -200               0             -200               0
1.50165               -0.1980535       -19.23333         -55.1804       -61.41562             -200               0             -200               0
1.50825               -0.2038724       -19.41232        -54.89707       -64.01369             -200               0             -200               0
1.51485               -0.2098696       -19.59349        -54.59941       -66.68716             -200               0             -200               0
1.52145               -0.2160501        -19.7769        -54.28938       -69.44616             -200               0             -200               0
1.52805               -0.2224219        -19.9626         -53.9691       -72.29822             -200               0             -200               0
1.53465               -0.2289914       -20.15064        -53.64067       -75.24831             -200               0             -200               0
1.54125                -0.235767       -20.34107        -53.30619        -78.2991             -200               0             -200               0
1.54785               -0.2427562       -20.53394        -52.96763        -81.4512             -200               0             -200               0
1.55446               -0.2499664        -20.7293        -52.62685       -84.70346             -200               0             -200               0
1.56106               -0.2574093       -20.92719        -52.28554       -88.05333             -200               0             -200               0
1.56766               -0.2650915       -21.12768        -51.94523        -91.4971             -200               0             -200               0
1.57426               -0.2730257       -21.33079        -51.60725       -95.03021             -200               0             -200               0
1.58086               -0.2812208       -21.53659        -51.27278        -98.6475             -200               0             -200               0
1.58746               -0.2896886       -21.74511        -50.94281       -102.3434             -200               0             -200               0
1.59406               -0.2984367        -21.9564        -50.61818        -106.112             -200               0             -200               0
1.60066               -0.3074799       -22.17049        -50.29961       -109.9474             -200               0             -200               0
1.60726               -0.3168274       -22.38744        -49.98766       -113.8436             -200               0             -200               0
1.61386               -0.3264911       -22.60727        -49.68279       -117.7948             -200               0             -200               0
1.62046               -0.3364823       -22.83004        -49.38536       -121.7951             -200               0             -200               0
1.62706               -0.3468134       -23.05577        -49.09562        -125.839             -200               0             -200               0
1.63366               -0.3574944        -23.2845        -48.81377        -129.921             -200               0             -200               0
1.64026               -0.3685387       -23.51628         -48.5399       -134.0359             -200               0             -200               0
1.64686               -0.3799562       -23.75115        -48.27407       -138.1786             -200               0             -200               0
1.65347               -0.3917587       -23.98914        -48.01627       -142.3444             -200               0             -200               0
1.66007               -0.4039593       -24.23029        -47.76642       -146.5287             -200               0             -200               0
1.66667               -0.4165684       -24.47466        -47.52444       -150.7271             -200               0             -200               0
1.67327               -0.4295984       -24.72229        -47.29017       -154.9355             -200               0             -200               0
1.67987               -0.4430613       -24.97323        -47.06342       -159.1499             -200               0             -200               0
1.68647               -0.4569695       -25.22754        -46.84398       -163.3665             -200               0             -200               0
1.69307               -0.4713361       -25.48528        -46.63158       -167.5817             -200               0             -200               0
1.69967               -0.4861733        -25.7465        -46.42594       -171.7922             -200               0             -200               0
1.70627               -0.5014965       -26.01127        -46.22675       -175.9949             -200               0             -200               0
1.71287               -0.5173202       -26.27967        -46.03365        179.8134             -200               0             -200               0
1.71947               -0.5336585       -26.55177        -45.84627        175.6353             -200               0             -200               0
1.72607               -0.5505284       -26.82764         -45.6642        171.4734             -200               0             -200               0
1.73267               -0.5679472       -27.10738        -45.48701          167.33             -200               0             -200               0
1.73927               -0.5859329       -27.39107        -45.31425        163.2073             -200               0             -200               0
1.74587               -0.6045052        -27.6788        -45.14543        159.1071             -200               0             -200               0
1.75248               -0.6236846       -27.97067        -44.98004        155.0309             -200               0             -200               0
1.75908               -0.6434949       -28.26676        -44.81756        150.9801             -200               0             -200               0
1.76568               -0.6639583       -28.56718        -44.65743        146.9556             -200               0             -200               0
1.77228               -0.6851008       -28.87202         -44.4991        142.9582             -200               0             -200               0
1.77888               -0.7069503       -29.18138          -44.342         138.988             -200               0             -200               0
1.78548               -0.7295338       -29.49536        -44.18553         135.045             -200               0             -200               0
1.79208               -0.7528817       -29.81406        -44.02912        131.1289             -200               0             -200               0
1.79868               -0.7770285       -30.13757        -43.87218        127.2387             -200               0             -200               0
1.80528               -0.8020045       -30.46599        -43.71414        123.3733             -200               0             -200               0
1.81188                -0.827847       -30.79939        -43.55446        119.5309             -200               0             -200               0
1.81848               -0.8545922       -31.13788         -43.3926        115.7095             -200               0             -200               0
1.82508               -0.8822783       -31.48152        -43.22807        111.9067             -200               0             -200               0
1.83168               -0.9109452       -31.83041        -43.06042        108.1197             -200               0             -200               0
1.83828               -0.9406343        -32.1846        -42.88924        104.3453             -200               0             -200               0
1.84488               -0.9713897       -32.54419        -42.71418        100.5801             -200               0             -200               0
1.85149                -1.003253       -32.90922        -42.53494         96.8205             -200               0             -200               0
