! TOUCHSTONE file generated by CST MICROWAVE STUDIO
! Date and time: Tue Mar 18 00:02:28 2025
! Project name: oblique.cst
! Parameters = {Tilt=40; Fracture=1; B=10; D=160; F=25; Feed=2.85625; L=100; M=30; R=0.384908; S=2; Theta=270; length=57.125; wave=114.25}
! Header version: 2024
! Port assignment regex: !\s*Touchstone port\s*([0-9]+)\s*=\s*(CST MWS port|CST DES external port|CST DES block port)\s*(.+)\s* \(\"(.*)\"\)(\s*mode\s*([0-9]+))?.*
! Touchstone port assignment:
! Touchstone port 1 = CST MWS port 1 ("")
! Touchstone port 2 = CST MWS port 2 ("")
# GHz S DB R 50
1                    -0.02172185       -9.782531        -66.05501        164.3261             -200               0             -200               0
1.0066               -0.02220753       -9.868461        -66.07922        158.5806             -200               0             -200               0
1.0132               -0.02265523       -9.955213        -66.13656        152.9467             -200               0             -200               0
1.0198               -0.02307444       -10.04286        -66.22804        147.4344             -200               0             -200               0
1.0264               -0.02347075       -10.13148        -66.35485        142.0564             -200               0             -200               0
1.033                -0.02385566        -10.2211        -66.51839        136.8288             -200               0             -200               0
1.0396               -0.02423986       -10.31179        -66.72023        131.7718             -200               0             -200               0
1.0462               -0.02463488       -10.40358        -66.96209        126.9108             -200               0             -200               0
1.05281              -0.02505302       -10.49648        -67.24578        122.2777             -200               0             -200               0
1.05941              -0.02550648       -10.59051        -67.57311        117.9131             -200               0             -200               0
1.06601              -0.02600829       -10.68566        -67.94561        113.8683             -200               0             -200               0
1.07261              -0.02657036       -10.78191        -68.36422        110.2086             -200               0             -200               0
1.07921              -0.02720327       -10.87925        -68.82859        107.0166             -200               0             -200               0
1.08581              -0.02791756       -10.97762        -69.33603        104.3964             -200               0             -200               0
1.09241              -0.02872286       -11.07699        -69.87963        102.4759             -200               0             -200               0
1.09901              -0.02962562       -11.17728        -70.44556        101.4058             -200               0             -200               0
1.10561              -0.03063191       -11.27845        -71.00908        101.3481             -200               0             -200               0
1.11221              -0.03174539       -11.38042         -71.5302        102.4432             -200               0             -200               0
1.11881              -0.03296825       -11.48313        -71.95141         104.745             -200               0             -200               0
1.12541              -0.03430017       -11.58649        -72.20294        108.1288             -200               0             -200               0
1.13201              -0.03573966       -11.69046        -72.22082        112.2205             -200               0             -200               0
1.13861              -0.03728166       -11.79495         -71.9734        116.4343             -200               0             -200               0
1.14521              -0.03892132       -11.89992        -71.47764        120.1505             -200               0             -200               0
1.15182              -0.04065094       -12.00532        -70.79004        122.9174             -200               0             -200               0
1.15842              -0.04246107       -12.11111        -69.98098        124.5367             -200               0             -200               0
1.16502              -0.04434232       -12.21725        -69.11275        125.0175             -200               0             -200               0
1.17162              -0.04628542       -12.32374        -68.23062        124.4823             -200               0             -200               0
1.17822              -0.04827657       -12.43057        -67.36348        123.0917             -200               0             -200               0
1.18482              -0.05030598       -12.53776        -66.52794        121.0029             -200               0             -200               0
1.19142              -0.05236203       -12.64533        -65.73252        118.3525             -200               0             -200               0
1.19802              -0.05443399       -12.75332         -64.9808        115.2528             -200               0             -200               0
1.20462              -0.05651228       -12.86178         -64.2735        111.7942             -200               0             -200               0
1.21122              -0.05858745       -12.97077        -63.60978        108.0486             -200               0             -200               0
1.21782              -0.06065265       -13.08038        -62.98801         104.073             -200               0             -200               0
1.22442              -0.06270182       -13.19068        -62.40616        99.91298             -200               0             -200               0
1.23102              -0.06473153       -13.30176        -61.86216        95.60517             -200               0             -200               0
1.23762              -0.06674043       -13.41373        -61.35392        91.17934             -200               0             -200               0
1.24422              -0.06872802       -13.52666        -60.87952        86.65994             -200               0             -200               0
1.25083              -0.07069782       -13.64067        -60.43713        82.06732             -200               0             -200               0
1.25743              -0.07265345       -13.75586        -60.02512        77.41862             -200               0             -200               0
1.26403              -0.07460227        -13.8723        -59.64197        72.72849             -200               0             -200               0
1.27063                -0.076553       -13.99008        -59.28635        68.00967             -200               0             -200               0
1.27723              -0.07851552       -14.10929        -58.95703        63.27339             -200               0             -200               0
1.28383              -0.08050115       -14.22998        -58.65291        58.52977             -200               0             -200               0
1.29043              -0.08252438        -14.3522        -58.37299        53.78801             -200               0             -200               0
1.29703              -0.08459741       -14.47601        -58.11637         49.0567             -200               0             -200               0
1.30363              -0.08673508       -14.60143        -57.88223        44.34399             -200               0             -200               0
1.31023              -0.08895138       -14.72846        -57.66981        39.65769             -200               0             -200               0
1.31683              -0.09126106       -14.85711        -57.47838        35.00551             -200               0             -200               0
1.32343              -0.09367745       -14.98737        -57.30729        30.39508             -200               0             -200               0
1.33003              -0.09621316        -15.1192        -57.15586         25.8341             -200               0             -200               0
1.33663               -0.0988787       -15.25257        -57.02345        21.33045             -200               0             -200               0
1.34323               -0.1016855       -15.38742         -56.9094        16.89222             -200               0             -200               0
1.34984               -0.1046399       -15.52371        -56.81302         12.5278             -200               0             -200               0
1.35644               -0.1077482       -15.66137        -56.73354        8.245965             -200               0             -200               0
1.36304               -0.1110152       -15.80034        -56.67015        4.055865             -200               0             -200               0
1.36964               -0.1144406       -15.94054        -56.62191     -0.03293859             -200               0             -200               0
1.37624                -0.118026       -16.08192        -56.58774       -4.010486             -200               0             -200               0
1.38284               -0.1217659        -16.2244        -56.56639       -7.866477             -200               0             -200               0
1.38944               -0.1256573       -16.36795         -56.5564       -11.59038             -200               0             -200               0
1.39604               -0.1296925       -16.51251        -56.55604       -15.17161             -200               0             -200               0
1.40264               -0.1338626       -16.65806        -56.56329       -18.59979             -200               0             -200               0
1.40924                -0.138158       -16.80456         -56.5758        -21.8651             -200               0             -200               0
1.41584               -0.1425674       -16.95202        -56.59081       -24.95881             -200               0             -200               0
1.42244               -0.1470789       -17.10045        -56.60519       -27.87386             -200               0             -200               0
1.42904               -0.1516807       -17.24986         -56.6154       -30.60566             -200               0             -200               0
1.43564               -0.1563606       -17.40032        -56.61754       -33.15291             -200               0             -200               0
1.44224               -0.1611068       -17.55188        -56.60742       -35.51852             -200               0             -200               0
1.44884               -0.1659101       -17.70462        -56.58069        -37.7105             -200               0             -200               0
1.45545               -0.1707599       -17.85863          -56.533       -39.74262             -200               0             -200               0
1.46205                -0.175649       -18.01402        -56.46025       -41.63475             -200               0             -200               0
1.46865               -0.1805731       -18.17092        -56.35885       -43.41278             -200               0             -200               0
1.47525               -0.1855278       -18.32944        -56.22596       -45.10783             -200               0             -200               0
1.48185               -0.1905137       -18.48974        -56.05975       -46.75492             -200               0             -200               0
1.48845               -0.1955324       -18.65196         -55.8595        -48.3912             -200               0             -200               0
1.49505               -0.2005902       -18.81623        -55.62572       -50.05371             -200               0             -200               0
1.50165               -0.2056942        -18.9827        -55.36006       -51.77738             -200               0             -200               0
1.50825               -0.2108544       -19.15152        -55.06513       -53.59315             -200               0             -200               0
1.51485               -0.2160862       -19.32282        -54.74431       -55.52662             -200               0             -200               0
1.52145               -0.2214044       -19.49672        -54.40145       -57.59743             -200               0             -200               0
1.52805               -0.2268271       -19.67334        -54.04065       -59.81906             -200               0             -200               0
1.53465               -0.2323745       -19.85277          -53.666       -62.19924             -200               0             -200               0
1.54125               -0.2380695        -20.0351         -53.2814       -64.74064             -200               0             -200               0
1.54785               -0.2439327       -20.22039        -52.89046       -67.44172             -200               0             -200               0
1.55446               -0.2499883        -20.4087        -52.49642       -70.29768             -200               0             -200               0
1.56106                 -0.25626       -20.60005        -52.10207       -73.30129             -200               0             -200               0
1.56766                -0.262771       -20.79445        -51.70982       -76.44367             -200               0             -200               0
1.57426               -0.2695435        -20.9919        -51.32168       -79.71487             -200               0             -200               0
1.58086               -0.2765977       -21.19238        -50.93929       -83.10444             -200               0             -200               0
1.58746               -0.2839547       -21.39584        -50.56397       -86.60174             -200               0             -200               0
1.59406               -0.2916307       -21.60225        -50.19676       -90.19621             -200               0             -200               0
1.60066               -0.2996415       -21.81155        -49.83845       -93.87761             -200               0             -200               0
1.60726               -0.3079992       -22.02366        -49.48964       -97.63609             -200               0             -200               0
1.61386               -0.3167135       -22.23852        -49.15074       -101.4623             -200               0             -200               0
1.62046               -0.3257916       -22.45607        -48.82201       -105.3473             -200               0             -200               0
1.62706               -0.3352366       -22.67623         -48.5036       -109.2828             -200               0             -200               0
1.63366               -0.3450496       -22.89895        -48.19554       -113.2609             -200               0             -200               0
1.64026               -0.3552294       -23.12418        -47.89779       -117.2744             -200               0             -200               0
1.64686               -0.3657712       -23.35188        -47.61022       -121.3163             -200               0             -200               0
1.65347               -0.3766688       -23.58205        -47.33264       -125.3801             -200               0             -200               0
1.66007               -0.3879148       -23.81467        -47.06481         -129.46             -200               0             -200               0
1.66667               -0.3994995       -24.04977        -46.80644       -133.5502             -200               0             -200               0
1.67327               -0.4114128        -24.2874        -46.55718       -137.6454             -200               0             -200               0
1.67987               -0.4236417       -24.52763        -46.31665       -141.7408             -200               0             -200               0
1.68647               -0.4361785       -24.77057        -46.08444       -145.8317             -200               0             -200               0
1.69307               -0.4490139       -25.01633        -45.86008       -149.9139             -200               0             -200               0
1.69967               -0.4621389       -25.26506        -45.64309       -153.9833             -200               0             -200               0
1.70627               -0.4755478       -25.51695        -45.43294       -158.0364             -200               0             -200               0
1.71287               -0.4892388       -25.77218        -45.22908       -162.0699             -200               0             -200               0
1.71947               -0.5032104       -26.03099         -45.0309       -166.0806             -200               0             -200               0
1.72607               -0.5174683       -26.29361        -44.83779        -170.066             -200               0             -200               0
1.73267               -0.5320188       -26.56029         -44.6491       -174.0238             -200               0             -200               0
1.73927               -0.5468753        -26.8313        -44.46414       -177.9521             -200               0             -200               0
1.74587               -0.5620537       -27.10692        -44.28221        178.1507             -200               0             -200               0
1.75248               -0.5775764       -27.38742        -44.10258        174.2855             -200               0             -200               0
1.75908               -0.5934714       -27.67309        -43.92451        170.4529             -200               0             -200               0
1.76568               -0.6097687        -27.9642        -43.74725        166.6531             -200               0             -200               0
1.77228               -0.6265055       -28.26102        -43.57003        162.8856             -200               0             -200               0
1.77888               -0.6437222       -28.56381        -43.39212        159.1495             -200               0             -200               0
1.78548               -0.6614638       -28.87281        -43.21277        155.4432             -200               0             -200               0
1.79208               -0.6797782       -29.18825        -43.03127        151.7647             -200               0             -200               0
1.79868               -0.6987192       -29.51035        -42.84694        148.1114             -200               0             -200               0
1.80528               -0.7183402       -29.83927        -42.65917        144.4801             -200               0             -200               0
1.81188               -0.7386979        -30.1752        -42.46736        140.8673             -200               0             -200               0
1.81848               -0.7598537       -30.51827        -42.27102        137.2689             -200               0             -200               0
1.82508               -0.7818658        -30.8686        -42.06972        133.6804             -200               0             -200               0
1.83168               -0.8047959       -31.22629        -41.86312         130.097             -200               0             -200               0
1.83828               -0.8287049       -31.59143        -41.65098        126.5139             -200               0             -200               0
1.84488               -0.8536546       -31.96407        -41.43313        122.9258             -200               0             -200               0
1.85149               -0.8797052       -32.34426        -41.20954        119.3276             -200               0             -200               0
