! TOUCHSTONE file generated by CST MICROWAVE STUDIO
! Date and time: Tue Mar 18 00:01:30 2025
! Project name: oblique.cst
! Parameters = {Tilt=30; Fracture=1; B=12.5; D=160; F=5; Feed=2.85625; L=100; M=50; R=0.384908; S=2; Theta=270; length=57.125; wave=114.25}
! Header version: 2024
! Port assignment regex: !\s*Touchstone port\s*([0-9]+)\s*=\s*(CST MWS port|CST DES external port|CST DES block port)\s*(.+)\s* \(\"(.*)\"\)(\s*mode\s*([0-9]+))?.*
! Touchstone port assignment:
! Touchstone port 1 = CST MWS port 1 ("")
! Touchstone port 2 = CST MWS port 2 ("")
# GHz S DB R 50
1                    -0.02189616       -9.803868        -66.49916        165.8522             -200               0             -200               0
1.0066               -0.02259386       -9.890945        -66.48479        160.0483             -200               0             -200               0
1.0132               -0.02328533       -9.978666        -66.50254        154.3372             -200               0             -200               0
1.0198               -0.02397386       -10.06707        -66.55324         148.726             -200               0             -200               0
1.0264               -0.02466324       -10.15619        -66.63791        143.2234             -200               0             -200               0
1.033                -0.02535464       -10.24606        -66.75777         137.841             -200               0             -200               0
1.0396               -0.02605616       -10.33672        -66.91432         132.593             -200               0             -200               0
1.0462               -0.02677192       -10.42819        -67.10923        127.4974             -200               0             -200               0
1.05281              -0.02750657       -10.52049        -67.34442         122.577             -200               0             -200               0
1.05941              -0.02826697       -10.61364        -67.62203        117.8603             -200               0             -200               0
1.06601              -0.02905928       -10.70763         -67.9443        113.3836             -200               0             -200               0
1.07261              -0.02988855       -10.80249         -68.3135        109.1934             -200               0             -200               0
1.07921              -0.03076283        -10.8982        -68.73165        105.3491             -200               0             -200               0
1.08581              -0.03168597       -10.99476        -69.20006        101.9271             -200               0             -200               0
1.09241               -0.0326647       -11.09215         -69.7185        99.02586             -200               0             -200               0
1.09901              -0.03370177       -11.19035        -70.28374        96.77058             -200               0             -200               0
1.10561                -0.034802       -11.28934        -70.88709        95.31717             -200               0             -200               0
1.11221              -0.03596886        -11.3891        -71.51053        94.84963             -200               0             -200               0
1.11881              -0.03720334        -11.4896         -72.1212        95.56113             -200               0             -200               0
1.12541              -0.03850691        -11.5908         -72.6658        97.60204             -200               0             -200               0
1.13201              -0.03988056       -11.69269         -73.0694        100.9805             -200               0             -200               0
1.13861              -0.04132367       -11.79522        -73.24787        105.4375             -200               0             -200               0
1.14521              -0.04283317       -11.89838        -73.13816        110.3967             -200               0             -200               0
1.15182              -0.04440815       -12.00214        -72.73116        115.1047             -200               0             -200               0
1.15842              -0.04604373       -12.10648        -72.07699        118.9109             -200               0             -200               0
1.16502              -0.04773675       -12.21139        -71.25733        121.4641             -200               0             -200               0
1.17162               -0.0494814       -12.31686        -70.35166        122.7087             -200               0             -200               0
1.17822              -0.05127369       -12.42288        -69.41959         122.767             -200               0             -200               0
1.18482              -0.05310671       -12.52946        -68.49914        121.8278             -200               0             -200               0
1.19142              -0.05497597       -12.63661        -67.61179        120.0815             -200               0             -200               0
1.19802              -0.05687516       -12.74435        -66.76825        117.6936             -200               0             -200               0
1.20462              -0.05879873       -12.85271         -65.9728         114.799             -200               0             -200               0
1.21122              -0.06074181       -12.96171        -65.22616        111.5045             -200               0             -200               0
1.21782              -0.06270047        -13.0714        -64.52713        107.8936             -200               0             -200               0
1.22442              -0.06466894       -13.18182         -63.8736        104.0318             -200               0             -200               0
1.23102              -0.06664623       -13.29302        -63.26311        99.97064             -200               0             -200               0
1.23762               -0.0686279       -13.40506         -62.6931          95.751             -200               0             -200               0
1.24422              -0.07061461         -13.518        -62.16113        91.40577             -200               0             -200               0
1.25083              -0.07260527       -13.63188        -61.66489        86.96165             -200               0             -200               0
1.25743              -0.07460044       -13.74678        -61.20228        82.44066             -200               0             -200               0
1.26403              -0.07660297       -13.86276        -60.77139        77.86119             -200               0             -200               0
1.27063              -0.07861613       -13.97988         -60.3705        73.23886             -200               0             -200               0
1.27723              -0.08064369       -14.09819        -59.99805        68.58713             -200               0             -200               0
1.28383              -0.08269124       -14.21775        -59.65265         63.9178             -200               0             -200               0
1.29043              -0.08476442       -14.33861        -59.33303        59.24143             -200               0             -200               0
1.29703              -0.08687002       -14.46082        -59.03807        54.56758             -200               0             -200               0
1.30363              -0.08901564       -14.58441        -58.76673        49.90514             -200               0             -200               0
1.31023              -0.09120859       -14.70941        -58.51804        45.26245             -200               0             -200               0
1.31683              -0.09345785       -14.83586        -58.29114        40.64753             -200               0             -200               0
1.32343               -0.0957703       -14.96378        -58.08518        36.06819             -200               0             -200               0
1.33003              -0.09815536       -15.09316        -57.89938        31.53213             -200               0             -200               0
1.33663               -0.1006193       -15.22403        -57.73295        27.04711             -200               0             -200               0
1.34323               -0.1031706       -15.35639        -57.58512        22.62092             -200               0             -200               0
1.34984               -0.1058153       -15.49022        -57.45509        18.26156             -200               0             -200               0
1.35644               -0.1085591       -15.62552        -57.34203        13.97722             -200               0             -200               0
1.36304                -0.111407       -15.76228        -57.24505        9.776359             -200               0             -200               0
1.36964               -0.1143638       -15.90048        -57.16317        5.667677             -200               0             -200               0
1.37624               -0.1174316       -16.04012        -57.09529        1.660125             -200               0             -200               0
1.38284               -0.1206131       -16.18116        -57.04018       -2.237151             -200               0             -200               0
1.38944               -0.1239088        -16.3236        -56.99642       -6.014916             -200               0             -200               0
1.39604               -0.1273187       -16.46743        -56.96238       -9.663984             -200               0             -200               0
1.40264               -0.1308422       -16.61264         -56.9362       -13.17544             -200               0             -200               0
1.40924               -0.1344769       -16.75923        -56.91574       -16.54094             -200               0             -200               0
1.41584               -0.1382205        -16.9072        -56.89856       -19.75313             -200               0             -200               0
1.42244               -0.1420694       -17.05656        -56.88189       -22.80606             -200               0             -200               0
1.42904               -0.1460205       -17.20734        -56.86267       -25.69586             -200               0             -200               0
1.43564               -0.1500706       -17.35956        -56.83755       -28.42133             -200               0             -200               0
1.44224               -0.1542148       -17.51326        -56.80293       -30.98465             -200               0             -200               0
1.44884                -0.158451       -17.66848         -56.7551       -33.39205             -200               0             -200               0
1.45545               -0.1627744       -17.82528        -56.69033       -35.65431             -200               0             -200               0
1.46205               -0.1671841       -17.98372        -56.60505       -37.78713             -200               0             -200               0
1.46865               -0.1716781       -18.14386        -56.49605       -39.81108             -200               0             -200               0
1.47525                -0.176255        -18.3058        -56.36068       -41.75115             -200               0             -200               0
1.48185               -0.1809166        -18.4696        -56.19703        -43.6359             -200               0             -200               0
1.48845               -0.1856635       -18.63537        -56.00408       -45.49617             -200               0             -200               0
1.49505               -0.1905001       -18.80318        -55.78174       -47.36355             -200               0             -200               0
1.50165               -0.1954315       -18.97314         -55.5309       -49.26871             -200               0             -200               0
1.50825               -0.2004633       -19.14534         -55.2533       -51.23991             -200               0             -200               0
1.51485               -0.2056041       -19.31988        -54.95141        -53.3017             -200               0             -200               0
1.52145               -0.2108627       -19.49684        -54.62824       -55.47415             -200               0             -200               0
1.52805               -0.2162493       -19.67632        -54.28713       -57.77241             -200               0             -200               0
1.53465               -0.2217777       -19.85839        -53.93153       -60.20676             -200               0             -200               0
1.54125               -0.2274614       -20.04314         -53.5649       -62.78291             -200               0             -200               0
1.54785               -0.2333135       -20.23064        -53.19052       -65.50262             -200               0             -200               0
1.55446               -0.2393497       -20.42095        -52.81144       -68.36431             -200               0             -200               0
1.56106               -0.2455863       -20.61412        -52.43038       -71.36378             -200               0             -200               0
1.56766                -0.252038        -20.8102        -52.04975       -74.49486             -200               0             -200               0
1.57426               -0.2587224       -21.00922        -51.67162       -77.74997             -200               0             -200               0
1.58086               -0.2656555       -21.21122        -51.29773       -81.12065             -200               0             -200               0
1.58746               -0.2728521       -21.41621        -50.92956       -84.59791             -200               0             -200               0
1.59406               -0.2803283        -21.6242        -50.56828       -88.17254             -200               0             -200               0
1.60066               -0.2880986       -21.83521        -50.21485       -91.83533             -200               0             -200               0
1.60726               -0.2961759       -22.04922        -49.87002       -95.57726             -200               0             -200               0
1.61386               -0.3045721       -22.26624        -49.53436       -99.38956             -200               0             -200               0
1.62046               -0.3132992       -22.48626        -49.20828       -103.2638             -200               0             -200               0
1.62706               -0.3223664       -22.70928        -48.89208        -107.192             -200               0             -200               0
1.63366               -0.3317826       -22.93529        -48.58592       -111.1663             -200               0             -200               0
1.64026               -0.3415549       -23.16428        -48.28988       -115.1797             -200               0             -200               0
1.64686                -0.351688       -23.39628        -48.00397       -119.2252             -200               0             -200               0
1.65347               -0.3621887       -23.63128         -47.7281       -123.2963             -200               0             -200               0
1.66007               -0.3730599        -23.8693        -47.46215       -127.3868             -200               0             -200               0
1.66667               -0.3843043       -24.11038        -47.20592       -131.4909             -200               0             -200               0
1.67327               -0.3959247       -24.35456        -46.95917        -135.603             -200               0             -200               0
1.67987               -0.4079235       -24.60189        -46.72161       -139.7179             -200               0             -200               0
1.68647               -0.4203022       -24.85245        -46.49291       -143.8306             -200               0             -200               0
1.69307               -0.4330636       -25.10631         -46.2727       -147.9364             -200               0             -200               0
1.69967                -0.446212       -25.36358        -46.06055       -152.0309             -200               0             -200               0
1.70627               -0.4597502       -25.62437        -45.85603       -156.1097             -200               0             -200               0
1.71287               -0.4736844       -25.88881        -45.65863       -160.1691             -200               0             -200               0
1.71947               -0.4880225       -26.15704        -45.46781       -164.2052             -200               0             -200               0
1.72607               -0.5027729       -26.42922          -45.283       -168.2147             -200               0             -200               0
1.73267               -0.5179496       -26.70551        -45.10358       -172.1945             -200               0             -200               0
1.73927               -0.5335639        -26.9861        -44.92888       -176.1418             -200               0             -200               0
1.74587               -0.5496363       -27.27116        -44.75822        179.9458             -200               0             -200               0
1.75248               -0.5661856        -27.5609        -44.59084        176.0704             -200               0             -200               0
1.75908                -0.583236        -27.8555        -44.42598        172.2336             -200               0             -200               0
1.76568               -0.6008129       -28.15516        -44.26283        168.4365             -200               0             -200               0
1.77228               -0.6189493       -28.46008        -44.10056        164.6797             -200               0             -200               0
1.77888               -0.6376777       -28.77046        -43.93831        160.9632             -200               0             -200               0
1.78548               -0.6570338       -29.08648        -43.77522        157.2865             -200               0             -200               0
1.79208               -0.6770599       -29.40833        -43.61042        153.6484             -200               0             -200               0
1.79868               -0.6977979       -29.73618        -43.44306         150.047             -200               0             -200               0
1.80528               -0.7192941       -30.07019        -43.27231        146.4798             -200               0             -200               0
1.81188               -0.7415972       -30.41052        -43.09738        142.9437             -200               0             -200               0
1.81848               -0.7647584       -30.75729        -42.91754        139.4346             -200               0             -200               0
1.82508               -0.7888316       -31.11064        -42.73211        135.9482             -200               0             -200               0
1.83168               -0.8138704       -31.47067        -42.54052        132.4794             -200               0             -200               0
1.83828               -0.8399309       -31.83748        -42.34227        129.0228             -200               0             -200               0
1.84488               -0.8670733       -32.21114        -42.13699        125.5724             -200               0             -200               0
1.85149               -0.8953549       -32.59173        -41.92443         122.122             -200               0             -200               0
