! TOUCHSTONE file generated by CST MICROWAVE STUDIO
! Date and time: Tue Mar 18 00:02:09 2025
! Project name: oblique.cst
! Parameters = {Tilt=40; Fracture=1; B=10; D=160; F=5; Feed=2.85625; L=100; M=30; R=0.384908; S=2; Theta=270; length=57.125; wave=114.25}
! Header version: 2024
! Port assignment regex: !\s*Touchstone port\s*([0-9]+)\s*=\s*(CST MWS port|CST DES external port|CST DES block port)\s*(.+)\s* \(\"(.*)\"\)(\s*mode\s*([0-9]+))?.*
! Touchstone port assignment:
! Touchstone port 1 = CST MWS port 1 ("")
! Touchstone port 2 = CST MWS port 2 ("")
# GHz S DB R 50
1                    -0.02003824       -9.784726        -68.32018        -165.442             -200               0             -200               0
1.00658              -0.02092265       -9.872794        -68.18445       -169.9105             -200               0             -200               0
1.01316              -0.02184535       -9.961189        -68.07481       -174.3052             -200               0             -200               0
1.01974              -0.02280014        -10.0499        -67.99079        -178.615             -200               0             -200               0
1.02632              -0.02378115       -10.13892        -67.93189        177.1723             -200               0             -200               0
1.03289              -0.02478128       -10.22825         -67.8976        173.0701             -200               0             -200               0
1.03947              -0.02579359       -10.31791        -67.88731         169.093             -200               0             -200               0
1.04605              -0.02681097       -10.40792        -67.90026        165.2575             -200               0             -200               0
1.05263               -0.0278287       -10.49831        -67.93548        161.5817             -200               0             -200               0
1.05921              -0.02883864       -10.58911        -67.99169        158.0857             -200               0             -200               0
1.06579              -0.02983863       -10.68037        -68.06719        154.7913             -200               0             -200               0
1.07237               -0.0308233       -10.77214        -68.15968        151.7223             -200               0             -200               0
1.07895              -0.03179015       -10.86447        -68.26616        148.9039             -200               0             -200               0
1.08553              -0.03273754       -10.95743        -68.38268        146.3617             -200               0             -200               0
1.09211               -0.0336649       -11.05106        -68.50415        144.1209             -200               0             -200               0
1.09868              -0.03457359       -11.14543        -68.62417        142.2038             -200               0             -200               0
1.10526              -0.03546552        -11.2406        -68.73487        140.6272             -200               0             -200               0
1.11184              -0.03634456       -11.33663        -68.82698        139.3986             -200               0             -200               0
1.11842              -0.03721491       -11.43357        -68.89002        138.5118             -200               0             -200               0
1.125                -0.03808277       -11.53148        -68.91292        137.9427             -200               0             -200               0
1.13158              -0.03895557       -11.63039        -68.88491        137.6458             -200               0             -200               0
1.13816              -0.03983896       -11.73035        -68.79672        137.5547             -200               0             -200               0
1.14474              -0.04074331       -11.83138        -68.64187        137.5841             -200               0             -200               0
1.15132              -0.04167632       -11.93349        -68.41768        137.6383             -200               0             -200               0
1.15789              -0.04264577       -12.03672         -68.1257          137.62             -200               0             -200               0
1.16447               -0.0436609       -12.14105        -67.77141        137.4414             -200               0             -200               0
1.17105              -0.04473056       -12.24648        -67.36334        137.0314             -200               0             -200               0
1.17763              -0.04586141         -12.353        -66.91178        136.3403             -200               0             -200               0
1.18421              -0.04706178       -12.46059        -66.42759        135.3398             -200               0             -200               0
1.19079               -0.0483367       -12.56922        -65.92114        134.0205             -200               0             -200               0
1.19737              -0.04969134       -12.67886        -65.40173        132.3875             -200               0             -200               0
1.20395              -0.05113047       -12.78948        -64.87724        130.4563             -200               0             -200               0
1.21053              -0.05265587       -12.90103        -64.35407        128.2488             -200               0             -200               0
1.21711               -0.0542683       -13.01347        -63.83724        125.7901             -200               0             -200               0
1.22368              -0.05596851       -13.12677        -63.33059        123.1064             -200               0             -200               0
1.23026               -0.0577536       -13.24089        -62.83694        120.2237             -200               0             -200               0
1.23684              -0.05962157        -13.3558        -62.35832        117.1665             -200               0             -200               0
1.24342              -0.06156806       -13.47146        -61.89611        113.9577             -200               0             -200               0
1.25                 -0.06358749       -13.58787         -61.4512        110.6184             -200               0             -200               0
1.25658              -0.06567401       -13.70499        -61.02412        107.1678             -200               0             -200               0
1.26316              -0.06782089       -13.82284         -60.6151        103.6233             -200               0             -200               0
1.26974              -0.07002045       -13.94141        -60.22416        100.0004             -200               0             -200               0
1.27632              -0.07226516       -14.06071        -59.85118        96.31357             -200               0             -200               0
1.28289              -0.07454712       -14.18079         -59.4959        92.57564             -200               0             -200               0
1.28947              -0.07685904       -14.30166        -59.15796        88.79841             -200               0             -200               0
1.29605               -0.0791946       -14.42337        -58.83696         84.9927             -200               0             -200               0
1.30263              -0.08154617       -14.54599        -58.53243        81.16846             -200               0             -200               0
1.30921              -0.08391101       -14.66957        -58.24384        77.33492             -200               0             -200               0
1.31579              -0.08628279       -14.79418        -57.97064        73.50071             -200               0             -200               0
1.32237              -0.08866062       -14.91991        -57.71224         69.6739             -200               0             -200               0
1.32895              -0.09104169       -15.04684        -57.46801         65.8621             -200               0             -200               0
1.33553              -0.09342758       -15.17504        -57.23728        62.07254             -200               0             -200               0
1.34211              -0.09581932       -15.30461        -57.01934        58.31206             -200               0             -200               0
1.34868              -0.09822185       -15.43563        -56.81342        54.58717             -200               0             -200               0
1.35526               -0.1006388        -15.5682        -56.61872        50.90406             -200               0             -200               0
1.36184               -0.1030779       -15.70238        -56.43437        47.26858             -200               0             -200               0
1.36842               -0.1055473       -15.83826        -56.25942        43.68623             -200               0             -200               0
1.375                  -0.108056       -15.97591        -56.09289        40.16211             -200               0             -200               0
1.38158               -0.1106144       -16.11538         -55.9337        36.70088             -200               0             -200               0
1.38816               -0.1132342       -16.25674        -55.78069        33.30667             -200               0             -200               0
1.39474               -0.1159264       -16.40002        -55.63264          29.983             -200               0             -200               0
1.40132               -0.1187042       -16.54526        -55.48823        26.73269             -200               0             -200               0
1.40789               -0.1215789       -16.69249        -55.34611        23.55774             -200               0             -200               0
1.41447               -0.1245631       -16.84172        -55.20481        20.45915             -200               0             -200               0
1.42105               -0.1276683       -16.99296        -55.06288        17.43693             -200               0             -200               0
1.42763               -0.1309046       -17.14619        -54.91878        14.48983             -200               0             -200               0
1.43421                -0.134283       -17.30143        -54.77102        11.61535             -200               0             -200               0
1.44079               -0.1378113       -17.45864        -54.61811        8.809659             -200               0             -200               0
1.44737               -0.1414967       -17.61781        -54.45862        6.067511             -200               0             -200               0
1.45395               -0.1453466       -17.77891        -54.29125        3.382326             -200               0             -200               0
1.46053               -0.1493649       -17.94193        -54.11482       0.7462403             -200               0             -200               0
1.46711               -0.1535538       -18.10684        -53.92833       -1.849742             -200               0             -200               0
1.47368               -0.1579158       -18.27361          -53.731        -4.41554             -200               0             -200               0
1.48026               -0.1624515       -18.44225        -53.52228        -6.96175             -200               0             -200               0
1.48684               -0.1671579       -18.61273        -53.30188       -9.499336             -200               0             -200               0
1.49342               -0.1720348       -18.78506        -53.06979       -12.03931             -200               0             -200               0
1.5                   -0.1770777       -18.95924        -52.82621       -14.59242             -200               0             -200               0
1.50658               -0.1822835       -19.13531        -52.57164       -17.16882             -200               0             -200               0
1.51316               -0.1876485       -19.31329        -52.30676       -19.77783             -200               0             -200               0
1.51974               -0.1931671       -19.49324        -52.03245       -22.42769             -200               0             -200               0
1.52632               -0.1988368       -19.67519        -51.74972       -25.12543             -200               0             -200               0
1.53289               -0.2046527       -19.85924        -51.45969       -27.87677             -200               0             -200               0
1.53947               -0.2106124       -20.04546        -51.16356       -30.68607             -200               0             -200               0
1.54605               -0.2167166       -20.23396        -50.86255       -33.55639             -200               0             -200               0
1.55263               -0.2229634       -20.42483        -50.55786       -36.48949             -200               0             -200               0
1.55921               -0.2293543        -20.6182        -50.25067       -39.48603             -200               0             -200               0
1.56579               -0.2358947        -20.8142        -49.94211       -42.54558             -200               0             -200               0
1.57237               -0.2425901       -21.01295        -49.63324       -45.66683             -200               0             -200               0
1.57895               -0.2494494       -21.21459          -49.325       -48.84771             -200               0             -200               0
1.58553               -0.2564826       -21.41925        -49.01827       -52.08547             -200               0             -200               0
1.59211               -0.2637034       -21.62708        -48.71384        -55.3769             -200               0             -200               0
1.59868               -0.2711281       -21.83821        -48.41236       -58.71835             -200               0             -200               0
1.60526               -0.2787733       -22.05276        -48.11441        -62.1059             -200               0             -200               0
1.61184               -0.2866626       -22.27087        -47.82049       -65.53541             -200               0             -200               0
1.61842               -0.2948145       -22.49264        -47.53097       -69.00261             -200               0             -200               0
1.625                 -0.3032563       -22.71817        -47.24617       -72.50315             -200               0             -200               0
1.63158               -0.3120105       -22.94756        -46.96629       -76.03268             -200               0             -200               0
1.63816               -0.3211071       -23.18088        -46.69149        -79.5869             -200               0             -200               0
1.64474               -0.3305729       -23.41819        -46.42183       -83.16155             -200               0             -200               0
1.65132               -0.3404372       -23.65954        -46.15732       -86.75251             -200               0             -200               0
1.65789                -0.350726       -23.90497        -45.89789       -90.35577             -200               0             -200               0
1.66447               -0.3614693        -24.1545        -45.64342       -93.96749             -200               0             -200               0
1.67105               -0.3726943       -24.40812        -45.39373       -97.58402             -200               0             -200               0
1.67763               -0.3844289       -24.66584        -45.14859       -101.2019             -200               0             -200               0
1.68421                -0.396698       -24.92763        -44.90771        -104.818             -200               0             -200               0
1.69079                -0.409526       -25.19348        -44.67077       -108.4293             -200               0             -200               0
1.69737               -0.4229354       -25.46334         -44.4374       -112.0331             -200               0             -200               0
1.70395               -0.4369484       -25.73719        -44.20717        -115.627             -200               0             -200               0
1.71053                -0.451583         -26.015        -43.97966        -119.209             -200               0             -200               0
1.71711               -0.4668572       -26.29671        -43.75436       -122.7773             -200               0             -200               0
1.72368                -0.482786        -26.5823        -43.53078       -126.3306             -200               0             -200               0
1.73026               -0.4993827       -26.87175        -43.30839        -129.868             -200               0             -200               0
1.73684               -0.5166614       -27.16504        -43.08664       -133.3888             -200               0             -200               0
1.74342               -0.5346328       -27.46217        -42.86497        -136.893             -200               0             -200               0
1.75                  -0.5533058       -27.76315        -42.64283       -140.3809             -200               0             -200               0
1.75658                -0.572691         -28.068        -42.41966       -143.8531             -200               0             -200               0
1.76316               -0.5927977       -28.37678        -42.19492        -147.311             -200               0             -200               0
1.76974               -0.6136354       -28.68954        -41.96809       -150.7562             -200               0             -200               0
1.77632               -0.6352148       -29.00638        -41.73868       -154.1907             -200               0             -200               0
1.78289               -0.6575485       -29.32739        -41.50624        -157.617             -200               0             -200               0
1.78947               -0.6806506        -29.6527        -41.27038        -161.038             -200               0             -200               0
1.79605               -0.7045367       -29.98245        -41.03073       -164.4569             -200               0             -200               0
1.80263               -0.7292267       -30.31681        -40.78702       -167.8771             -200               0             -200               0
1.80921               -0.7547435       -30.65595        -40.53902       -171.3023             -200               0             -200               0
1.81579               -0.7811136       -31.00006        -40.28658       -174.7364             -200               0             -200               0
1.82237               -0.8083684       -31.34936        -40.02963       -178.1832             -200               0             -200               0
1.82895                -0.836544       -31.70403        -39.76817        178.3532             -200               0             -200               0
1.83553               -0.8656812       -32.06432        -39.50226         174.869             -200               0             -200               0
1.84211               -0.8958255       -32.43044        -39.23204        171.3603             -200               0             -200               0
1.84868               -0.9270313       -32.80259        -38.95773        167.8236             -200               0             -200               0
