! TOUCHSTONE file generated by CST MICROWAVE STUDIO
! Date and time: Tue Mar 18 00:00:57 2025
! Project name: oblique.cst
! Parameters = {Tilt=30; Fracture=1; B=10; D=160; F=15; Feed=2.85625; L=100; M=10; R=0.384908; S=2; Theta=180; length=57.125; wave=114.25}
! Header version: 2024
! Port assignment regex: !\s*Touchstone port\s*([0-9]+)\s*=\s*(CST MWS port|CST DES external port|CST DES block port)\s*(.+)\s* \(\"(.*)\"\)(\s*mode\s*([0-9]+))?.*
! Touchstone port assignment:
! Touchstone port 1 = CST MWS port 1 ("")
! Touchstone port 2 = CST MWS port 2 ("")
# GHz S DB R 50
1                    -0.01908172       -9.785181        -70.34904        -144.916             -200               0             -200               0
1.00658              -0.01981674       -9.873564        -70.09292       -148.1237             -200               0             -200               0
1.01316               -0.0205898       -9.962411        -69.85376       -151.2979             -200               0             -200               0
1.01974               -0.0213968       -10.05171        -69.63043       -154.4263             -200               0             -200               0
1.02632              -0.02223598       -10.14145        -69.42162       -157.4975             -200               0             -200               0
1.03289              -0.02310243       -10.23163        -69.22592       -160.5008             -200               0             -200               0
1.03947               -0.0239926       -10.32226        -69.04172        -163.426             -200               0             -200               0
1.04605              -0.02490231       -10.41335        -68.86727        -166.264             -200               0             -200               0
1.05263              -0.02582765        -10.5049         -68.7006       -169.0066             -200               0             -200               0
1.05921              -0.02676413       -10.59694        -68.53958       -171.6467             -200               0             -200               0
1.06579              -0.02770857        -10.6895        -68.38187       -174.1791             -200               0             -200               0
1.07237              -0.02865762       -10.78259        -68.22496       -176.6002             -200               0             -200               0
1.07895              -0.02960893       -10.87627        -68.06618       -178.9087             -200               0             -200               0
1.08553              -0.03056045       -10.97055        -67.90279        178.8941             -200               0             -200               0
1.09211              -0.03151158       -11.06549        -67.73197        176.8042             -200               0             -200               0
1.09868              -0.03246113       -11.16113        -67.55097        174.8142             -200               0             -200               0
1.10526              -0.03340946        -11.2575        -67.35717        172.9135             -200               0             -200               0
1.11184              -0.03435888       -11.35466        -67.14821        171.0887             -200               0             -200               0
1.11842              -0.03531019       -11.45264         -66.9221        169.3231             -200               0             -200               0
1.125                -0.03626785       -11.55149        -66.67732        167.5979             -200               0             -200               0
1.13158               -0.0372348       -11.65124        -66.41288        165.8925             -200               0             -200               0
1.13816              -0.03821516       -11.75193        -66.12841        164.1858             -200               0             -200               0
1.14474              -0.03921508       -11.85359        -65.82415        162.4565             -200               0             -200               0
1.15132              -0.04023893       -11.95625         -65.5009        160.6846             -200               0             -200               0
1.15789              -0.04129269       -12.05992        -65.16001        158.8518             -200               0             -200               0
1.16447              -0.04238253       -12.16464        -64.80322        156.9423             -200               0             -200               0
1.17105               -0.0435153       -12.27039        -64.43261        154.9432             -200               0             -200               0
1.17763               -0.0446959        -12.3772        -64.05042        152.8447             -200               0             -200               0
1.18421              -0.04593107       -12.48506        -63.65902        150.6399             -200               0             -200               0
1.19079              -0.04722609       -12.59396        -63.26075         148.325             -200               0             -200               0
1.19737              -0.04858477        -12.7039        -62.85789        145.8986             -200               0             -200               0
1.20395              -0.05001269       -12.81486        -62.45255        143.3615             -200               0             -200               0
1.21053              -0.05151299       -12.92682        -62.04668        140.7164             -200               0             -200               0
1.21711              -0.05308879       -13.03977        -61.64203        137.9674             -200               0             -200               0
1.22368              -0.05474219       -13.15368        -61.24014        135.1198             -200               0             -200               0
1.23026              -0.05647338       -13.26854        -60.84232        132.1796             -200               0             -200               0
1.23684              -0.05828348       -13.38433        -60.44971        129.1533             -200               0             -200               0
1.24342              -0.06017193       -13.50102        -60.06324        126.0477             -200               0             -200               0
1.25                  -0.0621368       -13.61859        -59.68367        122.8699             -200               0             -200               0
1.25658              -0.06417543       -13.73705        -59.31162        119.6267             -200               0             -200               0
1.26316              -0.06628614       -13.85638        -58.94754         116.325             -200               0             -200               0
1.26974              -0.06846468       -13.97657        -58.59179        112.9716             -200               0             -200               0
1.27632               -0.0707071       -14.09763         -58.2446        109.5729             -200               0             -200               0
1.28289              -0.07300973       -14.21957        -57.90611        106.1352             -200               0             -200               0
1.28947              -0.07536805       -14.34241        -57.57637        102.6643             -200               0             -200               0
1.29605              -0.07777686       -14.46616        -57.25536        99.16599             -200               0             -200               0
1.30263              -0.08023316       -14.59085        -56.94301        95.64553             -200               0             -200               0
1.30921              -0.08273322       -14.71653        -56.63915        92.10801             -200               0             -200               0
1.31579              -0.08527236       -14.84323        -56.34361        88.55818             -200               0             -200               0
1.32237              -0.08784795         -14.971        -56.05613        85.00051             -200               0             -200               0
1.32895              -0.09045851       -15.09989        -55.77644        81.43917             -200               0             -200               0
1.33553              -0.09310178       -15.22997        -55.50422        77.87805             -200               0             -200               0
1.34211              -0.09577935       -15.36128         -55.2391        74.32073             -200               0             -200               0
1.34868              -0.09849101       -15.49389        -54.98071        70.77052             -200               0             -200               0
1.35526               -0.1012381       -15.62787        -54.72862        67.23043             -200               0             -200               0
1.36184               -0.1040235       -15.76328         -54.4824        63.70316             -200               0             -200               0
1.36842               -0.1068509       -15.90018        -54.24159        60.19113             -200               0             -200               0
1.375                 -0.1097261       -16.03863         -54.0057        56.69643             -200               0             -200               0
1.38158               -0.1126533        -16.1787        -53.77422        53.22084             -200               0             -200               0
1.38816               -0.1156377       -16.32044        -53.54665         49.7658             -200               0             -200               0
1.39474               -0.1186893        -16.4639        -53.32245        46.33243             -200               0             -200               0
1.40132               -0.1218148       -16.60912        -53.10111         42.9215             -200               0             -200               0
1.40789               -0.1250205       -16.75616        -52.88208        39.53343             -200               0             -200               0
1.41447               -0.1283168       -16.90504        -52.66484        36.16828             -200               0             -200               0
1.42105                -0.131711        -17.0558        -52.44886        32.82578             -200               0             -200               0
1.42763               -0.1352124       -17.20847        -52.23365        29.50527             -200               0             -200               0
1.43421               -0.1388293       -17.36305        -52.01871        26.20579             -200               0             -200               0
1.44079               -0.1425675       -17.51958        -51.80357        22.92603             -200               0             -200               0
1.44737               -0.1464368       -17.67806        -51.58782        19.66436             -200               0             -200               0
1.45395               -0.1504431       -17.83851        -51.37107        16.41888             -200               0             -200               0
1.46053               -0.1545925       -18.00092        -51.15295        13.18743             -200               0             -200               0
1.46711               -0.1588916        -18.1653        -50.93317         9.96765             -200               0             -200               0
1.47368               -0.1633431       -18.33167        -50.71147         6.75697             -200               0             -200               0
1.48026               -0.1679509       -18.50002        -50.48765        3.552711             -200               0             -200               0
1.48684               -0.1727196       -18.67037        -50.26157       0.3521053             -200               0             -200               0
1.49342                -0.177651       -18.84272        -50.03315       -2.847648             -200               0             -200               0
1.5                   -0.1827458       -19.01709        -49.80234        -6.04934             -200               0             -200               0
1.50658               -0.1880065       -19.19351        -49.56917        -9.25569             -200               0             -200               0
1.51316               -0.1934334       -19.37201        -49.33371       -12.46931             -200               0             -200               0
1.51974               -0.1990267        -19.5526        -49.09608       -15.69267             -200               0             -200               0
1.52632               -0.2047865       -19.73535        -48.85644       -18.92804             -200               0             -200               0
1.53289               -0.2107136       -19.92029        -48.61499       -22.17747             -200               0             -200               0
1.53947               -0.2168091       -20.10749        -48.37197       -25.44278             -200               0             -200               0
1.54605               -0.2230723       -20.29702        -48.12762        -28.7255             -200               0             -200               0
1.55263               -0.2295059       -20.48893        -47.88223       -32.02692             -200               0             -200               0
1.55921               -0.2361132       -20.68333        -47.63609       -35.34801             -200               0             -200               0
1.56579               -0.2428968       -20.88029         -47.3895       -38.68948             -200               0             -200               0
1.57237               -0.2498613       -21.07992        -47.14275       -42.05179             -200               0             -200               0
1.57895               -0.2570132       -21.28231        -46.89614       -45.43508             -200               0             -200               0
1.58553               -0.2643593       -21.48757        -46.64997       -48.83928             -200               0             -200               0
1.59211                 -0.27191        -21.6958         -46.4045       -52.26407             -200               0             -200               0
1.59868               -0.2796723       -21.90713           -46.16       -55.70891             -200               0             -200               0
1.60526               -0.2876617       -22.12165        -45.91672       -59.17308             -200               0             -200               0
1.61184               -0.2958912       -22.33948        -45.67486       -62.65567             -200               0             -200               0
1.61842               -0.3043758       -22.56073        -45.43463       -66.15564             -200               0             -200               0
1.625                 -0.3131318       -22.78551        -45.19619       -69.67179             -200               0             -200               0
1.63158                -0.322178       -23.01391         -44.9597       -73.20285             -200               0             -200               0
1.63816               -0.3315349       -23.24604        -44.72525       -76.74746             -200               0             -200               0
1.64474               -0.3412222       -23.48199        -44.49296       -80.30417             -200               0             -200               0
1.65132               -0.3512635       -23.72184        -44.26286       -83.87152             -200               0             -200               0
1.65789               -0.3616803       -23.96567          -44.035       -87.44803             -200               0             -200               0
1.66447                -0.372496       -24.21355        -43.80938       -91.03221             -200               0             -200               0
1.67105               -0.3837368       -24.46555        -43.58597       -94.62258             -200               0             -200               0
1.67763               -0.3954255       -24.72173        -43.36472       -98.21772             -200               0             -200               0
1.68421               -0.4075877       -24.98212        -43.14555       -101.8163             -200               0             -200               0
1.69079               -0.4202477       -25.24679        -42.92837       -105.4169             -200               0             -200               0
1.69737               -0.4334314       -25.51576        -42.71304       -109.0184             -200               0             -200               0
1.70395               -0.4471624       -25.78907        -42.49943       -112.6196             -200               0             -200               0
1.71053               -0.4614656       -26.06676        -42.28736       -116.2196             -200               0             -200               0
1.71711               -0.4763652       -26.34884        -42.07664       -119.8175             -200               0             -200               0
1.72368               -0.4918842       -26.63537        -41.86708       -123.4125             -200               0             -200               0
1.73026               -0.5080476       -26.92635        -41.65847       -127.0042             -200               0             -200               0
1.73684               -0.5248782       -27.22182        -41.45057       -130.5921             -200               0             -200               0
1.74342               -0.5423997       -27.52182        -41.24314        -134.176             -200               0             -200               0
1.75                  -0.5606337       -27.82638        -41.03596       -137.7558             -200               0             -200               0
1.75658               -0.5796058       -28.13555        -40.82876       -141.3317             -200               0             -200               0
1.76316               -0.5993384       -28.44939        -40.62132        -144.904             -200               0             -200               0
1.76974               -0.6198571       -28.76794        -40.41338       -148.4733             -200               0             -200               0
1.77632                -0.641186       -29.09128        -40.20472       -152.0402             -200               0             -200               0
1.78289               -0.6633521       -29.41948        -39.99512       -155.6057             -200               0             -200               0
1.78947               -0.6863837       -29.75262        -39.78436       -159.1709             -200               0             -200               0
1.79605               -0.7103102       -30.09079        -39.57225       -162.7369             -200               0             -200               0
1.80263               -0.7351636       -30.43408        -39.35863       -166.3052             -200               0             -200               0
1.80921               -0.7609777       -30.78261        -39.14334       -169.8774             -200               0             -200               0
1.81579               -0.7877896       -31.13647        -38.92625        -173.455             -200               0             -200               0
1.82237               -0.8156393        -31.4958        -38.70728       -177.0398             -200               0             -200               0
1.82895               -0.8445692       -31.86068        -38.48635        179.3663             -200               0             -200               0
1.83553               -0.8746259       -32.23125        -38.26342        175.7615             -200               0             -200               0
1.84211                 -0.90586       -32.60762        -38.03849        172.1439             -200               0             -200               0
1.84868               -0.9383239       -32.98991        -37.81158        168.5115             -200               0             -200               0
