! TOUCHSTONE file generated by CST MICROWAVE STUDIO
! Date and time: Tue Mar 18 00:01:21 2025
! Project name: oblique.cst
! Parameters = {Tilt=30; Fracture=1; B=10; D=160; F=25; Feed=2.85625; L=100; M=50; R=0.384908; S=2; Theta=270; length=57.125; wave=114.25}
! Header version: 2024
! Port assignment regex: !\s*Touchstone port\s*([0-9]+)\s*=\s*(CST MWS port|CST DES external port|CST DES block port)\s*(.+)\s* \(\"(.*)\"\)(\s*mode\s*([0-9]+))?.*
! Touchstone port assignment:
! Touchstone port 1 = CST MWS port 1 ("")
! Touchstone port 2 = CST MWS port 2 ("")
# GHz S DB R 50
1                    -0.01978314       -9.818715        -68.98043        134.4277             -200               0             -200               0
1.0076               -0.02085999       -9.919642        -68.99389        128.9375             -200               0             -200               0
1.01521              -0.02193372       -10.02103        -69.02805         123.533             -200               0             -200               0
1.02281              -0.02299574       -10.12292        -69.08341        118.2208             -200               0             -200               0
1.03042              -0.02404139       -10.22539        -69.16055        113.0087             -200               0             -200               0
1.03802              -0.02506371       -10.32848        -69.26007         107.906             -200               0             -200               0
1.04563              -0.02606011       -10.43228        -69.38262        102.9239             -200               0             -200               0
1.05323              -0.02702576       -10.53686        -69.52886        98.07578             -200               0             -200               0
1.06084              -0.02796286       -10.64231        -69.69942        93.37759             -200               0             -200               0
1.06844              -0.02886997        -10.7487        -69.89489        88.84843             -200               0             -200               0
1.07605               -0.0297496       -10.85613        -70.11569        84.51113             -200               0             -200               0
1.08365              -0.03060588       -10.96466        -70.36201        80.39291             -200               0             -200               0
1.09125               -0.0314435       -11.07439        -70.63365        76.52618             -200               0             -200               0
1.09886              -0.03227071       -11.18539        -70.92976        72.94935             -200               0             -200               0
1.10646              -0.03309551       -11.29772         -71.2485         69.7075             -200               0             -200               0
1.11407              -0.03392597       -11.41145        -71.58663        66.85267             -200               0             -200               0
1.12167              -0.03477454       -11.52664         -71.9388        64.44332             -200               0             -200               0
1.12928              -0.03565187       -11.64332        -72.29679        62.54214             -200               0             -200               0
1.13688              -0.03656939       -11.76154        -72.64855        61.21098             -200               0             -200               0
1.14449              -0.03753981       -11.88131        -72.97733        60.50153             -200               0             -200               0
1.15209              -0.03857572       -12.00265        -73.26128         60.4405             -200               0             -200               0
1.1597               -0.03968949       -12.12556        -73.47424        61.01007             -200               0             -200               0
1.1673               -0.04089279       -12.25005        -73.58843        62.12815             -200               0             -200               0
1.1749               -0.04219608       -12.37607        -73.57932        63.63827             -200               0             -200               0
1.18251              -0.04360997       -12.50363        -73.43146        65.32007             -200               0             -200               0
1.19011               -0.0451445       -12.63268          -73.143        66.92391             -200               0             -200               0
1.19772              -0.04680625       -12.76318        -72.72617        68.21823             -200               0             -200               0
1.20532              -0.04860242       -12.89509        -72.20368        69.02892             -200               0             -200               0
1.21293              -0.05053694       -13.02836        -71.60289        69.25601             -200               0             -200               0
1.22053              -0.05261461       -13.16295        -70.95057         68.8677             -200               0             -200               0
1.22814              -0.05483621        -13.2988        -70.26964        67.88195             -200               0             -200               0
1.23574              -0.05720157       -13.43587        -69.57795        66.34623             -200               0             -200               0
1.24335              -0.05971018       -13.57412        -68.88852        64.32142             -200               0             -200               0
1.25095              -0.06235784        -13.7135        -68.21028        61.87111             -200               0             -200               0
1.25856              -0.06514114       -13.85399        -67.54905         59.0557             -200               0             -200               0
1.26616              -0.06805375       -13.99557        -66.90838        55.92957             -200               0             -200               0
1.27376              -0.07109002       -14.13822        -66.29023        52.54025             -200               0             -200               0
1.28137              -0.07424264       -14.28195        -65.69548        48.92858             -200               0             -200               0
1.28897              -0.07750361       -14.42676        -65.12432        45.12929             -200               0             -200               0
1.29658              -0.08086582       -14.57268        -64.57643         41.1718             -200               0             -200               0
1.30418              -0.08432016       -14.71973        -64.05125        37.08106             -200               0             -200               0
1.31179               -0.0878609       -14.86798        -63.54801        32.87819             -200               0             -200               0
1.31939              -0.09148103       -15.01747        -63.06586        28.58119             -200               0             -200               0
1.327                -0.09517392       -15.16828        -62.60393        24.20545             -200               0             -200               0
1.3346               -0.09893568       -15.32049        -62.16131        19.76418             -200               0             -200               0
1.34221               -0.1027643       -15.47418        -61.73712        15.26881             -200               0             -200               0
1.34981               -0.1066571       -15.62947         -61.3305        10.72928             -200               0             -200               0
1.35741               -0.1106147       -15.78645        -60.94062        6.154288             -200               0             -200               0
1.36502               -0.1146405       -15.94522         -60.5667        1.551521             -200               0             -200               0
1.37262               -0.1187383       -16.10591        -60.20796       -3.072209             -200               0             -200               0
1.38023               -0.1229145       -16.26861        -59.86368       -7.710806             -200               0             -200               0
1.38783               -0.1271785       -16.43345        -59.53318       -12.35878             -200               0             -200               0
1.39544               -0.1315404       -16.60052        -59.21578       -17.01116             -200               0             -200               0
1.40304               -0.1360137       -16.76993        -58.91084       -21.66341             -200               0             -200               0
1.41065                -0.140612       -16.94177        -58.61775       -26.31135             -200               0             -200               0
1.41825                -0.145352       -17.11612        -58.33589       -30.95114             -200               0             -200               0
1.42586               -0.1502513       -17.29306        -58.06467       -35.57922             -200               0             -200               0
1.43346               -0.1553268       -17.47265        -57.80352       -40.19228             -200               0             -200               0
1.44106               -0.1606008       -17.65494        -57.55187       -44.78721             -200               0             -200               0
1.44867               -0.1660908       -17.83995        -57.30912       -49.36113             -200               0             -200               0
1.45627               -0.1718184       -18.02773        -57.07473       -53.91134             -200               0             -200               0
1.46388                -0.177803       -18.21826         -56.8481       -58.43533             -200               0             -200               0
1.47148               -0.1840641       -18.41156        -56.62866       -62.93076             -200               0             -200               0
1.47909               -0.1906203        -18.6076        -56.41581       -67.39551             -200               0             -200               0
1.48669               -0.1974906       -18.80635        -56.20896       -71.82761             -200               0             -200               0
1.4943                -0.2046896       -19.00778        -56.00748       -76.22533             -200               0             -200               0
1.5019                -0.2122332       -19.21184        -55.81075       -80.58714             -200               0             -200               0
1.50951               -0.2201334       -19.41848        -55.61812       -84.91177             -200               0             -200               0
1.51711               -0.2284028       -19.62763        -55.42894       -89.19818             -200               0             -200               0
1.52471               -0.2370496       -19.83925        -55.24253       -93.44566             -200               0             -200               0
1.53232               -0.2460815       -20.05326         -55.0582       -97.65377             -200               0             -200               0
1.53992               -0.2555026       -20.26962        -54.87527       -101.8224             -200               0             -200               0
1.54753               -0.2653155       -20.48826        -54.69303       -105.9519             -200               0             -200               0
1.55513               -0.2755217       -20.70915        -54.51078       -110.0429             -200               0             -200               0
1.56274               -0.2861201       -20.93225        -54.32781       -114.0965             -200               0             -200               0
1.57034               -0.2971076       -21.15753        -54.14344       -118.1141             -200               0             -200               0
1.57795               -0.3084827       -21.38499        -53.95701       -122.0978             -200               0             -200               0
1.58555               -0.3202375       -21.61462        -53.76785       -126.0498             -200               0             -200               0
1.59316               -0.3323685       -21.84646        -53.57536       -129.9731             -200               0             -200               0
1.60076                 -0.34487       -22.08053        -53.37897       -133.8708             -200               0             -200               0
1.60837               -0.3577355        -22.3169        -53.17816       -137.7466             -200               0             -200               0
1.61597               -0.3709604       -22.55565        -52.97247       -141.6044             -200               0             -200               0
1.62357               -0.3845391       -22.79686        -52.76152       -145.4486             -200               0             -200               0
1.63118               -0.3984709       -23.04064          -52.545       -149.2836             -200               0             -200               0
1.63878               -0.4127539       -23.28713        -52.32266       -153.1143             -200               0             -200               0
1.64639               -0.4273888       -23.53647        -52.09435       -156.9455             -200               0             -200               0
1.65399                -0.442379       -23.78882        -51.86001       -160.7819             -200               0             -200               0
1.6616                -0.4577313       -24.04435        -51.61965       -164.6286             -200               0             -200               0
1.6692                 -0.473453       -24.30324        -51.37337       -168.4901             -200               0             -200               0
1.67681               -0.4895577       -24.56567        -51.12135       -172.3711             -200               0             -200               0
1.68441               -0.5060615       -24.83185        -50.86383       -176.2759             -200               0             -200               0
1.69202               -0.5229824       -25.10196        -50.60112        179.7916             -200               0             -200               0
1.69962               -0.5403431       -25.37621        -50.33359        175.8277             -200               0             -200               0
1.70722               -0.5581702       -25.65478        -50.06166        171.8291             -200               0             -200               0
1.71483               -0.5764928       -25.93786        -49.78576        167.7928             -200               0             -200               0
1.72243               -0.5953424       -26.22562        -49.50638        163.7165             -200               0             -200               0
1.73004               -0.6147558       -26.51824        -49.22403         159.598             -200               0             -200               0
1.73764               -0.6347697       -26.81587        -48.93919        155.4357             -200               0             -200               0
1.74525               -0.6554244       -27.11865         -48.6524        151.2282             -200               0             -200               0
1.75285               -0.6767628        -27.4267        -48.36414        146.9747             -200               0             -200               0
1.76046               -0.6988285       -27.74014        -48.07492        142.6746             -200               0             -200               0
1.76806               -0.7216677       -28.05906        -47.78523        138.3276             -200               0             -200               0
1.77567               -0.7453243       -28.38354        -47.49551        133.9337             -200               0             -200               0
1.78327               -0.7698453       -28.71364        -47.20622        129.4932             -200               0             -200               0
1.79087               -0.7952782       -29.04941        -46.91778        125.0066             -200               0             -200               0
1.79848               -0.8216682       -29.39089        -46.63057        120.4744             -200               0             -200               0
1.80608               -0.8490624       -29.73809        -46.34495        115.8977             -200               0             -200               0
1.81369               -0.8775042       -30.09105        -46.06128        111.2772             -200               0             -200               0
1.82129               -0.9070379       -30.44976        -45.77985         106.614             -200               0             -200               0
1.8289                -0.9377069       -30.81424        -45.50096        101.9094             -200               0             -200               0
1.8365                -0.9695535       -31.18449        -45.22487        97.16449             -200               0             -200               0
1.84411                -1.002616       -31.56053        -44.95181        92.38054             -200               0             -200               0
1.85171                -1.036937       -31.94239          -44.682        87.55883             -200               0             -200               0
1.85932                -1.072555       -32.33009        -44.41563        82.70067             -200               0             -200               0
1.86692                -1.109508       -32.72367        -44.15288        77.80737             -200               0             -200               0
1.87452                -1.147837       -33.12321        -43.89389        72.88024             -200               0             -200               0
1.88213                -1.187579        -33.5288        -43.63881        67.92056             -200               0             -200               0
1.88973                -1.228777       -33.94054        -43.38776        62.92962             -200               0             -200               0
1.89734                -1.271473       -34.35856        -43.14083        57.90866             -200               0             -200               0
1.90494                -1.315713       -34.78302        -42.89813         52.8589             -200               0             -200               0
1.91255                -1.361545       -35.21414        -42.65974        47.78153             -200               0             -200               0
1.92015                -1.409023       -35.65211        -42.42571        42.67773             -200               0             -200               0
1.92776                -1.458206        -36.0972        -42.19612        37.54859             -200               0             -200               0
1.93536                 -1.50916       -36.54968        -41.97101        32.39521             -200               0             -200               0
1.94297                -1.561956       -37.00986        -41.75043        27.21864             -200               0             -200               0
1.95057                -1.616678       -37.47807        -41.53441        22.01987             -200               0             -200               0
1.95817                -1.673414       -37.95467        -41.32297         16.7999             -200               0             -200               0
1.96578                -1.732266       -38.44002        -41.11615        11.55964             -200               0             -200               0
1.97338                -1.793348       -38.93452        -40.91396        6.300008             -200               0             -200               0
1.98099                -1.856782       -39.43854         -40.7164         1.02185             -200               0             -200               0
