! TOUCHSTONE file generated by CST MICROWAVE STUDIO
! Date and time: Tue Mar 18 00:01:26 2025
! Project name: oblique.cst
! Parameters = {Tilt=30; Fracture=1; B=12.5; D=160; F=5; Feed=2.85625; L=100; M=10; R=0.384908; S=2; Theta=90; length=57.125; wave=114.25}
! Header version: 2024
! Port assignment regex: !\s*Touchstone port\s*([0-9]+)\s*=\s*(CST MWS port|CST DES external port|CST DES block port)\s*(.+)\s* \(\"(.*)\"\)(\s*mode\s*([0-9]+))?.*
! Touchstone port assignment:
! Touchstone port 1 = CST MWS port 1 ("")
! Touchstone port 2 = CST MWS port 2 ("")
# GHz S DB R 50
1                    -0.01869815       -9.785856        -71.12037       -132.4557             -200               0             -200               0
1.0066               -0.01945535       -9.875304        -70.59687       -136.3078             -200               0             -200               0
1.0132                -0.0202725       -9.965165         -70.1179       -140.2844             -200               0             -200               0
1.0198               -0.02114406        -10.0554        -69.68113       -144.3532             -200               0             -200               0
1.0264                -0.0220654       -10.14599        -69.28441       -148.4874             -200               0             -200               0
1.033                -0.02302803        -10.2369        -68.92584       -152.6639             -200               0             -200               0
1.0396               -0.02402695       -10.32811        -68.60374       -156.8626             -200               0             -200               0
1.0462               -0.02505155       -10.41962        -68.31661       -161.0655             -200               0             -200               0
1.05281              -0.02609419       -10.51144        -68.06314       -165.2559             -200               0             -200               0
1.05941              -0.02714576       -10.60358        -67.84215       -169.4182             -200               0             -200               0
1.06601              -0.02820006       -10.69607        -67.65261       -173.5371             -200               0             -200               0
1.07261              -0.02924684       -10.78894        -67.49355       -177.5974             -200               0             -200               0
1.07921              -0.03027978       -10.88224        -67.36405        178.4165             -200               0             -200               0
1.08581              -0.03129166       -10.97601        -67.26322        174.5208             -200               0             -200               0
1.09241              -0.03227875       -11.07033        -67.19012        170.7324             -200               0             -200               0
1.09901              -0.03323795       -11.16526         -67.1437        167.0696             -200               0             -200               0
1.10561              -0.03416416       -11.26087        -67.12275        163.5521             -200               0             -200               0
1.11221              -0.03505917       -11.35724        -67.12579        160.2012             -200               0             -200               0
1.11881              -0.03592223       -11.45444        -67.15095        157.0397             -200               0             -200               0
1.12541              -0.03675664       -11.55255        -67.19586        154.0921             -200               0             -200               0
1.13201              -0.03756727       -11.65164        -67.25745        151.3844             -200               0             -200               0
1.13861              -0.03835912       -11.75179        -67.33179         148.943             -200               0             -200               0
1.14521              -0.03913837       -11.85306        -67.41386        146.7938             -200               0             -200               0
1.15182              -0.03991496       -11.95551         -67.4974        144.9604             -200               0             -200               0
1.15842              -0.04069807       -12.05918        -67.57472        143.4612             -200               0             -200               0
1.16502              -0.04149765       -12.16413        -67.63672        142.3063             -200               0             -200               0
1.17162               -0.0423255       -12.27037        -67.67309        141.4926             -200               0             -200               0
1.17822              -0.04319075       -12.37793        -67.67281        141.0001             -200               0             -200               0
1.18482              -0.04410683       -12.48681        -67.62495        140.7886             -200               0             -200               0
1.19142              -0.04508409       -12.59702        -67.51989        140.7962             -200               0             -200               0
1.19802              -0.04613361       -12.70854         -67.3505        140.9423             -200               0             -200               0
1.20462              -0.04726376       -12.82135        -67.11326        141.1336             -200               0             -200               0
1.21122              -0.04848529       -12.93542        -66.80879        141.2739             -200               0             -200               0
1.21782              -0.04980446        -13.0507        -66.44171        141.2742             -200               0             -200               0
1.22442              -0.05122788       -13.16717        -66.01983        141.0606             -200               0             -200               0
1.23102              -0.05276081       -13.28476          -65.553          140.58             -200               0             -200               0
1.23762              -0.05440523       -13.40343        -65.05182        139.8003             -200               0             -200               0
1.24422              -0.05616351       -13.52312        -64.52663         138.709             -200               0             -200               0
1.25083              -0.05803416       -13.64378        -63.98677        137.3086             -200               0             -200               0
1.25743              -0.06001611       -13.76537        -63.44025        135.6129             -200               0             -200               0
1.26403              -0.06210557       -13.88784        -62.89361        133.6426             -200               0             -200               0
1.27063              -0.06429685       -14.01117        -62.35201        131.4223             -200               0             -200               0
1.27723              -0.06658468       -14.13531        -61.81938        128.9779             -200               0             -200               0
1.28383              -0.06896103       -14.26025        -61.29859        126.3355             -200               0             -200               0
1.29043              -0.07141768       -14.38599         -60.7917        123.5198             -200               0             -200               0
1.29703              -0.07394631       -14.51254        -60.30008        120.5539             -200               0             -200               0
1.30363              -0.07653761        -14.6399        -59.82459        117.4592             -200               0             -200               0
1.31023              -0.07918335       -14.76811        -59.36567        114.2551             -200               0             -200               0
1.31683              -0.08187484        -14.8972        -58.92347        110.9591             -200               0             -200               0
1.32343              -0.08460464       -15.02725         -58.4979         107.587             -200               0             -200               0
1.33003              -0.08736514        -15.1583         -58.0887        104.1531             -200               0             -200               0
1.33663              -0.09015125       -15.29044        -57.69546          100.67             -200               0             -200               0
1.34323              -0.09295958       -15.42374        -57.31768        97.14947             -200               0             -200               0
1.34984              -0.09578681       -15.55831        -56.95478        93.60173             -200               0             -200               0
1.35644              -0.09863272       -15.69422         -56.6061        90.03623             -200               0             -200               0
1.36304               -0.1014983        -15.8316        -56.27094        86.46144             -200               0             -200               0
1.36964               -0.1043875       -15.97052        -55.94856        82.88503             -200               0             -200               0
1.37624               -0.1073059       -16.11111        -55.63818        79.31393             -200               0             -200               0
1.38284               -0.1102598       -16.25344        -55.33898        75.75438             -200               0             -200               0
1.38944               -0.1132585       -16.39761         -55.0501        72.21194             -200               0             -200               0
1.39604               -0.1163136       -16.54372        -54.77067        68.69158             -200               0             -200               0
1.40264               -0.1194372       -16.69183        -54.49979        65.19764             -200               0             -200               0
1.40924               -0.1226422       -16.84201        -54.23652        61.73386             -200               0             -200               0
1.41584               -0.1259447       -16.99431         -53.9799        58.30336             -200               0             -200               0
1.42244               -0.1293582       -17.14879        -53.72896        54.90863             -200               0             -200               0
1.42904                -0.132899       -17.30546        -53.48272        51.55152             -200               0             -200               0
1.43564                -0.136583       -17.46436        -53.24017        48.23321             -200               0             -200               0
1.44224               -0.1404249       -17.62548        -53.00034        44.95419             -200               0             -200               0
1.44884               -0.1444393       -17.78882        -52.76222        41.71428             -200               0             -200               0
1.45545               -0.1486417       -17.95436        -52.52486        38.51255             -200               0             -200               0
1.46205               -0.1530432       -18.12208        -52.28732        35.34738             -200               0             -200               0
1.46865               -0.1576545       -18.29193        -52.04871        32.21648             -200               0             -200               0
1.47525               -0.1624855       -18.46389        -51.80821        29.11686             -200               0             -200               0
1.48185               -0.1675435       -18.63791        -51.56506        26.04492             -200               0             -200               0
1.48845               -0.1728348       -18.81393        -51.31859         22.9965             -200               0             -200               0
1.49505                -0.178363       -18.99193        -51.06823        19.96697             -200               0             -200               0
1.50165                -0.184129       -19.17184         -50.8135         16.9513             -200               0             -200               0
1.50825               -0.1901335       -19.35364        -50.55407        13.94417             -200               0             -200               0
1.51485                -0.196374       -19.53729        -50.28969        10.94015             -200               0             -200               0
1.52145               -0.2028471       -19.72278        -50.02025        7.933706             -200               0             -200               0
1.52805               -0.2095483        -19.9101        -49.74576        4.919424             -200               0             -200               0
1.53465               -0.2164711       -20.09925        -49.46634        1.892068             -200               0             -200               0
1.54125               -0.2236088       -20.29025         -49.1822       -1.153295             -200               0             -200               0
1.54785               -0.2309552       -20.48314        -48.89366        -4.22121             -200               0             -200               0
1.55446               -0.2385015       -20.67798        -48.60112       -7.315757             -200               0             -200               0
1.56106               -0.2462437       -20.87482        -48.30503        -10.4405             -200               0             -200               0
1.56766               -0.2541749       -21.07376        -48.00591       -13.59845             -200               0             -200               0
1.57426               -0.2622906        -21.2749        -47.70431       -16.79203             -200               0             -200               0
1.58086               -0.2705891       -21.47835        -47.40079       -20.02311             -200               0             -200               0
1.58746               -0.2790664       -21.68425        -47.09594       -23.29298             -200               0             -200               0
1.59406               -0.2877274       -21.89274        -46.79033       -26.60242             -200               0             -200               0
1.60066               -0.2965742       -22.10397        -46.48453       -29.95168             -200               0             -200               0
1.60726               -0.3056137       -22.31809        -46.17907       -33.34058             -200               0             -200               0
1.61386               -0.3148567       -22.53528        -45.87448       -36.76851             -200               0             -200               0
1.62046               -0.3243164        -22.7557        -45.57123       -40.23453             -200               0             -200               0
1.62706               -0.3340056       -22.97951        -45.26975       -43.73735             -200               0             -200               0
1.63366               -0.3439472       -23.20688        -44.97046       -47.27545             -200               0             -200               0
1.64026               -0.3541608       -23.43795        -44.67369       -50.84708             -200               0             -200               0
1.64686               -0.3646725       -23.67288        -44.37977       -54.45031             -200               0             -200               0
1.65347               -0.3755078        -23.9118        -44.08895        -58.0831             -200               0             -200               0
1.66007               -0.3866979       -24.15482        -43.80147       -61.74331             -200               0             -200               0
1.66667               -0.3982733       -24.40206         -43.5175       -65.42872             -200               0             -200               0
1.67327               -0.4102669        -24.6536        -43.23718       -69.13711             -200               0             -200               0
1.67987               -0.4227127        -24.9095        -42.96061       -72.86623             -200               0             -200               0
1.68647               -0.4356465       -25.16983        -42.68786       -76.61385             -200               0             -200               0
1.69307               -0.4491021       -25.43462        -42.41895        -80.3778             -200               0             -200               0
1.69967               -0.4631148       -25.70388        -42.15387       -84.15596             -200               0             -200               0
1.70627               -0.4777187       -25.97761        -41.89258       -87.94626             -200               0             -200               0
1.71287               -0.4929457        -26.2558        -41.63503       -91.74676             -200               0             -200               0
1.71947               -0.5088302       -26.53842         -41.3811        -95.5556             -200               0             -200               0
1.72607                -0.525401       -26.82542        -41.13069       -99.37105             -200               0             -200               0
1.73267               -0.5426856       -27.11677        -40.88365       -103.1915             -200               0             -200               0
1.73927               -0.5607123        -27.4124        -40.63982       -107.0154             -200               0             -200               0
1.74587               -0.5795029       -27.71226        -40.39901       -110.8415             -200               0             -200               0
1.75248               -0.5990789        -28.0163        -40.16103       -114.6687             -200               0             -200               0
1.75908               -0.6194628       -28.32446        -39.92566       -118.4958             -200               0             -200               0
1.76568               -0.6406686        -28.6367        -39.69268        -122.322             -200               0             -200               0
1.77228               -0.6627147       -28.95298        -39.46186       -126.1467             -200               0             -200               0
1.77888               -0.6856151        -29.2733        -39.23294       -129.9694             -200               0             -200               0
1.78548               -0.7093823       -29.59764         -39.0057       -133.7897             -200               0             -200               0
1.79208               -0.7340293       -29.92601        -38.77987       -137.6074             -200               0             -200               0
1.79868               -0.7595677       -30.25847        -38.55522       -141.4227             -200               0             -200               0
1.80528               -0.7860103       -30.59506         -38.3315       -145.2358             -200               0             -200               0
1.81188               -0.8133724       -30.93587        -38.10848        -149.047             -200               0             -200               0
1.81848               -0.8416678       -31.28102        -37.88594       -152.8568             -200               0             -200               0
1.82508               -0.8709151       -31.63061        -37.66364       -156.6661             -200               0             -200               0
1.83168               -0.9011344       -31.98482         -37.4414       -160.4757             -200               0             -200               0
1.83828               -0.9323509       -32.34381        -37.21904       -164.2867             -200               0             -200               0
1.84488               -0.9645925       -32.70778        -36.99638       -168.1001             -200               0             -200               0
1.85149               -0.9978936       -33.07694        -36.77328       -171.9172             -200               0             -200               0
