! TOUCHSTONE file generated by CST MICROWAVE STUDIO
! Date and time: Tue Mar 18 00:00:48 2025
! Project name: oblique.cst
! Parameters = {Tilt=30; Fracture=1; B=10; D=160; F=5; Feed=2.85625; L=100; M=10; R=0.384908; S=2; Theta=270; length=57.125; wave=114.25}
! Header version: 2024
! Port assignment regex: !\s*Touchstone port\s*([0-9]+)\s*=\s*(CST MWS port|CST DES external port|CST DES block port)\s*(.+)\s* \(\"(.*)\"\)(\s*mode\s*([0-9]+))?.*
! Touchstone port assignment:
! Touchstone port 1 = CST MWS port 1 ("")
! Touchstone port 2 = CST MWS port 2 ("")
# GHz S DB R 50
1                    -0.01891984       -9.783257        -70.99872       -124.6092             -200               0             -200               0
1.00658              -0.01962608       -9.871887        -70.39404       -128.8651             -200               0             -200               0
1.01316               -0.0203835       -9.960978        -69.84564       -133.2388             -200               0             -200               0
1.01974              -0.02118893        -10.0505        -69.34903       -137.6973             -200               0             -200               0
1.02632              -0.02203704       -10.14042        -68.90041        -142.214             -200               0             -200               0
1.03289              -0.02292489       -10.23074         -68.4966       -146.7669             -200               0             -200               0
1.03947              -0.02384528       -10.32143        -68.13493       -151.3377             -200               0             -200               0
1.04605              -0.02479236       -10.41248        -67.81317       -155.9101             -200               0             -200               0
1.05263              -0.02575997       -10.50391        -67.52946       -160.4694             -200               0             -200               0
1.05921              -0.02674079       -10.59572        -67.28222        -165.002             -200               0             -200               0
1.06579              -0.02772865       -10.68793        -67.07017       -169.4948             -200               0             -200               0
1.07237              -0.02871728       -10.78056        -66.89219       -173.9348             -200               0             -200               0
1.07895              -0.02970007       -10.87366        -66.74739       -178.3085             -200               0             -200               0
1.08553              -0.03067329       -10.96727        -66.63496        177.3979             -200               0             -200               0
1.09211              -0.03163093       -11.06143        -66.55422        173.1995             -200               0             -200               0
1.09868               -0.0325704        -11.1562         -66.5045        169.1125             -200               0             -200               0
1.10526              -0.03348894       -11.25163        -66.48513        165.1549             -200               0             -200               0
1.11184              -0.03438677        -11.3478        -66.49534        161.3467             -200               0             -200               0
1.11842              -0.03526295       -11.44476         -66.5342        157.7102             -200               0             -200               0
1.125                -0.03611966       -11.54258        -66.60048        154.2707             -200               0             -200               0
1.13158              -0.03695953       -11.64132        -66.69249        151.0563             -200               0             -200               0
1.13816              -0.03778681       -11.74105        -66.80789        148.0984             -200               0             -200               0
1.14474              -0.03860688       -11.84182        -66.94344        145.4313             -200               0             -200               0
1.15132              -0.03942676       -11.94368        -67.09468        143.0915             -200               0             -200               0
1.15789              -0.04025364       -12.04669        -67.25558        141.1164             -200               0             -200               0
1.16447              -0.04109605       -12.15088        -67.41816        139.5416             -200               0             -200               0
1.17105              -0.04196205       -12.25628        -67.57213        138.3963             -200               0             -200               0
1.17763              -0.04286217       -12.36291        -67.70484        137.6978             -200               0             -200               0
1.18421              -0.04380562        -12.4708         -67.8015         137.443             -200               0             -200               0
1.19079              -0.04480136       -12.57995        -67.84607        137.6011             -200               0             -200               0
1.19737              -0.04585871       -12.69035        -67.82287        138.1069             -200               0             -200               0
1.20395              -0.04698713         -12.802        -67.71881          138.86             -200               0             -200               0
1.21053              -0.04819434       -12.91487        -67.52572        139.7322             -200               0             -200               0
1.21711              -0.04948736       -13.02894        -67.24193        140.5817             -200               0             -200               0
1.22368              -0.05087273       -13.14418        -66.87266        141.2727             -200               0             -200               0
1.23026              -0.05235517       -13.26056         -66.4288        141.6921             -200               0             -200               0
1.23684              -0.05393896       -13.37803        -65.92482        141.7602             -200               0             -200               0
1.24342              -0.05562542       -13.49656        -65.37636        141.4325             -200               0             -200               0
1.25                 -0.05741735       -13.61611         -64.7984        140.6959             -200               0             -200               0
1.25658              -0.05931142       -13.73663        -64.20406        139.5604             -200               0             -200               0
1.26316               -0.0613091       -13.85809        -63.60405        138.0513             -200               0             -200               0
1.26974              -0.06340572       -13.98047        -63.00672        136.2025             -200               0             -200               0
1.27632              -0.06559791       -14.10373        -62.41829        134.0511             -200               0             -200               0
1.28289              -0.06787926       -14.22786        -61.84321        131.6345             -200               0             -200               0
1.28947              -0.07024481       -14.35285         -61.2845        128.9883             -200               0             -200               0
1.29605               -0.0726885       -14.47869        -60.74414         126.145             -200               0             -200               0
1.30263               -0.0752025       -14.60541        -60.22328        123.1343             -200               0             -200               0
1.30921              -0.07778099       -14.73301        -59.72249        119.9824             -200               0             -200               0
1.31579              -0.08041622       -14.86153        -59.24191        116.7128             -200               0             -200               0
1.32237              -0.08310206       -14.99101        -58.78137        113.3459             -200               0             -200               0
1.32895              -0.08583205       -15.12149        -58.34047        109.9001             -200               0             -200               0
1.33553              -0.08860217       -15.25305        -57.91866        106.3913             -200               0             -200               0
1.34211              -0.09140795       -15.38573         -57.5153         102.834             -200               0             -200               0
1.34868              -0.09424721       -15.51963        -57.12963        99.24065             -200               0             -200               0
1.35526              -0.09711937       -15.65481        -56.76087         95.6227             -200               0             -200               0
1.36184               -0.1000225       -15.79136        -56.40818        91.99026             -200               0             -200               0
1.36842               -0.1029609       -15.92937        -56.07069        88.35245             -200               0             -200               0
1.375                 -0.1059375       -16.06892        -55.74749        84.71747             -200               0             -200               0
1.38158               -0.1089571        -16.2101        -55.43767         81.0927             -200               0             -200               0
1.38816               -0.1120273         -16.353        -55.14028        77.48478             -200               0             -200               0
1.39474               -0.1151564       -16.49768        -54.85433        73.89966             -200               0             -200               0
1.40132               -0.1183539       -16.64423        -54.57884        70.34264             -200               0             -200               0
1.40789               -0.1216313       -16.79271        -54.31277        66.81837             -200               0             -200               0
1.41447               -0.1250001       -16.94317         -54.0551        63.33086             -200               0             -200               0
1.42105               -0.1284739       -17.09567        -53.80473        59.88349             -200               0             -200               0
1.42763               -0.1320661       -17.25024         -53.5606        56.47896             -200               0             -200               0
1.43421               -0.1357894       -17.40691        -53.32157        53.11928             -200               0             -200               0
1.44079               -0.1396583       -17.56569        -53.08655        49.80577             -200               0             -200               0
1.44737               -0.1436866       -17.72659        -52.85441        46.53895             -200               0             -200               0
1.45395               -0.1478855       -17.88961        -52.62404        43.31861             -200               0             -200               0
1.46053               -0.1522692       -18.05474        -52.39434        40.14373             -200               0             -200               0
1.46711               -0.1568465       -18.22194        -52.16425        37.01248             -200               0             -200               0
1.47368               -0.1616292       -18.39121        -51.93276        33.92223             -200               0             -200               0
1.48026               -0.1666237       -18.56251        -51.69891        30.86959             -200               0             -200               0
1.48684               -0.1718378       -18.73579        -51.46184        27.85044             -200               0             -200               0
1.49342               -0.1772767       -18.91103        -51.22078           24.86             -200               0             -200               0
1.5                   -0.1829433        -19.0882        -50.97507         21.8929             -200               0             -200               0
1.50658               -0.1888397       -19.26725        -50.72417        18.94334             -200               0             -200               0
1.51316               -0.1949661       -19.44817        -50.46768        16.00517             -200               0             -200               0
1.51974               -0.2013212       -19.63092        -50.20534        13.07205             -200               0             -200               0
1.52632               -0.2079027       -19.81551        -49.93702        10.13761             -200               0             -200               0
1.53289               -0.2147054       -20.00192        -49.66274        7.195556             -200               0             -200               0
1.53947               -0.2217269       -20.19017        -49.38265        4.239846             -200               0             -200               0
1.54605               -0.2289614       -20.38029        -49.09702        1.264802             -200               0             -200               0
1.55263               -0.2364033        -20.5723        -48.80623       -1.734776             -200               0             -200               0
1.55921               -0.2440467       -20.76626        -48.51074       -4.763535             -200               0             -200               0
1.56579               -0.2518883       -20.96224        -48.21111        -7.82549             -200               0             -200               0
1.57237               -0.2599227       -21.16032        -47.90792         -10.924             -200               0             -200               0
1.57895               -0.2681472       -21.36059        -47.60183       -14.06173             -200               0             -200               0
1.58553               -0.2765596       -21.56316        -47.29348        -17.2407             -200               0             -200               0
1.59211               -0.2851614       -21.76815        -46.98355       -20.46224             -200               0             -200               0
1.59868               -0.2939541       -21.97568        -46.67269       -23.72709             -200               0             -200               0
1.60526               -0.3029424       -22.18591        -46.36155       -27.03541             -200               0             -200               0
1.61184               -0.3121326       -22.39896        -46.05073       -30.38685             -200               0             -200               0
1.61842               -0.3215358       -22.61499         -45.7408       -33.78063             -200               0             -200               0
1.625                 -0.3311639       -22.83416         -45.4323       -37.21553             -200               0             -200               0
1.63158               -0.3410304        -23.0566         -45.1257       -40.69002             -200               0             -200               0
1.63816               -0.3511551       -23.28248        -44.82144       -44.20232             -200               0             -200               0
1.64474               -0.3615579       -23.51192        -44.51991       -47.75038             -200               0             -200               0
1.65132               -0.3722615       -23.74506        -44.22142       -51.33201             -200               0             -200               0
1.65789               -0.3832912       -23.98203        -43.92627       -54.94489             -200               0             -200               0
1.66447               -0.3946747       -24.22293        -43.63469       -58.58661             -200               0             -200               0
1.67105               -0.4064391       -24.46787        -43.34685       -62.25472             -200               0             -200               0
1.67763               -0.4186176       -24.71693        -43.06291       -65.94673             -200               0             -200               0
1.68421               -0.4312408       -24.97017        -42.78295       -69.66019             -200               0             -200               0
1.69079               -0.4443399       -25.22765        -42.50702       -73.39268             -200               0             -200               0
1.69737               -0.4579474        -25.4894        -42.23516       -77.14182             -200               0             -200               0
1.70395               -0.4720951       -25.75544        -41.96733       -80.90533             -200               0             -200               0
1.71053               -0.4868167       -26.02578        -41.70348       -84.68101             -200               0             -200               0
1.71711               -0.5021427       -26.30041        -41.44354       -88.46677             -200               0             -200               0
1.72368               -0.5181021       -26.57931        -41.18739       -92.26066             -200               0             -200               0
1.73026               -0.5347248       -26.86245        -40.93489       -96.06083             -200               0             -200               0
1.73684               -0.5520358       -27.14978        -40.68588       -99.86559             -200               0             -200               0
1.74342               -0.5700617       -27.44128        -40.44018       -103.6734             -200               0             -200               0
1.75                  -0.5888254       -27.73689        -40.19758       -107.4829             -200               0             -200               0
1.75658               -0.6083483       -28.03656        -39.95788       -111.2929             -200               0             -200               0
1.76316               -0.6286484       -28.34026        -39.72083       -115.1024             -200               0             -200               0
1.76974               -0.6497455       -28.64795         -39.4862       -118.9104             -200               0             -200               0
1.77632                -0.671654        -28.9596        -39.25374       -122.7164             -200               0             -200               0
1.78289               -0.6943884       -29.27521        -39.02318       -126.5199             -200               0             -200               0
1.78947               -0.7179633       -29.59476        -38.79426       -130.3205             -200               0             -200               0
1.79605               -0.7423909       -29.91829        -38.56673       -134.1183             -200               0             -200               0
1.80263               -0.7676849       -30.24582        -38.34033       -137.9133             -200               0             -200               0
1.80921               -0.7938576       -30.57742         -38.1148       -141.7058             -200               0             -200               0
1.81579               -0.8209239       -30.91316        -37.88989       -145.4962             -200               0             -200               0
1.82237               -0.8488978       -31.25314        -37.66538       -149.2853             -200               0             -200               0
1.82895               -0.8777995       -31.59749        -37.44105       -153.0739             -200               0             -200               0
1.83553               -0.9076468       -31.94634        -37.21668       -156.8628             -200               0             -200               0
1.84211               -0.9384648       -32.29987        -36.99209       -160.6534             -200               0             -200               0
1.84868               -0.9702797       -32.65825        -36.76713       -164.4467             -200               0             -200               0
