! TOUCHSTONE file generated by CST MICROWAVE STUDIO
! Date and time: Tue Mar 18 00:01:22 2025
! Project name: oblique.cst
! Parameters = {Tilt=30; Fracture=1; B=12.5; D=160; F=5; Feed=2.85625; L=100; M=10; R=0.384908; S=1; Theta=180; length=57.125; wave=114.25}
! Header version: 2024
! Port assignment regex: !\s*Touchstone port\s*([0-9]+)\s*=\s*(CST MWS port|CST DES external port|CST DES block port)\s*(.+)\s* \(\"(.*)\"\)(\s*mode\s*([0-9]+))?.*
! Touchstone port assignment:
! Touchstone port 1 = CST MWS port 1 ("")
! Touchstone port 2 = CST MWS port 2 ("")
# GHz S DB R 50
1                    -0.01831304        -9.76803        -70.85468       -123.6142             -200               0             -200               0
1.00658              -0.01908333       -9.857154        -70.21193        -128.323             -200               0             -200               0
1.01316              -0.01992322       -9.946653        -69.63273       -133.1239             -200               0             -200               0
1.01974              -0.02082594       -10.03648        -69.11108        -137.989             -200               0             -200               0
1.02632               -0.0217835       -10.12659        -68.64211       -142.8962             -200               0             -200               0
1.03289              -0.02278876       -10.21695        -68.22186       -147.8276             -200               0             -200               0
1.03947              -0.02383317       -10.30754        -67.84711       -152.7683             -200               0             -200               0
1.04605              -0.02490697       -10.39835        -67.51524       -157.7052             -200               0             -200               0
1.05263              -0.02599889       -10.48939        -67.22412       -162.6266             -200               0             -200               0
1.05921              -0.02709844       -10.58065        -66.97203       -167.5217             -200               0             -200               0
1.06579               -0.0281957       -10.67218        -66.75762       -172.3799             -200               0             -200               0
1.07237              -0.02928098       -10.76401        -66.57983       -177.1906             -200               0             -200               0
1.07895              -0.03034459       -10.85619        -66.43785         178.057             -200               0             -200               0
1.08553              -0.03137987       -10.94877        -66.33111        173.3746             -200               0             -200               0
1.09211              -0.03237964       -11.04183        -66.25923        168.7748             -200               0             -200               0
1.09868              -0.03333908       -11.13545        -66.22199        164.2715             -200               0             -200               0
1.10526              -0.03425312        -11.2297        -66.21928        159.8805             -200               0             -200               0
1.11184              -0.03512286       -11.32468        -66.25109        155.6198             -200               0             -200               0
1.11842              -0.03594646       -11.42048        -66.31742        151.5104             -200               0             -200               0
1.125                -0.03672691       -11.51718        -66.41822        147.5766             -200               0             -200               0
1.13158              -0.03746876       -11.61488        -66.55328        143.8468             -200               0             -200               0
1.13816              -0.03817854       -11.71365        -66.72207        140.3548             -200               0             -200               0
1.14474              -0.03886416       -11.81358        -66.92351        137.1398             -200               0             -200               0
1.15132              -0.03953465       -11.91474        -67.15564         134.248             -200               0             -200               0
1.15789               -0.0402015       -12.01718        -67.41517        131.7327             -200               0             -200               0
1.16447              -0.04087529       -12.12096        -67.69684        129.6539             -200               0             -200               0
1.17105              -0.04157077       -12.22611        -67.99263        128.0765             -200               0             -200               0
1.17763              -0.04230047       -12.33266        -68.29076         127.066             -200               0             -200               0
1.18421              -0.04307612       -12.44062        -68.57474        126.6795             -200               0             -200               0
1.19079              -0.04391482       -12.54998        -68.82285        126.9513             -200               0             -200               0
1.19737              -0.04482503       -12.66075        -69.00865        127.8731             -200               0             -200               0
1.20395              -0.04582148       -12.77288        -69.10344        129.3733             -200               0             -200               0
1.21053              -0.04691613       -12.88635          -69.081        131.3034             -200               0             -200               0
1.21711              -0.04811556        -13.0011         -68.9237        133.4457             -200               0             -200               0
1.22368               -0.0494298       -13.11708        -68.62754        135.5462             -200               0             -200               0
1.23026              -0.05086385       -13.23424        -68.20333        137.3632             -200               0             -200               0
1.23684              -0.05242181       -13.35251        -67.67333        138.7112             -200               0             -200               0
1.24342              -0.05410822       -13.47181        -67.06532        139.4804             -200               0             -200               0
1.25                 -0.05592092        -13.5921        -66.40692        139.6332             -200               0             -200               0
1.25658              -0.05785842        -13.7133          -65.722        139.1857             -200               0             -200               0
1.26316              -0.05991814       -13.83535        -65.02921        138.1861             -200               0             -200               0
1.26974              -0.06209395       -13.95821        -64.34214        136.6974             -200               0             -200               0
1.27632              -0.06437883       -14.08184         -63.6701        134.7864             -200               0             -200               0
1.28289              -0.06676396        -14.2062        -63.01912        132.5165             -200               0             -200               0
1.28947              -0.06923888       -14.33127        -62.39283        129.9454             -200               0             -200               0
1.29605              -0.07179638       -14.45705        -61.79319        127.1233             -200               0             -200               0
1.30263              -0.07442275       -14.58355        -61.22102        124.0939             -200               0             -200               0
1.30921              -0.07710793       -14.71079         -60.6764        120.8945             -200               0             -200               0
1.31579              -0.07984133       -14.83881         -60.1589        117.5569             -200               0             -200               0
1.32237              -0.08261356       -14.96766        -59.66777        114.1084             -200               0             -200               0
1.32895              -0.08541442       -15.09742        -59.20209        110.5724             -200               0             -200               0
1.33553              -0.08823766       -15.22814        -58.76081         106.969             -200               0             -200               0
1.34211              -0.09107666       -15.35994        -58.34283         103.316             -200               0             -200               0
1.34868              -0.09392723        -15.4929          -57.947        99.62871             -200               0             -200               0
1.35526              -0.09678734       -15.62713        -57.57216        95.92076             -200               0             -200               0
1.36184              -0.09965685       -15.76274        -57.21716        92.20431             -200               0             -200               0
1.36842               -0.1025383       -15.89984        -56.88081        88.49024             -200               0             -200               0
1.375                 -0.1054376       -16.03854        -56.56195        84.78841             -200               0             -200               0
1.38158               -0.1083605       -16.17897        -56.25938        81.10772             -200               0             -200               0
1.38816               -0.1113184       -16.32121        -55.97191        77.45629             -200               0             -200               0
1.39474               -0.1143192       -16.46538        -55.69831         73.8415             -200               0             -200               0
1.40132               -0.1173807       -16.61155        -55.43732        70.27002             -200               0             -200               0
1.40789               -0.1205144        -16.7598        -55.18764        66.74785             -200               0             -200               0
1.41447               -0.1237372        -16.9102        -54.94794        63.28028             -200               0             -200               0
1.42105               -0.1270669       -17.06281        -54.71684        59.87186             -200               0             -200               0
1.42763               -0.1305205       -17.21764        -54.49291        56.52639             -200               0             -200               0
1.43421               -0.1341182       -17.37474        -54.27468        53.24678             -200               0             -200               0
1.44079               -0.1378754       -17.53409        -54.06064        50.03503             -200               0             -200               0
1.44737               -0.1418099        -17.6957        -53.84923        46.89207             -200               0             -200               0
1.45395               -0.1459375       -17.85953         -53.6389        43.81776             -200               0             -200               0
1.46053               -0.1502756       -18.02555         -53.4281        40.81076             -200               0             -200               0
1.46711               -0.1548339       -18.19372        -53.21528        37.86848             -200               0             -200               0
1.47368               -0.1596263       -18.36398        -52.99898        34.98701             -200               0             -200               0
1.48026               -0.1646609       -18.53627        -52.77779        32.16123             -200               0             -200               0
1.48684               -0.1699439       -18.71052        -52.55044        29.38471             -200               0             -200               0
1.49342               -0.1754815       -18.88667         -52.3158        26.64998             -200               0             -200               0
1.5                   -0.1812756       -19.06465        -52.07293        23.94851             -200               0             -200               0
1.50658               -0.1873253        -19.2444        -51.82108        21.27106             -200               0             -200               0
1.51316               -0.1936292       -19.42587        -51.55974        18.60783             -200               0             -200               0
1.51974               -0.2001814       -19.60901        -51.28863        15.94874             -200               0             -200               0
1.52632                -0.206975       -19.79379        -51.00771        13.28377             -200               0             -200               0
1.53289               -0.2140043        -19.9802        -50.71718        10.60318             -200               0             -200               0
1.53947                -0.221258       -20.16823        -50.41744        7.897794             -200               0             -200               0
1.54605               -0.2287282       -20.35792         -50.1091        5.159209             -200               0             -200               0
1.55263               -0.2364035       -20.54927        -49.79291        2.379999             -200               0             -200               0
1.55921               -0.2442745       -20.74237        -49.46977       -0.446182             -200               0             -200               0
1.56579               -0.2523313       -20.93728        -49.14064       -3.324523             -200               0             -200               0
1.57237               -0.2605649        -21.1341        -48.80658        -6.25903             -200               0             -200               0
1.57895                -0.268971       -21.33294        -48.46864       -9.252556             -200               0             -200               0
1.58553               -0.2775422       -21.53394        -48.12789       -12.30686             -200               0             -200               0
1.59211               -0.2862764       -21.73723        -47.78535       -15.42268             -200               0             -200               0
1.59868               -0.2951757       -21.94297        -47.44201       -18.59986             -200               0             -200               0
1.60526               -0.3042421       -22.15134        -47.09881       -21.83746             -200               0             -200               0
1.61184                -0.313483       -22.36251        -46.75658       -25.13387             -200               0             -200               0
1.61842               -0.3229076       -22.57665        -46.41611       -28.48689             -200               0             -200               0
1.625                 -0.3325304       -22.79394        -46.07808       -31.89393             -200               0             -200               0
1.63158               -0.3423691       -23.01458         -45.7431         -35.352             -200               0             -200               0
1.63816               -0.3524413       -23.23871         -45.4117       -38.85789             -200               0             -200               0
1.64474               -0.3627741       -23.46652        -45.08432       -42.40819             -200               0             -200               0
1.65132               -0.3733929       -23.69813        -44.76132       -45.99938             -200               0             -200               0
1.65789                -0.384328        -23.9337          -44.443       -49.62791             -200               0             -200               0
1.66447               -0.3956094       -24.17333        -44.12959        -53.2902             -200               0             -200               0
1.67105               -0.4072736       -24.41714        -43.82124       -56.98272             -200               0             -200               0
1.67763                -0.419354       -24.66518        -43.51807       -60.70198             -200               0             -200               0
1.68421               -0.4318876       -24.91752        -43.22012       -64.44463             -200               0             -200               0
1.69079               -0.4449095        -25.1742        -42.92738       -68.20741             -200               0             -200               0
1.69737               -0.4584574       -25.43523        -42.63983       -71.98721             -200               0             -200               0
1.70395               -0.4725651       -25.70059        -42.35736       -75.78106             -200               0             -200               0
1.71053               -0.4872694       -25.97027        -42.07985       -79.58616             -200               0             -200               0
1.71711                -0.502603       -26.24422        -41.80714       -83.39991             -200               0             -200               0
1.72368               -0.5185936       -26.52238        -41.53904       -87.21988             -200               0             -200               0
1.73026                -0.535273       -26.80469        -41.27534       -91.04382             -200               0             -200               0
1.73684               -0.5526648       -27.09105        -41.01577       -94.86971             -200               0             -200               0
1.74342               -0.5707941        -27.3814        -40.76008       -98.69575             -200               0             -200               0
1.75                  -0.5896792       -27.67564        -40.50798       -102.5203             -200               0             -200               0
1.75658               -0.6093365        -27.9737        -40.25917       -106.3421             -200               0             -200               0
1.76316               -0.6297823        -28.2755        -40.01331       -110.1599             -200               0             -200               0
1.76974               -0.6510251       -28.58097         -39.7701       -113.9729             -200               0             -200               0
1.77632               -0.6730781       -28.89008        -39.52919       -117.7803             -200               0             -200               0
1.78289               -0.6959444       -29.20279        -39.29024       -121.5819             -200               0             -200               0
1.78947               -0.7196319       -29.51909        -39.05292       -125.3773             -200               0             -200               0
1.79605               -0.7441443         -29.839        -38.81688       -129.1667             -200               0             -200               0
1.80263               -0.7694863       -30.16257        -38.58179       -132.9505             -200               0             -200               0
1.80921               -0.7956619       -30.48986        -38.34734       -136.7291             -200               0             -200               0
1.81579                -0.822677       -30.82099        -38.11322       -140.5034             -200               0             -200               0
1.82237               -0.8505402       -31.15607        -37.87913       -144.2744             -200               0             -200               0
1.82895               -0.8792598       -31.49528        -37.64482       -148.0432             -200               0             -200               0
1.83553               -0.9088498       -31.83881        -37.41003       -151.8113             -200               0             -200               0
1.84211               -0.9393291       -32.18687        -37.17455       -155.5801             -200               0             -200               0
1.84868               -0.9707201        -32.5397        -36.93819       -159.3516             -200               0             -200               0
