! TOUCHSTONE file generated by CST MICROWAVE STUDIO
! Date and time: Tue Mar 18 00:00:55 2025
! Project name: oblique.cst
! Parameters = {Tilt=30; Fracture=1; B=10; D=160; F=15; Feed=2.85625; L=100; M=50; R=0.384908; S=1; Theta=180; length=57.125; wave=114.25}
! Header version: 2024
! Port assignment regex: !\s*Touchstone port\s*([0-9]+)\s*=\s*(CST MWS port|CST DES external port|CST DES block port)\s*(.+)\s* \(\"(.*)\"\)(\s*mode\s*([0-9]+))?.*
! Touchstone port assignment:
! Touchstone port 1 = CST MWS port 1 ("")
! Touchstone port 2 = CST MWS port 2 ("")
# GHz S DB R 50
1                    -0.02121939       -9.807464        -67.12011        158.7141             -200               0             -200               0
1.0066               -0.02196195       -9.895396        -67.13008        152.6991             -200               0             -200               0
1.0132                -0.0227159       -9.983888        -67.17455        146.7759             -200               0             -200               0
1.0198               -0.02348087       -10.07296        -67.25477        140.9508             -200               0             -200               0
1.0264                -0.0242586       -10.16264        -67.37229        135.2324             -200               0             -200               0
1.033                -0.02504867       -10.25293        -67.52898        129.6316             -200               0             -200               0
1.0396               -0.02585269       -10.34387        -67.72709        124.1628             -200               0             -200               0
1.0462               -0.02667082       -10.43547         -67.9693        118.8446             -200               0             -200               0
1.05281              -0.02750573       -10.52774        -68.25874        113.7009             -200               0             -200               0
1.05941              -0.02835806       -10.62071        -68.59907        108.7633             -200               0             -200               0
1.06601              -0.02923056        -10.7144         -68.9945        104.0728             -200               0             -200               0
1.07261              -0.03012494       -10.80882        -69.44978        99.68429             -200               0             -200               0
1.07921              -0.03104402       -10.90397        -69.97001         95.6713             -200               0             -200               0
1.08581              -0.03198959       -10.99989        -70.56033        92.13396             -200               0             -200               0
1.09241              -0.03296505       -11.09656        -71.22492        89.20976             -200               0             -200               0
1.09901              -0.03397131       -11.19401        -71.96499        87.08835             -200               0             -200               0
1.10561              -0.03501182       -11.29223        -72.77457        86.02895             -200               0             -200               0
1.11221              -0.03608961       -11.39124         -73.6322        86.37248             -200               0             -200               0
1.11881              -0.03720416       -11.49103        -74.48635        88.52127             -200               0             -200               0
1.12541               -0.0383596       -11.59161        -75.23604        92.82065             -200               0             -200               0
1.13201              -0.03955687       -11.69298         -75.7239        99.25854             -200               0             -200               0
1.13861              -0.04079668       -11.79513         -75.7828        107.0775             -200               0             -200               0
1.14521              -0.04208054       -11.89807        -75.34372        114.8142             -200               0             -200               0
1.15182              -0.04340854       -12.00179        -74.49445        121.0663             -200               0             -200               0
1.15842              -0.04478214        -12.1063        -73.40608        125.1889             -200               0             -200               0
1.16502              -0.04619984        -12.2116        -72.22943         127.241             -200               0             -200               0
1.17162              -0.04766257       -12.31768        -71.05776        127.5888             -200               0             -200               0
1.17822              -0.04916967       -12.42455        -69.93738        126.6307             -200               0             -200               0
1.18482              -0.05071943       -12.53222        -68.88682        124.6978             -200               0             -200               0
1.19142              -0.05231089        -12.6407        -67.91053          122.04             -200               0             -200               0
1.19802               -0.0539432       -12.74998        -67.00653        118.8403             -200               0             -200               0
1.20462              -0.05561482        -12.8601        -66.17018        115.2318             -200               0             -200               0
1.21122              -0.05732346       -12.97106        -65.39609         111.312             -200               0             -200               0
1.21782              -0.05906946       -13.08288        -64.67892        107.1534             -200               0             -200               0
1.22442              -0.06085039       -13.19558        -64.01371        102.8104             -200               0             -200               0
1.23102              -0.06266563       -13.30919        -63.39605        98.32513             -200               0             -200               0
1.23762              -0.06451363       -13.42374        -62.82201         93.7301             -200               0             -200               0
1.24422              -0.06639449       -13.53926        -62.28818        89.05127             -200               0             -200               0
1.25083              -0.06830756       -13.65577        -61.79156        84.30957             -200               0             -200               0
1.25743              -0.07025318       -13.77333        -61.32955        79.52223             -200               0             -200               0
1.26403              -0.07223151       -13.89195        -60.89986        74.70369             -200               0             -200               0
1.27063              -0.07424436       -14.01169        -60.50049        69.86627             -200               0             -200               0
1.27723              -0.07629317       -14.13257        -60.12966        65.02068             -200               0             -200               0
1.28383              -0.07837876       -14.25465         -59.7858        60.17646             -200               0             -200               0
1.29043               -0.0805051       -14.37795        -59.46752        55.34221             -200               0             -200               0
1.29703              -0.08267445       -14.50252        -59.17354         50.5259             -200               0             -200               0
1.30363              -0.08489128        -14.6284        -58.90273          45.735             -200               0             -200               0
1.31023              -0.08715901       -14.75562        -58.65402        40.97669             -200               0             -200               0
1.31683              -0.08948158       -14.88421        -58.42644        36.25793             -200               0             -200               0
1.32343               -0.0918647       -15.01421        -58.21906        31.58562             -200               0             -200               0
1.33003              -0.09431238       -15.14566        -58.03096        26.96663             -200               0             -200               0
1.33663              -0.09682993       -15.27856        -57.86128        22.40791             -200               0             -200               0
1.34323              -0.09942371       -15.41296        -57.70911        17.91653             -200               0             -200               0
1.34984               -0.1020975       -15.54888        -57.57354         13.4997             -200               0             -200               0
1.35644               -0.1048579       -15.68632        -57.45361         9.16482             -200               0             -200               0
1.36304               -0.1077095       -15.82532        -57.34827        4.919443             -200               0             -200               0
1.36964               -0.1106573       -15.96589         -57.2564       0.7712794             -200               0             -200               0
1.37624               -0.1137076       -16.10803        -57.17673       -3.271881             -200               0             -200               0
1.38284               -0.1168635       -16.25177        -57.10788       -7.202254             -200               0             -200               0
1.38944               -0.1201293       -16.39712        -57.04828       -11.01221             -200               0             -200               0
1.39604               -0.1235097       -16.54408        -56.99614       -14.69446             -200               0             -200               0
1.40264               -0.1270085       -16.69266        -56.94948       -18.24234             -200               0             -200               0
1.40924               -0.1306282       -16.84288        -56.90606        -21.6501             -200               0             -200               0
1.41584               -0.1343718       -16.99475        -56.86342       -24.91332             -200               0             -200               0
1.42244               -0.1382425       -17.14829        -56.81883       -28.02936             -200               0             -200               0
1.42904               -0.1422423        -17.3035        -56.76936       -30.99787             -200               0             -200               0
1.43564               -0.1463736       -17.46041        -56.71193       -33.82131             -200               0             -200               0
1.44224               -0.1506379       -17.61905        -56.64334       -36.50542             -200               0             -200               0
1.44884               -0.1550375       -17.77943        -56.56042       -39.05959             -200               0             -200               0
1.45545               -0.1595736       -17.94158        -56.46015       -41.49715             -200               0             -200               0
1.46205               -0.1642487       -18.10554        -56.33977       -43.83525             -200               0             -200               0
1.46865               -0.1690645       -18.27135        -56.19696       -46.09464             -200               0             -200               0
1.47525               -0.1740233       -18.43903        -56.02998       -48.29897             -200               0             -200               0
1.48185               -0.1791281       -18.60865        -55.83779       -50.47392             -200               0             -200               0
1.48845               -0.1843821       -18.78025        -55.62008       -52.64605             -200               0             -200               0
1.49505               -0.1897882       -18.95386        -55.37732       -54.84158             -200               0             -200               0
1.50165               -0.1953516       -19.12956        -55.11069       -57.08517             -200               0             -200               0
1.50825                -0.201076       -19.30739          -54.822       -59.39894             -200               0             -200               0
1.51485               -0.2069683       -19.48741        -54.51356       -61.80167             -200               0             -200               0
1.52145               -0.2130334       -19.66969        -54.18802       -64.30837             -200               0             -200               0
1.52805               -0.2192798       -19.85427        -53.84824       -66.93013             -200               0             -200               0
1.53465                -0.225714       -20.04122        -53.49711       -69.67421             -200               0             -200               0
1.54125               -0.2323454        -20.2306         -53.1375       -72.54443             -200               0             -200               0
1.54785               -0.2391834       -20.42247        -52.77209       -75.54155             -200               0             -200               0
1.55446               -0.2462375       -20.61687        -52.40338       -78.66383             -200               0             -200               0
1.56106               -0.2535185       -20.81387        -52.03363       -81.90752             -200               0             -200               0
1.56766               -0.2610366        -21.0135         -51.6648       -85.26736             -200               0             -200               0
1.57426               -0.2688054       -21.21583        -51.29863         -88.737             -200               0             -200               0
1.58086               -0.2768351       -21.42089        -50.93659       -92.30937             -200               0             -200               0
1.58746               -0.2851385       -21.62873        -50.57989       -95.97697             -200               0             -200               0
1.59406               -0.2937285       -21.83937        -50.22957       -99.73211             -200               0             -200               0
1.60066               -0.3026166       -22.05286        -49.88645       -103.5671             -200               0             -200               0
1.60726               -0.3118153       -22.26922        -49.55119       -107.4742             -200               0             -200               0
1.61386               -0.3213379       -22.48848         -49.2243       -111.4462             -200               0             -200               0
1.62046               -0.3311949       -22.71068        -48.90615       -115.4758             -200               0             -200               0
1.62706               -0.3414003       -22.93582        -48.59703       -119.5563             -200               0             -200               0
1.63366               -0.3519629       -23.16395        -48.29711       -123.6809             -200               0             -200               0
1.64026               -0.3628964       -23.39507        -48.00649       -127.8436             -200               0             -200               0
1.64686               -0.3742098       -23.62922        -47.72518       -132.0384             -200               0             -200               0
1.65347               -0.3859144       -23.86642        -47.45315       -136.2597             -200               0             -200               0
1.66007               -0.3980191        -24.1067        -47.19032       -140.5022             -200               0             -200               0
1.66667               -0.4105353       -24.35009        -46.93654       -144.7609             -200               0             -200               0
1.67327               -0.4234725       -24.59664        -46.69164       -149.0309             -200               0             -200               0
1.67987               -0.4368388       -24.84637        -46.45539       -153.3078             -200               0             -200               0
1.68647               -0.4506455       -25.09935        -46.22754       -157.5872             -200               0             -200               0
1.69307               -0.4649005       -25.35563         -46.0078       -161.8651             -200               0             -200               0
1.69967               -0.4796159       -25.61526        -45.79586       -166.1377             -200               0             -200               0
1.70627               -0.4948003       -25.87832        -45.59135       -170.4012             -200               0             -200               0
1.71287               -0.5104659       -26.14488        -45.39391       -174.6524             -200               0             -200               0
1.71947               -0.5266245       -26.41503        -45.20311       -178.8881             -200               0             -200               0
1.72607               -0.5432891       -26.68885        -45.01852        176.8949             -200               0             -200               0
1.73267               -0.5604741       -26.96645        -44.83966        172.6993             -200               0             -200               0
1.73927               -0.5781952       -27.24792        -44.66603        168.5274             -200               0             -200               0
1.74587               -0.5964692       -27.53339        -44.49711        164.3817             -200               0             -200               0
1.75248                -0.615316       -27.82296        -44.33233        160.2642             -200               0             -200               0
1.75908               -0.6347546       -28.11676         -44.1711        156.1764             -200               0             -200               0
1.76568               -0.6548093       -28.41489        -44.01283        152.1198             -200               0             -200               0
1.77228               -0.6755048        -28.7175        -43.85687        148.0953             -200               0             -200               0
1.77888               -0.6968685       -29.02471        -43.70257        144.1037             -200               0             -200               0
1.78548               -0.7189284       -29.33663        -43.54927        140.1451             -200               0             -200               0
1.79208               -0.7417153        -29.6534         -43.3963        136.2195             -200               0             -200               0
1.79868               -0.7652645       -29.97512        -43.24296         132.326             -200               0             -200               0
1.80528               -0.7896105       -30.30192         -43.0886        128.4637             -200               0             -200               0
1.81188               -0.8147904       -30.63391        -42.93255        124.6309             -200               0             -200               0
1.81848               -0.8408441       -30.97118        -42.77417        120.8256             -200               0             -200               0
1.82508               -0.8678137       -31.31384        -42.61285        117.0452             -200               0             -200               0
1.83168               -0.8957412       -31.66197        -42.44803        113.2866             -200               0             -200               0
1.83828                -0.924671       -32.01566         -42.2792        109.5466             -200               0             -200               0
1.84488               -0.9546501       -32.37499        -42.10589        105.8211             -200               0             -200               0
1.85149               -0.9857266          -32.74        -41.92772        102.1061             -200               0             -200               0
