! TOUCHSTONE file generated by CST MICROWAVE STUDIO
! Date and time: Tue Mar 18 00:02:08 2025
! Project name: oblique.cst
! Parameters = {Tilt=40; Fracture=1; B=10; D=160; F=5; Feed=2.85625; L=100; M=30; R=0.384908; S=2; Theta=90; length=57.125; wave=114.25}
! Header version: 2024
! Port assignment regex: !\s*Touchstone port\s*([0-9]+)\s*=\s*(CST MWS port|CST DES external port|CST DES block port)\s*(.+)\s* \(\"(.*)\"\)(\s*mode\s*([0-9]+))?.*
! Touchstone port assignment:
! Touchstone port 1 = CST MWS port 1 ("")
! Touchstone port 2 = CST MWS port 2 ("")
# GHz S DB R 50
1                    -0.02003722       -9.784725        -68.32043       -165.4407             -200               0             -200               0
1.00658              -0.02092161       -9.872794         -68.1847       -169.9094             -200               0             -200               0
1.01316              -0.02184431       -9.961188        -68.07506       -174.3043             -200               0             -200               0
1.01974              -0.02280009        -10.0499        -67.99104       -178.6142             -200               0             -200               0
1.02632              -0.02378111       -10.13892        -67.93214        177.1729             -200               0             -200               0
1.03289               -0.0247807       -10.22825        -67.89785        173.0705             -200               0             -200               0
1.03947              -0.02579248       -10.31791        -67.88756        169.0933             -200               0             -200               0
1.04605              -0.02680988       -10.40792        -67.90051        165.2577             -200               0             -200               0
1.05263              -0.02782759       -10.49831        -67.93574        161.5817             -200               0             -200               0
1.05921              -0.02883852       -10.58912        -67.99196        158.0855             -200               0             -200               0
1.06579              -0.02983798       -10.68038        -68.06746         154.791             -200               0             -200               0
1.07237              -0.03082211       -10.77215        -68.15996        151.7219             -200               0             -200               0
1.07895              -0.03178893       -10.86448        -68.26646        148.9034             -200               0             -200               0
1.08553              -0.03273633       -10.95743        -68.38299        146.3611             -200               0             -200               0
1.09211               -0.0336637       -11.05106        -68.50448        144.1202             -200               0             -200               0
1.09868              -0.03457285       -11.14544        -68.62451         142.203             -200               0             -200               0
1.10526              -0.03546425       -11.24061        -68.73523        140.6264             -200               0             -200               0
1.11184              -0.03634379       -11.33664        -68.82736        139.3978             -200               0             -200               0
1.11842              -0.03721463       -11.43358        -68.89043        138.5111             -200               0             -200               0
1.125                -0.03808249       -11.53149        -68.91335         137.942             -200               0             -200               0
1.13158              -0.03895531        -11.6304        -68.88535        137.6453             -200               0             -200               0
1.13816              -0.03983865       -11.73036        -68.79717        137.5542             -200               0             -200               0
1.14474              -0.04074302       -11.83138        -68.64233        137.5838             -200               0             -200               0
1.15132                -0.041676        -11.9335        -68.41815        137.6382             -200               0             -200               0
1.15789              -0.04264544       -12.03673        -68.12616        137.6201             -200               0             -200               0
1.16447              -0.04366108       -12.14106        -67.77186        137.4416             -200               0             -200               0
1.17105              -0.04473023       -12.24649        -67.36377        137.0318             -200               0             -200               0
1.17763              -0.04586212       -12.35301         -66.9122        136.3409             -200               0             -200               0
1.18421              -0.04706249        -12.4606        -66.42798        135.3405             -200               0             -200               0
1.19079              -0.04833746       -12.56923        -65.92151        134.0212             -200               0             -200               0
1.19737              -0.04969258       -12.67887        -65.40208        132.3882             -200               0             -200               0
1.20395              -0.05113119       -12.78949        -64.87756        130.4571             -200               0             -200               0
1.21053              -0.05265663       -12.90103        -64.35436        128.2496             -200               0             -200               0
1.21711              -0.05426955       -13.01348        -63.83752        125.7909             -200               0             -200               0
1.22368              -0.05596932       -13.12678        -63.33085        123.1073             -200               0             -200               0
1.23026              -0.05775497        -13.2409        -62.83718        120.2245             -200               0             -200               0
1.23684              -0.05962294       -13.35581        -62.35854        117.1673             -200               0             -200               0
1.24342              -0.06156946       -13.47147        -61.89631        113.9585             -200               0             -200               0
1.25                 -0.06358892       -13.58787        -61.45138        110.6192             -200               0             -200               0
1.25658              -0.06567598         -13.705        -61.02429        107.1685             -200               0             -200               0
1.26316              -0.06782288       -13.82284        -60.61525        103.6239             -200               0             -200               0
1.26974              -0.07002194       -13.94141        -60.22431        100.0011             -200               0             -200               0
1.27632              -0.07226674       -14.06072        -59.85132        96.31417             -200               0             -200               0
1.28289               -0.0745487       -14.18079        -59.49602         92.5762             -200               0             -200               0
1.28947              -0.07686066       -14.30166        -59.15807        88.79894             -200               0             -200               0
1.29605              -0.07919571       -14.42337        -58.83706         84.9932             -200               0             -200               0
1.30263              -0.08154839       -14.54599        -58.53252        81.16893             -200               0             -200               0
1.30921              -0.08391229       -14.66956        -58.24392        77.33537             -200               0             -200               0
1.31579              -0.08628451       -14.79418        -57.97071        73.50112             -200               0             -200               0
1.32237              -0.08866177       -14.91991        -57.71231        69.67428             -200               0             -200               0
1.32895              -0.09104304       -15.04683        -57.46807        65.86246             -200               0             -200               0
1.33553                -0.093429       -15.17503        -57.23733        62.07287             -200               0             -200               0
1.34211              -0.09582074        -15.3046        -57.01938        58.31237             -200               0             -200               0
1.34868               -0.0982222       -15.43562        -56.81345        54.58745             -200               0             -200               0
1.35526               -0.1006398       -15.56819        -56.61875        50.90432             -200               0             -200               0
1.36184               -0.1030793       -15.70237        -56.43438        47.26882             -200               0             -200               0
1.36842               -0.1055482       -15.83825        -56.25944        43.68644             -200               0             -200               0
1.375                 -0.1080564        -15.9759         -56.0929         40.1623             -200               0             -200               0
1.38158               -0.1106148       -16.11537         -55.9337        36.70104             -200               0             -200               0
1.38816               -0.1132346       -16.25673        -55.78069         33.3068             -200               0             -200               0
1.39474               -0.1159263       -16.40001        -55.63263        29.98312             -200               0             -200               0
1.40132               -0.1187046       -16.54526        -55.48822        26.73279             -200               0             -200               0
1.40789               -0.1215792       -16.69248        -55.34608        23.55781             -200               0             -200               0
1.41447               -0.1245629       -16.84171        -55.20479         20.4592             -200               0             -200               0
1.42105               -0.1276676       -16.99295        -55.06285        17.43695             -200               0             -200               0
1.42763               -0.1309043       -17.14619        -54.91875        14.48982             -200               0             -200               0
1.43421               -0.1342822       -17.30142        -54.77098        11.61533             -200               0             -200               0
1.44079               -0.1378105       -17.45863        -54.61807        8.809609             -200               0             -200               0
1.44737               -0.1414968        -17.6178        -54.45858        6.067437             -200               0             -200               0
1.45395               -0.1453459       -17.77891        -54.29121        3.382227             -200               0             -200               0
1.46053               -0.1493639       -17.94193        -54.11477        0.746117             -200               0             -200               0
1.46711               -0.1535534       -18.10684        -53.92828       -1.849886             -200               0             -200               0
1.47368               -0.1579158       -18.27361        -53.73095       -4.415707             -200               0             -200               0
1.48026               -0.1624504       -18.44225        -53.52223       -6.961938             -200               0             -200               0
1.48684               -0.1671573       -18.61273        -53.30183       -9.499541             -200               0             -200               0
1.49342               -0.1720343       -18.78506        -53.06973       -12.03953             -200               0             -200               0
1.5                   -0.1770776       -18.95925        -52.82616       -14.59266             -200               0             -200               0
1.50658               -0.1822834       -19.13532        -52.57159       -17.16907             -200               0             -200               0
1.51316               -0.1876482        -19.3133        -52.30671       -19.77809             -200               0             -200               0
1.51974               -0.1931676       -19.49324         -52.0324       -22.42796             -200               0             -200               0
1.52632               -0.1988366        -19.6752        -51.74967       -25.12571             -200               0             -200               0
1.53289               -0.2046526       -19.85924        -51.45964       -27.87705             -200               0             -200               0
1.53947               -0.2106135       -20.04546        -51.16352       -30.68636             -200               0             -200               0
1.54605               -0.2167166       -20.23396         -50.8625       -33.55667             -200               0             -200               0
1.55263               -0.2229634       -20.42483        -50.55781       -36.48978             -200               0             -200               0
1.55921               -0.2293553       -20.61821        -50.25063       -39.48631             -200               0             -200               0
1.56579               -0.2358957        -20.8142        -49.94207       -42.54587             -200               0             -200               0
1.57237               -0.2425913       -21.01295         -49.6332       -45.66712             -200               0             -200               0
1.57895               -0.2494495       -21.21459        -49.32496       -48.84798             -200               0             -200               0
1.58553               -0.2564838       -21.41925        -49.01824       -52.08574             -200               0             -200               0
1.59211               -0.2637047       -21.62708         -48.7138       -55.37717             -200               0             -200               0
1.59868               -0.2711282       -21.83821        -48.41232       -58.71861             -200               0             -200               0
1.60526               -0.2787752       -22.05276        -48.11438       -62.10615             -200               0             -200               0
1.61184               -0.2866625       -22.27086        -47.82046       -65.53566             -200               0             -200               0
1.61842               -0.2948151       -22.49263        -47.53094       -69.00284             -200               0             -200               0
1.625                 -0.3032562       -22.71816        -47.24614       -72.50338             -200               0             -200               0
1.63158               -0.3120116       -22.94755        -46.96626        -76.0329             -200               0             -200               0
1.63816               -0.3211078       -23.18087        -46.69146       -79.58711             -200               0             -200               0
1.64474               -0.3305738       -23.41818         -46.4218       -83.16176             -200               0             -200               0
1.65132               -0.3404363       -23.65953        -46.15729       -86.75271             -200               0             -200               0
1.65789               -0.3507258       -23.90496        -45.89786       -90.35596             -200               0             -200               0
1.66447               -0.3614695       -24.15449        -45.64339       -93.96767             -200               0             -200               0
1.67105               -0.3726946       -24.40811         -45.3937        -97.5842             -200               0             -200               0
1.67763               -0.3844287       -24.66582        -45.14856       -101.2021             -200               0             -200               0
1.68421               -0.3966977       -24.92762        -44.90769       -104.8182             -200               0             -200               0
1.69079               -0.4095256       -25.19346        -44.67075       -108.4294             -200               0             -200               0
1.69737               -0.4229353       -25.46333        -44.43737       -112.0332             -200               0             -200               0
1.70395                -0.436948       -25.73718        -44.20715       -115.6271             -200               0             -200               0
1.71053               -0.4515815       -26.01498        -43.97963       -119.2091             -200               0             -200               0
1.71711               -0.4668562       -26.29669        -43.75434       -122.7774             -200               0             -200               0
1.72368               -0.4827839       -26.58229        -43.53076       -126.3308             -200               0             -200               0
1.73026               -0.4993816       -26.87174        -43.30837       -129.8681             -200               0             -200               0
1.73684               -0.5166597       -27.16503        -43.08662       -133.3889             -200               0             -200               0
1.74342               -0.5346316       -27.46216        -42.86495       -136.8931             -200               0             -200               0
1.75                  -0.5533041       -27.76314        -42.64281        -140.381             -200               0             -200               0
1.75658               -0.5726896         -28.068        -42.41964       -143.8532             -200               0             -200               0
1.76316               -0.5927952       -28.37677        -42.19489       -147.3111             -200               0             -200               0
1.76974               -0.6136333       -28.68954        -41.96806       -150.7563             -200               0             -200               0
1.77632               -0.6352127       -29.00637        -41.73866       -154.1908             -200               0             -200               0
1.78289                -0.657547       -29.32738        -41.50622       -157.6171             -200               0             -200               0
1.78947               -0.6806486        -29.6527        -41.27036       -161.0381             -200               0             -200               0
1.79605               -0.7045353       -29.98245        -41.03071        -164.457             -200               0             -200               0
1.80263               -0.7292251       -30.31681          -40.787       -167.8772             -200               0             -200               0
1.80921               -0.7547418       -30.65595          -40.539       -171.3024             -200               0             -200               0
1.81579               -0.7811122       -31.00006        -40.28656       -174.7365             -200               0             -200               0
1.82237               -0.8083663       -31.34935        -40.02961       -178.1833             -200               0             -200               0
1.82895               -0.8365419       -31.70403        -39.76815        178.3531             -200               0             -200               0
1.83553                 -0.86568       -32.06432        -39.50224        174.8689             -200               0             -200               0
1.84211               -0.8958247       -32.43044        -39.23203        171.3602             -200               0             -200               0
1.84868               -0.9270297       -32.80259        -38.95771        167.8235             -200               0             -200               0
