! TOUCHSTONE file generated by CST MICROWAVE STUDIO
! Date and time: Tue Mar 18 00:02:53 2025
! Project name: oblique.cst
! Parameters = {Tilt=40; Fracture=1; B=12.5; D=160; F=15; Feed=2.85625; L=100; M=30; R=0.384908; S=1; Theta=90; length=57.125; wave=114.25}
! Header version: 2024
! Port assignment regex: !\s*Touchstone port\s*([0-9]+)\s*=\s*(CST MWS port|CST DES external port|CST DES block port)\s*(.+)\s* \(\"(.*)\"\)(\s*mode\s*([0-9]+))?.*
! Touchstone port assignment:
! Touchstone port 1 = CST MWS port 1 ("")
! Touchstone port 2 = CST MWS port 2 ("")
# GHz S DB R 50
1                    -0.02213385       -9.781094        -65.88375        172.9784             -200               0             -200               0
1.0066               -0.02278542       -9.867085        -65.94801        166.9432             -200               0             -200               0
1.0132               -0.02341353       -9.953692        -66.05116        160.9997             -200               0             -200               0
1.0198               -0.02401999       -10.04097        -66.19538        155.1552             -200               0             -200               0
1.0264                -0.0246086       -10.12897        -66.38333        149.4195             -200               0             -200               0
1.033                -0.02518126       -10.21775        -66.61824        143.8056             -200               0             -200               0
1.0396               -0.02574507       -10.30735        -66.90403        138.3312             -200               0             -200               0
1.0462               -0.02630513       -10.39781        -67.24551        133.0198             -200               0             -200               0
1.05281              -0.02686833       -10.48917        -67.64848        127.9031             -200               0             -200               0
1.05941              -0.02744217       -10.58146        -68.12004        123.0246             -200               0             -200               0
1.06601              -0.02803392        -10.6747        -68.66884        118.4447             -200               0             -200               0
1.07261               -0.0286525        -10.7689        -69.30533         114.249             -200               0             -200               0
1.07921              -0.02930511       -10.86406        -70.04193        110.5621             -200               0             -200               0
1.08581              -0.03000013       -10.96019        -70.89269        107.5696             -200               0             -200               0
1.09241               -0.0307456       -11.05727        -71.87151        105.5554             -200               0             -200               0
1.09901              -0.03154727       -11.15529        -72.98626        104.9615             -200               0             -200               0
1.10561              -0.03241317       -11.25422        -74.22186        106.4709             -200               0             -200               0
1.11221              -0.03334685       -11.35403        -75.49745        111.0552             -200               0             -200               0
1.11881              -0.03435297       -11.45469        -76.58399        119.6898             -200               0             -200               0
1.12541              -0.03543582       -11.55616        -77.06351        132.1097             -200               0             -200               0
1.13201              -0.03659624        -11.6584        -76.60272        145.3681             -200               0             -200               0
1.13861              -0.03783491       -11.76137        -75.36229        155.7444             -200               0             -200               0
1.14521              -0.03915115       -11.86503        -73.78315        161.9674             -200               0             -200               0
1.15182              -0.04054308       -11.96934        -72.17521        164.7335             -200               0             -200               0
1.15842              -0.04200815       -12.07427        -70.66677        165.0892             -200               0             -200               0
1.16502              -0.04354112       -12.17979        -69.29169        163.8355             -200               0             -200               0
1.17162              -0.04513655       -12.28588          -68.048        161.5006             -200               0             -200               0
1.17822              -0.04678981       -12.39252        -66.92293         158.424             -200               0             -200               0
1.18482              -0.04849232       -12.49971        -65.90189        154.8262             -200               0             -200               0
1.19142              -0.05023775       -12.60745        -64.97151        150.8541             -200               0             -200               0
1.19802              -0.05201845       -12.71574         -64.1203        146.6084             -200               0             -200               0
1.20462              -0.05382749       -12.82461        -63.33867        142.1602             -200               0             -200               0
1.21122              -0.05565646       -12.93409        -62.61867        137.5609             -200               0             -200               0
1.21782              -0.05749928       -13.04422         -61.9537        132.8489             -200               0             -200               0
1.22442              -0.05935097       -13.15505        -61.33828         128.053             -200               0             -200               0
1.23102              -0.06120372       -13.26663        -60.76781         123.196             -200               0             -200               0
1.23762              -0.06305569       -13.37902        -60.23842        118.2959             -200               0             -200               0
1.24422              -0.06490312        -13.4923        -59.74683        113.3673             -200               0             -200               0
1.25083              -0.06674425       -13.60654        -59.29023        108.4225             -200               0             -200               0
1.25743              -0.06857967       -13.72181        -58.86623        103.4719             -200               0             -200               0
1.26403              -0.07041041        -13.8382        -58.47273        98.52442             -200               0             -200               0
1.27063              -0.07224007       -13.95578        -58.10793        93.58827             -200               0             -200               0
1.27723              -0.07407237       -14.07462        -57.77023        88.67078             -200               0             -200               0
1.28383              -0.07591355        -14.1948        -57.45822        83.77882             -200               0             -200               0
1.29043              -0.07777122       -14.31639        -57.17063        78.91893             -200               0             -200               0
1.29703              -0.07965462       -14.43945        -56.90633        74.09744             -200               0             -200               0
1.30363              -0.08157228       -14.56402        -56.66426        69.32061             -200               0             -200               0
1.31023              -0.08353399       -14.69017        -56.44347        64.59471             -200               0             -200               0
1.31683              -0.08555265       -14.81791        -56.24302        59.92609             -200               0             -200               0
1.32343              -0.08763776       -14.94728        -56.06203        55.32126             -200               0             -200               0
1.33003              -0.08980233        -15.0783         -55.8996        50.78694             -200               0             -200               0
1.33663              -0.09205669       -15.21097        -55.75486        46.33007             -200               0             -200               0
1.34323              -0.09441205       -15.34529        -55.62685        41.95789             -200               0             -200               0
1.34984              -0.09687796       -15.48124        -55.51461        37.67791             -200               0             -200               0
1.35644              -0.09946479       -15.61881        -55.41705        33.49789             -200               0             -200               0
1.36304                -0.102179       -15.75796        -55.33299        29.42583             -200               0             -200               0
1.36964               -0.1050293       -15.89867        -55.26111        25.46988             -200               0             -200               0
1.37624               -0.1080197        -16.0409        -55.19991        21.63821             -200               0             -200               0
1.38284               -0.1111544       -16.18461        -55.14769        17.93886             -200               0             -200               0
1.38944               -0.1144359       -16.32975        -55.10253        14.37946             -200               0             -200               0
1.39604               -0.1178642        -16.4763        -55.06226        10.96697             -200               0             -200               0
1.40264               -0.1214384       -16.62421         -55.0244        7.707247             -200               0             -200               0
1.40924               -0.1251568       -16.77346        -54.98625        4.604603             -200               0             -200               0
1.41584               -0.1290155       -16.92403        -54.94479        1.661235             -200               0             -200               0
1.42244               -0.1330083        -17.0759         -54.8968       -1.123354             -200               0             -200               0
1.42904               -0.1371298       -17.22906        -54.83888       -3.752953             -200               0             -200               0
1.43564               -0.1413731       -17.38353        -54.76757       -6.235175             -200               0             -200               0
1.44224               -0.1457309       -17.53932        -54.67946       -8.581853             -200               0             -200               0
1.44884               -0.1501956       -17.69647        -54.57134       -10.80921             -200               0             -200               0
1.45545               -0.1547601       -17.85503        -54.44042        -12.9377             -200               0             -200               0
1.46205               -0.1594172       -18.01505        -54.28444       -14.99152             -200               0             -200               0
1.46865               -0.1641609        -18.1766        -54.10185        -16.9977             -200               0             -200               0
1.47525               -0.1689858       -18.33977        -53.89193       -18.98492             -200               0             -200               0
1.48185               -0.1738882       -18.50466        -53.65479       -20.98215             -200               0             -200               0
1.48845               -0.1788665       -18.67136         -53.3914       -23.01721             -200               0             -200               0
1.49505               -0.1839201          -18.84        -53.10349       -25.11549             -200               0             -200               0
1.50165               -0.1890517       -19.01068        -52.79338       -27.29893             -200               0             -200               0
1.50825               -0.1942642       -19.18355        -52.46387       -29.58536             -200               0             -200               0
1.51485               -0.1995642       -19.35872        -52.11803       -31.98822             -200               0             -200               0
1.52145               -0.2049603       -19.53632        -51.75901        -34.5166             -200               0             -200               0
1.52805                -0.210465       -19.71647        -51.38995       -37.17556             -200               0             -200               0
1.53465               -0.2160897        -19.8993        -51.01386       -39.96659             -200               0             -200               0
1.54125               -0.2218506       -20.08491         -50.6335       -42.88825             -200               0             -200               0
1.54785               -0.2277645       -20.27342        -50.25135       -45.93672             -200               0             -200               0
1.55446               -0.2338511        -20.4649        -49.86964       -49.10639             -200               0             -200               0
1.56106               -0.2401303       -20.65945        -49.49025       -52.39035             -200               0             -200               0
1.56766                -0.246624       -20.85714        -49.11481       -55.78088             -200               0             -200               0
1.57426                -0.253354       -21.05801        -48.74466        -59.2697             -200               0             -200               0
1.58086               -0.2603439       -21.26211        -48.38091       -62.84833             -200               0             -200               0
1.58746                -0.267615       -21.46946        -48.02444       -66.50826             -200               0             -200               0
1.59406               -0.2751909       -21.68007        -47.67594       -70.24107             -200               0             -200               0
1.60066               -0.2830929       -21.89394        -47.33595        -74.0386             -200               0             -200               0
1.60726               -0.2913412       -22.11105        -47.00484       -77.89299             -200               0             -200               0
1.61386               -0.2999563       -22.33137        -46.68287       -81.79667             -200               0             -200               0
1.62046               -0.3089553       -22.55487        -46.37018       -85.74246             -200               0             -200               0
1.62706               -0.3183527        -22.7815        -46.06683       -89.72354             -200               0             -200               0
1.63366                -0.328164       -23.01123        -45.77279       -93.73343             -200               0             -200               0
1.64026               -0.3383999       -23.24398        -45.48797       -97.76603             -200               0             -200               0
1.64686               -0.3490697       -23.47972         -45.2122       -101.8156             -200               0             -200               0
1.65347               -0.3601803        -23.7184        -44.94526       -105.8765             -200               0             -200               0
1.66007               -0.3717362       -23.95998        -44.68689       -109.9439             -200               0             -200               0
1.66667               -0.3837424       -24.20443        -44.43677       -114.0127             -200               0             -200               0
1.67327               -0.3961969       -24.45173        -44.19454       -118.0785             -200               0             -200               0
1.67987               -0.4091006       -24.70187         -43.9598        -122.137             -200               0             -200               0
1.68647               -0.4224519       -24.95486        -43.73211       -126.1842             -200               0             -200               0
1.69307               -0.4362466       -25.21074        -43.51098       -130.2165             -200               0             -200               0
1.69967               -0.4504844       -25.46956        -43.29591       -134.2305             -200               0             -200               0
1.70627               -0.4651587       -25.73137        -43.08634       -138.2232             -200               0             -200               0
1.71287               -0.4802689       -25.99628        -42.88168       -142.1918             -200               0             -200               0
1.71947               -0.4958131       -26.26439         -42.6813        -146.134             -200               0             -200               0
1.72607               -0.5117919       -26.53586        -42.48456       -150.0477             -200               0             -200               0
1.73267               -0.5282059       -26.81081        -42.29078       -153.9314             -200               0             -200               0
1.73927               -0.5450613       -27.08944        -42.09924       -157.7838             -200               0             -200               0
1.74587               -0.5623634       -27.37193        -41.90922       -161.6044             -200               0             -200               0
1.75248               -0.5801244        -27.6585        -41.71998       -165.3928             -200               0             -200               0
1.75908               -0.5983576       -27.94936        -41.53079       -169.1493             -200               0             -200               0
1.76568               -0.6170816       -28.24473        -41.34088       -172.8748             -200               0             -200               0
1.77228               -0.6363205       -28.54487        -41.14953       -176.5706             -200               0             -200               0
1.77888               -0.6561011       -28.85001        -40.95602        179.7613             -200               0             -200               0
1.78548               -0.6764538       -29.16039        -40.75967        176.1185             -200               0             -200               0
1.79208                -0.697415       -29.47625        -40.55984        172.4979             -200               0             -200               0
1.79868               -0.7190261       -29.79783        -40.35595         168.896             -200               0             -200               0
1.80528               -0.7413302       -30.12534        -40.14748        165.3089             -200               0             -200               0
1.81188               -0.7643783       -30.45901        -39.93398        161.7322             -200               0             -200               0
1.81848               -0.7882225       -30.79901         -39.7151        158.1611             -200               0             -200               0
1.82508               -0.8129181       -31.14554        -39.49056        154.5906             -200               0             -200               0
1.83168               -0.8385255       -31.49876         -39.2602        151.0156             -200               0             -200               0
1.83828               -0.8651064       -31.85879        -39.02394         147.431             -200               0             -200               0
1.84488               -0.8927257       -32.22578         -38.7818        143.8314             -200               0             -200               0
1.85149               -0.9214496        -32.5998        -38.53392        140.2118             -200               0             -200               0
