! TOUCHSTONE file generated by CST MICROWAVE STUDIO
! Date and time: Tue Mar 18 00:02:17 2025
! Project name: oblique.cst
! Parameters = {Tilt=40; Fracture=1; B=10; D=160; F=15; Feed=2.85625; L=100; M=30; R=0.384908; S=2; Theta=90; length=57.125; wave=114.25}
! Header version: 2024
! Port assignment regex: !\s*Touchstone port\s*([0-9]+)\s*=\s*(CST MWS port|CST DES external port|CST DES block port)\s*(.+)\s* \(\"(.*)\"\)(\s*mode\s*([0-9]+))?.*
! Touchstone port assignment:
! Touchstone port 1 = CST MWS port 1 ("")
! Touchstone port 2 = CST MWS port 2 ("")
# GHz S DB R 50
1                    -0.02148827       -9.784656        -66.01236        170.4471             -200               0             -200               0
1.00658              -0.02209849       -9.871197         -66.1111        164.6976             -200               0             -200               0
1.01316              -0.02269726       -9.958406        -66.24946        159.0651             -200               0             -200               0
1.01974              -0.02328617       -10.04633        -66.42971        153.5629             -200               0             -200               0
1.02632              -0.02387054         -10.135        -66.65453        148.2083             -200               0             -200               0
1.03289              -0.02445561       -10.22446        -66.92713         143.024             -200               0             -200               0
1.03947              -0.02504375       -10.31473        -67.25124        138.0397             -200               0             -200               0
1.04605              -0.02564199       -10.40586        -67.63122        133.2946             -200               0             -200               0
1.05263              -0.02625704       -10.49785        -68.07207        128.8409             -200               0             -200               0
1.05921              -0.02689425       -10.59073        -68.57931        124.7492             -200               0             -200               0
1.06579               -0.0275601       -10.68451        -69.15873        121.1162             -200               0             -200               0
1.07237               -0.0282623       -10.77918        -69.81558        118.0756             -200               0             -200               0
1.07895              -0.02900615       -10.87475        -70.55284        115.8136             -200               0             -200               0
1.08553              -0.02979764       -10.97121        -71.36734        114.5892             -200               0             -200               0
1.09211              -0.03064241       -11.06854        -72.24183        114.7523             -200               0             -200               0
1.09868              -0.03154515       -11.16673        -73.13014        116.7365             -200               0             -200               0
1.10526              -0.03251075       -11.26575        -73.93496        120.9591             -200               0             -200               0
1.11184              -0.03354056       -11.36558         -74.4932        127.5199             -200               0             -200               0
1.11842              -0.03463853       -11.46619        -74.61505        135.7353             -200               0             -200               0
1.125                -0.03580618       -11.56756        -74.20361        144.0578             -200               0             -200               0
1.13158              -0.03704397       -11.66964        -73.34013        150.8879             -200               0             -200               0
1.13816              -0.03834958       -11.77242        -72.21138        155.4504             -200               0             -200               0
1.14474               -0.0397241       -11.87587        -70.98586        157.7907             -200               0             -200               0
1.15132              -0.04116232       -11.97996        -69.76671        158.3133             -200               0             -200               0
1.15789              -0.04266362       -12.08468        -68.60376        157.4574             -200               0             -200               0
1.16447              -0.04422257       -12.19002        -67.51603        155.5829             -200               0             -200               0
1.17105              -0.04583432       -12.29596        -66.50738        152.9577             -200               0             -200               0
1.17763               -0.0474959       -12.40251        -65.57501        149.7752             -200               0             -200               0
1.18421              -0.04920031       -12.50966        -64.71352        146.1747             -200               0             -200               0
1.19079               -0.0509425       -12.61744        -63.91691        142.2571             -200               0             -200               0
1.19737              -0.05271765       -12.72586        -63.17934         138.097             -200               0             -200               0
1.20395              -0.05452065       -12.83494        -62.49549          133.75             -200               0             -200               0
1.21053              -0.05634614       -12.94473        -61.86063        129.2586             -200               0             -200               0
1.21711              -0.05819159       -13.05526        -61.27064        124.6557             -200               0             -200               0
1.22368              -0.06005393       -13.16657        -60.72194        119.9672             -200               0             -200               0
1.23026              -0.06192854       -13.27871         -60.2114         115.214             -200               0             -200               0
1.23684              -0.06381495       -13.39175        -59.73632        110.4132             -200               0             -200               0
1.24342              -0.06571263       -13.50573        -59.29436        105.5789             -200               0             -200               0
1.25                 -0.06762284       -13.62071        -58.88345        100.7233             -200               0             -200               0
1.25658              -0.06954639       -13.73676        -58.50181        95.85678             -200               0             -200               0
1.26316              -0.07148568       -13.85392        -58.14785        90.98852             -200               0             -200               0
1.26974              -0.07344677       -13.97226        -57.82018        86.12683             -200               0             -200               0
1.27632              -0.07543195       -14.09183        -57.51755        81.27932             -200               0             -200               0
1.28289              -0.07744811       -14.21267        -57.23885        76.45314             -200               0             -200               0
1.28947              -0.07950206       -14.33484        -56.98307         71.6551             -200               0             -200               0
1.29605              -0.08160048       -14.45837        -56.74928        66.89182             -200               0             -200               0
1.30263              -0.08375206        -14.5833        -56.53665        62.16984             -200               0             -200               0
1.30921              -0.08596298       -14.70964        -56.34437        57.49571             -200               0             -200               0
1.31579               -0.0882431       -14.83742        -56.17166        52.87608             -200               0             -200               0
1.32237              -0.09060003       -14.96665        -56.01777        48.31774             -200               0             -200               0
1.32895                -0.093041       -15.09733        -55.88195        43.82774             -200               0             -200               0
1.33553              -0.09557414       -15.22947        -55.76341        39.41334             -200               0             -200               0
1.34211              -0.09820618       -15.36305        -55.66134        35.08213             -200               0             -200               0
1.34868               -0.1009426       -15.49807        -55.57482          30.842             -200               0             -200               0
1.35526               -0.1037893        -15.6345         -55.5029        26.70118             -200               0             -200               0
1.36184               -0.1067497       -15.77233        -55.44445        22.66812             -200               0             -200               0
1.36842               -0.1098264       -15.91153        -55.39822        18.75151             -200               0             -200               0
1.375                 -0.1130242        -16.0521         -55.3628        14.96014             -200               0             -200               0
1.38158                 -0.11634       -16.19399        -55.33651         11.3027             -200               0             -200               0
1.38816               -0.1197759        -16.3372        -55.31748        7.787596             -200               0             -200               0
1.39474                -0.123329       -16.48172        -55.30352        4.422592             -200               0             -200               0
1.40132               -0.1269976       -16.62752        -55.29218        1.214419             -200               0             -200               0
1.40789               -0.1307777       -16.77461        -55.28068       -1.831725             -200               0             -200               0
1.41447               -0.1346649         -16.923        -55.26594       -4.712763             -200               0             -200               0
1.42105                -0.138656       -17.07269        -55.24462       -7.428389             -200               0             -200               0
1.42763               -0.1427436       -17.22371        -55.21316       -9.981731             -200               0             -200               0
1.43421               -0.1469246       -17.37609        -55.16791       -12.37998             -200               0             -200               0
1.44079               -0.1511904       -17.52987        -55.10524       -14.63486             -200               0             -200               0
1.44737               -0.1555402        -17.6851        -55.02173       -16.76288             -200               0             -200               0
1.45395               -0.1599661       -17.84184        -54.91433       -18.78521             -200               0             -200               0
1.46053               -0.1644642       -18.00016        -54.78059       -20.72721             -200               0             -200               0
1.46711               -0.1690347       -18.16015         -54.6188       -22.61745             -200               0             -200               0
1.47368               -0.1736736       -18.32188        -54.42814       -24.48643             -200               0             -200               0
1.48026               -0.1783792       -18.48546        -54.20872       -26.36507             -200               0             -200               0
1.48684               -0.1831561       -18.65098        -53.96158        -28.2831             -200               0             -200               0
1.49342                -0.188004       -18.81855        -53.68855       -30.26761             -200               0             -200               0
1.5                   -0.1929299       -18.98827        -53.39217       -32.34195             -200               0             -200               0
1.50658               -0.1979367       -19.16026        -53.07546       -34.52498             -200               0             -200               0
1.51316               -0.2030344       -19.33462        -52.74171       -36.83071             -200               0             -200               0
1.51974               -0.2082331       -19.51146        -52.39433       -39.26846             -200               0             -200               0
1.52632               -0.2135421       -19.69087         -52.0367       -41.84315             -200               0             -200               0
1.53289               -0.2189756       -19.87296        -51.67199       -44.55592             -200               0             -200               0
1.53947               -0.2245455       -20.05782        -51.30316       -47.40474             -200               0             -200               0
1.54605               -0.2302695       -20.24554        -50.93283       -50.38509             -200               0             -200               0
1.55263               -0.2361632       -20.43617        -50.56332        -53.4906             -200               0             -200               0
1.55921               -0.2422428       -20.62981        -50.19662       -56.71359             -200               0             -200               0
1.56579               -0.2485263       -20.82649        -49.83441       -60.04552             -200               0             -200               0
1.57237               -0.2550317       -21.02627        -49.47807       -63.47738             -200               0             -200               0
1.57895               -0.2617771       -21.22918        -49.12875       -66.99995             -200               0             -200               0
1.58553               -0.2687787       -21.43525        -48.78733       -70.60401             -200               0             -200               0
1.59211               -0.2760547       -21.64451        -48.45452       -74.28053             -200               0             -200               0
1.59868               -0.2836223       -21.85696        -48.13085       -78.02071             -200               0             -200               0
1.60526               -0.2914953       -22.07261        -47.81668       -81.81609             -200               0             -200               0
1.61184               -0.2996891       -22.29146        -47.51227       -85.65857             -200               0             -200               0
1.61842                -0.308218       -22.51351        -47.21773        -89.5404             -200               0             -200               0
1.625                 -0.3170918       -22.73875        -46.93311       -93.45425             -200               0             -200               0
1.63158               -0.3263238       -22.96717        -46.65835        -97.3931             -200               0             -200               0
1.63816               -0.3359211       -23.19878        -46.39332       -101.3503             -200               0             -200               0
1.64474               -0.3458933       -23.43358        -46.13783       -105.3197             -200               0             -200               0
1.65132               -0.3562467       -23.67157        -45.89162       -109.2951             -200               0             -200               0
1.65789               -0.3669868       -23.91276        -45.65437       -113.2711             -200               0             -200               0
1.66447               -0.3781184       -24.15718        -45.42572       -117.2421             -200               0             -200               0
1.67105               -0.3896463       -24.40487        -45.20524       -121.2032             -200               0             -200               0
1.67763               -0.4015738       -24.65587        -44.99246       -125.1496             -200               0             -200               0
1.68421               -0.4139044       -24.91023        -44.78685       -129.0769             -200               0             -200               0
1.69079               -0.4266413       -25.16804        -44.58785       -132.9809             -200               0             -200               0
1.69737                -0.439789       -25.42937        -44.39484       -136.8577             -200               0             -200               0
1.70395                -0.453352       -25.69434        -44.20713        -140.704             -200               0             -200               0
1.71053               -0.4673357       -25.96306        -44.02402       -144.5167             -200               0             -200               0
1.71711                -0.481748       -26.23565        -43.84472        -148.293             -200               0             -200               0
1.72368               -0.4965965       -26.51228        -43.66844        -152.031             -200               0             -200               0
1.73026               -0.5118934       -26.79308        -43.49432       -155.7288             -200               0             -200               0
1.73684               -0.5276519       -27.07824        -43.32148       -159.3853             -200               0             -200               0
1.74342               -0.5438876       -27.36793        -43.14899       -163.0002             -200               0             -200               0
1.75                  -0.5606192       -27.66234        -42.97593       -166.5735             -200               0             -200               0
1.75658               -0.5778689       -27.96166        -42.80136       -170.1062             -200               0             -200               0
1.76316               -0.5956596        -28.2661        -42.62433       -173.5998             -200               0             -200               0
1.76974               -0.6140208       -28.57585        -42.44394       -177.0568             -200               0             -200               0
1.77632               -0.6329819       -28.89112         -42.2593        179.5198             -200               0             -200               0
1.78289               -0.6525797       -29.21211        -42.06959        176.1259             -200               0             -200               0
1.78947               -0.6728508       -29.53902        -41.87405        172.7571             -200               0             -200               0
1.79605               -0.6938356       -29.87205        -41.67202         169.408             -200               0             -200               0
1.80263               -0.7155781       -30.21138        -41.46295        166.0728             -200               0             -200               0
1.80921               -0.7381252        -30.5572        -41.24638        162.7452             -200               0             -200               0
1.81579               -0.7615259       -30.90967        -41.02201        159.4186             -200               0             -200               0
1.82237               -0.7858341       -31.26897        -40.78966        156.0861             -200               0             -200               0
1.82895               -0.8111034       -31.63525        -40.54931        152.7408             -200               0             -200               0
1.83553               -0.8373899       -32.00864        -40.30103         149.376             -200               0             -200               0
1.84211               -0.8647542        -32.3893        -40.04508         145.985             -200               0             -200               0
1.84868               -0.8932569       -32.77733        -39.78181        142.5617             -200               0             -200               0
