! TOUCHSTONE file generated by CST MICROWAVE STUDIO
! Date and time: Tue Mar 18 00:02:05 2025
! Project name: oblique.cst
! Parameters = {Tilt=40; Fracture=1; B=10; D=160; F=5; Feed=2.85625; L=100; M=50; R=0.384908; S=1; Theta=180; length=57.125; wave=114.25}
! Header version: 2024
! Port assignment regex: !\s*Touchstone port\s*([0-9]+)\s*=\s*(CST MWS port|CST DES external port|CST DES block port)\s*(.+)\s* \(\"(.*)\"\)(\s*mode\s*([0-9]+))?.*
! Touchstone port assignment:
! Touchstone port 1 = CST MWS port 1 ("")
! Touchstone port 2 = CST MWS port 2 ("")
# GHz S DB R 50
1                    -0.02192339       -9.788299        -66.99344        169.7789             -200               0             -200               0
1.0066               -0.02260785       -9.875254         -66.9662        164.3091             -200               0             -200               0
1.0132               -0.02329076       -9.962858        -66.96959        158.9391             -200               0             -200               0
1.0198               -0.02397548       -10.05115        -67.00406        153.6778             -200               0             -200               0
1.0264               -0.02466397       -10.14014        -67.07017        148.5363             -200               0             -200               0
1.033                -0.02536171       -10.22989        -67.16862         143.528             -200               0             -200               0
1.0396               -0.02607289       -10.32039        -67.30016        138.6693             -200               0             -200               0
1.0462               -0.02680166       -10.41169        -67.46564        133.9802             -200               0             -200               0
1.05281              -0.02755448       -10.50378        -67.66587        129.4853             -200               0             -200               0
1.05941              -0.02833531       -10.59669        -67.90154        125.2143             -200               0             -200               0
1.06601              -0.02915133       -10.69041        -68.17309        121.2038             -200               0             -200               0
1.07261              -0.03000631       -10.78495        -68.48047        117.4983             -200               0             -200               0
1.07921              -0.03090621       -10.88029        -68.82272        114.1519             -200               0             -200               0
1.08581               -0.0318545       -10.97644        -69.19743        111.2299             -200               0             -200               0
1.09241               -0.0328569       -11.07337        -69.59989        108.8093             -200               0             -200               0
1.09901              -0.03391605       -11.17107        -70.02186        106.9778             -200               0             -200               0
1.10561              -0.03503479       -11.26951        -70.44999        105.8298             -200               0             -200               0
1.11221              -0.03621547       -11.36868        -70.86398        105.4539             -200               0             -200               0
1.11881              -0.03745943       -11.46854        -71.23517        105.9124             -200               0             -200               0
1.12541               -0.0387665       -11.56908        -71.52669        107.2066             -200               0             -200               0
1.13201              -0.04013649       -11.67027        -71.69733        109.2384             -200               0             -200               0
1.13861              -0.04156911       -11.77209        -71.70992        111.7851             -200               0             -200               0
1.14521              -0.04306101       -11.87451        -71.54251        114.5163             -200               0             -200               0
1.15182              -0.04460969       -11.97752        -71.19649        117.0615             -200               0             -200               0
1.15842              -0.04621198       -12.08111        -70.69597        119.1005             -200               0             -200               0
1.16502              -0.04786403       -12.18527        -70.07898        120.4258             -200               0             -200               0
1.17162              -0.04956038          -12.29        -69.38643        120.9532             -200               0             -200               0
1.17822              -0.05129724        -12.3953         -68.6541        120.6939             -200               0             -200               0
1.18482               -0.0530692       -12.50118        -67.90944        119.7152             -200               0             -200               0
1.19142              -0.05487211       -12.60765        -67.17165        118.1084             -200               0             -200               0
1.19802               -0.0566995       -12.71474        -66.45316         115.968             -200               0             -200               0
1.20462              -0.05854838       -12.82248         -65.7615        113.3818             -200               0             -200               0
1.21122              -0.06041386       -12.93089        -65.10081        110.4266             -200               0             -200               0
1.21782              -0.06229251       -13.04002        -64.47305        107.1674             -200               0             -200               0
1.22442              -0.06418166       -13.14991        -63.87877        103.6586             -200               0             -200               0
1.23102              -0.06607846       -13.26062        -63.31766        99.94555             -200               0             -200               0
1.23762               -0.0679816       -13.37218        -62.78895        96.06559             -200               0             -200               0
1.24422              -0.06989111       -13.48465        -62.29155        92.04999             -200               0             -200               0
1.25083              -0.07180636       -13.59809        -61.82429        87.92492             -200               0             -200               0
1.25743              -0.07373094       -13.71256        -61.38593         83.7125             -200               0             -200               0
1.26403              -0.07566479        -13.8281        -60.97527        79.43159             -200               0             -200               0
1.27063              -0.07761296       -13.94477        -60.59111        75.09848             -200               0             -200               0
1.27723              -0.07957918       -14.06262        -60.23236        70.72738             -200               0             -200               0
1.28383              -0.08156661       -14.18169        -59.89796        66.33088             -200               0             -200               0
1.29043              -0.08358326       -14.30203        -59.58692        61.92029             -200               0             -200               0
1.29703              -0.08563317       -14.42368        -59.29831        57.50588             -200               0             -200               0
1.30363              -0.08772253       -14.54667        -59.03124        53.09718             -200               0             -200               0
1.31023              -0.08985995       -14.67102        -58.78489        48.70308             -200               0             -200               0
1.31683              -0.09205035       -14.79676        -58.55843        44.33208             -200               0             -200               0
1.32343              -0.09430115       -14.92391        -58.35109        39.99237             -200               0             -200               0
1.33003              -0.09661834       -15.05248        -58.16208        35.69193             -200               0             -200               0
1.33663              -0.09900792       -15.18248        -57.99062        31.43861             -200               0             -200               0
1.34323               -0.1014758        -15.3139        -57.83591        27.24026             -200               0             -200               0
1.34984               -0.1040273       -15.44674        -57.69709        23.10473             -200               0             -200               0
1.35644               -0.1066663       -15.58102        -57.57328        19.03988             -200               0             -200               0
1.36304               -0.1093968       -15.71671         -57.4635        15.05364             -200               0             -200               0
1.36964               -0.1122212       -15.85382         -57.3667        11.15398             -200               0             -200               0
1.37624               -0.1151407       -15.99233        -57.28167        7.348821             -200               0             -200               0
1.38284               -0.1181579       -16.13225        -57.20711        3.646023             -200               0             -200               0
1.38944               -0.1212721       -16.27357        -57.14153      0.05320071             -200               0             -200               0
1.39604               -0.1244831       -16.41629        -57.08327       -3.422421             -200               0             -200               0
1.40264               -0.1277894       -16.56042        -57.03045       -6.774241             -200               0             -200               0
1.40924               -0.1311896       -16.70598        -56.98099       -9.996569             -200               0             -200               0
1.41584               -0.1346808       -16.85296        -56.93258       -13.08498             -200               0             -200               0
1.42244               -0.1382622       -17.00142         -56.8827       -16.03669             -200               0             -200               0
1.42904               -0.1419297       -17.15136        -56.82863       -18.85104             -200               0             -200               0
1.43564               -0.1456817       -17.30284        -56.76752       -21.52988             -200               0             -200               0
1.44224               -0.1495143        -17.4559        -56.69641       -24.07807             -200               0             -200               0
1.44884               -0.1534279       -17.61058        -56.61236       -26.50376             -200               0             -200               0
1.45545               -0.1574192       -17.76696        -56.51254       -28.81862             -200               0             -200               0
1.46205                -0.161488       -17.92509        -56.39437       -31.03782             -200               0             -200               0
1.46865                -0.165635       -18.08505        -56.25564       -33.17982             -200               0             -200               0
1.47525               -0.1698605       -18.24693        -56.09464       -35.26582             -200               0             -200               0
1.48185               -0.1741684       -18.41079        -55.91026         -37.319             -200               0             -200               0
1.48845               -0.1785605       -18.57674        -55.70208       -39.36357             -200               0             -200               0
1.49505                -0.183043       -18.74485        -55.47033        -41.4237             -200               0             -200               0
1.50165               -0.1876216       -18.91521        -55.21593        -43.5224             -200               0             -200               0
1.50825               -0.1923035       -19.08792        -54.94041       -45.68063             -200               0             -200               0
1.51485               -0.1970984       -19.26305        -54.64575       -47.91654             -200               0             -200               0
1.52145               -0.2020153        -19.4407         -54.3343       -50.24498             -200               0             -200               0
1.52805                -0.207066       -19.62094        -54.00864       -52.67725             -200               0             -200               0
1.53465               -0.2122614       -19.80385        -53.67144       -55.22116             -200               0             -200               0
1.54125               -0.2176172        -19.9895        -53.32536       -57.88127             -200               0             -200               0
1.54785               -0.2231457       -20.17794        -52.97295       -60.65919             -200               0             -200               0
1.55446               -0.2288619       -20.36925        -52.61659       -63.55405             -200               0             -200               0
1.56106               -0.2347796       -20.56347        -52.25846       -66.56294             -200               0             -200               0
1.56766               -0.2409148       -20.76063        -51.90052       -69.68139             -200               0             -200               0
1.57426               -0.2472817       -20.96078        -51.54445       -72.90369             -200               0             -200               0
1.58086                -0.253896       -21.16395        -51.19172       -76.22334             -200               0             -200               0
1.58746               -0.2607717       -21.37015        -50.84358       -79.63328             -200               0             -200               0
1.59406               -0.2679219        -21.5794        -50.50106       -83.12615             -200               0             -200               0
1.60066               -0.2753607       -21.79172          -50.165       -86.69446             -200               0             -200               0
1.60726               -0.2830996       -22.00712        -49.83607       -90.33075             -200               0             -200               0
1.61386               -0.2911513        -22.2256        -49.51479       -94.02766             -200               0             -200               0
1.62046               -0.2995246       -22.44717        -49.20155       -97.77806             -200               0             -200               0
1.62706               -0.3082296       -22.67185        -48.89663        -101.575             -200               0             -200               0
1.63366               -0.3172745       -22.89963        -48.60018       -105.4119             -200               0             -200               0
1.64026               -0.3266673       -23.13055         -48.3123       -109.2823             -200               0             -200               0
1.64686                -0.336414       -23.36461        -48.03297       -113.1803             -200               0             -200               0
1.65347               -0.3465199       -23.60185        -47.76213          -117.1             -200               0             -200               0
1.66007               -0.3569924       -23.84231        -47.49964       -121.0359             -200               0             -200               0
1.66667               -0.3678344       -24.08603        -47.24531        -124.983             -200               0             -200               0
1.67327               -0.3790517       -24.33307        -46.99889       -128.9361             -200               0             -200               0
1.67987               -0.3906487        -24.5835        -46.76009       -132.8908             -200               0             -200               0
1.68647               -0.4026309        -24.8374        -46.52858       -136.8427             -200               0             -200               0
1.69307               -0.4150028       -25.09485        -46.30396       -140.7877             -200               0             -200               0
1.69967               -0.4277724       -25.35598        -46.08582       -144.7219             -200               0             -200               0
1.70627               -0.4409466        -25.6209         -45.8737       -148.6419             -200               0             -200               0
1.71287                -0.454535       -25.88974        -45.66708       -152.5444             -200               0             -200               0
1.71947               -0.4685489       -26.16263        -45.46544       -156.4266             -200               0             -200               0
1.72607               -0.4830012       -26.43975        -45.26819       -160.2858             -200               0             -200               0
1.73267                -0.497906       -26.72123        -45.07473       -164.1198             -200               0             -200               0
1.73927               -0.5132827       -27.00726        -44.88442       -167.9269             -200               0             -200               0
1.74587               -0.5291499       -27.29802         -44.6966       -171.7055             -200               0             -200               0
1.75248               -0.5455331       -27.59367        -44.51058       -175.4547             -200               0             -200               0
1.75908               -0.5624569       -27.89441        -44.32565       -179.1738             -200               0             -200               0
1.76568               -0.5799516       -28.20043        -44.14111        177.1371             -200               0             -200               0
1.77228               -0.5980468       -28.51189        -43.95621        173.4776             -200               0             -200               0
1.77888               -0.6167799         -28.829        -43.77027        169.8467             -200               0             -200               0
1.78548               -0.6361889       -29.15193        -43.58256        166.2429             -200               0             -200               0
1.79208               -0.6563131       -29.48084        -43.39241        162.6642             -200               0             -200               0
1.79868               -0.6771995       -29.81591        -43.19918         159.108             -200               0             -200               0
1.80528               -0.6988923       -30.15729        -43.00228        155.5711             -200               0             -200               0
1.81188               -0.7214419       -30.50513        -42.80116          152.05             -200               0             -200               0
1.81848               -0.7448995       -30.85957        -42.59536        148.5408             -200               0             -200               0
1.82508               -0.7693187       -31.22073        -42.38446         145.039             -200               0             -200               0
1.83168               -0.7947567       -31.58873        -42.16818          141.54             -200               0             -200               0
1.83828               -0.8212708       -31.96367        -41.94627        138.0389             -200               0             -200               0
1.84488               -0.8489205       -32.34564        -41.71862        134.5307             -200               0             -200               0
1.85149               -0.8777679       -32.73473        -41.48519        131.0104             -200               0             -200               0
