! TOUCHSTONE file generated by CST MICROWAVE STUDIO
! Date and time: Tue Mar 18 00:01:00 2025
! Project name: oblique.cst
! Parameters = {Tilt=30; Fracture=1; B=10; D=160; F=15; Feed=2.85625; L=100; M=50; R=0.384908; S=2; Theta=270; length=57.125; wave=114.25}
! Header version: 2024
! Port assignment regex: !\s*Touchstone port\s*([0-9]+)\s*=\s*(CST MWS port|CST DES external port|CST DES block port)\s*(.+)\s* \(\"(.*)\"\)(\s*mode\s*([0-9]+))?.*
! Touchstone port assignment:
! Touchstone port 1 = CST MWS port 1 ("")
! Touchstone port 2 = CST MWS port 2 ("")
# GHz S DB R 50
1                    -0.02072876       -9.802712        -67.63274         162.088             -200               0             -200               0
1.0066               -0.02148494       -9.890262        -67.58649        156.3939             -200               0             -200               0
1.0132               -0.02224479       -9.978335         -67.5711        150.7962             -200               0             -200               0
1.0198               -0.02300661       -10.06696        -67.58699        145.3021             -200               0             -200               0
1.0264               -0.02377036       -10.15617        -67.63476        139.9207             -200               0             -200               0
1.033                -0.02453676       -10.24599        -67.71515        134.6633             -200               0             -200               0
1.0396               -0.02530508       -10.33646        -67.82901        129.5442             -200               0             -200               0
1.0462               -0.02607768        -10.4276        -67.97732        124.5807             -200               0             -200               0
1.05281              -0.02685632       -10.51946        -68.16114        119.7942             -200               0             -200               0
1.05941              -0.02764285       -10.61206        -68.38152         115.211             -200               0             -200               0
1.06601              -0.02844065       -10.70543        -68.63944        110.8638             -200               0             -200               0
1.07261              -0.02925329       -10.79959        -68.93561        106.7929             -200               0             -200               0
1.07921              -0.03008471       -10.89457         -69.2702        103.0479             -200               0             -200               0
1.08581              -0.03093911       -10.99039         -69.6424        99.69003             -200               0             -200               0
1.09241              -0.03182125       -11.08706        -70.04972        96.79391             -200               0             -200               0
1.09901              -0.03273549       -11.18461        -70.48696        94.44871             -200               0             -200               0
1.10561              -0.03368578       -11.28302        -70.94464        92.75724             -200               0             -200               0
1.11221              -0.03467779       -11.38231        -71.40693        91.82999             -200               0             -200               0
1.11881              -0.03571465       -11.48247         -71.8493        91.76989             -200               0             -200               0
1.12541              -0.03680215       -11.58351        -72.23672        92.64265             -200               0             -200               0
1.13201              -0.03794221        -11.6854        -72.52451        94.43116             -200               0             -200               0
1.13861              -0.03913986       -11.78815        -72.66434        96.98582             -200               0             -200               0
1.14521              -0.04039591       -11.89175        -72.61659        100.0027             -200               0             -200               0
1.15182              -0.04171294       -11.99616         -72.3645        103.0661             -200               0             -200               0
1.15842              -0.04309366       -12.10139         -71.9212        105.7532             -200               0             -200               0
1.16502               -0.0445364       -12.20741         -71.3241         107.743             -200               0             -200               0
1.17162              -0.04604215       -12.31421        -70.62102        108.8681             -200               0             -200               0
1.17822              -0.04761026       -12.42178        -69.85734        109.0983             -200               0             -200               0
1.18482              -0.04923965        -12.5301        -69.06916        108.4925             -200               0             -200               0
1.19142              -0.05092786       -12.63918        -68.28198        107.1518             -200               0             -200               0
1.19802              -0.05267189       -12.74899        -67.51233        105.1876             -200               0             -200               0
1.20462              -0.05446962       -12.85956         -66.7701        102.7048             -200               0             -200               0
1.21122              -0.05631762       -12.97087        -66.06067        99.79541             -200               0             -200               0
1.21782              -0.05821081       -13.08295        -65.38654        96.53692             -200               0             -200               0
1.22442              -0.06014858        -13.1958         -64.7484        92.99331             -200               0             -200               0
1.23102              -0.06212694       -13.30945        -64.14589        89.21705             -200               0             -200               0
1.23762              -0.06413999       -13.42393        -63.57802         85.2511             -200               0             -200               0
1.24422              -0.06618746       -13.53927        -63.04351        81.13076             -200               0             -200               0
1.25083              -0.06826579       -13.65551        -62.54095        76.88517             -200               0             -200               0
1.25743              -0.07037375       -13.77268        -62.06888        72.53858             -200               0             -200               0
1.26403               -0.0725099       -13.89085        -61.62587         68.1114             -200               0             -200               0
1.27063              -0.07467422       -14.01006        -61.21059        63.62094             -200               0             -200               0
1.27723              -0.07686714       -14.13035        -60.82175        59.08209             -200               0             -200               0
1.28383              -0.07908947       -14.25179        -60.45817        54.50778             -200               0             -200               0
1.29043              -0.08134411       -14.37442        -60.11875        49.90944             -200               0             -200               0
1.29703              -0.08363534       -14.49831        -59.80247        45.29727             -200               0             -200               0
1.30363              -0.08596618       -14.62351        -59.50838        40.68052             -200               0             -200               0
1.31023               -0.0883426       -14.75006         -59.2356        36.06771             -200               0             -200               0
1.31683              -0.09076966       -14.87801        -58.98331        31.46681             -200               0             -200               0
1.32343              -0.09325689       -15.00741        -58.75071        26.88534             -200               0             -200               0
1.33003              -0.09580813       -15.13829        -58.53707        22.33056             -200               0             -200               0
1.33663              -0.09843364       -15.27069        -58.34166        17.80952             -200               0             -200               0
1.34323               -0.1011398       -15.40463        -58.16374        13.32915             -200               0             -200               0
1.34984               -0.1039379       -15.54014        -58.00263        8.896333             -200               0             -200               0
1.35644                -0.106834       -15.67723        -57.85756        4.517982             -200               0             -200               0
1.36304               -0.1098358       -15.81591        -57.72779       0.2010413             -200               0             -200               0
1.36964               -0.1129541       -15.95618        -57.61249       -4.047468             -200               0             -200               0
1.37624               -0.1161959       -16.09804         -57.5108       -8.220445             -200               0             -200               0
1.38284               -0.1195662       -16.24149        -57.42177       -12.31072             -200               0             -200               0
1.38944               -0.1230738       -16.38651        -57.34433        -16.3111             -200               0             -200               0
1.39604               -0.1267229       -16.53309        -57.27732       -20.21443             -200               0             -200               0
1.40264               -0.1305194       -16.68121        -57.21942       -24.01367             -200               0             -200               0
1.40924               -0.1344659       -16.83087        -57.16915        -27.7021             -200               0             -200               0
1.41584               -0.1385658       -16.98203        -57.12485       -31.27342             -200               0             -200               0
1.42244               -0.1428212       -17.13469        -57.08469       -34.72205             -200               0             -200               0
1.42904               -0.1472327       -17.28883        -57.04661       -38.04341             -200               0             -200               0
1.43564               -0.1517995       -17.44444        -57.00836       -41.23422             -200               0             -200               0
1.44224               -0.1565243       -17.60152         -56.9675       -44.29291             -200               0             -200               0
1.44884               -0.1614013       -17.76008        -56.92144       -47.22004             -200               0             -200               0
1.45545                -0.166433        -17.9201        -56.86747       -50.01862             -200               0             -200               0
1.46205               -0.1716139       -18.08162        -56.80284       -52.69456             -200               0             -200               0
1.46865               -0.1769439       -18.24465        -56.72484       -55.25684             -200               0             -200               0
1.47525               -0.1824196       -18.40922        -56.63091       -57.71769             -200               0             -200               0
1.48185               -0.1880388       -18.57537        -56.51876       -60.09247             -200               0             -200               0
1.48845               -0.1937993       -18.74315        -56.38649       -62.39939             -200               0             -200               0
1.49505               -0.1997021       -18.91261        -56.23267       -64.65894             -200               0             -200               0
1.50165               -0.2057459       -19.08381        -56.05647       -66.89319             -200               0             -200               0
1.50825               -0.2119299       -19.25681        -55.85765       -69.12485             -200               0             -200               0
1.51485               -0.2182567       -19.43169        -55.63662       -71.37633             -200               0             -200               0
1.52145               -0.2247299       -19.60852        -55.39437       -73.66877             -200               0             -200               0
1.52805                -0.231353       -19.78739        -55.13242       -76.02128             -200               0             -200               0
1.53465                -0.238131       -19.96836        -54.85271       -78.45029             -200               0             -200               0
1.54125               -0.2450726       -20.15154        -54.55749       -80.96914             -200               0             -200               0
1.54785               -0.2521849       -20.33699        -54.24918       -83.58798             -200               0             -200               0
1.55446               -0.2594776       -20.52479        -53.93028       -86.31374             -200               0             -200               0
1.56106               -0.2669626       -20.71501         -53.6033       -89.15043             -200               0             -200               0
1.56766               -0.2746515       -20.90773        -53.27059       -92.09937             -200               0             -200               0
1.57426               -0.2825565       -21.10301         -52.9344       -95.15967             -200               0             -200               0
1.58086               -0.2906933       -21.30091        -52.59676       -98.32857             -200               0             -200               0
1.58746               -0.2990758       -21.50147         -52.2595       -101.6019             -200               0             -200               0
1.59406               -0.3077184       -21.70474        -51.92421       -104.9743             -200               0             -200               0
1.60066                -0.316637       -21.91074         -51.5923       -108.4397             -200               0             -200               0
1.60726               -0.3258476       -22.11951        -51.26494       -111.9916             -200               0             -200               0
1.61386               -0.3353645       -22.33107        -50.94312        -115.623             -200               0             -200               0
1.62046               -0.3452022       -22.54541        -50.62767        -119.327             -200               0             -200               0
1.62706               -0.3553753       -22.76254        -50.31924       -123.0964             -200               0             -200               0
1.63366               -0.3658967       -22.98247        -50.01835       -126.9243             -200               0             -200               0
1.64026               -0.3767775       -23.20518         -49.7254        -130.804             -200               0             -200               0
1.64686               -0.3880297       -23.43066        -49.44067       -134.7289             -200               0             -200               0
1.65347               -0.3996636       -23.65892        -49.16436       -138.6926             -200               0             -200               0
1.66007                -0.411687       -23.88994        -48.89656       -142.6889             -200               0             -200               0
1.66667               -0.4241067        -24.1237        -48.63732       -146.7121             -200               0             -200               0
1.67327               -0.4369289       -24.36021        -48.38657       -150.7565             -200               0             -200               0
1.67987               -0.4501584       -24.59948        -48.14424       -154.8168             -200               0             -200               0
1.68647               -0.4637994       -24.84151        -47.91016       -158.8878             -200               0             -200               0
1.69307               -0.4778532       -25.08634        -47.68413       -162.9647             -200               0             -200               0
1.69967               -0.4923239       -25.33398        -47.46589       -167.0428             -200               0             -200               0
1.70627               -0.5072135        -25.5845        -47.25515       -171.1178             -200               0             -200               0
1.71287               -0.5225228       -25.83794        -47.05157       -175.1855             -200               0             -200               0
1.71947               -0.5382547       -26.09439        -46.85475        -179.242             -200               0             -200               0
1.72607               -0.5544105       -26.35393        -46.66428        176.7165             -200               0             -200               0
1.73267               -0.5709957       -26.61667        -46.47969        172.6934             -200               0             -200               0
1.73927               -0.5880132       -26.88271        -46.30047        168.6918             -200               0             -200               0
1.74587               -0.6054709       -27.15221        -46.12607        164.7145             -200               0             -200               0
1.75248               -0.6233762        -27.4253        -45.95592        160.7643             -200               0             -200               0
1.75908               -0.6417399       -27.70214        -45.78939        156.8432             -200               0             -200               0
1.76568               -0.6605772        -27.9829        -45.62582        152.9532             -200               0             -200               0
1.77228               -0.6799014       -28.26775        -45.46454        149.0957             -200               0             -200               0
1.77888               -0.6997335       -28.55688        -45.30482        145.2717             -200               0             -200               0
1.78548               -0.7200926       -28.85047        -45.14593        141.4819             -200               0             -200               0
1.79208               -0.7410079       -29.14872        -44.98712        137.7262             -200               0             -200               0
1.79868               -0.7625059       -29.45181        -44.82762        134.0042             -200               0             -200               0
1.80528               -0.7846183       -29.75992        -44.66669        130.3149             -200               0             -200               0
1.81188                -0.807381       -30.07324        -44.50356        126.6565             -200               0             -200               0
1.81848               -0.8308312       -30.39195        -44.33751         123.027             -200               0             -200               0
1.82508               -0.8550098       -30.71621        -44.16785        119.4236             -200               0             -200               0
1.83168               -0.8799608       -31.04616        -43.99394        115.8429             -200               0             -200               0
1.83828               -0.9057303       -31.38196        -43.81518         112.281             -200               0             -200               0
1.84488               -0.9323656       -31.72373        -43.63106        108.7336             -200               0             -200               0
1.85149                -0.959917       -32.07159        -43.44115        105.1959             -200               0             -200               0
