! TOUCHSTONE file generated by CST MICROWAVE STUDIO
! Date and time: Tue Mar 18 00:02:12 2025
! Project name: oblique.cst
! Parameters = {Tilt=40; Fracture=1; B=10; D=160; F=15; Feed=2.85625; L=100; M=10; R=0.384908; S=1; Theta=270; length=57.125; wave=114.25}
! Header version: 2024
! Port assignment regex: !\s*Touchstone port\s*([0-9]+)\s*=\s*(CST MWS port|CST DES external port|CST DES block port)\s*(.+)\s* \(\"(.*)\"\)(\s*mode\s*([0-9]+))?.*
! Touchstone port assignment:
! Touchstone port 1 = CST MWS port 1 ("")
! Touchstone port 2 = CST MWS port 2 ("")
# GHz S DB R 50
1                    -0.01847004       -9.796165        -69.38129       -139.8884             -200               0             -200               0
1.00662              -0.01932702       -9.885689        -69.12721       -144.3116             -200               0             -200               0
1.01325               -0.0202336       -9.975522        -68.90744       -148.6835             -200               0             -200               0
1.01987              -0.02118347       -10.06564        -68.72094         -152.99             -200               0             -200               0
1.02649              -0.02216739       -10.15602        -68.56676       -157.2163             -200               0             -200               0
1.03311              -0.02317692       -10.24667        -68.44406       -161.3468             -200               0             -200               0
1.03974              -0.02420321        -10.3376        -68.35199       -165.3645             -200               0             -200               0
1.04636              -0.02523671       -10.42881        -68.28964       -169.2509             -200               0             -200               0
1.05298              -0.02626894       -10.52034        -68.25599       -172.9855             -200               0             -200               0
1.0596               -0.02729121       -10.61223        -68.24978       -176.5456             -200               0             -200               0
1.06623              -0.02829706       -10.70453         -68.2694       -179.9058             -200               0             -200               0
1.07285              -0.02927918        -10.7973         -68.3127        176.9615             -200               0             -200               0
1.07947              -0.03023477        -10.8906        -68.37681        174.0868             -200               0             -200               0
1.08609              -0.03115815       -10.98451        -68.45787        171.5024             -200               0             -200               0
1.09272              -0.03204972        -11.0791        -68.55078        169.2415             -200               0             -200               0
1.09934              -0.03290818       -11.17446        -68.64882        167.3364             -200               0             -200               0
1.10596              -0.03373538       -11.27065        -68.74344        165.8152             -200               0             -200               0
1.11258              -0.03453611       -11.36776        -68.82405        164.6972             -200               0             -200               0
1.11921              -0.03531391       -11.46586        -68.87813        163.9872             -200               0             -200               0
1.12583              -0.03607742       -11.56502        -68.89177        163.6688             -200               0             -200               0
1.13245              -0.03683407       -11.66531         -68.8507        163.6981             -200               0             -200               0
1.13907              -0.03759344       -11.76676        -68.74194        164.0011             -200               0             -200               0
1.1457               -0.03836603       -11.86944        -68.55572         164.476             -200               0             -200               0
1.15232              -0.03916267       -11.97337         -68.2872        165.0023             -200               0             -200               0
1.15894              -0.03999694       -12.07857        -67.93737        165.4547             -200               0             -200               0
1.16556              -0.04087793       -12.18504        -67.51279        165.7187             -200               0             -200               0
1.17219              -0.04181949        -12.2928        -67.02433        165.7032             -200               0             -200               0
1.17881              -0.04283184       -12.40182        -66.48525        165.3465             -200               0             -200               0
1.18543                -0.043925       -12.51208        -65.90938        164.6166             -200               0             -200               0
1.19205              -0.04510882       -12.62354        -65.30968        163.5064             -200               0             -200               0
1.19868              -0.04639135       -12.73616        -64.69741        162.0275             -200               0             -200               0
1.2053               -0.04777834        -12.8499        -64.08179        160.2034             -200               0             -200               0
1.21192              -0.04927516       -12.96469        -63.47006        158.0645             -200               0             -200               0
1.21854               -0.0508853       -13.08049        -62.86764        155.6435             -200               0             -200               0
1.22517              -0.05260962       -13.19722        -62.27847        152.9736             -200               0             -200               0
1.23179              -0.05444651       -13.31484        -61.70531        150.0862             -200               0             -200               0
1.23841              -0.05639455       -13.43329        -61.14998        147.0103             -200               0             -200               0
1.24503              -0.05844926       -13.55252         -60.6136        143.7725             -200               0             -200               0
1.25166              -0.06060418       -13.67248        -60.09677        140.3965             -200               0             -200               0
1.25828              -0.06285308       -13.79316        -59.59972        136.9035             -200               0             -200               0
1.2649               -0.06518679       -13.91452        -59.12239        133.3123             -200               0             -200               0
1.27152              -0.06759716       -14.03656        -58.66452        129.6397             -200               0             -200               0
1.27815              -0.07007356       -14.15927        -58.22572        125.9005             -200               0             -200               0
1.28477              -0.07260573       -14.28268        -57.80548        122.1081             -200               0             -200               0
1.29139              -0.07518445       -14.40681        -57.40323        118.2743             -200               0             -200               0
1.29801              -0.07779958       -14.53171        -57.01834          114.41             -200               0             -200               0
1.30464              -0.08044337       -14.65743        -56.65015        110.5249             -200               0             -200               0
1.31126              -0.08310709       -14.78404        -56.29798        106.6277             -200               0             -200               0
1.31788              -0.08578577       -14.91162        -55.96109        102.7265             -200               0             -200               0
1.3245               -0.08847394       -15.04025        -55.63876        98.82874             -200               0             -200               0
1.33113              -0.09116905       -15.17003        -55.33022        94.94124             -200               0             -200               0
1.33775              -0.09387025       -15.30105         -55.0347        91.07026             -200               0             -200               0
1.34437              -0.09657911       -15.43342        -54.75139        87.22161             -200               0             -200               0
1.35099               -0.0992978       -15.56724        -54.47947        83.40062             -200               0             -200               0
1.35762               -0.1020341       -15.70261        -54.21806        79.61218             -200               0             -200               0
1.36424               -0.1047939       -15.83963        -53.96629        75.86076             -200               0             -200               0
1.37086               -0.1075865       -15.97838        -53.72323        72.15036             -200               0             -200               0
1.37748               -0.1104241       -16.11895        -53.48792        68.48452             -200               0             -200               0
1.38411               -0.1133187       -16.26141        -53.25937        64.86628             -200               0             -200               0
1.39073               -0.1162843       -16.40583        -53.03656        61.29815             -200               0             -200               0
1.39735               -0.1193352       -16.55224        -52.81843        57.78203             -200               0             -200               0
1.40397               -0.1224861       -16.70068        -52.60389        54.31921             -200               0             -200               0
1.4106                -0.1257538       -16.85117        -52.39184        50.91027             -200               0             -200               0
1.41722               -0.1291516       -17.00372        -52.18117        47.55507             -200               0             -200               0
1.42384               -0.1326941       -17.15833        -51.97077        44.25268             -200               0             -200               0
1.43046               -0.1363953       -17.31497        -51.75955        41.00134             -200               0             -200               0
1.43709               -0.1402671       -17.47362        -51.54643        37.79849             -200               0             -200               0
1.44371                 -0.14432       -17.63424        -51.33042         34.6407             -200               0             -200               0
1.45033               -0.1485621       -17.79679        -51.11055        31.52375             -200               0             -200               0
1.45695               -0.1530009       -17.96121        -50.88598        28.44265             -200               0             -200               0
1.46358               -0.1576398       -18.12746        -50.65597        25.39174             -200               0             -200               0
1.4702                -0.1624823       -18.29548        -50.41988        22.36475             -200               0             -200               0
1.47682                -0.167528       -18.46523        -50.17723        19.35499             -200               0             -200               0
1.48344               -0.1727737       -18.63666        -49.92769        16.35544             -200               0             -200               0
1.49007               -0.1782168       -18.80974        -49.67107        13.35894             -200               0             -200               0
1.49669               -0.1838501       -18.98445        -49.40735        10.35835             -200               0             -200               0
1.50331               -0.1896671       -19.16077        -49.13665         7.34672             -200               0             -200               0
1.50993               -0.1956594       -19.33873        -48.85923        4.317431             -200               0             -200               0
1.51656               -0.2018157       -19.51833        -48.57549        1.264341             -200               0             -200               0
1.52318               -0.2081286       -19.69963        -48.28593         -1.8181             -200               0             -200               0
1.5298                -0.2145861       -19.88267        -47.99116       -4.934768             -200               0             -200               0
1.53642               -0.2211796       -20.06755        -47.69184       -8.089808             -200               0             -200               0
1.54305               -0.2279009       -20.25436         -47.3887       -11.28659             -200               0             -200               0
1.54967               -0.2347433       -20.44321         -47.0825       -14.52773             -200               0             -200               0
1.55629               -0.2417014       -20.63424          -46.774       -17.81506             -200               0             -200               0
1.56291               -0.2487729        -20.8276        -46.46397       -21.14972             -200               0             -200               0
1.56954               -0.2559573       -21.02345        -46.15316       -24.53217             -200               0             -200               0
1.57616               -0.2632571       -21.22195         -45.8423       -27.96226             -200               0             -200               0
1.58278               -0.2706792        -21.4233        -45.53206        -31.4393             -200               0             -200               0
1.5894                -0.2782329       -21.62767        -45.22308       -34.96213             -200               0             -200               0
1.59603               -0.2859313       -21.83525        -44.91595       -38.52917             -200               0             -200               0
1.60265               -0.2937907       -22.04622        -44.61119       -42.13851             -200               0             -200               0
1.60927               -0.3018313       -22.26076        -44.30929       -45.78796             -200               0             -200               0
1.61589                -0.310077       -22.47904        -44.01065       -49.47512             -200               0             -200               0
1.62252               -0.3185526       -22.70121        -43.71564       -53.19739             -200               0             -200               0
1.62914               -0.3272893       -22.92742        -43.42457       -56.95209             -200               0             -200               0
1.63576               -0.3363167       -23.15779        -43.13769       -60.73641             -200               0             -200               0
1.64238               -0.3456688       -23.39242         -42.8552       -64.54754             -200               0             -200               0
1.64901               -0.3553818        -23.6314        -42.57726       -68.38263             -200               0             -200               0
1.65563               -0.3654896       -23.87479        -42.30397       -72.23883             -200               0             -200               0
1.66225               -0.3760311       -24.12265        -42.03541       -76.11336             -200               0             -200               0
1.66887               -0.3870395       -24.37498        -41.77158       -80.00345             -200               0             -200               0
1.6755                -0.3985522       -24.63177        -41.51249       -83.90644             -200               0             -200               0
1.68212               -0.4106031       -24.89303        -41.25806       -87.81974             -200               0             -200               0
1.68874               -0.4232255        -25.1587        -41.00823       -91.74087             -200               0             -200               0
1.69536               -0.4364489       -25.42873        -40.76286       -95.66744             -200               0             -200               0
1.70199               -0.4503033       -25.70307        -40.52181       -99.59721             -200               0             -200               0
1.70861               -0.4648141       -25.98163         -40.2849       -103.5281             -200               0             -200               0
1.71523               -0.4800023       -26.26433        -40.05193       -107.4581             -200               0             -200               0
1.72185               -0.4958897       -26.55109        -39.82267       -111.3854             -200               0             -200               0
1.72848                -0.512492       -26.84185        -39.59687       -115.3084             -200               0             -200               0
1.7351                -0.5298246       -27.13652        -39.37426       -119.2257             -200               0             -200               0
1.74172               -0.5478975       -27.43505        -39.15454       -123.1359             -200               0             -200               0
1.74834               -0.5667201       -27.73739        -38.93742       -127.0381             -200               0             -200               0
1.75497               -0.5862989       -28.04352        -38.72257       -130.9313             -200               0             -200               0
1.76159               -0.6066398       -28.35343        -38.50967       -134.8149             -200               0             -200               0
1.76821               -0.6277447       -28.66714        -38.29838       -138.6885             -200               0             -200               0
1.77483                -0.649622       -28.98469        -38.08836        -142.552             -200               0             -200               0
1.78146               -0.6722707       -29.30617        -37.87926       -146.4053             -200               0             -200               0
1.78808               -0.6956998       -29.63167        -37.67075       -150.2488             -200               0             -200               0
1.7947                -0.7199148       -29.96132        -37.46249        -154.083             -200               0             -200               0
1.80132               -0.7449258        -30.2953        -37.25415       -157.9086             -200               0             -200               0
1.80795               -0.7707454       -30.63379        -37.04542       -161.7267             -200               0             -200               0
1.81457               -0.7973907         -30.977        -36.83601       -165.5385             -200               0             -200               0
1.82119               -0.8248843       -31.32518        -36.62565       -169.3453             -200               0             -200               0
1.82781               -0.8532528       -31.67858        -36.41408       -173.1489             -200               0             -200               0
1.83444               -0.8825314       -32.03748        -36.20109        -176.951             -200               0             -200               0
1.84106               -0.9127594       -32.40217        -35.98649        179.2464             -200               0             -200               0
1.84768               -0.9439836       -32.77294        -35.77012        175.4413             -200               0             -200               0
1.8543                -0.9762602       -33.15008        -35.55186        171.6315             -200               0             -200               0
