! TOUCHSTONE file generated by CST MICROWAVE STUDIO
! Date and time: Tue Mar 18 00:01:20 2025
! Project name: oblique.cst
! Parameters = {Tilt=30; Fracture=1; B=10; D=160; F=25; Feed=2.85625; L=100; M=50; R=0.384908; S=2; Theta=180; length=57.125; wave=114.25}
! Header version: 2024
! Port assignment regex: !\s*Touchstone port\s*([0-9]+)\s*=\s*(CST MWS port|CST DES external port|CST DES block port)\s*(.+)\s* \(\"(.*)\"\)(\s*mode\s*([0-9]+))?.*
! Touchstone port assignment:
! Touchstone port 1 = CST MWS port 1 ("")
! Touchstone port 2 = CST MWS port 2 ("")
# GHz S DB R 50
1                    -0.01978416       -9.818716        -68.98073        134.4304             -200               0             -200               0
1.0076               -0.02086106       -9.919642        -68.99419          128.94             -200               0             -200               0
1.01521              -0.02193479       -10.02103        -69.02835        123.5354             -200               0             -200               0
1.02281              -0.02299732       -10.12292        -69.08372        118.2231             -200               0             -200               0
1.03042              -0.02404246       -10.22538        -69.16085        113.0108             -200               0             -200               0
1.03802              -0.02506529       -10.32848        -69.26037         107.908             -200               0             -200               0
1.04563              -0.02606067       -10.43228        -69.38292        102.9258             -200               0             -200               0
1.05323              -0.02702734       -10.53686        -69.52916        98.07753             -200               0             -200               0
1.06084              -0.02796342       -10.64231        -69.69972        93.37924             -200               0             -200               0
1.06844              -0.02887106        -10.7487        -69.89518        88.84998             -200               0             -200               0
1.07605              -0.02975122       -10.85613        -70.11598        84.51258             -200               0             -200               0
1.08365              -0.03060703       -10.96466        -70.36231        80.39427             -200               0             -200               0
1.09125              -0.03144513       -11.07439        -70.63394        76.52746             -200               0             -200               0
1.09886               -0.0322724       -11.18539        -70.93004        72.95055             -200               0             -200               0
1.10646              -0.03309666       -11.29772        -71.24878        69.70864             -200               0             -200               0
1.11407              -0.03392765       -11.41145         -71.5869        66.85374             -200               0             -200               0
1.12167              -0.03477571       -11.52664        -71.93907        64.44434             -200               0             -200               0
1.12928              -0.03565305       -11.64332        -72.29706        62.54311             -200               0             -200               0
1.13688              -0.03657054       -11.76153        -72.64882        61.21192             -200               0             -200               0
1.14449              -0.03754153        -11.8813        -72.97759        60.50245             -200               0             -200               0
1.15209              -0.03857698       -12.00264        -73.26153         60.4414             -200               0             -200               0
1.1597               -0.03969075       -12.12556        -73.47447        61.01095             -200               0             -200               0
1.1673               -0.04089358       -12.25004        -73.58865        62.12902             -200               0             -200               0
1.1749               -0.04219735       -12.37607        -73.57952        63.63912             -200               0             -200               0
1.18251              -0.04361127       -12.50362        -73.43165        65.32089             -200               0             -200               0
1.19011              -0.04514532       -12.63267        -73.14317        66.92468             -200               0             -200               0
1.19772              -0.04680656       -12.76317        -72.72633        68.21894             -200               0             -200               0
1.20532              -0.04860226       -12.89508        -72.20382        69.02955             -200               0             -200               0
1.21293              -0.05053774       -13.02836        -71.60301        69.25657             -200               0             -200               0
1.22053              -0.05261494       -13.16294        -70.95068        68.86818             -200               0             -200               0
1.22814               -0.0548366       -13.29879        -70.26974        67.88234             -200               0             -200               0
1.23574              -0.05720193       -13.43586        -69.57804        66.34656             -200               0             -200               0
1.24335              -0.05971055       -13.57411        -68.88861        64.32168             -200               0             -200               0
1.25095              -0.06235828       -13.71349        -68.21036         61.8713             -200               0             -200               0
1.25856              -0.06514107       -13.85398        -67.54912        59.05583             -200               0             -200               0
1.26616              -0.06805419       -13.99556        -66.90844        55.92965             -200               0             -200               0
1.27376               -0.0710904       -14.13821        -66.29028        52.54029             -200               0             -200               0
1.28137              -0.07424252       -14.28194        -65.69553        48.92858             -200               0             -200               0
1.28897               -0.0775035       -14.42675        -65.12436        45.12925             -200               0             -200               0
1.29658               -0.0808652       -14.57266        -64.57647        41.17173             -200               0             -200               0
1.30418              -0.08432049       -14.71972        -64.05128        37.08096             -200               0             -200               0
1.31179              -0.08786022       -14.86797        -63.54803        32.87806             -200               0             -200               0
1.31939              -0.09147986       -15.01746        -63.06589        28.58104             -200               0             -200               0
1.327                -0.09517332       -15.16827        -62.60395        24.20527             -200               0             -200               0
1.3346               -0.09893501       -15.32048        -62.16133        19.76398             -200               0             -200               0
1.34221               -0.1027636       -15.47418        -61.73713        15.26859             -200               0             -200               0
1.34981               -0.1066564       -15.62946        -61.33051        10.72904             -200               0             -200               0
1.35741               -0.1106139       -15.78644        -60.94062        6.154037             -200               0             -200               0
1.36502               -0.1146398       -15.94521        -60.56669        1.551258             -200               0             -200               0
1.37262               -0.1187375        -16.1059        -60.20795       -3.072484             -200               0             -200               0
1.38023               -0.1229137       -16.26861        -59.86367       -7.711092             -200               0             -200               0
1.38783               -0.1271776       -16.43344        -59.53317       -12.35908             -200               0             -200               0
1.39544               -0.1315395       -16.60052        -59.21576       -17.01146             -200               0             -200               0
1.40304               -0.1360127       -16.76993        -58.91082       -21.66371             -200               0             -200               0
1.41065               -0.1406106       -16.94177        -58.61772       -26.31166             -200               0             -200               0
1.41825               -0.1453504       -17.11612        -58.33586       -30.95146             -200               0             -200               0
1.42586               -0.1502494       -17.29306        -58.06464       -35.57954             -200               0             -200               0
1.43346               -0.1553258       -17.47265        -57.80349        -40.1926             -200               0             -200               0
1.44106               -0.1605992       -17.65493        -57.55183       -44.78754             -200               0             -200               0
1.44867               -0.1660897       -17.83995        -57.30909       -49.36146             -200               0             -200               0
1.45627               -0.1718173       -18.02773        -57.07469       -53.91167             -200               0             -200               0
1.46388               -0.1778017       -18.21827        -56.84806       -58.43566             -200               0             -200               0
1.47148                -0.184063       -18.41156        -56.62862        -62.9311             -200               0             -200               0
1.47909               -0.1906197        -18.6076        -56.41577       -67.39584             -200               0             -200               0
1.48669               -0.1974894       -18.80635        -56.20891       -71.82794             -200               0             -200               0
1.4943                 -0.204688       -19.00778        -56.00744       -76.22566             -200               0             -200               0
1.5019                 -0.212232       -19.21185        -55.81071       -80.58747             -200               0             -200               0
1.50951               -0.2201333       -19.41848        -55.61808        -84.9121             -200               0             -200               0
1.51711               -0.2284027       -19.62764        -55.42889       -89.19851             -200               0             -200               0
1.52471               -0.2370496       -19.83925        -55.24248       -93.44599             -200               0             -200               0
1.53232               -0.2460814       -20.05326        -55.05816       -97.65409             -200               0             -200               0
1.53992               -0.2555024       -20.26962        -54.87523       -101.8228             -200               0             -200               0
1.54753               -0.2653154       -20.48826        -54.69299       -105.9522             -200               0             -200               0
1.55513               -0.2755216       -20.70915        -54.51073       -110.0432             -200               0             -200               0
1.56274               -0.2861199       -20.93225        -54.32777       -114.0968             -200               0             -200               0
1.57034               -0.2971082       -21.15753         -54.1434       -118.1144             -200               0             -200               0
1.57795                -0.308482       -21.38499        -53.95697        -122.098             -200               0             -200               0
1.58555               -0.3202374       -21.61462        -53.76781       -126.0501             -200               0             -200               0
1.59316               -0.3323689       -21.84646        -53.57532       -129.9733             -200               0             -200               0
1.60076               -0.3448699       -22.08053        -53.37893        -133.871             -200               0             -200               0
1.60837               -0.3577354       -22.31691        -53.17813       -137.7468             -200               0             -200               0
1.61597               -0.3709604       -22.55565        -52.97244       -141.6047             -200               0             -200               0
1.62357               -0.3845407       -22.79686         -52.7615       -145.4488             -200               0             -200               0
1.63118               -0.3984726       -23.04064        -52.54497       -149.2839             -200               0             -200               0
1.63878                -0.412755       -23.28713        -52.32263       -153.1146             -200               0             -200               0
1.64639               -0.4273889       -23.53647        -52.09433       -156.9457             -200               0             -200               0
1.65399               -0.4423802       -23.78882        -51.85999       -160.7821             -200               0             -200               0
1.6616                -0.4577309       -24.04435        -51.61963       -164.6288             -200               0             -200               0
1.6692                 -0.473453       -24.30324        -51.37336       -168.4903             -200               0             -200               0
1.67681               -0.4895578       -24.56567        -51.12134       -172.3713             -200               0             -200               0
1.68441               -0.5060616       -24.83185        -50.86382        -176.276             -200               0             -200               0
1.69202                -0.522983       -25.10196        -50.60111        179.7915             -200               0             -200               0
1.69962               -0.5403443       -25.37621        -50.33359        175.8276             -200               0             -200               0
1.70722               -0.5581711       -25.65478        -50.06165         171.829             -200               0             -200               0
1.71483               -0.5764931       -25.93785        -49.78576        167.7927             -200               0             -200               0
1.72243               -0.5953434       -26.22562        -49.50638        163.7164             -200               0             -200               0
1.73004               -0.6147562       -26.51823        -49.22403        159.5979             -200               0             -200               0
1.73764               -0.6347693       -26.81586        -48.93919        155.4356             -200               0             -200               0
1.74525               -0.6554244       -27.11864         -48.6524        151.2282             -200               0             -200               0
1.75285               -0.6767633       -27.42669        -48.36414        146.9747             -200               0             -200               0
1.76046               -0.6988289       -27.74013        -48.07493        142.6746             -200               0             -200               0
1.76806               -0.7216681       -28.05906        -47.78523        138.3276             -200               0             -200               0
1.77567               -0.7453247       -28.38354        -47.49552        133.9337             -200               0             -200               0
1.78327               -0.7698458       -28.71364        -47.20623        129.4932             -200               0             -200               0
1.79087               -0.7952784       -29.04941        -46.91778        125.0066             -200               0             -200               0
1.79848               -0.8216686       -29.39088        -46.63057        120.4745             -200               0             -200               0
1.80608               -0.8490623       -29.73809        -46.34496        115.8977             -200               0             -200               0
1.81369               -0.8775037       -30.09104        -46.06129        111.2772             -200               0             -200               0
1.82129               -0.9070378       -30.44975        -45.77986        106.6141             -200               0             -200               0
1.8289                -0.9377062       -30.81423        -45.50097        101.9095             -200               0             -200               0
1.8365                -0.9695523       -31.18448        -45.22488        97.16456             -200               0             -200               0
1.84411                -1.002616       -31.56053        -44.95182        92.38061             -200               0             -200               0
1.85171                -1.036937       -31.94238        -44.68201         87.5589             -200               0             -200               0
1.85932                -1.072554       -32.33008        -44.41564        82.70075             -200               0             -200               0
1.86692                -1.109508       -32.72367        -44.15289        77.80746             -200               0             -200               0
1.87452                -1.147836       -33.12321         -43.8939        72.88033             -200               0             -200               0
1.88213                -1.187579       -33.52879        -43.63882        67.92065             -200               0             -200               0
1.88973                -1.228776       -33.94053        -43.38777        62.92971             -200               0             -200               0
1.89734                -1.271472       -34.35855        -43.14084        57.90875             -200               0             -200               0
1.90494                -1.315712       -34.78302        -42.89814        52.85899             -200               0             -200               0
1.91255                -1.361543       -35.21414        -42.65975        47.78163             -200               0             -200               0
1.92015                -1.409022       -35.65211        -42.42572        42.67782             -200               0             -200               0
1.92776                -1.458205        -36.0972        -42.19613        37.54869             -200               0             -200               0
1.93536                -1.509158       -36.54968        -41.97102        32.39531             -200               0             -200               0
1.94297                -1.561956       -37.00986        -41.75044        27.21873             -200               0             -200               0
1.95057                -1.616677       -37.47808        -41.53442        22.01997             -200               0             -200               0
1.95817                -1.673412       -37.95467        -41.32298        16.79999             -200               0             -200               0
1.96578                -1.732265       -38.44003        -41.11616        11.55973             -200               0             -200               0
1.97338                -1.793346       -38.93452        -40.91397          6.3001             -200               0             -200               0
1.98099                -1.856782       -39.43854        -40.71641        1.021941             -200               0             -200               0
