! TOUCHSTONE file generated by CST MICROWAVE STUDIO
! Date and time: Tue Mar 18 00:03:08 2025
! Project name: oblique.cst
! Parameters = {Tilt=40; Fracture=1; B=12.5; D=160; F=25; Feed=2.85625; L=100; M=50; R=0.384908; S=2; Theta=90; length=57.125; wave=114.25}
! Header version: 2024
! Port assignment regex: !\s*Touchstone port\s*([0-9]+)\s*=\s*(CST MWS port|CST DES external port|CST DES block port)\s*(.+)\s* \(\"(.*)\"\)(\s*mode\s*([0-9]+))?.*
! Touchstone port assignment:
! Touchstone port 1 = CST MWS port 1 ("")
! Touchstone port 2 = CST MWS port 2 ("")
# GHz S DB R 50
1                    -0.01918991       -9.811357        -70.20719        133.9806             -200               0             -200               0
1.0076               -0.02014645       -9.912714        -70.20169        128.8075             -200               0             -200               0
1.01521              -0.02111125       -10.01464        -70.21458        123.7279             -200               0             -200               0
1.02281              -0.02207972       -10.11718        -70.24597        118.7487             -200               0             -200               0
1.03042              -0.02304931       -10.22036        -70.29594        113.8785             -200               0             -200               0
1.03802              -0.02401449       -10.32424        -70.36454        109.1268             -200               0             -200               0
1.04563              -0.02497381       -10.42887        -70.45175         104.505             -200               0             -200               0
1.05323              -0.02592516       -10.53429        -70.55746        100.0259             -200               0             -200               0
1.06084              -0.02686783       -10.64057         -70.6814        95.70437             -200               0             -200               0
1.06844              -0.02780193       -10.74777        -70.82306        91.55743             -200               0             -200               0
1.07605              -0.02872871       -10.85595        -70.98164        87.60433             -200               0             -200               0
1.08365              -0.02965081       -10.96517        -71.15592        83.86677             -200               0             -200               0
1.09125              -0.03057197       -11.07548        -71.34409        80.36884             -200               0             -200               0
1.09886               -0.0314958       -11.18696        -71.54362        77.13679             -200               0             -200               0
1.10646              -0.03242822       -11.29965        -71.75098        74.19845             -200               0             -200               0
1.11407              -0.03337503        -11.4136        -71.96144        71.58206             -200               0             -200               0
1.12167              -0.03434501       -11.52886        -72.16883        69.31434             -200               0             -200               0
1.12928              -0.03534419       -11.64547        -72.36525        67.41757             -200               0             -200               0
1.13688              -0.03638043       -11.76347         -72.5411        65.90551             -200               0             -200               0
1.14449              -0.03746443       -11.88287        -72.68512        64.77824             -200               0             -200               0
1.15209              -0.03860334       -12.00371        -72.78497        64.01669             -200               0             -200               0
1.1597               -0.03980717       -12.12598        -72.82815        63.57789             -200               0             -200               0
1.1673               -0.04108241       -12.24972        -72.80342        63.39299             -200               0             -200               0
1.1749               -0.04243944       -12.37491        -72.70235        63.36957             -200               0             -200               0
1.18251              -0.04388576       -12.50155        -72.52078        63.39937             -200               0             -200               0
1.19011              -0.04542849       -12.62963        -72.25953        63.36991             -200               0             -200               0
1.19772              -0.04707333       -12.75913        -71.92423        63.17742             -200               0             -200               0
1.20532              -0.04882661       -12.89005        -71.52433        62.73732             -200               0             -200               0
1.21293              -0.05069385       -13.02235        -71.07154        61.99008             -200               0             -200               0
1.22053              -0.05267779       -13.15602        -70.57827        60.90182             -200               0             -200               0
1.22814              -0.05478145       -13.29104        -70.05641        59.46113             -200               0             -200               0
1.23574              -0.05700722       -13.42737        -69.51649        57.67392             -200               0             -200               0
1.24335              -0.05935523       -13.56502        -68.96734         55.5579             -200               0             -200               0
1.25095              -0.06182633       -13.70394        -68.41605        53.13778             -200               0             -200               0
1.25856              -0.06441821       -13.84414        -67.86807        50.44165             -200               0             -200               0
1.26616              -0.06712923       -13.98561        -67.32749        47.49837             -200               0             -200               0
1.27376              -0.06995958       -14.12834        -66.79725        44.33596             -200               0             -200               0
1.28137              -0.07290318       -14.27234         -66.2794        40.98069             -200               0             -200               0
1.28897              -0.07595797       -14.41763         -65.7753        37.45661             -200               0             -200               0
1.29658              -0.07912179       -14.56421        -65.28578        33.78543             -200               0             -200               0
1.30418              -0.08238907       -14.71213        -64.81128        29.98655             -200               0             -200               0
1.31179              -0.08575751       -14.86141        -64.35195         26.0772             -200               0             -200               0
1.31939              -0.08922462        -15.0121        -63.90775        22.07263             -200               0             -200               0
1.327                -0.09278764       -15.16425        -63.47844        17.98637             -200               0             -200               0
1.3346               -0.09644542       -15.31793        -63.06373        13.83035             -200               0             -200               0
1.34221               -0.1001976       -15.47318        -62.66321         9.61518             -200               0             -200               0
1.34981               -0.1040425        -15.6301        -62.27645        5.350269             -200               0             -200               0
1.35741               -0.1079857       -15.78874        -61.90297        1.044001             -200               0             -200               0
1.36502               -0.1120273       -15.94919        -61.54228       -3.296133             -200               0             -200               0
1.37262               -0.1161709       -16.11154        -61.19385       -7.663416             -200               0             -200               0
1.38023               -0.1204249       -16.27585        -60.85719       -12.05181             -200               0             -200               0
1.38783               -0.1247947       -16.44222        -60.53176       -16.45585             -200               0             -200               0
1.39544               -0.1292887       -16.61073        -60.21705       -20.87062             -200               0             -200               0
1.40304               -0.1339169       -16.78145        -59.91252       -25.29163             -200               0             -200               0
1.41065               -0.1386904       -16.95446        -59.61767        -29.7148             -200               0             -200               0
1.41825               -0.1436219       -17.12982        -59.33198       -34.13644             -200               0             -200               0
1.42586               -0.1487236        -17.3076        -59.05491       -38.55315             -200               0             -200               0
1.43346               -0.1540112       -17.48786        -58.78596       -42.96186             -200               0             -200               0
1.44106               -0.1594984       -17.67063        -58.52459       -47.35977             -200               0             -200               0
1.44867               -0.1652013       -17.85596        -58.27029       -51.74436             -200               0             -200               0
1.45627               -0.1711357       -18.04389        -58.02253       -56.11335             -200               0             -200               0
1.46388               -0.1773169       -18.23442        -57.78076       -60.46471             -200               0             -200               0
1.47148               -0.1837625       -18.42758        -57.54447       -64.79667             -200               0             -200               0
1.47909               -0.1904853       -18.62337        -57.31311       -69.10769             -200               0             -200               0
1.48669               -0.1975015       -18.82179        -57.08613        -73.3965             -200               0             -200               0
1.4943                -0.2048266       -19.02282        -56.86298       -77.66206             -200               0             -200               0
1.5019                -0.2124729       -19.22646        -56.64312       -81.90361             -200               0             -200               0
1.50951               -0.2204518       -19.43267        -56.42599       -86.12064             -200               0             -200               0
1.51711               -0.2287779       -19.64144        -56.21104       -90.31294             -200               0             -200               0
1.52471               -0.2374588       -19.85274        -55.99772       -94.48058             -200               0             -200               0
1.53232               -0.2465037       -20.06655        -55.78549        -98.6239             -200               0             -200               0
1.53992               -0.2559204       -20.28283        -55.57382       -102.7436             -200               0             -200               0
1.54753               -0.2657163       -20.50156        -55.36217       -106.8405             -200               0             -200               0
1.55513               -0.2758958       -20.72272        -55.15006        -110.916             -200               0             -200               0
1.56274               -0.2864613        -20.9463          -54.937       -114.9716             -200               0             -200               0
1.57034               -0.2974197       -21.17229        -54.72253       -119.0091             -200               0             -200               0
1.57795               -0.3087703       -21.40068        -54.50622       -123.0306             -200               0             -200               0
1.58555               -0.3205143       -21.63149         -54.2877       -127.0386             -200               0             -200               0
1.59316               -0.3326546       -21.86473         -54.0666       -131.0355             -200               0             -200               0
1.60076               -0.3451906       -22.10044        -53.84264       -135.0241             -200               0             -200               0
1.60837               -0.3581239       -22.33865        -53.61554       -139.0075             -200               0             -200               0
1.61597               -0.3714548       -22.57943         -53.3851       -142.9888             -200               0             -200               0
1.62357               -0.3851859       -22.82284        -53.15116       -146.9711             -200               0             -200               0
1.63118               -0.3993181       -23.06896        -52.91363       -150.9576             -200               0             -200               0
1.63878               -0.4138555       -23.31788        -52.67246       -154.9517             -200               0             -200               0
1.64639               -0.4288038        -23.5697        -52.42764       -158.9566             -200               0             -200               0
1.65399               -0.4441676       -23.82454        -52.17924       -162.9754             -200               0             -200               0
1.6616                 -0.459956       -24.08251        -51.92736       -167.0111             -200               0             -200               0
1.6692                -0.4761797       -24.34375        -51.67214       -171.0667             -200               0             -200               0
1.67681               -0.4928501       -24.60839        -51.41378       -175.1449             -200               0             -200               0
1.68441               -0.5099821       -24.87658        -51.15251       -179.2481             -200               0             -200               0
1.69202               -0.5275913       -25.14846        -50.88857        176.6212             -200               0             -200               0
1.69962               -0.5457004       -25.42417        -50.62226         172.461             -200               0             -200               0
1.70722               -0.5643285       -25.70387        -50.35388        168.2696             -200               0             -200               0
1.71483               -0.5835018        -25.9877        -50.08375        164.0452             -200               0             -200               0
1.72243               -0.6032456       -26.27581         -49.8122        159.7867             -200               0             -200               0
1.73004                 -0.62359       -26.56833        -49.53957        155.4928             -200               0             -200               0
1.73764               -0.6445653       -26.86539         -49.2662        151.1628             -200               0             -200               0
1.74525               -0.6662063       -27.16712        -48.99243        146.7961             -200               0             -200               0
1.75285               -0.6885467       -27.47362         -48.7186        142.3921             -200               0             -200               0
1.76046               -0.7116231       -27.78502        -48.44503        137.9507             -200               0             -200               0
1.76806               -0.7354763       -28.10142        -48.17205        133.4719             -200               0             -200               0
1.77567               -0.7601434       -28.42289        -47.89996        128.9557             -200               0             -200               0
1.78327               -0.7856659       -28.74951        -47.62905        124.4025             -200               0             -200               0
1.79087               -0.8120843       -29.08136        -47.35959        119.8125             -200               0             -200               0
1.79848               -0.8394408       -29.41851        -47.09186        115.1864             -200               0             -200               0
1.80608               -0.8677795         -29.761         -46.8261        110.5247             -200               0             -200               0
1.81369               -0.8971418        -30.1089        -46.56253        105.8281             -200               0             -200               0
1.82129               -0.9275701       -30.46223        -46.30138        101.0973             -200               0             -200               0
1.8289                -0.9591079       -30.82105        -46.04284         96.3332             -200               0             -200               0
1.8365                -0.9917991        -31.1854         -45.7871        91.53658             -200               0             -200               0
1.84411                -1.025686       -31.55532        -45.53433        86.70834             -200               0             -200               0
1.85171                -1.060814       -31.93087        -45.28468        81.84938             -200               0             -200               0
1.85932                -1.097226       -32.31208         -45.0383        76.96063             -200               0             -200               0
1.86692                -1.134967       -32.69904         -44.7953        72.04301             -200               0             -200               0
1.87452                -1.174085       -33.09179        -44.55582        67.09748             -200               0             -200               0
1.88213                -1.214624       -33.49043        -44.31995        62.12494             -200               0             -200               0
1.88973                -1.256634       -33.89505        -44.08779        57.12634             -200               0             -200               0
1.89734                -1.300168       -34.30576        -43.85942        52.10258             -200               0             -200               0
1.90494                -1.345279       -34.72267        -43.63492        47.05458             -200               0             -200               0
1.91255                -1.392023       -35.14595        -43.41436        41.98321             -200               0             -200               0
1.92015                -1.440463       -35.57573         -43.1978        36.88934             -200               0             -200               0
1.92776                -1.490664        -36.0122        -42.98528        31.77383             -200               0             -200               0
1.93536                -1.542698       -36.45554        -42.77686        26.63748             -200               0             -200               0
1.94297                -1.596641       -36.90595        -42.57258        21.48112             -200               0             -200               0
1.95057                -1.652578       -37.36366        -42.37246        16.30552             -200               0             -200               0
1.95817                  -1.7106       -37.82889        -42.17655        11.11143             -200               0             -200               0
1.96578                -1.770807       -38.30186        -41.98485          5.8996             -200               0             -200               0
1.97338                -1.833309       -38.78285        -41.79741       0.6707307             -200               0             -200               0
1.98099                -1.898224       -39.27206        -41.61422       -4.574486             -200               0             -200               0
