! TOUCHSTONE file generated by CST MICROWAVE STUDIO
! Date and time: Tue Mar 18 00:02:48 2025
! Project name: oblique.cst
! Parameters = {Tilt=40; Fracture=1; B=12.5; D=160; F=5; Feed=2.85625; L=100; M=30; R=0.384908; S=2; Theta=90; length=57.125; wave=114.25}
! Header version: 2024
! Port assignment regex: !\s*Touchstone port\s*([0-9]+)\s*=\s*(CST MWS port|CST DES external port|CST DES block port)\s*(.+)\s* \(\"(.*)\"\)(\s*mode\s*([0-9]+))?.*
! Touchstone port assignment:
! Touchstone port 1 = CST MWS port 1 ("")
! Touchstone port 2 = CST MWS port 2 ("")
# GHz S DB R 50
1                    -0.02088803       -9.798259        -67.12679       -178.2618             -200               0             -200               0
1.0066               -0.02170784       -9.886074        -67.14251        176.6478             -200               0             -200               0
1.0132                -0.0225475       -9.974316        -67.19085        171.6761             -200               0             -200               0
1.0198               -0.02340493       -10.06299        -67.27244         166.837             -200               0             -200               0
1.0264               -0.02427426       -10.15212        -67.38801        162.1475             -200               0             -200               0
1.033                -0.02515466       -10.24171        -67.53834        157.6284             -200               0             -200               0
1.0396                -0.0260421       -10.33179         -67.7242        153.3049             -200               0             -200               0
1.0462               -0.02693293       -10.42238        -67.94625        149.2078             -200               0             -200               0
1.05281              -0.02782693       -10.51352        -68.20488        145.3747             -200               0             -200               0
1.05941              -0.02872131       -10.60523        -68.49992        141.8515             -200               0             -200               0
1.06601              -0.02961617       -10.69755        -68.83031         138.694             -200               0             -200               0
1.07261              -0.03051005       -10.79052        -69.19343        135.9691             -200               0             -200               0
1.07921              -0.03140406       -10.88418        -69.58422         133.756             -200               0             -200               0
1.08581              -0.03229924       -10.97856        -69.99396        132.1445             -200               0             -200               0
1.09241              -0.03319714        -11.0737        -70.40852        131.2301             -200               0             -200               0
1.09901              -0.03410089       -11.16964         -70.8066        131.1016             -200               0             -200               0
1.10561              -0.03501426        -11.2664        -71.15825        131.8173             -200               0             -200               0
1.11221              -0.03593941       -11.36402        -71.42546        133.3704             -200               0             -200               0
1.11881              -0.03688285       -11.46253        -71.56642        135.6486             -200               0             -200               0
1.12541               -0.0378485       -11.56196        -71.54464        138.4127             -200               0             -200               0
1.13201              -0.03884104        -11.6623        -71.34033        141.3192             -200               0             -200               0
1.13861               -0.0398657       -11.76359        -70.95785        143.9948             -200               0             -200               0
1.14521              -0.04092801       -11.86582        -70.42391        146.1269             -200               0             -200               0
1.15182              -0.04203295       -11.96901        -69.77796        147.5219             -200               0             -200               0
1.15842              -0.04318517       -12.07315        -69.06105        148.1096             -200               0             -200               0
1.16502               -0.0443906       -12.17823        -68.30834        147.9113             -200               0             -200               0
1.17162              -0.04565108       -12.28425        -67.54639        147.0004             -200               0             -200               0
1.17822              -0.04697212       -12.39119        -66.79349        145.4706             -200               0             -200               0
1.18482               -0.0483553       -12.49904        -66.06137        143.4173             -200               0             -200               0
1.19142              -0.04980265       -12.60778        -65.35701        140.9278             -200               0             -200               0
1.19802              -0.05131582       -12.71739        -64.68418        138.0781             -200               0             -200               0
1.20462              -0.05289483       -12.82786        -64.04455        134.9322             -200               0             -200               0
1.21122              -0.05453969       -12.93916        -63.43847        131.5436             -200               0             -200               0
1.21782              -0.05624885       -13.05128         -62.8655        127.9568             -200               0             -200               0
1.22442              -0.05802039       -13.16421        -62.32476        124.2084             -200               0             -200               0
1.23102              -0.05985153       -13.27794        -61.81509        120.3292             -200               0             -200               0
1.23762              -0.06173924       -13.39247        -61.33524        116.3449             -200               0             -200               0
1.24422              -0.06367951       -13.50779        -60.88394        112.2771             -200               0             -200               0
1.25083              -0.06566802       -13.62392         -60.4599        108.1444             -200               0             -200               0
1.25743              -0.06770082       -13.74087        -60.06191        103.9629             -200               0             -200               0
1.26403              -0.06977338       -13.85865         -59.6888        99.74638             -200               0             -200               0
1.27063              -0.07188092        -13.9773        -59.33946        95.50735             -200               0             -200               0
1.27723              -0.07401931       -14.09685        -59.01284        91.25686             -200               0             -200               0
1.28383               -0.0761853       -14.21733        -58.70796        87.00496             -200               0             -200               0
1.29043              -0.07837633       -14.33879        -58.42386        82.76093             -200               0             -200               0
1.29703              -0.08058913       -14.46128        -58.15963        78.53342             -200               0             -200               0
1.30363              -0.08282121       -14.58486        -57.91438        74.33061             -200               0             -200               0
1.31023               -0.0850732       -14.70959        -57.68725         70.1603             -200               0             -200               0
1.31683              -0.08734514       -14.83552        -57.47735        66.03004             -200               0             -200               0
1.32343              -0.08963694       -14.96271        -57.28382        61.94715             -200               0             -200               0
1.33003              -0.09195177       -15.09125        -57.10574        57.91884             -200               0             -200               0
1.33663              -0.09429345       -15.22117        -56.94217        53.95215             -200               0             -200               0
1.34323              -0.09666529       -15.35255        -56.79212        50.05403             -200               0             -200               0
1.34984              -0.09907311       -15.48546        -56.65451        46.23129             -200               0             -200               0
1.35644                -0.101523       -15.61993        -56.52819        42.49058             -200               0             -200               0
1.36304               -0.1040211       -15.75603        -56.41192        38.83829             -200               0             -200               0
1.36964               -0.1065758        -15.8938        -56.30431         35.2805             -200               0             -200               0
1.37624               -0.1091949       -16.03328        -56.20387         31.8228             -200               0             -200               0
1.38284               -0.1118865       -16.17452        -56.10896        28.47017             -200               0             -200               0
1.38944               -0.1146593       -16.31753         -56.0178        25.22672             -200               0             -200               0
1.39604               -0.1175211       -16.46234        -55.92845        22.09553             -200               0             -200               0
1.40264               -0.1204808       -16.60898        -55.83886        19.07831             -200               0             -200               0
1.40924               -0.1235466       -16.75745        -55.74685        16.17516             -200               0             -200               0
1.41584                -0.126724       -16.90775        -55.65015        13.38432             -200               0             -200               0
1.42244               -0.1300229       -17.05991        -55.54646        10.70185             -200               0             -200               0
1.42904               -0.1334462       -17.21391        -55.43351        8.121515             -200               0             -200               0
1.43564               -0.1370012       -17.36976        -55.30911        5.634603             -200               0             -200               0
1.44224               -0.1406908       -17.52745        -55.17124        3.229983             -200               0             -200               0
1.44884               -0.1445195       -17.68699        -55.01814       0.8942378             -200               0             -200               0
1.45545               -0.1484883       -17.84837        -54.84839       -1.388026             -200               0             -200               0
1.46205               -0.1526009        -18.0116        -54.66096       -3.633726             -200               0             -200               0
1.46865               -0.1568561       -18.17669        -54.45529       -5.860716             -200               0             -200               0
1.47525               -0.1612541       -18.34365        -54.23128       -8.087135             -200               0             -200               0
1.48185                -0.165796        -18.5125        -53.98932       -10.33072             -200               0             -200               0
1.48845               -0.1704787       -18.68327        -53.73022       -12.60813             -200               0             -200               0
1.49505               -0.1753024       -18.85599        -53.45521       -14.93444             -200               0             -200               0
1.50165               -0.1802634       -19.03072        -53.16581       -17.32267             -200               0             -200               0
1.50825               -0.1853642       -19.20749        -52.86378        -19.7835             -200               0             -200               0
1.51485               -0.1906018       -19.38639        -52.55105       -22.32517             -200               0             -200               0
1.52145               -0.1959756       -19.56747        -52.22958        -24.9535             -200               0             -200               0
1.52805               -0.2014878       -19.75082        -51.90137       -27.67199             -200               0             -200               0
1.53465                -0.207139       -19.93653        -51.56834       -30.48206             -200               0             -200               0
1.54125               -0.2129327       -20.12469        -51.23229       -33.38331             -200               0             -200               0
1.54785               -0.2188727       -20.31541         -50.8949       -36.37378             -200               0             -200               0
1.55446                -0.224966        -20.5088        -50.55769       -39.45026             -200               0             -200               0
1.56106               -0.2312194       -20.70496        -50.22201       -42.60856             -200               0             -200               0
1.56766               -0.2376423       -20.90401        -49.88905       -45.84374             -200               0             -200               0
1.57426               -0.2442462       -21.10607         -49.5598       -49.15032             -200               0             -200               0
1.58086               -0.2510453       -21.31124        -49.23514       -52.52247             -200               0             -200               0
1.58746               -0.2580527       -21.51963        -48.91575       -55.95416             -200               0             -200               0
1.59406               -0.2652859       -21.73136        -48.60221       -59.43925             -200               0             -200               0
1.60066               -0.2727635       -21.94652        -48.29496       -62.97162             -200               0             -200               0
1.60726               -0.2805061       -22.16521        -47.99431       -66.54521             -200               0             -200               0
1.61386               -0.2885316        -22.3875        -47.70049       -70.15409             -200               0             -200               0
1.62046               -0.2968651       -22.61348        -47.41362       -73.79249             -200               0             -200               0
1.62706               -0.3055291       -22.84321        -47.13374       -77.45486             -200               0             -200               0
1.63366               -0.3145467       -23.07675        -46.86081       -81.13583             -200               0             -200               0
1.64026               -0.3239426       -23.31414        -46.59471       -84.83029             -200               0             -200               0
1.64686               -0.3337396       -23.55541        -46.33526       -88.53339             -200               0             -200               0
1.65347               -0.3439629        -23.8006        -46.08223        -92.2405             -200               0             -200               0
1.66007               -0.3546353       -24.04971         -45.8353       -95.94731             -200               0             -200               0
1.66667               -0.3657804       -24.30275        -45.59414       -99.64977             -200               0             -200               0
1.67327               -0.3774199       -24.55973        -45.35834       -103.3441             -200               0             -200               0
1.67987                -0.389575       -24.82063        -45.12744        -107.027             -200               0             -200               0
1.68647               -0.4022646       -25.08546        -44.90095       -110.6952             -200               0             -200               0
1.69307               -0.4155085       -25.35419        -44.67833       -114.3462             -200               0             -200               0
1.69967               -0.4293248       -25.62682        -44.45902       -117.9774             -200               0             -200               0
1.70627               -0.4437277       -25.90333        -44.24238        -121.587             -200               0             -200               0
1.71287               -0.4587346       -26.18374         -44.0278       -125.1736             -200               0             -200               0
1.71947               -0.4743579       -26.46801         -43.8146       -128.7359             -200               0             -200               0
1.72607                 -0.49061        -26.7562        -43.60211       -132.2736             -200               0             -200               0
1.73267               -0.5075046       -27.04829        -43.38964       -135.7866             -200               0             -200               0
1.73927               -0.5250534       -27.34433        -43.17649       -139.2753             -200               0             -200               0
1.74587               -0.5432672       -27.64436        -42.96198       -142.7408             -200               0             -200               0
1.75248               -0.5621581       -27.94845        -42.74544       -146.1846             -200               0             -200               0
1.75908               -0.5817394       -28.25666        -42.52623       -149.6089             -200               0             -200               0
1.76568               -0.6020224       -28.56909        -42.30375       -153.0164             -200               0             -200               0
1.77228               -0.6230234       -28.88584        -42.07746         -156.41             -200               0             -200               0
1.77888               -0.6447592       -29.20704        -41.84686       -159.7935             -200               0             -200               0
1.78548               -0.6672471       -29.53282        -41.61154       -163.1708             -200               0             -200               0
1.79208               -0.6905088       -29.86334        -41.37114       -166.5463             -200               0             -200               0
1.79868               -0.7145689       -30.19875        -41.12542       -169.9244             -200               0             -200               0
1.80528               -0.7394554       -30.53925        -40.87422       -173.3099             -200               0             -200               0
1.81188               -0.7651994       -30.88501        -40.61745       -176.7076             -200               0             -200               0
1.81848               -0.7918362       -31.23623        -40.35514        179.8776             -200               0             -200               0
1.82508               -0.8194065       -31.59309        -40.08739        176.4411             -200               0             -200               0
1.83168               -0.8479535       -31.95581         -39.8144        172.9782             -200               0             -200               0
1.83828               -0.8775275       -32.32457        -39.53644        169.4848             -200               0             -200               0
1.84488               -0.9081808       -32.69957        -39.25386        165.9568             -200               0             -200               0
1.85149               -0.9399749         -33.081        -38.96707        162.3906             -200               0             -200               0
