! TOUCHSTONE file generated by CST MICROWAVE STUDIO
! Date and time: Tue Mar 18 00:01:25 2025
! Project name: oblique.cst
! Parameters = {Tilt=30; Fracture=1; B=12.5; D=160; F=5; Feed=2.85625; L=100; M=50; R=0.384908; S=1; Theta=180; length=57.125; wave=114.25}
! Header version: 2024
! Port assignment regex: !\s*Touchstone port\s*([0-9]+)\s*=\s*(CST MWS port|CST DES external port|CST DES block port)\s*(.+)\s* \(\"(.*)\"\)(\s*mode\s*([0-9]+))?.*
! Touchstone port assignment:
! Touchstone port 1 = CST MWS port 1 ("")
! Touchstone port 2 = CST MWS port 2 ("")
# GHz S DB R 50
1                    -0.02211732       -9.802764        -66.52495        165.3489             -200               0             -200               0
1.0066               -0.02277924       -9.889772        -66.51987        159.5886             -200               0             -200               0
1.0132               -0.02343531       -9.977469        -66.54696        153.9241             -200               0             -200               0
1.0198                -0.0240893       -10.06589        -66.60703        148.3629             -200               0             -200               0
1.0264               -0.02474602       -10.15508        -66.70113        142.9147             -200               0             -200               0
1.033                -0.02540998       -10.24506        -66.83049        137.5917             -200               0             -200               0
1.0396               -0.02608833       -10.33587        -66.99657        132.4092             -200               0             -200               0
1.0462               -0.02678578       -10.42751        -67.20102        127.3865             -200               0             -200               0
1.05281              -0.02751036          -10.52        -67.44571        122.5477             -200               0             -200               0
1.05941              -0.02826721       -10.61335        -67.73263        117.9232             -200               0             -200               0
1.06601              -0.02906458       -10.70756        -68.06389        113.5517             -200               0             -200               0
1.07261              -0.02990745       -10.80262        -68.44145        109.4821             -200               0             -200               0
1.07921              -0.03080249       -10.89853        -68.86689        105.7771             -200               0             -200               0
1.08581              -0.03175443       -10.99525        -69.34082        102.5168             -200               0             -200               0
1.09241              -0.03276818       -11.09278        -69.86191        99.80331             -200               0             -200               0
1.09901              -0.03384775       -11.19108        -70.42528        97.76487             -200               0             -200               0
1.10561              -0.03499517       -11.29012        -71.01978        96.55742             -200               0             -200               0
1.11221              -0.03621355       -11.38988        -71.62401        96.35793             -200               0             -200               0
1.11881              -0.03750298       -11.49031        -72.20115        97.33851             -200               0             -200               0
1.12541              -0.03886299       -11.59139         -72.6947        99.60613             -200               0             -200               0
1.13201              -0.04029265       -11.69308        -73.03053        103.1022             -200               0             -200               0
1.13861              -0.04179031       -11.79535        -73.13285        107.5001             -200               0             -200               0
1.14521              -0.04335166       -11.89819        -72.95413        112.2013             -200               0             -200               0
1.15182              -0.04497286       -12.00157        -72.50006        116.5061             -200               0             -200               0
1.15842              -0.04665022       -12.10548        -71.82628        119.8628             -200               0             -200               0
1.16502               -0.0483764        -12.2099        -71.01018        122.0041             -200               0             -200               0
1.17162              -0.05014684       -12.31484        -70.12294        122.9144             -200               0             -200               0
1.17822              -0.05195512       -12.42029        -69.21677        122.7213             -200               0             -200               0
1.18482              -0.05379517       -12.52629        -68.32481        121.6021             -200               0             -200               0
1.19142              -0.05566107       -12.63284        -67.46581        119.7314             -200               0             -200               0
1.19802              -0.05754617       -12.73998         -66.6492        117.2608             -200               0             -200               0
1.20462              -0.05944513       -12.84773        -65.87878        114.3141             -200               0             -200               0
1.21122              -0.06135478       -12.95615        -65.15518        110.9899             -200               0             -200               0
1.21782               -0.0632698       -13.06528        -64.47731        107.3659             -200               0             -200               0
1.22442              -0.06518715       -13.17517        -63.84325        103.5032             -200               0             -200               0
1.23102              -0.06710485       -13.28589        -63.25071         99.4506             -200               0             -200               0
1.23762              -0.06902205       -13.39749        -62.69736        95.24679             -200               0             -200               0
1.24422                -0.070939       -13.51003         -62.1809        90.92315             -200               0             -200               0
1.25083              -0.07285696       -13.62359        -61.69918        86.50533             -200               0             -200               0
1.25743              -0.07477865       -13.73821        -61.25024        82.01459             -200               0             -200               0
1.26403              -0.07670746       -13.85396        -60.83225        77.46877             -200               0             -200               0
1.27063              -0.07864775       -13.97089         -60.4436        72.88312             -200               0             -200               0
1.27723              -0.08060566       -14.08907         -60.0828        68.27086             -200               0             -200               0
1.28383              -0.08258647       -14.20853        -59.74852        63.64363             -200               0             -200               0
1.29043              -0.08459812       -14.32932        -59.43954        59.01189             -200               0             -200               0
1.29703              -0.08664839       -14.45148        -59.15476        54.38517             -200               0             -200               0
1.30363              -0.08874523       -14.57504        -58.89318        49.77237             -200               0             -200               0
1.31023              -0.09089529       -14.70001        -58.65385        45.18185             -200               0             -200               0
1.31683               -0.0931081       -14.82641        -58.43592        40.62171             -200               0             -200               0
1.32343              -0.09539021       -14.95426        -58.23853        36.09982             -200               0             -200               0
1.33003               -0.0977496       -15.08355        -58.06089        31.62399             -200               0             -200               0
1.33663               -0.1001933       -15.21428        -57.90221        27.20205             -200               0             -200               0
1.34323               -0.1027267       -15.34644        -57.76169        22.84193             -200               0             -200               0
1.34984               -0.1053548       -15.48003        -57.63848         18.5517             -200               0             -200               0
1.35644               -0.1080827       -15.61502        -57.53173        14.33963             -200               0             -200               0
1.36304               -0.1109122       -15.75141        -57.44046        10.21422             -200               0             -200               0
1.36964               -0.1138466       -15.88917        -57.36365        6.184156             -200               0             -200               0
1.37624               -0.1168857       -16.02829        -57.30011        2.258338             -200               0             -200               0
1.38284                -0.120031       -16.16876        -57.24851       -1.554242             -200               0             -200               0
1.38944               -0.1232808       -16.31057        -57.20734       -5.244605             -200               0             -200               0
1.39604               -0.1266329       -16.45371        -57.17486       -8.803968             -200               0             -200               0
1.40264               -0.1300837       -16.59819         -57.1491       -12.22399             -200               0             -200               0
1.40924               -0.1336318       -16.74402         -57.1278       -15.49712             -200               0             -200               0
1.41584               -0.1372728       -16.89122        -57.10839       -18.61701             -200               0             -200               0
1.42244               -0.1410021        -17.0398        -57.08805       -21.57903             -200               0             -200               0
1.42904               -0.1448153       -17.18981        -57.06362       -24.38084             -200               0             -200               0
1.43564               -0.1487092       -17.34128        -57.03174       -27.02306             -200               0             -200               0
1.44224               -0.1526804       -17.49428        -56.98887       -29.50988             -200               0             -200               0
1.44884               -0.1567252       -17.64886        -56.93139       -31.84963             -200               0             -200               0
1.45545               -0.1608412       -17.80509        -56.85578       -34.05518             -200               0             -200               0
1.46205               -0.1650286       -17.96304        -56.75877       -36.14407             -200               0             -200               0
1.46865               -0.1692857       -18.12281        -56.63751       -38.13829             -200               0             -200               0
1.47525                -0.173615       -18.28446         -56.4898       -40.06366             -200               0             -200               0
1.48185               -0.1780184       -18.44811         -56.3142       -41.94881             -200               0             -200               0
1.48845               -0.1825002       -18.61385        -56.11015       -43.82382             -200               0             -200               0
1.49505               -0.1870655       -18.78176        -55.87801       -45.71876             -200               0             -200               0
1.50165               -0.1917228       -18.95195        -55.61901       -47.66211             -200               0             -200               0
1.50825               -0.1964798        -19.1245        -55.33514        -49.6795             -200               0             -200               0
1.51485               -0.2013473       -19.29952        -55.02901       -51.79265             -200               0             -200               0
1.52145               -0.2063362       -19.47708        -54.70365       -54.01883             -200               0             -200               0
1.52805               -0.2114597       -19.65727        -54.36233        -56.3706             -200               0             -200               0
1.53465               -0.2167304       -19.84016        -54.00838       -58.85601             -200               0             -200               0
1.54125               -0.2221654       -20.02581        -53.64505       -61.47897             -200               0             -200               0
1.54785               -0.2277778       -20.21429        -53.27541       -64.23985             -200               0             -200               0
1.55446               -0.2335822       -20.40564        -52.90228       -67.13609             -200               0             -200               0
1.56106               -0.2395982        -20.5999        -52.52814        -70.1629             -200               0             -200               0
1.56766               -0.2458378       -20.79711        -52.15521       -73.31375             -200               0             -200               0
1.57426               -0.2523185       -20.99728        -51.78535         -76.581             -200               0             -200               0
1.58086               -0.2590547       -21.20044        -51.42015       -79.95625             -200               0             -200               0
1.58746               -0.2660606       -21.40659        -51.06091       -83.43068             -200               0             -200               0
1.59406               -0.2733492       -21.61573         -50.7087       -86.99536             -200               0             -200               0
1.60066               -0.2809332       -21.82788        -50.36436        -90.6414             -200               0             -200               0
1.60726               -0.2888235       -22.04302        -50.02855       -94.36007             -200               0             -200               0
1.61386               -0.2970297       -22.26116        -49.70176       -98.14296             -200               0             -200               0
1.62046               -0.3055599       -22.48228        -49.38433        -101.982             -200               0             -200               0
1.62706               -0.3144223        -22.7064        -49.07649       -105.8694             -200               0             -200               0
1.63366               -0.3236227       -22.93352        -48.77836       -109.7978             -200               0             -200               0
1.64026               -0.3331654       -23.16365        -48.48997       -113.7602             -200               0             -200               0
1.64686               -0.3430548       -23.39681        -48.21128       -117.7501             -200               0             -200               0
1.65347               -0.3532939       -23.63303        -47.94216       -121.7612             -200               0             -200               0
1.66007               -0.3638856       -23.87236        -47.68245       -125.7875             -200               0             -200               0
1.66667               -0.3748311       -24.11485         -47.4319       -129.8234             -200               0             -200               0
1.67327               -0.3861337       -24.36057        -47.19024       -133.8637             -200               0             -200               0
1.67987                -0.397795        -24.6096        -46.95714       -137.9033             -200               0             -200               0
1.68647               -0.4098185       -24.86203        -46.73222       -141.9375             -200               0             -200               0
1.69307               -0.4222093       -25.11798        -46.51506       -145.9619             -200               0             -200               0
1.69967               -0.4349716       -25.37758        -46.30521       -149.9723             -200               0             -200               0
1.70627               -0.4481119       -25.64095        -46.10217       -153.9649             -200               0             -200               0
1.71287               -0.4616403       -25.90827        -45.90539        -157.936             -200               0             -200               0
1.71947               -0.4755665       -26.17967         -45.7143       -161.8824             -200               0             -200               0
1.72607               -0.4899052       -26.45535        -45.52827       -165.8012             -200               0             -200               0
1.73267               -0.5046724       -26.73549        -45.34665       -169.6896             -200               0             -200               0
1.73927               -0.5198866       -27.02027        -45.16875       -173.5456             -200               0             -200               0
1.74587               -0.5355715       -27.30989        -44.99383       -177.3673             -200               0             -200               0
1.75248               -0.5517511       -27.60454        -44.82113        178.8467             -200               0             -200               0
1.75908               -0.5684553       -27.90442        -44.64987        175.0972             -200               0             -200               0
1.76568               -0.5857152       -28.20972        -44.47926        171.3845             -200               0             -200               0
1.77228               -0.6035667       -28.52065        -44.30846        167.7085             -200               0             -200               0
1.77888               -0.6220467       -28.83738        -44.13665        164.0683             -200               0             -200               0
1.78548               -0.6411972       -29.16009        -43.96304        160.4625             -200               0             -200               0
1.79208               -0.6610637       -29.48895        -43.78681        156.8891             -200               0             -200               0
1.79868               -0.6816915       -29.82412        -43.60722        153.3454             -200               0             -200               0
1.80528               -0.7031306       -30.16574        -43.42354        149.8281             -200               0             -200               0
1.81188               -0.7254324       -30.51395        -43.23511        146.3333             -200               0             -200               0
1.81848               -0.7486494       -30.86888        -43.04136        142.8567             -200               0             -200               0
1.82508                -0.772839       -31.23062        -42.84176        139.3932             -200               0             -200               0
1.83168               -0.7980562       -31.59928        -42.63593        135.9377             -200               0             -200               0
1.83828               -0.8243599       -31.97493        -42.42356        132.4846             -200               0             -200               0
1.84488               -0.8518093       -32.35765        -42.20445         129.028             -200               0             -200               0
1.85149               -0.8804652        -32.7475        -41.97854         125.562             -200               0             -200               0
