! TOUCHSTONE file generated by CST MICROWAVE STUDIO
! Date and time: Tue Mar 18 00:03:07 2025
! Project name: oblique.cst
! Parameters = {Tilt=40; Fracture=1; B=12.5; D=160; F=25; Feed=2.85625; L=100; M=30; R=0.384908; S=2; Theta=270; length=57.125; wave=114.25}
! Header version: 2024
! Port assignment regex: !\s*Touchstone port\s*([0-9]+)\s*=\s*(CST MWS port|CST DES external port|CST DES block port)\s*(.+)\s* \(\"(.*)\"\)(\s*mode\s*([0-9]+))?.*
! Touchstone port assignment:
! Touchstone port 1 = CST MWS port 1 ("")
! Touchstone port 2 = CST MWS port 2 ("")
# GHz S DB R 50
1                    -0.02152966       -9.790867        -66.63962        164.2325             -200               0             -200               0
1.00658              -0.02204232       -9.876779        -66.63443        158.6677             -200               0             -200               0
1.01316               -0.0225206       -9.963478        -66.66027        153.2137             -200               0             -200               0
1.01974              -0.02297157       -10.05103        -66.71771        147.8806             -200               0             -200               0
1.02632              -0.02340141        -10.1395        -66.80744        142.6805             -200               0             -200               0
1.03289              -0.02382008       -10.22894        -66.93026        137.6287             -200               0             -200               0
1.03947              -0.02423565        -10.3194        -67.08701        132.7438             -200               0             -200               0
1.04605              -0.02466013       -10.41092        -67.27856        128.0487             -200               0             -200               0
1.05263              -0.02510474       -10.50351        -67.50572        123.5716             -200               0             -200               0
1.05921              -0.02558002       -10.59719        -67.76907        119.3469             -200               0             -200               0
1.06579              -0.02609833       -10.69197        -68.06881         115.417             -200               0             -200               0
1.07237              -0.02667034       -10.78783        -68.40435        111.8336             -200               0             -200               0
1.07895              -0.02730746       -10.88475        -68.77384        108.6594             -200               0             -200               0
1.08553              -0.02801897        -10.9827        -69.17337        105.9692             -200               0             -200               0
1.09211              -0.02881278       -11.08164        -69.59586        103.8499             -200               0             -200               0
1.09868              -0.02969868       -11.18153        -70.02949        102.3968             -200               0             -200               0
1.10526              -0.03068094        -11.2823        -70.45584        101.7048             -200               0             -200               0
1.11184              -0.03176404       -11.38389        -70.84814        101.8492             -200               0             -200               0
1.11842              -0.03295146       -11.48625        -71.17078         102.854             -200               0             -200               0
1.125                -0.03424326       -11.58931        -71.38196        104.6514             -200               0             -200               0
1.13158              -0.03563781       -11.69301        -71.44117        107.0481             -200               0             -200               0
1.13816              -0.03713345       -11.79729        -71.32056        109.7291             -200               0             -200               0
1.14474              -0.03872528       -11.90208        -71.01497        112.3147             -200               0             -200               0
1.15132              -0.04040669       -12.00736        -70.54398        114.4547             -200               0             -200               0
1.15789              -0.04217073       -12.11306        -69.94436        115.9044             -200               0             -200               0
1.16447              -0.04400759       -12.21918        -69.25839        116.5492             -200               0             -200               0
1.17105              -0.04590913       -12.32568        -68.52452        116.3824             -200               0             -200               0
1.17763              -0.04786527       -12.43256        -67.77292        115.4637             -200               0             -200               0
1.18421              -0.04986442       -12.53983        -67.02494        113.8841             -200               0             -200               0
1.19079              -0.05189724       -12.64751         -66.2946        111.7412             -200               0             -200               0
1.19737              -0.05395169       -12.75562        -65.59044        109.1267             -200               0             -200               0
1.20395              -0.05602057       -12.86422        -64.91725        106.1216             -200               0             -200               0
1.21053              -0.05809416       -12.97335        -64.27735        102.7946             -200               0             -200               0
1.21711              -0.06016488       -13.08309        -63.67151        99.20299             -200               0             -200               0
1.22368              -0.06222746       -13.19351        -63.09954        95.39434             -200               0             -200               0
1.23026              -0.06427724       -13.30469        -62.56069        91.40797             -200               0             -200               0
1.23684               -0.0663116       -13.41671        -62.05391        87.27649             -200               0             -200               0
1.24342              -0.06832969       -13.52968        -61.57802        83.02709             -200               0             -200               0
1.25                 -0.07033416       -13.64368        -61.13178        78.68264             -200               0             -200               0
1.25658              -0.07232771       -13.75881        -60.71398        74.26254             -200               0             -200               0
1.26316              -0.07431626       -13.87515        -60.32344        69.78342             -200               0             -200               0
1.26974              -0.07630688       -13.99279        -59.95907        65.25975             -200               0             -200               0
1.27632              -0.07830796       -14.11181        -59.61981        60.70421             -200               0             -200               0
1.28289              -0.08033126       -14.23226        -59.30473        56.12814             -200               0             -200               0
1.28947              -0.08238834       -14.35422        -59.01292        51.54181             -200               0             -200               0
1.29605               -0.0844908       -14.47773        -58.74356        46.95462             -200               0             -200               0
1.30263               -0.0866532       -14.60282        -58.49589        42.37541             -200               0             -200               0
1.30921              -0.08888856       -14.72951        -58.26917        37.81253             -200               0             -200               0
1.31579              -0.09121145        -14.8578        -58.06274        33.27403             -200               0             -200               0
1.32237              -0.09363445       -14.98771        -57.87593         28.7678             -200               0             -200               0
1.32895              -0.09617145        -15.1192         -57.7081        24.30165             -200               0             -200               0
1.33553               -0.0988335       -15.25224        -57.55862        19.88342             -200               0             -200               0
1.34211               -0.1016302        -15.3868        -57.42682        15.52104             -200               0             -200               0
1.34868               -0.1045714       -15.52283        -57.31204        11.22263             -200               0             -200               0
1.35526               -0.1076636       -15.66028        -57.21354        6.996528             -200               0             -200               0
1.36184               -0.1109128       -15.79908        -57.13053        2.851331             -200               0             -200               0
1.36842                -0.114322       -15.93917        -57.06212       -1.204079             -200               0             -200               0
1.375                 -0.1178911       -16.08049         -57.0073       -5.160558             -200               0             -200               0
1.38158               -0.1216197       -16.22298        -56.96492       -9.008729             -200               0             -200               0
1.38816                -0.125505       -16.36659        -56.93364       -12.73908             -200               0             -200               0
1.39474                -0.129542       -16.51126        -56.91192        -16.3421             -200               0             -200               0
1.40132               -0.1337228       -16.65696        -56.89797       -19.80847             -200               0             -200               0
1.40789               -0.1380395       -16.80367        -56.88971        -23.1294             -200               0             -200               0
1.41447               -0.1424835       -16.95136        -56.88476       -26.29693             -200               0             -200               0
1.42105                -0.147043       -17.10003         -56.8804        -29.3045             -200               0             -200               0
1.42763               -0.1517078       -17.24971         -56.8736       -32.14747             -200               0             -200               0
1.43421               -0.1564661       -17.40042        -56.86101       -34.82382             -200               0             -200               0
1.44079               -0.1613082        -17.5522        -56.83901       -37.33485             -200               0             -200               0
1.44737               -0.1662224       -17.70514        -56.80383        -39.6859             -200               0             -200               0
1.45395                  -0.1712       -17.85929        -56.75164       -41.88694             -200               0             -200               0
1.46053               -0.1762329       -18.01476        -56.67874       -43.95295             -200               0             -200               0
1.46711               -0.1813159       -18.17165        -56.58176       -45.90403             -200               0             -200               0
1.47368                -0.186443       -18.33007        -56.45787       -47.76498             -200               0             -200               0
1.48026               -0.1916142       -18.49016        -56.30494       -49.56448             -200               0             -200               0
1.48684               -0.1968285       -18.65204        -56.12176        -51.3339             -200               0             -200               0
1.49342               -0.2020898       -18.81586        -55.90809       -53.10562             -200               0             -200               0
1.5                   -0.2074047       -18.98175        -55.66468       -54.91141             -200               0             -200               0
1.50658               -0.2127815       -19.14984         -55.3932       -56.78073             -200               0             -200               0
1.51316               -0.2182303       -19.32026        -55.09608       -58.73942             -200               0             -200               0
1.51974               -0.2237659       -19.49315        -54.77634       -60.80875             -200               0             -200               0
1.52632               -0.2294046       -19.66862        -54.43738       -63.00493             -200               0             -200               0
1.53289               -0.2351628       -19.84675        -54.08274       -65.33912             -200               0             -200               0
1.53947               -0.2410622       -20.02766        -53.71596       -67.81773             -200               0             -200               0
1.54605               -0.2471225       -20.21141        -53.34044       -70.44297             -200               0             -200               0
1.55263               -0.2533662       -20.39806        -52.95931       -73.21355             -200               0             -200               0
1.55921               -0.2598154       -20.58764        -52.57539       -76.12543             -200               0             -200               0
1.56579               -0.2664931       -20.78019        -52.19116       -79.17248             -200               0             -200               0
1.57237               -0.2734203        -20.9757        -51.80876       -82.34709             -200               0             -200               0
1.57895               -0.2806185       -21.17417           -51.43       -85.64071             -200               0             -200               0
1.58553                -0.288108       -21.37557        -51.05637       -89.04426             -200               0             -200               0
1.59211               -0.2959061       -21.57985        -50.68908        -92.5484             -200               0             -200               0
1.59868               -0.3040293       -21.78698        -50.32912       -96.14385             -200               0             -200               0
1.60526                -0.312491        -21.9969        -49.97723       -99.82149             -200               0             -200               0
1.61184               -0.3213021       -22.20953          -49.634       -103.5725             -200               0             -200               0
1.61842               -0.3304715       -22.42482        -49.29982       -107.3885             -200               0             -200               0
1.625                 -0.3400036       -22.64269        -48.97499       -111.2614             -200               0             -200               0
1.63158               -0.3499029       -22.86309        -48.65966       -115.1837             -200               0             -200               0
1.63816                -0.360168       -23.08596         -48.3539       -119.1481             -200               0             -200               0
1.64474               -0.3707969       -23.31127         -48.0577        -123.148             -200               0             -200               0
1.65132               -0.3817845       -23.53897        -47.77096       -127.1771             -200               0             -200               0
1.65789               -0.3931227       -23.76906        -47.49355       -131.2294             -200               0             -200               0
1.66447               -0.4048047       -24.00155        -47.22524       -135.2993             -200               0             -200               0
1.67105               -0.4168209       -24.23648        -46.96581       -139.3816             -200               0             -200               0
1.67763               -0.4291583       -24.47388        -46.71495       -143.4716             -200               0             -200               0
1.68421                -0.441809       -24.71385        -46.47233       -147.5645             -200               0             -200               0
1.69079               -0.4547613       -24.95649        -46.23758       -151.6562             -200               0             -200               0
1.69737               -0.4680079       -25.20192        -46.01032       -155.7427             -200               0             -200               0
1.70395               -0.4815389       -25.45031        -45.79009       -159.8204             -200               0             -200               0
1.71053                -0.495351       -25.70184        -45.57644       -163.8857             -200               0             -200               0
1.71711               -0.5094413        -25.9567        -45.36888       -167.9358             -200               0             -200               0
1.72368               -0.5238109       -26.21513        -45.16688       -171.9677             -200               0             -200               0
1.73026               -0.5384652       -26.47737         -44.9699       -175.9791             -200               0             -200               0
1.73684                -0.553412       -26.74366        -44.77736       -179.9677             -200               0             -200               0
1.74342               -0.5686652       -27.01428        -44.58867        176.0683             -200               0             -200               0
1.75                  -0.5842413        -27.2895         -44.4032        172.1303             -200               0             -200               0
1.75658                -0.600165       -27.56961        -44.22033        168.2194             -200               0             -200               0
1.76316               -0.6164619       -27.85487        -44.03941        164.3363             -200               0             -200               0
1.76974               -0.6331666       -28.14556        -43.85977        160.4813             -200               0             -200               0
1.77632               -0.6503156       -28.44194        -43.68075        156.6542             -200               0             -200               0
1.78289               -0.6679496       -28.74427         -43.5017        152.8543             -200               0             -200               0
1.78947               -0.6861144       -29.05279        -43.32197        149.0807             -200               0             -200               0
1.79605               -0.7048586        -29.3677        -43.14092        145.3317             -200               0             -200               0
1.80263               -0.7242352       -29.68922        -42.95794        141.6054             -200               0             -200               0
1.80921               -0.7442987       -30.01752        -42.77248        137.8993             -200               0             -200               0
1.81579               -0.7651068       -30.35276        -42.58399        134.2105             -200               0             -200               0
1.82237                -0.786718       -30.69506        -42.39202        130.5358             -200               0             -200               0
1.82895               -0.8091914       -31.04455        -42.19614        126.8716             -200               0             -200               0
1.83553               -0.8325883        -31.4013        -41.99601        123.2139             -200               0             -200               0
1.84211                -0.856967       -31.76538        -41.79136        119.5587             -200               0             -200               0
1.84868               -0.8823899       -32.13685        -41.58199        115.9014             -200               0             -200               0
