! TOUCHSTONE file generated by CST MICROWAVE STUDIO
! Date and time: Tue Mar 18 00:01:33 2025
! Project name: oblique.cst
! Parameters = {Tilt=30; Fracture=1; B=12.5; D=160; F=15; Feed=2.85625; L=100; M=30; R=0.384908; S=1; Theta=180; length=57.125; wave=114.25}
! Header version: 2024
! Port assignment regex: !\s*Touchstone port\s*([0-9]+)\s*=\s*(CST MWS port|CST DES external port|CST DES block port)\s*(.+)\s* \(\"(.*)\"\)(\s*mode\s*([0-9]+))?.*
! Touchstone port assignment:
! Touchstone port 1 = CST MWS port 1 ("")
! Touchstone port 2 = CST MWS port 2 ("")
# GHz S DB R 50
1                    -0.02228545       -9.780937        -65.58997        171.9793             -200               0             -200               0
1.0066               -0.02292359        -9.86678        -65.66202        165.8137             -200               0             -200               0
1.0132               -0.02353475       -9.953256        -65.77331        159.7337             -200               0             -200               0
1.0198               -0.02412214       -10.04042        -65.92618        153.7451             -200               0             -200               0
1.0264                -0.0246869       -10.12834        -66.12349        147.8557             -200               0             -200               0
1.033                -0.02523607       -10.21706        -66.36873        142.0766             -200               0             -200               0
1.0396               -0.02577403       -10.30662        -66.66618        136.4225             -200               0             -200               0
1.0462               -0.02630851       -10.39708        -67.02111        130.9137             -200               0             -200               0
1.05281              -0.02684529       -10.48847        -67.43999        125.5778             -200               0             -200               0
1.05941              -0.02739348       -10.58081        -67.93091        120.4529             -200               0             -200               0
1.06601              -0.02796244       -10.67413        -68.50392        115.5928             -200               0             -200               0
1.07261              -0.02855959       -10.76843        -69.17171        111.0751             -200               0             -200               0
1.07921              -0.02919427       -10.86373        -69.95018        107.0149             -200               0             -200               0
1.08581              -0.02987548          -10.96        -70.85911        103.5888             -200               0             -200               0
1.09241              -0.03060986       -11.05724        -71.92202         101.078             -200               0             -200               0
1.09901              -0.03140428       -11.15543        -73.16306        99.94695             -200               0             -200               0
1.10561              -0.03226743       -11.25454        -74.59334        100.9835             -200               0             -200               0
1.11221              -0.03320303       -11.35453         -76.1634        105.4941             -200               0             -200               0
1.11881              -0.03421638       -11.45536        -77.63051        115.2369             -200               0             -200               0
1.12541              -0.03530993       -11.55699        -78.38386        130.6915             -200               0             -200               0
1.13201              -0.03648397       -11.65938         -77.8199        147.5857             -200               0             -200               0
1.13861              -0.03774055       -11.76247        -76.22651        159.9555             -200               0             -200               0
1.14521              -0.03907791       -11.86624        -74.31865        166.5752             -200               0             -200               0
1.15182              -0.04049332       -11.97064        -72.48302        169.0459             -200               0             -200               0
1.15842               -0.0419838       -12.07563         -70.8275        168.9211             -200               0             -200               0
1.16502              -0.04354206       -12.18118        -69.35709         167.185             -200               0             -200               0
1.17162              -0.04516426       -12.28727        -68.05015        164.4179             -200               0             -200               0
1.17822              -0.04684371       -12.39388        -66.88198         160.967             -200               0             -200               0
1.18482              -0.04857122       -12.50101        -65.83092        157.0473             -200               0             -200               0
1.19142              -0.05033947       -12.60866        -64.87925        152.7977             -200               0             -200               0
1.19802              -0.05214009       -12.71685        -64.01281        148.3109             -200               0             -200               0
1.20462              -0.05396674       -12.82559        -63.22026        143.6516             -200               0             -200               0
1.21122              -0.05580966       -12.93493        -62.49249        138.8657             -200               0             -200               0
1.21782              -0.05766218        -13.0449        -61.82212        133.9873             -200               0             -200               0
1.22442               -0.0595171       -13.15555        -61.20311        129.0419             -200               0             -200               0
1.23102              -0.06137166       -13.26696        -60.63049        124.0496             -200               0             -200               0
1.23762              -0.06322007       -13.37919        -60.10009         119.026             -200               0             -200               0
1.24422              -0.06505911        -13.4923        -59.60843        113.9842             -200               0             -200               0
1.25083              -0.06688761       -13.60639        -59.15256        108.9349             -200               0             -200               0
1.25743               -0.0687078       -13.72153        -58.72997        103.8874             -200               0             -200               0
1.26403              -0.07051948        -13.8378        -58.33848         98.8497             -200               0             -200               0
1.27063              -0.07232543       -13.95528        -57.97621        93.82914             -200               0             -200               0
1.27723              -0.07413309       -14.07406        -57.64154        88.83244             -200               0             -200               0
1.28383              -0.07594918        -14.1942        -57.33301        83.86593             -200               0             -200               0
1.29043              -0.07777937       -14.31578        -57.04935        78.93572             -200               0             -200               0
1.29703               -0.0796358       -14.43885        -56.78939        74.04779             -200               0             -200               0
1.30363              -0.08152627       -14.56348        -56.55208        69.20815             -200               0             -200               0
1.31023              -0.08346405        -14.6897        -56.33646        64.42286             -200               0             -200               0
1.31683              -0.08545854       -14.81755         -56.1416        59.69813             -200               0             -200               0
1.32343              -0.08752384       -14.94705        -55.96662        55.04043             -200               0             -200               0
1.33003              -0.08967207       -15.07822        -55.81064        50.45645             -200               0             -200               0
1.33663              -0.09191187       -15.21105        -55.67278        45.95322             -200               0             -200               0
1.34323              -0.09425861       -15.34555        -55.55213         41.5381             -200               0             -200               0
1.34984              -0.09672023       -15.48169         -55.4477        37.21879             -200               0             -200               0
1.35644              -0.09930571       -15.61944        -55.35843        33.00337             -200               0             -200               0
1.36304               -0.1020249       -15.75879        -55.28314        28.90016             -200               0             -200               0
1.36964               -0.1048845       -15.89968         -55.2205        24.91777             -200               0             -200               0
1.37624               -0.1078871       -16.04208        -55.16899        21.06487             -200               0             -200               0
1.38284               -0.1110396       -16.18594         -55.1269        17.35011             -200               0             -200               0
1.38944                 -0.11434       -16.33122        -55.09224        13.78177             -200               0             -200               0
1.39604               -0.1177917       -16.47788        -55.06276        10.36752             -200               0             -200               0
1.40264               -0.1213919       -16.62588         -55.0359        7.113949             -200               0             -200               0
1.40924               -0.1251366       -16.77519         -55.0088        4.026033             -200               0             -200               0
1.41584               -0.1290225       -16.92578        -54.97828        1.106563             -200               0             -200               0
1.42244               -0.1330428       -17.07765         -54.9409       -1.644549             -200               0             -200               0
1.42904                -0.137192       -17.23078        -54.89302       -4.230942             -200               0             -200               0
1.43564               -0.1414612        -17.3852         -54.8309       -6.660445             -200               0             -200               0
1.44224               -0.1458423       -17.54091        -54.75084       -8.945547             -200               0             -200               0
1.44884               -0.1503277       -17.69795        -54.64938       -11.10362             -200               0             -200               0
1.45545               -0.1549097       -17.85638        -54.52347       -13.15675             -200               0             -200               0
1.46205               -0.1595808       -18.01625        -54.37067       -15.13122             -200               0             -200               0
1.46865               -0.1643342       -18.17765        -54.18932       -17.05644             -200               0             -200               0
1.47525               -0.1691642       -18.34066         -53.9787       -18.96366             -200               0             -200               0
1.48185               -0.1740683       -18.50538        -53.73901       -20.88428             -200               0             -200               0
1.48845               -0.1790435       -18.67192        -53.47141       -22.84836             -200               0             -200               0
1.49505               -0.1840894       -18.84041        -53.17785       -24.88306             -200               0             -200               0
1.50165               -0.1892087       -19.01096        -52.86097       -27.01159             -200               0             -200               0
1.50825                -0.194406        -19.1837        -52.52386       -29.25252             -200               0             -200               0
1.51485                -0.199688       -19.35877         -52.1699       -31.61949             -200               0             -200               0
1.52145               -0.2050633       -19.53629        -51.80253       -34.12137             -200               0             -200               0
1.52805               -0.2105439       -19.71639        -51.42514       -36.76264             -200               0             -200               0
1.53465               -0.2161445        -19.8992        -51.04092       -39.54403             -200               0             -200               0
1.54125               -0.2218803       -20.08482        -50.65277       -42.46315             -200               0             -200               0
1.54785               -0.2277701       -20.27336        -50.26332       -45.51523             -200               0             -200               0
1.55446               -0.2338336       -20.46491        -49.87484       -48.69369             -200               0             -200               0
1.56106               -0.2400914       -20.65956        -49.48927       -51.99074             -200               0             -200               0
1.56766               -0.2465655       -20.85736        -49.10826       -55.39779             -200               0             -200               0
1.57426               -0.2532799       -21.05838        -48.73315       -58.90586             -200               0             -200               0
1.58086               -0.2602566       -21.26264        -48.36503       -62.50579             -200               0             -200               0
1.58746               -0.2675202       -21.47017        -48.00477       -66.18852             -200               0             -200               0
1.59406               -0.2750922       -21.68097        -47.65304       -69.94517             -200               0             -200               0
1.60066               -0.2829954       -21.89503        -47.31033       -73.76717             -200               0             -200               0
1.60726               -0.2912499       -22.11234        -46.97699        -77.6463             -200               0             -200               0
1.61386               -0.2998754       -22.33285        -46.65325       -81.57474             -200               0             -200               0
1.62046               -0.3088891       -22.55654        -46.33922       -85.54506             -200               0             -200               0
1.62706               -0.3183064       -22.78334        -46.03492       -89.55023             -200               0             -200               0
1.63366               -0.3281419       -23.01321         -45.7403       -93.58363             -200               0             -200               0
1.64026               -0.3384053       -23.24609        -45.45523         -97.639             -200               0             -200               0
1.64686               -0.3491052       -23.48193        -45.17952       -101.7104             -200               0             -200               0
1.65347               -0.3602487       -23.72069        -44.91294       -105.7924             -200               0             -200               0
1.66007                 -0.37184        -23.9623        -44.65519       -109.8797             -200               0             -200               0
1.66667               -0.3838791       -24.20675        -44.40594       -113.9673             -200               0             -200               0
1.67327               -0.3963702       -24.45402         -44.1648       -118.0507             -200               0             -200               0
1.67987               -0.4093074        -24.7041        -43.93135       -122.1256             -200               0             -200               0
1.68647               -0.4226925         -24.957        -43.70514       -126.1878             -200               0             -200               0
1.69307               -0.4365184       -25.21275        -43.48566       -130.2338             -200               0             -200               0
1.69967               -0.4507821       -25.47141        -43.27238       -134.2601             -200               0             -200               0
1.70627               -0.4654817       -25.73306        -43.06472       -138.2636             -200               0             -200               0
1.71287               -0.4806119       -25.99777        -42.86208       -142.2415             -200               0             -200               0
1.71947               -0.4961723       -26.26567        -42.66381       -146.1915             -200               0             -200               0
1.72607               -0.5121616       -26.53691        -42.46925       -150.1114             -200               0             -200               0
1.73267               -0.5285816       -26.81164        -42.27769       -153.9996             -200               0             -200               0
1.73927               -0.5454366       -27.09003        -42.08839       -157.8551             -200               0             -200               0
1.74587               -0.5627351        -27.3723        -41.90062        -161.677             -200               0             -200               0
1.75248               -0.5804864       -27.65865         -41.7136       -165.4651             -200               0             -200               0
1.75908               -0.5987062       -27.94931        -41.52658       -169.2199             -200               0             -200               0
1.76568               -0.6174139        -28.2445        -41.33877        -172.942             -200               0             -200               0
1.77228                -0.636632       -28.54448        -41.14943        -176.633             -200               0             -200               0
1.77888               -0.6563889       -28.84949        -40.95781        179.7051             -200               0             -200               0
1.78548                -0.676715       -29.15976         -40.7632        176.0698             -200               0             -200               0
1.79208               -0.6976497       -29.47555        -40.56496        172.4579             -200               0             -200               0
1.79868               -0.7192323       -29.79708        -40.36246        168.8658             -200               0             -200               0
1.80528               -0.7415099       -30.12458         -40.1552        165.2892             -200               0             -200               0
1.81188               -0.7645308       -30.45826        -39.94269        161.7238             -200               0             -200               0
1.81848               -0.7883498       -30.79831        -39.72458        158.1645             -200               0             -200               0
1.82508               -0.8130229       -31.14491        -39.50059        154.6061             -200               0             -200               0
1.83168               -0.8386112       -31.49822        -39.27056        151.0435             -200               0             -200               0
1.83828               -0.8651763       -31.85837        -39.03441         147.471             -200               0             -200               0
1.84488               -0.8927831       -32.22548        -38.79217        143.8835             -200               0             -200               0
1.85149               -0.9214997       -32.59965        -38.54398        140.2756             -200               0             -200               0
