! TOUCHSTONE file generated by CST MICROWAVE STUDIO
! Date and time: Tue Mar 18 00:02:56 2025
! Project name: oblique.cst
! Parameters = {Tilt=40; Fracture=1; B=12.5; D=160; F=15; Feed=2.85625; L=100; M=50; R=0.384908; S=1; Theta=270; length=57.125; wave=114.25}
! Header version: 2024
! Port assignment regex: !\s*Touchstone port\s*([0-9]+)\s*=\s*(CST MWS port|CST DES external port|CST DES block port)\s*(.+)\s* \(\"(.*)\"\)(\s*mode\s*([0-9]+))?.*
! Touchstone port assignment:
! Touchstone port 1 = CST MWS port 1 ("")
! Touchstone port 2 = CST MWS port 2 ("")
# GHz S DB R 50
1                    -0.02122119       -9.862592        -68.27614        156.2195             -200               0             -200               0
1.0066                -0.0219734       -9.951209        -68.28199         150.625             -200               0             -200               0
1.0132               -0.02274121       -10.04039        -68.32117        145.1375             -200               0             -200               0
1.0198               -0.02352607       -10.13015        -68.39452        139.7673             -200               0             -200               0
1.0264               -0.02432766       -10.22051        -68.50306        134.5276             -200               0             -200               0
1.033                 -0.0251468       -10.31148        -68.64799        129.4344             -200               0             -200               0
1.0396               -0.02598369       -10.40306        -68.83068         124.508             -200               0             -200               0
1.0462                -0.0268391       -10.49529         -69.0526        119.7736             -200               0             -200               0
1.05281              -0.02771471       -10.58818        -69.31531        115.2624             -200               0             -200               0
1.05941              -0.02861037       -10.68173        -69.62031        111.0141             -200               0             -200               0
1.06601              -0.02952822       -10.77597        -69.96878         107.078             -200               0             -200               0
1.07261              -0.03046904       -10.87091         -70.3613        103.5167             -200               0             -200               0
1.07921              -0.03143466       -10.96656        -70.79715        100.4083             -200               0             -200               0
1.08581               -0.0324268       -11.06293         -71.2733        97.85036             -200               0             -200               0
1.09241               -0.0334458       -11.16003        -71.78283        95.96122             -200               0             -200               0
1.09901                -0.034495       -11.25788        -72.31237        94.87854             -200               0             -200               0
1.10561              -0.03557517       -11.35649        -72.83879        94.74813             -200               0             -200               0
1.11221              -0.03668778       -11.45585        -73.32549         95.6951             -200               0             -200               0
1.11881              -0.03783459       -11.55598        -73.72062        97.76837             -200               0             -200               0
1.12541              -0.03901598        -11.6569        -73.96143        100.8626             -200               0             -200               0
1.13201               -0.0402355       -11.75859        -73.98912        104.6562             -200               0             -200               0
1.13861              -0.04149287       -11.86107        -73.77119        108.6349             -200               0             -200               0
1.14521              -0.04278798       -11.96435        -73.31698        112.2324             -200               0             -200               0
1.15182              -0.04412378       -12.06842        -72.67291        115.0073             -200               0             -200               0
1.15842              -0.04549955        -12.1733        -71.90179        116.7357             -200               0             -200               0
1.16502              -0.04691605       -12.27899        -71.06258        117.3896             -200               0             -200               0
1.17162              -0.04837363        -12.3855        -70.20035        117.0601             -200               0             -200               0
1.17822              -0.04987143       -12.49284         -69.3452        115.8871             -200               0             -200               0
1.18482              -0.05141173       -12.60101        -68.51533        114.0158             -200               0             -200               0
1.19142              -0.05299256       -12.71002        -67.72069        111.5772             -200               0             -200               0
1.19802              -0.05461338       -12.81989        -66.96602        108.6815             -200               0             -200               0
1.20462              -0.05627466       -12.93063        -66.25287        105.4188             -200               0             -200               0
1.21122              -0.05797529       -13.04226        -65.58102        101.8615             -200               0             -200               0
1.21782              -0.05971566       -13.15479        -64.94923        98.06758             -200               0             -200               0
1.22442              -0.06149373       -13.26824         -64.3558        94.08377             -200               0             -200               0
1.23102              -0.06331181       -13.38264        -63.79881        89.94775             -200               0             -200               0
1.23762              -0.06516946         -13.498        -63.27633        85.69028             -200               0             -200               0
1.24422              -0.06706498       -13.61436        -62.78646         81.3367             -200               0             -200               0
1.25083              -0.06899922       -13.73173        -62.32742        76.90812             -200               0             -200               0
1.25743              -0.07097257       -13.85016        -61.89753        72.42233             -200               0             -200               0
1.26403              -0.07298679       -13.96966        -61.49527        67.89458             -200               0             -200               0
1.27063              -0.07504141       -14.09028        -61.11921        63.33805             -200               0             -200               0
1.27723              -0.07713913       -14.21203        -60.76804        58.76437             -200               0             -200               0
1.28383              -0.07928112       -14.33496        -60.44057        54.18391             -200               0             -200               0
1.29043               -0.0814704        -14.4591        -60.13567        49.60606             -200               0             -200               0
1.29703              -0.08370739       -14.58448         -59.8523        45.03948             -200               0             -200               0
1.30363              -0.08599676       -14.71114        -59.58948        40.49228             -200               0             -200               0
1.31023              -0.08834058        -14.8391        -59.34625         35.9721             -200               0             -200               0
1.31683              -0.09074228        -14.9684        -59.12171        31.48628             -200               0             -200               0
1.32343              -0.09320607       -15.09907        -58.91497        27.04197             -200               0             -200               0
1.33003              -0.09573501       -15.23114        -58.72514        22.64613             -200               0             -200               0
1.33663               -0.0983332       -15.36464        -58.55132        18.30566             -200               0             -200               0
1.34323                -0.101007        -15.4996        -58.39257        14.02737             -200               0             -200               0
1.34984               -0.1037569       -15.63603        -58.24792         9.81804             -200               0             -200               0
1.35644               -0.1065914       -15.77397        -58.11634        5.684369             -200               0             -200               0
1.36304               -0.1095126       -15.91345         -57.9967        1.632989             -200               0             -200               0
1.36964               -0.1125255       -16.05447        -57.88779       -2.329617             -200               0             -200               0
1.37624               -0.1156342       -16.19706        -57.78829       -6.197199             -200               0             -200               0
1.38284               -0.1188428       -16.34125        -57.69675       -9.963856             -200               0             -200               0
1.38944               -0.1221577       -16.48705        -57.61156       -13.62419             -200               0             -200               0
1.39604                -0.125579       -16.63448        -57.53098       -17.17352             -200               0             -200               0
1.40264               -0.1291155       -16.78355         -57.4531       -20.60809             -200               0             -200               0
1.40924               -0.1327665        -16.9343        -57.37586       -23.92536             -200               0             -200               0
1.41584               -0.1365392       -17.08673        -57.29706       -27.12428             -200               0             -200               0
1.42244               -0.1404358       -17.24086        -57.21437       -30.20565             -200               0             -200               0
1.42904               -0.1444592       -17.39673         -57.1254       -33.17235             -200               0             -200               0
1.43564               -0.1486125       -17.55435        -57.02773       -36.02965             -200               0             -200               0
1.44224               -0.1528993       -17.71374        -56.91899       -38.78537             -200               0             -200               0
1.44884               -0.1573233       -17.87494        -56.79695       -41.44999             -200               0             -200               0
1.45545               -0.1618875       -18.03797        -56.65958       -44.03653             -200               0             -200               0
1.46205               -0.1665958       -18.20286        -56.50518       -46.56038             -200               0             -200               0
1.46865               -0.1714494       -18.36964        -56.33243       -49.03886             -200               0             -200               0
1.47525               -0.1764535       -18.53836        -56.14047       -51.49066             -200               0             -200               0
1.48185               -0.1816126       -18.70905        -55.92896       -53.93515             -200               0             -200               0
1.48845               -0.1869286       -18.88174        -55.69805       -56.39168             -200               0             -200               0
1.49505               -0.1924084       -19.05649        -55.44841       -58.87878             -200               0             -200               0
1.50165               -0.1980542       -19.23333        -55.18115       -61.41355             -200               0             -200               0
1.50825               -0.2038725       -19.41231        -54.89776        -64.0111             -200               0             -200               0
1.51485               -0.2098698       -19.59349        -54.60002       -66.68413             -200               0             -200               0
1.52145               -0.2160505        -19.7769        -54.28992       -69.44278             -200               0             -200               0
1.52805               -0.2224222        -19.9626        -53.96955       -72.29456             -200               0             -200               0
1.53465               -0.2289923       -20.15064        -53.64104       -75.24446             -200               0             -200               0
1.54125               -0.2357672       -20.34107        -53.30647       -78.29514             -200               0             -200               0
1.54785               -0.2427559       -20.53394        -52.96783       -81.44719             -200               0             -200               0
1.55446               -0.2499662       -20.72929        -52.62698       -84.69947             -200               0             -200               0
1.56106               -0.2574084       -20.92719         -52.2856       -88.04941             -200               0             -200               0
1.56766               -0.2650918       -21.12767        -51.94522        -91.4933             -200               0             -200               0
1.57426               -0.2730254       -21.33079        -51.60718       -95.02657             -200               0             -200               0
1.58086               -0.2812199       -21.53658        -51.27265       -98.64405             -200               0             -200               0
1.58746                -0.289687        -21.7451        -50.94263       -102.3401             -200               0             -200               0
1.59406               -0.2984363       -21.95639        -50.61796        -106.109             -200               0             -200               0
1.60066               -0.3074788       -22.17049        -50.29935       -109.9447             -200               0             -200               0
1.60726               -0.3168263       -22.38744        -49.98736       -113.8412             -200               0             -200               0
1.61386               -0.3264904       -22.60728        -49.68247       -117.7926             -200               0             -200               0
1.62046               -0.3364821       -22.83004        -49.38501       -121.7932             -200               0             -200               0
1.62706               -0.3468131       -23.05577        -49.09526       -125.8374             -200               0             -200               0
1.63366               -0.3574941       -23.28451        -48.81339       -129.9197             -200               0             -200               0
1.64026               -0.3685381       -23.51629        -48.53951       -134.0348             -200               0             -200               0
1.64686               -0.3799556       -23.75116        -48.27368       -138.1778             -200               0             -200               0
1.65347               -0.3917592       -23.98915        -48.01587       -142.3439             -200               0             -200               0
1.66007               -0.4039593        -24.2303        -47.76603       -146.5285             -200               0             -200               0
1.66667               -0.4165682       -24.47467        -47.52405       -150.7272             -200               0             -200               0
1.67327               -0.4295989        -24.7223        -47.28979       -154.9358             -200               0             -200               0
1.67987               -0.4430618       -24.97324        -47.06305       -159.1504             -200               0             -200               0
1.68647               -0.4569698       -25.22756        -46.84362       -163.3672             -200               0             -200               0
1.69307               -0.4713363       -25.48529        -46.63124       -167.5826             -200               0             -200               0
1.69967               -0.4861749       -25.74651        -46.42562       -171.7933             -200               0             -200               0
1.70627               -0.5014986       -26.01128        -46.22645       -175.9961             -200               0             -200               0
1.71287                -0.517322       -26.27968        -46.03337         179.812             -200               0             -200               0
1.71947                -0.533661       -26.55177        -45.84602        175.6337             -200               0             -200               0
1.72607               -0.5505309       -26.82765        -45.66397        171.4717             -200               0             -200               0
1.73267               -0.5679499       -27.10739        -45.48682        167.3282             -200               0             -200               0
1.73927               -0.5859356       -27.39108        -45.31408        163.2054             -200               0             -200               0
1.74587               -0.6045078       -27.67881        -45.14529        159.1051             -200               0             -200               0
1.75248               -0.6236884       -27.97067        -44.97993        155.0289             -200               0             -200               0
1.75908               -0.6434976       -28.26676        -44.81747         150.978             -200               0             -200               0
1.76568               -0.6639615       -28.56718        -44.65738        146.9535             -200               0             -200               0
1.77228               -0.6851042       -28.87202        -44.49908        142.9561             -200               0             -200               0
1.77888               -0.7069534       -29.18138        -44.34201        138.9859             -200               0             -200               0
1.78548               -0.7295373       -29.49536        -44.18557         135.043             -200               0             -200               0
1.79208                -0.752885       -29.81405        -44.02918        131.1269             -200               0             -200               0
1.79868               -0.7770308       -30.13756        -43.87227        127.2368             -200               0             -200               0
1.80528               -0.8020068       -30.46597        -43.71426        123.3714             -200               0             -200               0
1.81188               -0.8278494       -30.79938        -43.55461        119.5292             -200               0             -200               0
1.81848               -0.8545946       -31.13786        -43.39277        115.7079             -200               0             -200               0
1.82508               -0.8822803       -31.48151        -43.22826        111.9053             -200               0             -200               0
1.83168               -0.9109475       -31.83039        -43.06063        108.1184             -200               0             -200               0
1.83828                -0.940637       -32.18459        -42.88946        104.3442             -200               0             -200               0
1.84488               -0.9713909       -32.54417        -42.71441        100.5792             -200               0             -200               0
1.85149                -1.003254        -32.9092        -42.53518        96.81973             -200               0             -200               0
