! TOUCHSTONE file generated by CST MICROWAVE STUDIO
! Date and time: Tue Mar 18 00:01:06 2025
! Project name: oblique.cst
! Parameters = {Tilt=30; Fracture=1; B=10; D=160; F=25; Feed=2.85625; L=100; M=10; R=0.384908; S=2; Theta=180; length=57.125; wave=114.25}
! Header version: 2024
! Port assignment regex: !\s*Touchstone port\s*([0-9]+)\s*=\s*(CST MWS port|CST DES external port|CST DES block port)\s*(.+)\s* \(\"(.*)\"\)(\s*mode\s*([0-9]+))?.*
! Touchstone port assignment:
! Touchstone port 1 = CST MWS port 1 ("")
! Touchstone port 2 = CST MWS port 2 ("")
# GHz S DB R 50
1                    -0.01929585       -9.777249         -68.7273        -163.128             -200               0             -200               0
1.00658              -0.02004876       -9.865306        -68.61664       -166.6941             -200               0             -200               0
1.01316              -0.02083319       -9.953841        -68.51958       -170.1304             -200               0             -200               0
1.01974               -0.0216484       -10.04285        -68.43411       -173.4272             -200               0             -200               0
1.02632               -0.0224904       -10.13233        -68.35793       -176.5751             -200               0             -200               0
1.03289              -0.02335719        -10.2223        -68.28846       -179.5658             -200               0             -200               0
1.03947              -0.02424567       -10.31275        -68.22279        177.6079             -200               0             -200               0
1.04605              -0.02515304        -10.4037         -68.1577        174.9509             -200               0             -200               0
1.05263              -0.02607749       -10.49516        -68.08964        172.4659             -200               0             -200               0
1.05921               -0.0270165       -10.58716        -68.01482        170.1519             -200               0             -200               0
1.06579              -0.02796806       -10.67972        -67.92926        168.0041             -200               0             -200               0
1.07237              -0.02893003       -10.77286        -67.82891        166.0126             -200               0             -200               0
1.07895              -0.02990267       -10.86661        -67.70987        164.1627             -200               0             -200               0
1.08553              -0.03088424       -10.96101        -67.56854        162.4341             -200               0             -200               0
1.09211               -0.0318749       -11.05607        -67.40189        160.8017             -200               0             -200               0
1.09868              -0.03287537       -11.15184        -67.20761        159.2363             -200               0             -200               0
1.10526              -0.03388678       -11.24835        -66.98433        157.7058             -200               0             -200               0
1.11184              -0.03491141       -11.34563         -66.7317        156.1768             -200               0             -200               0
1.11842              -0.03595093       -11.44371        -66.45038        154.6166             -200               0             -200               0
1.125                -0.03700816       -11.54261        -66.14201        152.9949             -200               0             -200               0
1.13158              -0.03808801       -11.64237        -65.80905         151.285             -200               0             -200               0
1.13816              -0.03919284         -11.743        -65.45456        149.4649             -200               0             -200               0
1.14474              -0.04032629       -11.84453        -65.08198        147.5178             -200               0             -200               0
1.15132              -0.04149452       -11.94698        -64.69495        145.4324             -200               0             -200               0
1.15789               -0.0427008       -12.05034        -64.29708        143.2021             -200               0             -200               0
1.16447              -0.04394902       -12.15464        -63.89183        140.8247             -200               0             -200               0
1.17105              -0.04524471       -12.25988        -63.48241        138.3016             -200               0             -200               0
1.17763              -0.04659193       -12.36606         -63.0717        135.6372             -200               0             -200               0
1.18421              -0.04799345       -12.47316        -62.66222        132.8378             -200               0             -200               0
1.19079              -0.04945401        -12.5812        -62.25615        129.9114             -200               0             -200               0
1.19737              -0.05097607       -12.69016        -61.85534         126.867             -200               0             -200               0
1.20395              -0.05256137       -12.80002        -61.46128        123.7138             -200               0             -200               0
1.21053              -0.05421348       -12.91079        -61.07523        120.4617             -200               0             -200               0
1.21711              -0.05593228       -13.02243        -60.69818        117.1203             -200               0             -200               0
1.22368              -0.05771818       -13.13495        -60.33088         113.699             -200               0             -200               0
1.23026              -0.05957191       -13.24833        -59.97394        110.2069             -200               0             -200               0
1.23684               -0.0614924       -13.36255        -59.62777         106.653             -200               0             -200               0
1.24342              -0.06347866       -13.47762        -59.29267        103.0456             -200               0             -200               0
1.25                 -0.06552729       -13.59352        -58.96882        99.39252             -200               0             -200               0
1.25658              -0.06763817       -13.71026        -58.65629        95.70143             -200               0             -200               0
1.26316              -0.06980691       -13.82783         -58.3551        91.97942             -200               0             -200               0
1.26974               -0.0720305       -13.94624        -58.06516        88.23324             -200               0             -200               0
1.27632              -0.07430678       -14.06552        -57.78636        84.46926             -200               0             -200               0
1.28289               -0.0766308       -14.18566        -57.51851        80.69354             -200               0             -200               0
1.28947              -0.07900088        -14.3067        -57.26137         76.9118             -200               0             -200               0
1.29605              -0.08141276       -14.42867        -57.01467         73.1295             -200               0             -200               0
1.30263              -0.08386386       -14.55159        -56.77811         69.3518             -200               0             -200               0
1.30921              -0.08635144        -14.6755        -56.55133        65.58363             -200               0             -200               0
1.31579              -0.08887395       -14.80044        -56.33393        61.82965             -200               0             -200               0
1.32237                 -0.09143       -14.92647        -56.12549        58.09433             -200               0             -200               0
1.32895               -0.0940184       -15.05362        -55.92556        54.38187             -200               0             -200               0
1.33553              -0.09663964       -15.18195        -55.73362        50.69626             -200               0             -200               0
1.34211               -0.0992935       -15.31151        -55.54915        47.04123             -200               0             -200               0
1.34868               -0.1019825       -15.44236        -55.37155        43.42027             -200               0             -200               0
1.35526               -0.1047094       -15.57454        -55.20023        39.83658             -200               0             -200               0
1.36184               -0.1074754       -15.70812        -55.03451        36.29309             -200               0             -200               0
1.36842               -0.1102851       -15.84314        -54.87371        32.79237             -200               0             -200               0
1.375                 -0.1131434       -15.97965         -54.7171        29.33664             -200               0             -200               0
1.38158               -0.1160542       -16.11769        -54.56391        25.92772             -200               0             -200               0
1.38816               -0.1190229       -16.25733        -54.41333        22.56699             -200               0             -200               0
1.39474               -0.1220567       -16.39858        -54.26455        19.25534             -200               0             -200               0
1.40132               -0.1251601       -16.54149        -54.11671        15.99312             -200               0             -200               0
1.40789               -0.1283407        -16.6861        -53.96896        12.78013             -200               0             -200               0
1.41447               -0.1316027       -16.83242        -53.82044        9.615558             -200               0             -200               0
1.42105               -0.1349538        -16.9805        -53.67028        6.497955             -200               0             -200               0
1.42763               -0.1383993       -17.13034        -53.51765        3.425245             -200               0             -200               0
1.43421               -0.1419443       -17.28197        -53.36176       0.3946908             -200               0             -200               0
1.44079               -0.1455953       -17.43541        -53.20185       -2.597063             -200               0             -200               0
1.44737               -0.1493544       -17.59067        -53.03723       -5.553976             -200               0             -200               0
1.45395               -0.1532271       -17.74776         -52.8673       -8.480548             -200               0             -200               0
1.46053               -0.1572175        -17.9067        -52.69153       -11.38175             -200               0             -200               0
1.46711               -0.1613269       -18.06751        -52.50951       -14.26294             -200               0             -200               0
1.47368               -0.1655575       -18.23021        -52.32094       -17.12975             -200               0             -200               0
1.48026               -0.1699122       -18.39481        -52.12561       -19.98796             -200               0             -200               0
1.48684               -0.1743903       -18.56135        -51.92348       -22.84342             -200               0             -200               0
1.49342                -0.178993       -18.72985        -51.71457       -25.70187             -200               0             -200               0
1.5                    -0.183721       -18.90035        -51.49905       -28.56887             -200               0             -200               0
1.50658                -0.188574       -19.07289         -51.2772       -31.44963             -200               0             -200               0
1.51316               -0.1935511       -19.24753        -51.04936         -34.349             -200               0             -200               0
1.51974               -0.1986533       -19.42432        -50.81599       -37.27131             -200               0             -200               0
1.52632                -0.203881       -19.60332        -50.57758       -40.22034             -200               0             -200               0
1.53289               -0.2092344       -19.78461        -50.33471       -43.19932             -200               0             -200               0
1.53947               -0.2147144       -19.96827        -50.08797       -46.21082             -200               0             -200               0
1.54605               -0.2203253        -20.1544        -49.83797       -49.25685             -200               0             -200               0
1.55263               -0.2260671       -20.34307        -49.58534       -52.33878             -200               0             -200               0
1.55921               -0.2319467        -20.5344        -49.33071       -55.45744             -200               0             -200               0
1.56579               -0.2379682        -20.7285        -49.07467       -58.61312             -200               0             -200               0
1.57237               -0.2441396       -20.92547        -48.81782       -61.80562             -200               0             -200               0
1.57895               -0.2504688       -21.12544        -48.56068        -65.0343             -200               0             -200               0
1.58553               -0.2569658       -21.32851        -48.30377       -68.29814             -200               0             -200               0
1.59211               -0.2636442       -21.53482        -48.04756       -71.59579             -200               0             -200               0
1.59868               -0.2705164       -21.74447        -47.79245       -74.92562             -200               0             -200               0
1.60526               -0.2775967        -21.9576        -47.53882       -78.28577             -200               0             -200               0
1.61184               -0.2849036        -22.1743        -47.28698        -81.6742             -200               0             -200               0
1.61842               -0.2924566        -22.3947         -47.0372       -85.08874             -200               0             -200               0
1.625                 -0.3002742       -22.61891        -46.78969       -88.52713             -200               0             -200               0
1.63158               -0.3083786       -22.84701        -46.54464       -91.98704             -200               0             -200               0
1.63816               -0.3167936       -23.07911        -46.30215       -95.46613             -200               0             -200               0
1.64474               -0.3255408       -23.31528         -46.0623       -98.96206             -200               0             -200               0
1.65132               -0.3346465       -23.55561        -45.82514       -102.4725             -200               0             -200               0
1.65789               -0.3441373       -23.80017        -45.59065       -105.9953             -200               0             -200               0
1.66447               -0.3540379         -24.049        -45.35879       -109.5282             -200               0             -200               0
1.67105               -0.3643751       -24.30216        -45.12947       -113.0693             -200               0             -200               0
1.67763               -0.3751752        -24.5597        -44.90259       -116.6165             -200               0             -200               0
1.68421               -0.3864651       -24.82164        -44.67799       -120.1681             -200               0             -200               0
1.69079               -0.3982718       -25.08801        -44.45551       -123.7225             -200               0             -200               0
1.69737               -0.4106196       -25.35883        -44.23493       -127.2783             -200               0             -200               0
1.70395               -0.4235345       -25.63411        -44.01605       -130.8342             -200               0             -200               0
1.71053               -0.4370411       -25.91387        -43.79861       -134.3892             -200               0             -200               0
1.71711               -0.4511649       -26.19811        -43.58236       -137.9423             -200               0             -200               0
1.72368               -0.4659268       -26.48684        -43.36704       -141.4931             -200               0             -200               0
1.73026               -0.4813514       -26.78006        -43.15236        -145.041             -200               0             -200               0
1.73684               -0.4974596       -27.07779        -42.93803        -148.586             -200               0             -200               0
1.74342               -0.5142744       -27.38005        -42.72378       -152.1281             -200               0             -200               0
1.75                   -0.531814       -27.68684        -42.50932       -155.6677             -200               0             -200               0
1.75658               -0.5501008       -27.99819        -42.29438       -159.2052             -200               0             -200               0
1.76316               -0.5691544       -28.31414        -42.07868       -162.7415             -200               0             -200               0
1.76974               -0.5889962       -28.63473        -41.86198       -166.2775             -200               0             -200               0
1.77632               -0.6096454       -28.96002        -41.64405       -169.8144             -200               0             -200               0
1.78289               -0.6311264       -29.29006        -41.42467       -173.3536             -200               0             -200               0
1.78947               -0.6534602       -29.62493        -41.20366       -176.8966             -200               0             -200               0
1.79605               -0.6766705       -29.96473        -40.98087        179.5548             -200               0             -200               0
1.80263               -0.7007839       -30.30954        -40.75616        175.9989             -200               0             -200               0
1.80921               -0.7258275       -30.65949        -40.52944        172.4336             -200               0             -200               0
1.81579               -0.7518313       -31.01469        -40.30065        168.8572             -200               0             -200               0
1.82237               -0.7788296       -31.37528        -40.06978        165.2674             -200               0             -200               0
1.82895                -0.806857       -31.74139        -39.83681        161.6623             -200               0             -200               0
1.83553               -0.8359532       -32.11318        -39.60181        158.0399             -200               0             -200               0
1.84211               -0.8661615        -32.4908        -39.36484        154.3981             -200               0             -200               0
1.84868               -0.8975297       -32.87441        -39.12602        150.7351             -200               0             -200               0
