! TOUCHSTONE file generated by CST MICROWAVE STUDIO
! Date and time: Tue Mar 18 00:02:46 2025
! Project name: oblique.cst
! Parameters = {Tilt=40; Fracture=1; B=12.5; D=160; F=5; Feed=2.85625; L=100; M=10; R=0.384908; S=2; Theta=90; length=57.125; wave=114.25}
! Header version: 2024
! Port assignment regex: !\s*Touchstone port\s*([0-9]+)\s*=\s*(CST MWS port|CST DES external port|CST DES block port)\s*(.+)\s* \(\"(.*)\"\)(\s*mode\s*([0-9]+))?.*
! Touchstone port assignment:
! Touchstone port 1 = CST MWS port 1 ("")
! Touchstone port 2 = CST MWS port 2 ("")
# GHz S DB R 50
1                    -0.01898538       -9.783771        -71.03497       -126.0854             -200               0             -200               0
1.00658               -0.0197102       -9.872592        -70.42991       -130.4048             -200               0             -200               0
1.01316              -0.02048744       -9.961863        -69.88171        -134.832             -200               0             -200               0
1.01974              -0.02131295       -10.05155        -69.38569       -139.3353             -200               0             -200               0
1.02632              -0.02218188       -10.14164        -68.93795       -143.8891             -200               0             -200               0
1.03289               -0.0230887        -10.2321        -68.53522       -148.4724             -200               0             -200               0
1.03947              -0.02402779       -10.32292        -68.17478       -153.0673             -200               0             -200               0
1.04605              -0.02499309       -10.41411        -67.85433       -157.6581             -200               0             -200               0
1.05263              -0.02597597       -10.50566        -67.57197       -162.2303             -200               0             -200               0
1.05921               -0.0269715       -10.59759         -67.3261       -166.7704             -200               0             -200               0
1.06579               -0.0279714       -10.68992        -67.11536       -171.2655             -200               0             -200               0
1.07237              -0.02897044       -10.78267        -66.93862       -175.7023             -200               0             -200               0
1.07895              -0.02996177        -10.8759        -66.79493        179.9326             -200               0             -200               0
1.08553              -0.03094067       -10.96964        -66.68341        175.6534             -200               0             -200               0
1.09211              -0.03190357       -11.06395         -66.6033        171.4753             -200               0             -200               0
1.09868              -0.03284624       -11.15888        -66.55386         167.415             -200               0             -200               0
1.10526               -0.0337674       -11.25449        -66.53427        163.4908             -200               0             -200               0
1.11184              -0.03466571       -11.35085        -66.54362        159.7233             -200               0             -200               0
1.11842              -0.03554218       -11.44802        -66.58079        156.1351             -200               0             -200               0
1.125                -0.03639951       -11.54607        -66.64429        152.7519             -200               0             -200               0
1.13158              -0.03723981       -11.64506        -66.73212        149.6019             -200               0             -200               0
1.13816              -0.03806888       -11.74506        -66.84157        146.7165             -200               0             -200               0
1.14474              -0.03889204       -11.84612        -66.96893        144.1291             -200               0             -200               0
1.15132              -0.03971647       -11.94829        -67.10921         141.875             -200               0             -200               0
1.15789              -0.04054989       -12.05162        -67.25578        139.9886             -200               0             -200               0
1.16447               -0.0414008       -12.15614        -67.40004        138.5012             -200               0             -200               0
1.17105              -0.04227907       -12.26189        -67.53124        137.4356             -200               0             -200               0
1.17763              -0.04319367       -12.36888        -67.63646        136.8002             -200               0             -200               0
1.18421               -0.0441544       -12.47714        -67.70111        136.5816             -200               0             -200               0
1.19079              -0.04517097       -12.58664        -67.71003        136.7379             -200               0             -200               0
1.19737              -0.04625216        -12.6974        -67.64916        137.1943             -200               0             -200               0
1.20395              -0.04740717        -12.8094         -67.5077        137.8453             -200               0             -200               0
1.21053              -0.04864327       -12.92262           -67.28        138.5642             -200               0             -200               0
1.21711              -0.04996749       -13.03702        -66.96672        139.2174             -200               0             -200               0
1.22368              -0.05138556       -13.15258        -66.57463        139.6827             -200               0             -200               0
1.23026              -0.05290216       -13.26926        -66.11517        139.8625             -200               0             -200               0
1.23684               -0.0545197       -13.38701        -65.60243        139.6912             -200               0             -200               0
1.24342              -0.05624099        -13.5058        -65.05111        139.1353             -200               0             -200               0
1.25                  -0.0580652       -13.62558        -64.47492        138.1882             -200               0             -200               0
1.25658              -0.05999202       -13.74632         -63.8857        136.8632             -200               0             -200               0
1.26316              -0.06201935       -13.86799        -63.29307        135.1861             -200               0             -200               0
1.26974              -0.06414195       -13.99055        -62.70449        133.1896             -200               0             -200               0
1.27632              -0.06635672       -14.11398        -62.12552        130.9088             -200               0             -200               0
1.28289              -0.06865621       -14.23827        -61.56013        128.3787             -200               0             -200               0
1.28947              -0.07103616       -14.36341        -61.01104        125.6325             -200               0             -200               0
1.29605              -0.07348731       -14.48941        -60.47999        122.7007             -200               0             -200               0
1.30263              -0.07600415       -14.61629        -59.96804        119.6109             -200               0             -200               0
1.30921              -0.07857965       -14.74406        -59.47568        116.3877             -200               0             -200               0
1.31579              -0.08120522       -14.87276        -59.00302        113.0531             -200               0             -200               0
1.32237              -0.08387557       -15.00244        -58.54988        109.6264             -200               0             -200               0
1.32895              -0.08658494       -15.13315        -58.11591        106.1248             -200               0             -200               0
1.33553              -0.08932861       -15.26497        -57.70057        102.5637             -200               0             -200               0
1.34211              -0.09210325       -15.39795        -57.30323         98.9566             -200               0             -200               0
1.34868              -0.09490562       -15.53219        -56.92321        95.31559             -200               0             -200               0
1.35526              -0.09773638       -15.66776        -56.55974        91.65155             -200               0             -200               0
1.36184               -0.1005961       -15.80475        -56.21202        87.97422             -200               0             -200               0
1.36842               -0.1034876       -15.94326        -55.87922        84.29237             -200               0             -200               0
1.375                 -0.1064146       -16.08336        -55.56049        80.61396             -200               0             -200               0
1.38158               -0.1093846       -16.22515        -55.25494        76.94613             -200               0             -200               0
1.38816               -0.1124043       -16.36871        -54.96164        73.29536             -200               0             -200               0
1.39474               -0.1154833       -16.51412        -54.67968        69.66745             -200               0             -200               0
1.40132                -0.118632       -16.66145        -54.40807        66.06761             -200               0             -200               0
1.40789                -0.121862       -16.81077        -54.14585        62.50042             -200               0             -200               0
1.41447               -0.1251872       -16.96213        -53.89199        58.96986             -200               0             -200               0
1.42105                -0.128619       -17.11556        -53.64545        55.47929             -200               0             -200               0
1.42763               -0.1321729       -17.27112        -53.40517        52.03144             -200               0             -200               0
1.43421               -0.1358627       -17.42882        -53.17009         48.6284             -200               0             -200               0
1.44079               -0.1397006       -17.58868        -52.93909        45.27153             -200               0             -200               0
1.44737               -0.1437018       -17.75069         -52.7111        41.96149             -200               0             -200               0
1.45395               -0.1478782       -17.91485          -52.485        38.69819             -200               0             -200               0
1.46053               -0.1522414       -18.08114        -52.25973        35.48077             -200               0             -200               0
1.46711               -0.1568019       -18.24955        -52.03423        32.30757             -200               0             -200               0
1.47368               -0.1615705       -18.42003        -51.80749        29.17615             -200               0             -200               0
1.48026               -0.1665526       -18.59257        -51.57857         26.0833             -200               0             -200               0
1.48684                -0.171756       -18.76713        -51.34658        23.02511             -200               0             -200               0
1.49342               -0.1771841       -18.94366        -51.11075        19.99695             -200               0             -200               0
1.5                   -0.1828399       -19.12214        -50.87039        16.99365             -200               0             -200               0
1.50658               -0.1887246       -19.30253        -50.62495        14.00955             -200               0             -200               0
1.51316                -0.194838       -19.48482          -50.374        11.03862             -200               0             -200               0
1.51974               -0.2011778       -19.66898        -50.11724        8.074587             -200               0             -200               0
1.52632               -0.2077408       -19.85502        -49.85452        5.111128             -200               0             -200               0
1.53289               -0.2145241       -20.04294        -49.58583         2.14196             -200               0             -200               0
1.53947               -0.2215201       -20.23275        -49.31127      -0.8389953             -200               0             -200               0
1.54605               -0.2287262       -20.42449        -49.03109       -3.837489             -200               0             -200               0
1.55263               -0.2361352        -20.6182        -48.74563       -6.858832             -200               0             -200               0
1.55921               -0.2437436       -20.81394        -48.45534         -9.9078             -200               0             -200               0
1.56579               -0.2515459        -21.0118        -48.16074       -12.98857             -200               0             -200               0
1.57237               -0.2595388       -21.21185        -47.86241       -16.10468             -200               0             -200               0
1.57895               -0.2677202       -21.41422        -47.56099       -19.25897             -200               0             -200               0
1.58553               -0.2760897         -21.619        -47.25712       -22.45365             -200               0             -200               0
1.59211               -0.2846483       -21.82633        -46.95146       -25.69025             -200               0             -200               0
1.59868               -0.2934001       -22.03635        -46.64468       -28.96967             -200               0             -200               0
1.60526               -0.3023515        -22.2492        -46.33742       -32.29227             -200               0             -200               0
1.61184               -0.3115103       -22.46504         -46.0303       -35.65785             -200               0             -200               0
1.61842               -0.3208878         -22.684        -45.72389       -39.06574             -200               0             -200               0
1.625                 -0.3304993       -22.90626        -45.41875        -42.5149             -200               0             -200               0
1.63158               -0.3403619       -23.13196        -45.11536        -46.0039             -200               0             -200               0
1.63816               -0.3504939       -23.36124        -44.81418       -49.53103             -200               0             -200               0
1.64474               -0.3609189       -23.59425         -44.5156       -53.09434             -200               0             -200               0
1.65132               -0.3716611       -23.83112        -44.21998       -56.69171             -200               0             -200               0
1.65789               -0.3827471       -24.07197         -43.9276       -60.32087             -200               0             -200               0
1.66447               -0.3942072        -24.3169        -43.63872       -63.97944             -200               0             -200               0
1.67105                -0.406071       -24.56601        -43.35355       -67.66499             -200               0             -200               0
1.67763               -0.4183698       -24.81937        -43.07222       -71.37506             -200               0             -200               0
1.68421               -0.4311365       -25.07705        -42.79487       -75.10719             -200               0             -200               0
1.69079               -0.4444043       -25.33908        -42.52156       -78.85895             -200               0             -200               0
1.69737               -0.4582065        -25.6055        -42.25231       -82.62795             -200               0             -200               0
1.70395               -0.4725756       -25.87632        -41.98714       -86.41188             -200               0             -200               0
1.71053               -0.4875434       -26.15154        -41.72598        -90.2085             -200               0             -200               0
1.71711               -0.5031423       -26.43115        -41.46879       -94.01568             -200               0             -200               0
1.72368                -0.519402       -26.71511        -41.21546       -97.83141             -200               0             -200               0
1.73026               -0.5363504        -27.0034        -40.96586       -101.6538             -200               0             -200               0
1.73684                -0.554015       -27.29597        -40.71985       -105.4811             -200               0             -200               0
1.74342               -0.5724199       -27.59279        -40.47724       -109.3117             -200               0             -200               0
1.75                  -0.5915883        -27.8938        -40.23785       -113.1441             -200               0             -200               0
1.75658               -0.6115413       -28.19896        -40.00146        -116.977             -200               0             -200               0
1.76316               -0.6322975       -28.50824        -39.76786       -120.8094             -200               0             -200               0
1.76974               -0.6538746       -28.82159         -39.5368       -124.6403             -200               0             -200               0
1.77632               -0.6762899       -29.13902        -39.30803        -128.469             -200               0             -200               0
1.78289               -0.6995578       -29.46051        -39.08131       -132.2948             -200               0             -200               0
1.78947               -0.7236917       -29.78608        -38.85636       -136.1174             -200               0             -200               0
1.79605               -0.7487055       -30.11575        -38.63293       -139.9366             -200               0             -200               0
1.80263               -0.7746146       -30.44956        -38.41075       -143.7524             -200               0             -200               0
1.80921               -0.8014323        -30.7876        -38.18957        -147.565             -200               0             -200               0
1.81579               -0.8291763       -31.12995        -37.96914       -151.3747             -200               0             -200               0
1.82237               -0.8578634       -31.47674        -37.74921       -155.1822             -200               0             -200               0
1.82895               -0.8875142       -31.82808        -37.52955       -158.9881             -200               0             -200               0
1.83553               -0.9181534       -32.18414        -37.30995       -162.7934             -200               0             -200               0
1.84211               -0.9498075       -32.54508        -37.09021       -166.5991             -200               0             -200               0
1.84868               -0.9825086       -32.91112        -36.87015       -170.4064             -200               0             -200               0
