! TOUCHSTONE file generated by CST MICROWAVE STUDIO
! Date and time: Tue Mar 18 00:02:24 2025
! Project name: oblique.cst
! Parameters = {Tilt=40; Fracture=1; B=10; D=160; F=25; Feed=2.85625; L=100; M=50; R=0.384908; S=1; Theta=90; length=57.125; wave=114.25}
! Header version: 2024
! Port assignment regex: !\s*Touchstone port\s*([0-9]+)\s*=\s*(CST MWS port|CST DES external port|CST DES block port)\s*(.+)\s* \(\"(.*)\"\)(\s*mode\s*([0-9]+))?.*
! Touchstone port assignment:
! Touchstone port 1 = CST MWS port 1 ("")
! Touchstone port 2 = CST MWS port 2 ("")
# GHz S DB R 50
1                    -0.02007136       -9.780477         -68.2067        152.7352             -200               0             -200               0
1.00662              -0.02074945       -9.868337        -68.16475        146.9737             -200               0             -200               0
1.01325              -0.02143729       -9.956762        -68.15325        141.3178             -200               0             -200               0
1.01987              -0.02213489       -10.04578        -68.17258        135.7755             -200               0             -200               0
1.02649              -0.02284248        -10.1354         -68.2232        130.3571             -200               0             -200               0
1.03311              -0.02356007       -10.22564        -68.30569         125.075             -200               0             -200               0
1.03974              -0.02428875       -10.31654        -68.42072        119.9446             -200               0             -200               0
1.04636              -0.02502916       -10.40811        -68.56897        114.9849             -200               0             -200               0
1.05298              -0.02578328       -10.50037        -68.75113        110.2189             -200               0             -200               0
1.0596               -0.02655172       -10.59335        -68.96774         105.675             -200               0             -200               0
1.06623              -0.02733711       -10.68705         -69.2191        101.3877             -200               0             -200               0
1.07285              -0.02814052       -10.78151          -69.505        97.39902             -200               0             -200               0
1.07947              -0.02896521       -10.87674        -69.82438        93.75979             -200               0             -200               0
1.08609              -0.02981325       -10.97275         -70.1748        90.53095             -200               0             -200               0
1.09272                -0.030687       -11.06955        -70.55168        87.78409             -200               0             -200               0
1.09934              -0.03158914       -11.16717        -70.94719        85.60048             -200               0             -200               0
1.10596              -0.03252255       -11.26561        -71.34886        84.06681             -200               0             -200               0
1.11258              -0.03348957       -11.36487        -71.73796        83.26508             -200               0             -200               0
1.11921              -0.03449311       -11.46497        -72.08823        83.25362             -200               0             -200               0
1.12583               -0.0355346       -11.56591          -72.366        84.03795             -200               0             -200               0
1.13245              -0.03661754       -11.66769        -72.53322        85.53627             -200               0             -200               0
1.13907              -0.03774237       -11.77032        -72.55459        87.55547             -200               0             -200               0
1.1457                -0.0389126        -11.8738        -72.40732         89.8007             -200               0             -200               0
1.15232              -0.04012873       -11.97813        -72.08894        91.92964             -200               0             -200               0
1.15894              -0.04139119        -12.0833        -71.61823        93.63162             -200               0             -200               0
1.16556              -0.04270201       -12.18933        -71.02847        94.68993             -200               0             -200               0
1.17219              -0.04406099       -12.29621        -70.35761         95.0008             -200               0             -200               0
1.17881              -0.04546856       -12.40395        -69.64043        94.55455             -200               0             -200               0
1.18543              -0.04692447       -12.51254        -68.90459         93.4016             -200               0             -200               0
1.19205              -0.04842841       -12.62201         -68.1701        91.62151             -200               0             -200               0
1.19868                 -0.04998       -12.73235        -67.45037         89.3018             -200               0             -200               0
1.2053               -0.05157878       -12.84358        -66.75381        86.52627             -200               0             -200               0
1.21192              -0.05322362       -12.95571        -66.08532         83.3697             -200               0             -200               0
1.21854              -0.05491426       -13.06876        -65.44744        79.89638             -200               0             -200               0
1.22517              -0.05664903       -13.18274        -64.84116         76.1605             -200               0             -200               0
1.23179              -0.05842828       -13.29768         -64.2665        72.20727             -200               0             -200               0
1.23841              -0.06025219        -13.4136        -63.72292        68.07432             -200               0             -200               0
1.24503              -0.06211773       -13.53054        -63.20952        63.79295             -200               0             -200               0
1.25166              -0.06402746       -13.64852        -62.72525        59.38934             -200               0             -200               0
1.25828              -0.06598201       -13.76757        -62.26896         54.8855             -200               0             -200               0
1.2649               -0.06798063       -13.88774        -61.83953        50.30005             -200               0             -200               0
1.27152              -0.07002558       -14.00906        -61.43582        45.64891             -200               0             -200               0
1.27815              -0.07212036       -14.13155        -61.05678        40.94578             -200               0             -200               0
1.28477              -0.07426411       -14.25527        -60.70138        36.20262             -200               0             -200               0
1.29139              -0.07646402       -14.38026        -60.36869        31.42995             -200               0             -200               0
1.29801              -0.07871936       -14.50654        -60.05782        26.63712             -200               0             -200               0
1.30464               -0.0810377       -14.63415        -59.76793        21.83259             -200               0             -200               0
1.31126              -0.08342254       -14.76314        -59.49827        17.02407             -200               0             -200               0
1.31788              -0.08587745       -14.89353        -59.24809         12.2187             -200               0             -200               0
1.3245               -0.08840948       -15.02536        -59.01673        7.423172             -200               0             -200               0
1.33113              -0.09102531       -15.15866        -58.80354        2.643819             -200               0             -200               0
1.33775              -0.09372945       -15.29344        -58.60788       -2.113262             -200               0             -200               0
1.34437              -0.09652966       -15.42973        -58.42916       -6.842157             -200               0             -200               0
1.35099              -0.09943149       -15.56756        -58.26678       -11.53706             -200               0             -200               0
1.35762               -0.1024413       -15.70694        -58.12017       -16.19223             -200               0             -200               0
1.36424                -0.105567       -15.84787         -57.9887       -20.80192             -200               0             -200               0
1.37086               -0.1088131       -15.99037        -57.87177        -25.3604             -200               0             -200               0
1.37748               -0.1121869       -16.13444        -57.76874       -29.86187             -200               0             -200               0
1.38411               -0.1156946       -16.28009        -57.67891       -34.30048             -200               0             -200               0
1.39073               -0.1193412       -16.42732        -57.60155       -38.67036             -200               0             -200               0
1.39735               -0.1231313       -16.57612        -57.53586       -42.96555             -200               0             -200               0
1.40397                 -0.12707        -16.7265        -57.48093       -47.18013             -200               0             -200               0
1.4106                -0.1311618       -16.87846        -57.43581        -51.3082             -200               0             -200               0
1.41722               -0.1354107       -17.03198        -57.39939       -55.34402             -200               0             -200               0
1.42384               -0.1398173       -17.18708        -57.37046       -59.28204             -200               0             -200               0
1.43046               -0.1443872       -17.34375        -57.34768       -63.11712             -200               0             -200               0
1.43709               -0.1491215       -17.50198        -57.32955       -66.84462             -200               0             -200               0
1.44371               -0.1540223        -17.6618        -57.31442       -70.46065             -200               0             -200               0
1.45033               -0.1590909        -17.8232         -57.3005       -73.96229             -200               0             -200               0
1.45695               -0.1643275       -17.98619        -57.28585       -77.34788             -200               0             -200               0
1.46358               -0.1697348        -18.1508         -57.2684       -80.61724             -200               0             -200               0
1.4702                -0.1753125       -18.31704        -57.24599       -83.77203             -200               0             -200               0
1.47682               -0.1810622       -18.48494        -57.21641       -86.81594             -200               0             -200               0
1.48344               -0.1869847       -18.65452        -57.17743       -89.75497             -200               0             -200               0
1.49007               -0.1930813       -18.82583        -57.12693       -92.59751             -200               0             -200               0
1.49669               -0.1993545       -18.99889        -57.06292       -95.35438             -200               0             -200               0
1.50331                -0.205806       -19.17376        -56.98365       -98.03872             -200               0             -200               0
1.50993               -0.2124385       -19.35047        -56.88768       -100.6657             -200               0             -200               0
1.51656               -0.2192549       -19.52908        -56.77398       -103.2521             -200               0             -200               0
1.52318               -0.2262615       -19.70964        -56.64194       -105.8158             -200               0             -200               0
1.5298                -0.2334612        -19.8922        -56.49144        -108.375             -200               0             -200               0
1.53642               -0.2408601       -20.07683        -56.32284       -110.9478             -200               0             -200               0
1.54305               -0.2484658       -20.26357        -56.13693       -113.5511             -200               0             -200               0
1.54967               -0.2562862        -20.4525        -55.93492       -116.2004             -200               0             -200               0
1.55629               -0.2643279       -20.64365        -55.71836       -118.9093             -200               0             -200               0
1.56291               -0.2726029       -20.83708        -55.48905        -121.689             -200               0             -200               0
1.56954               -0.2811192       -21.03285        -55.24894       -124.5482             -200               0             -200               0
1.57616               -0.2898888       -21.23101        -55.00009       -127.4932             -200               0             -200               0
1.58278               -0.2989222        -21.4316        -54.74456       -130.5279             -200               0             -200               0
1.5894                -0.3082321       -21.63465        -54.48437       -133.6541             -200               0             -200               0
1.59603               -0.3178309       -21.84022        -54.22143       -136.8717             -200               0             -200               0
1.60265               -0.3277314       -22.04832        -53.95754       -140.1787             -200               0             -200               0
1.60927               -0.3379462       -22.25899        -53.69433       -143.5721             -200               0             -200               0
1.61589               -0.3484883       -22.47224        -53.43328       -147.0475             -200               0             -200               0
1.62252               -0.3593707       -22.68811        -53.17569          -150.6             -200               0             -200               0
1.62914               -0.3706057       -22.90659        -52.92269       -154.2238             -200               0             -200               0
1.63576               -0.3822058        -23.1277        -52.67528       -157.9127             -200               0             -200               0
1.64238               -0.3941827       -23.35145        -52.43426       -161.6602             -200               0             -200               0
1.64901               -0.4065474       -23.57784        -52.20034       -165.4599             -200               0             -200               0
1.65563               -0.4193123       -23.80689        -51.97406       -169.3048             -200               0             -200               0
1.66225               -0.4324859       -24.03858        -51.75588       -173.1882             -200               0             -200               0
1.66887               -0.4460781       -24.27293        -51.54613       -177.1034             -200               0             -200               0
1.6755                -0.4600983       -24.50994        -51.34505        178.9563             -200               0             -200               0
1.68212               -0.4745532       -24.74963        -51.15276        174.9975             -200               0             -200               0
1.68874               -0.4894531       -24.99201        -50.96934        171.0268             -200               0             -200               0
1.69536               -0.5048023       -25.23709        -50.79476        167.0505             -200               0             -200               0
1.70199               -0.5206112       -25.48491        -50.62891         163.075             -200               0             -200               0
1.70861               -0.5368832       -25.73549        -50.47161        159.1066             -200               0             -200               0
1.71523               -0.5536255       -25.98887        -50.32261        155.1512             -200               0             -200               0
1.72185               -0.5708465       -26.24512        -50.18157        151.2148             -200               0             -200               0
1.72848               -0.5885526       -26.50427        -50.04807        147.3034             -200               0             -200               0
1.7351                -0.6067505       -26.76641        -49.92164        143.4224             -200               0             -200               0
1.74172               -0.6254501        -27.0316        -49.80167        139.5775             -200               0             -200               0
1.74834               -0.6446593       -27.29994         -49.6875        135.7737             -200               0             -200               0
1.75497               -0.6643873       -27.57151        -49.57837         132.016             -200               0             -200               0
1.76159               -0.6846496       -27.84643        -49.47343         128.309             -200               0             -200               0
1.76821               -0.7054571        -28.1248         -49.3717        124.6567             -200               0             -200               0
1.77483               -0.7268261       -28.40674        -49.27215        121.0627             -200               0             -200               0
1.78146               -0.7487721       -28.69237        -49.17363        117.5299             -200               0             -200               0
1.78808               -0.7713165       -28.98183        -49.07489        114.0602             -200               0             -200               0
1.7947                -0.7944792       -29.27524        -48.97461         110.655             -200               0             -200               0
1.80132               -0.8182831       -29.57274        -48.87142        107.3142             -200               0             -200               0
1.80795               -0.8427572       -29.87447        -48.76388        104.0368             -200               0             -200               0
1.81457               -0.8679278       -30.18057        -48.65053        100.8204             -200               0             -200               0
1.82119               -0.8938254       -30.49115        -48.52995        97.66128             -200               0             -200               0
1.82781               -0.9204842       -30.80636        -48.40072        94.55414             -200               0             -200               0
1.83444               -0.9479391       -31.12632        -48.26156        91.49236             -200               0             -200               0
1.84106                -0.976228       -31.45116        -48.11127        88.46792             -200               0             -200               0
1.84768                -1.005391       -31.78098        -47.94886        85.47154             -200               0             -200               0
1.8543                 -1.035469       -32.11589        -47.77351         82.4929             -200               0             -200               0
