! TOUCHSTONE file generated by CST MICROWAVE STUDIO
! Date and time: Tue Mar 18 00:00:42 2025
! Project name: oblique.cst
! Parameters = {Tilt=30; Fracture=1; B=10; D=160; F=5; Feed=2.85625; L=100; M=10; R=0.384908; S=1; Theta=270; length=57.125; wave=114.25}
! Header version: 2024
! Port assignment regex: !\s*Touchstone port\s*([0-9]+)\s*=\s*(CST MWS port|CST DES external port|CST DES block port)\s*(.+)\s* \(\"(.*)\"\)(\s*mode\s*([0-9]+))?.*
! Touchstone port assignment:
! Touchstone port 1 = CST MWS port 1 ("")
! Touchstone port 2 = CST MWS port 2 ("")
# GHz S DB R 50
1                    -0.01768941       -9.782011        -70.10909       -121.6743             -200               0             -200               0
1.00662              -0.01847653       -9.872701        -69.50162       -126.7043             -200               0             -200               0
1.01325              -0.01934896        -9.96376        -68.95557        -131.791             -200               0             -200               0
1.01987              -0.02030047       -10.05512        -68.46538       -136.9142             -200               0             -200               0
1.02649              -0.02132253       -10.14673        -68.02657       -142.0576             -200               0             -200               0
1.03311              -0.02240526       -10.23853        -67.63555       -147.2077             -200               0             -200               0
1.03974              -0.02353853       -10.33049        -67.28943       -152.3527             -200               0             -200               0
1.04636              -0.02470915       -10.42259        -66.98587       -157.4823             -200               0             -200               0
1.05298              -0.02590467       -10.51482        -66.72304       -162.5868             -200               0             -200               0
1.0596               -0.02711205       -10.60719        -66.49949       -167.6568             -200               0             -200               0
1.06623              -0.02831738       -10.69973        -66.31413       -172.6829             -200               0             -200               0
1.07285              -0.02950827       -10.79247        -66.16618       -177.6553             -200               0             -200               0
1.07947              -0.03067242       -10.88547        -66.05514        177.4362             -200               0             -200               0
1.08609               -0.0317997       -10.97879        -65.98074        172.6031             -200               0             -200               0
1.09272              -0.03288003       -11.07252        -65.94293         167.858             -200               0             -200               0
1.09934               -0.0339071       -11.16675        -65.94186        163.2154             -200               0             -200               0
1.10596              -0.03487483       -11.26157        -65.97784         158.692             -200               0             -200               0
1.11258              -0.03578007        -11.3571        -66.05133        154.3073             -200               0             -200               0
1.11921              -0.03662304       -11.45345        -66.16284        150.0846             -200               0             -200               0
1.12583              -0.03740439       -11.55072        -66.31291        146.0515             -200               0             -200               0
1.13245              -0.03812997       -11.64903        -66.50196        142.2413             -200               0             -200               0
1.13907              -0.03880526       -11.74847        -66.73011        138.6941             -200               0             -200               0
1.1457               -0.03944097       -11.84916        -66.99692        135.4588             -200               0             -200               0
1.15232              -0.04004605       -11.95118        -67.30095        132.5938             -200               0             -200               0
1.15894              -0.04063496       -12.05459        -67.63909        130.1694             -200               0             -200               0
1.16556              -0.04122093       -12.15948        -68.00563        128.2675             -200               0             -200               0
1.17219              -0.04182185        -12.2659        -68.39092        126.9803             -200               0             -200               0
1.17881              -0.04245137       -12.37386        -68.77961        126.4042             -200               0             -200               0
1.18543               -0.0431279        -12.4834        -69.14886        126.6253             -200               0             -200               0
1.19205              -0.04386816       -12.59451        -69.46714        127.6942             -200               0             -200               0
1.19868              -0.04468755       -12.70717        -69.69523        129.5889             -200               0             -200               0
1.2053               -0.04560133       -12.82137        -69.79142        132.1766             -200               0             -200               0
1.21192              -0.04662479       -12.93705        -69.72126        135.1972             -200               0             -200               0
1.21854              -0.04776801       -13.05415        -69.46879        138.2964             -200               0             -200               0
1.22517              -0.04904457       -13.17261         -69.0426         141.106             -200               0             -200               0
1.23179              -0.05046007       -13.29234        -68.47238        143.3323             -200               0             -200               0
1.23841              -0.05202145       -13.41327        -67.79851         144.805             -200               0             -200               0
1.24503              -0.05373265       -13.53531        -67.06133        145.4731             -200               0             -200               0
1.25166              -0.05559292       -13.65838        -66.29452        145.3705             -200               0             -200               0
1.25828              -0.05760268       -13.78238        -65.52303        144.5767             -200               0             -200               0
1.2649               -0.05975535       -13.90724        -64.76381        143.1875             -200               0             -200               0
1.27152              -0.06204641        -14.0329        -64.02754         141.298             -200               0             -200               0
1.27815              -0.06446569       -14.15928        -63.32047        138.9943             -200               0             -200               0
1.28477              -0.06700333       -14.28635        -62.64584        136.3511             -200               0             -200               0
1.29139              -0.06964724       -14.41406        -62.00494        133.4313             -200               0             -200               0
1.29801              -0.07238492       -14.54241        -61.39786        130.2875             -200               0             -200               0
1.30464              -0.07520182        -14.6714        -60.82394        126.9634             -200               0             -200               0
1.31126               -0.0780845       -14.80104         -60.2821        123.4956             -200               0             -200               0
1.31788              -0.08101807       -14.93138        -59.77102        119.9146             -200               0             -200               0
1.3245               -0.08399042       -15.06246        -59.28929        116.2462             -200               0             -200               0
1.33113              -0.08698978       -15.19438        -58.83543        112.5124             -200               0             -200               0
1.33775              -0.09000486        -15.3272        -58.40798        108.7322             -200               0             -200               0
1.34437               -0.0930272       -15.46104         -58.0055        104.9221             -200               0             -200               0
1.35099              -0.09605142       -15.59602        -57.62658        101.0966             -200               0             -200               0
1.35762              -0.09907334       -15.73226        -57.26984        97.26858             -200               0             -200               0
1.36424                -0.102091       -15.86988        -56.93391        93.44973             -200               0             -200               0
1.37086               -0.1051084       -16.00904        -56.61746        89.65056             -200               0             -200               0
1.37748               -0.1081285       -16.14985        -56.31914         85.8807             -200               0             -200               0
1.38411               -0.1111603       -16.29246         -56.0376        82.14899             -200               0             -200               0
1.39073               -0.1142139         -16.437        -55.77148        78.46357             -200               0             -200               0
1.39735               -0.1173025       -16.58357        -55.51938        74.83191             -200               0             -200               0
1.40397               -0.1204422        -16.7323        -55.27984         71.2608             -200               0             -200               0
1.4106                -0.1236499       -16.88327        -55.05135        67.75637             -200               0             -200               0
1.41722               -0.1269464       -17.03656        -54.83236        64.32399             -200               0             -200               0
1.42384               -0.1303516       -17.19224        -54.62121        60.96823             -200               0             -200               0
1.43046               -0.1338869       -17.35033        -54.41621        57.69268             -200               0             -200               0
1.43709               -0.1375748       -17.51087        -54.21557         54.4999             -200               0             -200               0
1.44371               -0.1414365       -17.67386        -54.01747        51.39122             -200               0             -200               0
1.45033               -0.1454925       -17.83928        -53.82002        48.36664             -200               0             -200               0
1.45695               -0.1497637        -18.0071        -53.62135        45.42467             -200               0             -200               0
1.46358               -0.1542676       -18.17726        -53.41957        42.56219             -200               0             -200               0
1.4702                -0.1590195        -18.3497        -53.21286        39.77443             -200               0             -200               0
1.47682               -0.1640342       -18.52436        -52.99949        37.05492             -200               0             -200               0
1.48344               -0.1693227       -18.70114        -52.77789        34.39552             -200               0             -200               0
1.49007               -0.1748929       -18.87994        -52.54665         31.7866             -200               0             -200               0
1.49669               -0.1807496        -19.0607        -52.30464        29.21719             -200               0             -200               0
1.50331               -0.1868943       -19.24329        -52.05097         26.6753             -200               0             -200               0
1.50993               -0.1933274       -19.42765        -51.78508        24.14826             -200               0             -200               0
1.51656                -0.200043       -19.61369        -51.50673        21.62315             -200               0             -200               0
1.52318               -0.2070359       -19.80136        -51.21599        19.08716             -200               0             -200               0
1.5298                -0.2142962       -19.99059        -50.91325        16.52804             -200               0             -200               0
1.53642               -0.2218122       -20.18136        -50.59916        13.93441             -200               0             -200               0
1.54305               -0.2295716       -20.37366        -50.27463        11.29611             -200               0             -200               0
1.54967               -0.2375605       -20.56749        -49.94075        8.604383             -200               0             -200               0
1.55629               -0.2457642        -20.7629        -49.59875        5.852029             -200               0             -200               0
1.56291               -0.2541687       -20.95993        -49.24997        3.033456             -200               0             -200               0
1.56954               -0.2627584       -21.15868        -48.89577       0.1446497             -200               0             -200               0
1.57616               -0.2715225       -21.35924        -48.53753       -2.816893             -200               0             -200               0
1.58278               -0.2804497       -21.56177        -48.17658       -5.852298             -200               0             -200               0
1.5894                -0.2895316        -21.7664         -47.8142       -8.961458             -200               0             -200               0
1.59603               -0.2987625       -21.97331        -47.45157       -12.14321             -200               0             -200               0
1.60265               -0.3081403        -22.1827        -47.08978       -15.39551             -200               0             -200               0
1.60927               -0.3176671       -22.39476        -46.72982       -18.71558             -200               0             -200               0
1.61589               -0.3273484       -22.60971        -46.37256       -22.10008             -200               0             -200               0
1.62252               -0.3371944       -22.82776        -46.01876       -25.54526             -200               0             -200               0
1.62914                 -0.34722       -23.04914        -45.66906       -29.04704             -200               0             -200               0
1.63576               -0.3574431       -23.27406        -45.32401       -32.60116             -200               0             -200               0
1.64238               -0.3678886       -23.50273        -44.98406       -36.20323             -200               0             -200               0
1.64901               -0.3785829       -23.73535        -44.64956       -39.84885             -200               0             -200               0
1.65563               -0.3895578       -23.97211        -44.32079       -43.53362             -200               0             -200               0
1.66225               -0.4008471       -24.21315        -43.99793       -47.25319             -200               0             -200               0
1.66887                 -0.41249       -24.45864        -43.68112       -51.00335             -200               0             -200               0
1.6755                -0.4245245       -24.70868        -43.37039       -54.78002             -200               0             -200               0
1.68212               -0.4369959       -24.96337        -43.06576       -58.57924             -200               0             -200               0
1.68874               -0.4499434       -25.22277        -42.76717       -62.39728             -200               0             -200               0
1.69536               -0.4634142       -25.48692         -42.4745       -66.23055             -200               0             -200               0
1.70199               -0.4774481       -25.75582        -42.18762       -70.07572             -200               0             -200               0
1.70861               -0.4920905       -26.02946        -41.90633       -73.92961             -200               0             -200               0
1.71523               -0.5073805        -26.3078        -41.63041       -77.78931             -200               0             -200               0
1.72185               -0.5233582       -26.59076         -41.3596       -81.65212             -200               0             -200               0
1.72848               -0.5400591       -26.87827         -41.0936       -85.51558             -200               0             -200               0
1.7351                -0.5575166       -27.17022        -40.83211       -89.37748             -200               0             -200               0
1.74172               -0.5757599        -27.4665        -40.57478       -93.23587             -200               0             -200               0
1.74834               -0.5948155       -27.76699        -40.32126       -97.08905             -200               0             -200               0
1.75497               -0.6147044       -28.07157        -40.07117       -100.9356             -200               0             -200               0
1.76159                -0.635446       -28.38012        -39.82411       -104.7743             -200               0             -200               0
1.76821               -0.6570531       -28.69254        -39.57969       -108.6044             -200               0             -200               0
1.77483               -0.6795369       -29.00871        -39.33751       -112.4253             -200               0             -200               0
1.78146                -0.702905       -29.32857        -39.09714       -116.2366             -200               0             -200               0
1.78808                -0.727162       -29.65206        -38.85818       -120.0384             -200               0             -200               0
1.7947                -0.7523092       -29.97914        -38.62024        -123.831             -200               0             -200               0
1.80132                -0.778347       -30.30983        -38.38291       -127.6149             -200               0             -200               0
1.80795               -0.8052763       -30.64415        -38.14581        -131.391             -200               0             -200               0
1.81457               -0.8330961       -30.98218         -37.9086       -135.1605             -200               0             -200               0
1.82119               -0.8618076       -31.32403        -37.67094       -138.9247             -200               0             -200               0
1.82781               -0.8914133       -31.66985        -37.43251       -142.6852             -200               0             -200               0
1.83444               -0.9219193       -32.01983        -37.19304        -146.444             -200               0             -200               0
1.84106               -0.9533351       -32.37418         -36.9523        -150.203             -200               0             -200               0
1.84768               -0.9856749       -32.73318        -36.71008       -153.9644             -200               0             -200               0
1.8543                  -1.01896        -33.0971        -36.46622       -157.7305             -200               0             -200               0
