! TOUCHSTONE file generated by CST MICROWAVE STUDIO
! Date and time: Tue Mar 18 00:02:03 2025
! Project name: oblique.cst
! Parameters = {Tilt=40; Fracture=1; B=10; D=160; F=5; Feed=2.85625; L=100; M=30; R=0.384908; S=1; Theta=90; length=57.125; wave=114.25}
! Header version: 2024
! Port assignment regex: !\s*Touchstone port\s*([0-9]+)\s*=\s*(CST MWS port|CST DES external port|CST DES block port)\s*(.+)\s* \(\"(.*)\"\)(\s*mode\s*([0-9]+))?.*
! Touchstone port assignment:
! Touchstone port 1 = CST MWS port 1 ("")
! Touchstone port 2 = CST MWS port 2 ("")
# GHz S DB R 50
1                    -0.02009763       -9.793468        -68.44988       -163.7836             -200               0             -200               0
1.00662              -0.02095339       -9.882327         -68.2932       -168.2202             -200               0             -200               0
1.01325              -0.02185167       -9.971555        -68.16189       -172.5927             -200               0             -200               0
1.01987              -0.02278638       -10.06114         -68.0554       -176.8906             -200               0             -200               0
1.02649              -0.02375172       -10.15106        -67.97321        178.8973             -200               0             -200               0
1.03311              -0.02474126       -10.24134        -67.91474        174.7829             -200               0             -200               0
1.03974              -0.02574931       -10.33196        -67.87939        170.7794             -200               0             -200               0
1.04636               -0.0267684       -10.42294        -67.86642        166.9012             -200               0             -200               0
1.05298              -0.02779344       -10.51431        -67.87492         163.164             -200               0             -200               0
1.0596               -0.02881804        -10.6061        -67.90376        159.5852             -200               0             -200               0
1.06623              -0.02983821       -10.69835        -67.95147        156.1836             -200               0             -200               0
1.07285              -0.03084764       -10.79109        -68.01615        152.9792             -200               0             -200               0
1.07947              -0.03184454       -10.88437        -68.09535        149.9936             -200               0             -200               0
1.08609              -0.03282535       -10.97826        -68.18588        147.2488             -200               0             -200               0
1.09272              -0.03378907       -11.07279        -68.28372        144.7668             -200               0             -200               0
1.09934              -0.03473551       -11.16805        -68.38383        142.5679             -200               0             -200               0
1.10596              -0.03566716       -11.26407        -68.48003        140.6691             -200               0             -200               0
1.11258              -0.03658437       -11.36092        -68.56495        139.0812             -200               0             -200               0
1.11921              -0.03749218       -11.45866        -68.63016        137.8059             -200               0             -200               0
1.12583              -0.03839366       -11.55733        -68.66644        136.8322             -200               0             -200               0
1.13245              -0.03929666       -11.65699        -68.66431        136.1336             -200               0             -200               0
1.13907              -0.04020655       -11.75767        -68.61484        135.6661             -200               0             -200               0
1.1457                -0.0411305       -11.85942        -68.51064        135.3686             -200               0             -200               0
1.15232              -0.04207692       -11.96225        -68.34675        135.1665             -200               0             -200               0
1.15894              -0.04305393       -12.06619        -68.12139        134.9776             -200               0             -200               0
1.16556              -0.04406933       -12.17124        -67.83622        134.7197             -200               0             -200               0
1.17219              -0.04513133       -12.27742        -67.49603        134.3185             -200               0             -200               0
1.17881              -0.04624818       -12.38472        -67.10805        133.7139             -200               0             -200               0
1.18543              -0.04742698       -12.49312        -66.68099        132.8624             -200               0             -200               0
1.19205               -0.0486745       -12.60261        -66.22406        131.7383             -200               0             -200               0
1.19868              -0.04999668       -12.71316        -65.74621        130.3314             -200               0             -200               0
1.2053               -0.05139588       -12.82475        -65.25555         128.644             -200               0             -200               0
1.21192              -0.05287837       -12.93733        -64.75912        126.6877             -200               0             -200               0
1.21854              -0.05444529       -13.05088        -64.26274        124.4798             -200               0             -200               0
1.22517              -0.05609821       -13.16536        -63.77111        122.0413             -200               0             -200               0
1.23179              -0.05783523       -13.28074        -63.28787        119.3946             -200               0             -200               0
1.23841               -0.0596562       -13.39698        -62.81579        116.5624             -200               0             -200               0
1.24503              -0.06155681       -13.51405        -62.35691        113.5665             -200               0             -200               0
1.25166              -0.06353475       -13.63194        -61.91269        110.4277             -200               0             -200               0
1.25828              -0.06558254       -13.75062         -61.4841        107.1653             -200               0             -200               0
1.2649               -0.06769664       -13.87008        -61.07177        103.7971             -200               0             -200               0
1.27152              -0.06986915       -13.99034        -60.67603        100.3395             -200               0             -200               0
1.27815              -0.07209322       -14.11139        -60.29699        96.80733             -200               0             -200               0
1.28477              -0.07436257       -14.23326        -59.93461         93.2143             -200               0             -200               0
1.29139               -0.0766696       -14.35597         -59.5887        89.57286             -200               0             -200               0
1.29801              -0.07900688       -14.47956        -59.25897        85.89447             -200               0             -200               0
1.30464              -0.08136951       -14.60409        -58.94504        82.18967             -200               0             -200               0
1.31126              -0.08375112        -14.7296        -58.64648        78.46824             -200               0             -200               0
1.31788               -0.0861473       -14.85617         -58.3628        74.73927             -200               0             -200               0
1.3245               -0.08855457       -14.98387        -58.09344        71.01121             -200               0             -200               0
1.33113              -0.09097149       -15.11277        -57.83781        67.29203             -200               0             -200               0
1.33775              -0.09339731       -15.24296        -57.59527        63.58919             -200               0             -200               0
1.34437              -0.09583267       -15.37453        -57.36512        59.90976             -200               0             -200               0
1.35099              -0.09828073       -15.50755        -57.14662        56.26037             -200               0             -200               0
1.35762               -0.1007453       -15.64212        -56.93897        52.64727             -200               0             -200               0
1.36424               -0.1032309       -15.77833        -56.74131        49.07635             -200               0             -200               0
1.37086               -0.1057462       -15.91625        -56.55273        45.55304             -200               0             -200               0
1.37748               -0.1082998       -16.05595        -56.37225        42.08237             -200               0             -200               0
1.38411               -0.1108996       -16.19752         -56.1988        38.66884             -200               0             -200               0
1.39073               -0.1135584         -16.341        -56.03127        35.31642             -200               0             -200               0
1.39735               -0.1162864       -16.48645        -55.86845        32.02842             -200               0             -200               0
1.40397               -0.1190954       -16.63393         -55.7091        28.80744             -200               0             -200               0
1.4106                -0.1219983       -16.78345         -55.5519        25.65522             -200               0             -200               0
1.41722               -0.1250064       -16.93506        -55.39546         22.5726             -200               0             -200               0
1.42384               -0.1281338       -17.08876         -55.2384        19.55938             -200               0             -200               0
1.43046               -0.1313884       -17.24456        -55.07929        16.61421             -200               0             -200               0
1.43709               -0.1347846       -17.40247        -54.91672        13.73455             -200               0             -200               0
1.44371               -0.1383315       -17.56247        -54.74932        10.91662             -200               0             -200               0
1.45033                -0.142037       -17.72456        -54.57578        8.155364             -200               0             -200               0
1.45695                -0.145909       -17.88873        -54.39491         5.44452             -200               0             -200               0
1.46358               -0.1499545       -18.05494        -54.20563        2.776681             -200               0             -200               0
1.4702                -0.1541775        -18.2232        -54.00706       0.1434429             -200               0             -200               0
1.47682               -0.1585821       -18.39346         -53.7985       -2.464397             -200               0             -200               0
1.48344               -0.1631709       -18.56573        -53.57946       -5.056612             -200               0             -200               0
1.49007               -0.1679441          -18.74        -53.34971       -7.643268             -200               0             -200               0
1.49669               -0.1729017       -18.91627        -53.10924       -10.23446             -200               0             -200               0
1.50331               -0.1780416       -19.09453        -52.85826       -12.83999             -200               0             -200               0
1.50993               -0.1833634       -19.27482        -52.59724       -15.46913             -200               0             -200               0
1.51656               -0.1888627       -19.45714         -52.3268        -18.1304             -200               0             -200               0
1.52318               -0.1945372       -19.64155        -52.04774       -20.83134             -200               0             -200               0
1.5298                -0.2003843        -19.8281        -51.76099       -23.57838             -200               0             -200               0
1.53642               -0.2064021       -20.01685        -51.46759       -26.37679             -200               0             -200               0
1.54305               -0.2125876       -20.20787        -51.16863       -29.23064             -200               0             -200               0
1.54967               -0.2189409       -20.40126        -50.86522       -32.14277             -200               0             -200               0
1.55629               -0.2254622       -20.59712        -50.55849       -35.11492             -200               0             -200               0
1.56291               -0.2321531       -20.79554        -50.24951       -38.14774             -200               0             -200               0
1.56954               -0.2390173       -20.99666        -49.93933       -41.24095             -200               0             -200               0
1.57616               -0.2460619        -21.2006        -49.62894       -44.39344             -200               0             -200               0
1.58278               -0.2532938        -21.4075        -49.31922       -47.60336             -200               0             -200               0
1.5894                -0.2607242       -21.61748        -49.01101       -50.86828             -200               0             -200               0
1.59603                -0.268366       -21.83068        -48.70504       -54.18527             -200               0             -200               0
1.60265               -0.2762342       -22.04724        -48.40195       -57.55102             -200               0             -200               0
1.60927               -0.2843466       -22.26729        -48.10229       -60.96192             -200               0             -200               0
1.61589               -0.2927239       -22.49095        -47.80654       -64.41416             -200               0             -200               0
1.62252               -0.3013879       -22.71835        -47.51508       -67.90377             -200               0             -200               0
1.62914                -0.310363       -22.94958         -47.2282       -71.42673             -200               0             -200               0
1.63576               -0.3196754       -23.18476        -46.94615       -74.97895             -200               0             -200               0
1.64238               -0.3293526       -23.42396        -46.66908        -78.5564             -200               0             -200               0
1.64901               -0.3394225       -23.66725        -46.39707       -82.15506             -200               0             -200               0
1.65563               -0.3499174        -23.9147        -46.13015       -85.77102             -200               0             -200               0
1.66225                -0.360865       -24.16634        -45.86828       -89.40048             -200               0             -200               0
1.66887               -0.3722963        -24.4222        -45.61137       -93.03978             -200               0             -200               0
1.6755                -0.3842423       -24.68229        -45.35929       -96.68539             -200               0             -200               0
1.68212               -0.3967304       -24.94662        -45.11182        -100.334             -200               0             -200               0
1.68874                -0.409791       -25.21517        -44.86873       -103.9825             -200               0             -200               0
1.69536               -0.4234513       -25.48791        -44.62973       -107.6279             -200               0             -200               0
1.70199               -0.4377364       -25.76482        -44.39448       -111.2676             -200               0             -200               0
1.70861               -0.4526715       -26.04586        -44.16264       -114.8992             -200               0             -200               0
1.71523               -0.4682803       -26.33099        -43.93379       -118.5205             -200               0             -200               0
1.72185               -0.4845831       -26.62016         -43.7075       -122.1297             -200               0             -200               0
1.72848               -0.5015988       -26.91333         -43.4833       -125.7254             -200               0             -200               0
1.7351                 -0.519345       -27.21047        -43.26071       -129.3063             -200               0             -200               0
1.74172               -0.5378377       -27.51154        -43.03923       -132.8717             -200               0             -200               0
1.74834               -0.5570918       -27.81651        -42.81834       -136.4211             -200               0             -200               0
1.75497               -0.5771186       -28.12539        -42.59751       -139.9545             -200               0             -200               0
1.76159               -0.5979332       -28.43817        -42.37622       -143.4724             -200               0             -200               0
1.76821               -0.6195462       -28.75487        -42.15394       -146.9755             -200               0             -200               0
1.77483               -0.6419701       -29.07554        -41.93017        -150.465             -200               0             -200               0
1.78146               -0.6652166       -29.40022        -41.70442       -153.9426             -200               0             -200               0
1.78808               -0.6892997         -29.729        -41.47624       -157.4102             -200               0             -200               0
1.7947                -0.7142334       -30.06197        -41.24521       -160.8702             -200               0             -200               0
1.80132               -0.7400358       -30.39923        -41.01095       -164.3255             -200               0             -200               0
1.80795               -0.7667247       -30.74094        -40.77314       -167.7788             -200               0             -200               0
1.81457                -0.794324       -31.08724        -40.53151       -171.2337             -200               0             -200               0
1.82119               -0.8228591       -31.43828        -40.28586       -174.6934             -200               0             -200               0
1.82781               -0.8523609       -31.79426        -40.03604       -178.1617             -200               0             -200               0
1.83444               -0.8828639       -32.15537        -39.78199        178.3578             -200               0             -200               0
1.84106               -0.9144072       -32.52179         -39.5237        174.8613             -200               0             -200               0
1.84768               -0.9470369       -32.89374        -39.26124        171.3452             -200               0             -200               0
1.8543                -0.9808023       -33.27141        -38.99472        167.8058             -200               0             -200               0
