! TOUCHSTONE file generated by CST MICROWAVE STUDIO
! Date and time: Tue Mar 18 00:01:27 2025
! Project name: oblique.cst
! Parameters = {Tilt=30; Fracture=1; B=12.5; D=160; F=5; Feed=2.85625; L=100; M=10; R=0.384908; S=2; Theta=270; length=57.125; wave=114.25}
! Header version: 2024
! Port assignment regex: !\s*Touchstone port\s*([0-9]+)\s*=\s*(CST MWS port|CST DES external port|CST DES block port)\s*(.+)\s* \(\"(.*)\"\)(\s*mode\s*([0-9]+))?.*
! Touchstone port assignment:
! Touchstone port 1 = CST MWS port 1 ("")
! Touchstone port 2 = CST MWS port 2 ("")
# GHz S DB R 50
1                    -0.01869764       -9.785855        -71.12048        -132.455             -200               0             -200               0
1.0066               -0.01945484       -9.875303        -70.59702       -136.3069             -200               0             -200               0
1.0132               -0.02027145       -9.965165        -70.11808       -140.2833             -200               0             -200               0
1.0198               -0.02114299        -10.0554        -69.68133        -144.352             -200               0             -200               0
1.0264               -0.02206431       -10.14599        -69.28464        -148.486             -200               0             -200               0
1.033                -0.02302796        -10.2369        -68.92609       -152.6623             -200               0             -200               0
1.0396               -0.02402579       -10.32811        -68.60401       -156.8608             -200               0             -200               0
1.0462               -0.02505087       -10.41963        -68.31689       -161.0636             -200               0             -200               0
1.05281                -0.026094       -10.51145        -68.06344       -165.2538             -200               0             -200               0
1.05941              -0.02714608       -10.60359        -67.84247        -169.416             -200               0             -200               0
1.06601              -0.02819931       -10.69608        -67.65294       -173.5347             -200               0             -200               0
1.07261               -0.0292466       -10.78895        -67.49388       -177.5947             -200               0             -200               0
1.07921              -0.03027846       -10.88225        -67.36439        178.4194             -200               0             -200               0
1.08581              -0.03129185       -10.97603        -67.26357        174.5239             -200               0             -200               0
1.09241              -0.03227891       -11.07034        -67.19047        170.7357             -200               0             -200               0
1.09901              -0.03323711       -11.16527        -67.14405        167.0732             -200               0             -200               0
1.10561              -0.03416431       -11.26088         -67.1231         163.556             -200               0             -200               0
1.11221              -0.03505984       -11.35725        -67.12613        160.2054             -200               0             -200               0
1.11881               -0.0359234       -11.45445        -67.15127        157.0441             -200               0             -200               0
1.12541              -0.03675831       -11.55256        -67.19616        154.0969             -200               0             -200               0
1.13201              -0.03756843       -11.65166        -67.25772        151.3896             -200               0             -200               0
1.13861              -0.03836033        -11.7518        -67.33203        148.9485             -200               0             -200               0
1.14521              -0.03914059       -11.85307        -67.41406        146.7996             -200               0             -200               0
1.15182              -0.03991721       -11.95552        -67.49754        144.9665             -200               0             -200               0
1.15842              -0.04070034        -12.0592        -67.57479        143.4676             -200               0             -200               0
1.16502              -0.04149995       -12.16414        -67.63671        142.3128             -200               0             -200               0
1.17162              -0.04232785       -12.27038        -67.67299        141.4993             -200               0             -200               0
1.17822              -0.04319363       -12.37794        -67.67261        141.0069             -200               0             -200               0
1.18482              -0.04410977       -12.48682        -67.62465        140.7953             -200               0             -200               0
1.19142              -0.04508705       -12.59703        -67.51948        140.8027             -200               0             -200               0
1.19802              -0.04613612       -12.70854        -67.34999        140.9484             -200               0             -200               0
1.20462              -0.04726734       -12.82135        -67.11266        141.1392             -200               0             -200               0
1.21122              -0.04848789       -12.93542        -66.80812         141.279             -200               0             -200               0
1.21782              -0.04980759       -13.05071        -66.44098        141.2786             -200               0             -200               0
1.22442               -0.0512311       -13.16717        -66.01908        141.0644             -200               0             -200               0
1.23102              -0.05276404       -13.28476        -65.55223        140.5831             -200               0             -200               0
1.23762              -0.05440854       -13.40342        -65.05105        139.8029             -200               0             -200               0
1.24422              -0.05616638       -13.52311        -64.52587         138.711             -200               0             -200               0
1.25083              -0.05803754       -13.64378        -63.98603        137.3101             -200               0             -200               0
1.25743              -0.06001955       -13.76536        -63.43954        135.6139             -200               0             -200               0
1.26403              -0.06210803       -13.88784        -62.89294        133.6433             -200               0             -200               0
1.27063              -0.06429988       -14.01116        -62.35138        131.4226             -200               0             -200               0
1.27723              -0.06658768        -14.1353        -61.81878         128.978             -200               0             -200               0
1.28383               -0.0689636       -14.26024        -61.29803        126.3353             -200               0             -200               0
1.29043              -0.07141975       -14.38598        -60.79118        123.5194             -200               0             -200               0
1.29703              -0.07394842       -14.51252         -60.2996        120.5534             -200               0             -200               0
1.30363              -0.07654029       -14.63988        -59.82413        117.4586             -200               0             -200               0
1.31023              -0.07918553       -14.76809        -59.36525        114.2544             -200               0             -200               0
1.31683              -0.08187702       -14.89719        -58.92308        110.9583             -200               0             -200               0
1.32343              -0.08460632       -15.02723        -58.49754        107.5862             -200               0             -200               0
1.33003              -0.08736683       -15.15829        -58.08836        104.1522             -200               0             -200               0
1.33663              -0.09015288       -15.29042        -57.69515        100.6691             -200               0             -200               0
1.34323              -0.09296064       -15.42373         -57.3174        97.14851             -200               0             -200               0
1.34984              -0.09578751       -15.55829        -56.95451        93.60077             -200               0             -200               0
1.35644              -0.09863335       -15.69421        -56.60585        90.03526             -200               0             -200               0
1.36304               -0.1014993       -15.83158        -56.27072        86.46047             -200               0             -200               0
1.36964               -0.1043885       -15.97051        -55.94836        82.88407             -200               0             -200               0
1.37624               -0.1073064       -16.11109        -55.63799        79.31299             -200               0             -200               0
1.38284               -0.1102602       -16.25343         -55.3388        75.75344             -200               0             -200               0
1.38944               -0.1132596        -16.3976        -55.04994        72.21103             -200               0             -200               0
1.39604               -0.1163141       -16.54371        -54.77053        68.69069             -200               0             -200               0
1.40264               -0.1194376       -16.69182        -54.49965        65.19678             -200               0             -200               0
1.40924               -0.1226433         -16.842        -54.23639        61.73304             -200               0             -200               0
1.41584               -0.1259452        -16.9943        -53.97978        58.30257             -200               0             -200               0
1.42244               -0.1293587       -17.14878        -53.72885        54.90787             -200               0             -200               0
1.42904               -0.1328995       -17.30545        -53.48262         51.5508             -200               0             -200               0
1.43564               -0.1365834       -17.46435        -53.24008        48.23252             -200               0             -200               0
1.44224               -0.1404259       -17.62547        -53.00025        44.95355             -200               0             -200               0
1.44884               -0.1444414       -17.78881        -52.76214        41.71367             -200               0             -200               0
1.45545               -0.1486427       -17.95435        -52.52478        38.51198             -200               0             -200               0
1.46205               -0.1530436       -18.12207        -52.28725        35.34686             -200               0             -200               0
1.46865               -0.1576549       -18.29193        -52.04864        32.21599             -200               0             -200               0
1.47525               -0.1624858       -18.46389        -51.80815        29.11641             -200               0             -200               0
1.48185               -0.1675448        -18.6379          -51.565        26.04451             -200               0             -200               0
1.48845               -0.1728356       -18.81393        -51.31853        22.99613             -200               0             -200               0
1.49505               -0.1783633       -18.99192        -51.06817        19.96662             -200               0             -200               0
1.50165               -0.1841298       -19.17184        -50.81344        16.95098             -200               0             -200               0
1.50825               -0.1901338       -19.35363        -50.55401        13.94389             -200               0             -200               0
1.51485               -0.1963748       -19.53729        -50.28963        10.93989             -200               0             -200               0
1.52145               -0.2028478       -19.72278        -50.02019        7.933467             -200               0             -200               0
1.52805               -0.2095486        -19.9101         -49.7457        4.919204             -200               0             -200               0
1.53465               -0.2164713       -20.09925        -49.46627        1.891866             -200               0             -200               0
1.54125               -0.2236091       -20.29025        -49.18214       -1.153482             -200               0             -200               0
1.54785               -0.2309554       -20.48314         -48.8936       -4.221384             -200               0             -200               0
1.55446               -0.2385035       -20.67797        -48.60106       -7.315923             -200               0             -200               0
1.56106               -0.2462449       -20.87482        -48.30497       -10.44066             -200               0             -200               0
1.56766               -0.2541768       -21.07376        -48.00585        -13.5986             -200               0             -200               0
1.57426                -0.262292       -21.27489        -47.70424       -16.79218             -200               0             -200               0
1.58086               -0.2705904       -21.47835        -47.40072       -20.02326             -200               0             -200               0
1.58746               -0.2790679       -21.68424        -47.09587       -23.29313             -200               0             -200               0
1.59406               -0.2877295       -21.89273        -46.79026       -26.60257             -200               0             -200               0
1.60066               -0.2965763       -22.10396        -46.48446       -29.95183             -200               0             -200               0
1.60726               -0.3056164       -22.31809          -46.179       -33.34074             -200               0             -200               0
1.61386               -0.3148587       -22.53528        -45.87441       -36.76868             -200               0             -200               0
1.62046               -0.3243181       -22.75569        -45.57116       -40.23469             -200               0             -200               0
1.62706               -0.3340087       -22.97951        -45.26969       -43.73752             -200               0             -200               0
1.63366               -0.3439489       -23.20687        -44.97039       -47.27562             -200               0             -200               0
1.64026               -0.3541624       -23.43795        -44.67362       -50.84725             -200               0             -200               0
1.64686               -0.3646737       -23.67287         -44.3797       -54.45049             -200               0             -200               0
1.65347               -0.3755096       -23.91179        -44.08889       -58.08328             -200               0             -200               0
1.66007               -0.3866993       -24.15481        -43.80141       -61.74349             -200               0             -200               0
1.66667               -0.3982752       -24.40205        -43.51744       -65.42891             -200               0             -200               0
1.67327               -0.4102687       -24.65359        -43.23712        -69.1373             -200               0             -200               0
1.67987               -0.4227153       -24.90949        -42.96056       -72.86642             -200               0             -200               0
1.68647               -0.4356484       -25.16982        -42.68781       -76.61405             -200               0             -200               0
1.69307                -0.449104       -25.43461         -42.4189         -80.378             -200               0             -200               0
1.69967               -0.4631158       -25.70387        -42.15382       -84.15615             -200               0             -200               0
1.70627               -0.4777208        -25.9776        -41.89254       -87.94646             -200               0             -200               0
1.71287               -0.4929479       -26.25579        -41.63498       -91.74696             -200               0             -200               0
1.71947               -0.5088318        -26.5384        -41.38106       -95.55579             -200               0             -200               0
1.72607               -0.5254027       -26.82541        -41.13065       -99.37123             -200               0             -200               0
1.73267               -0.5426874       -27.11675        -40.88362       -103.1917             -200               0             -200               0
1.73927               -0.5607132       -27.41238        -40.63979       -107.0156             -200               0             -200               0
1.74587               -0.5795042       -27.71225        -40.39898       -110.8417             -200               0             -200               0
1.75248               -0.5990802       -28.01628          -40.161       -114.6688             -200               0             -200               0
1.75908               -0.6194641       -28.32444        -39.92564       -118.4959             -200               0             -200               0
1.76568               -0.6406701       -28.63668        -39.69266       -122.3222             -200               0             -200               0
1.77228                -0.662716       -28.95296        -39.46183       -126.1469             -200               0             -200               0
1.77888               -0.6856166       -29.27328        -39.23292       -129.9695             -200               0             -200               0
1.78548               -0.7093834       -29.59761        -39.00568       -133.7898             -200               0             -200               0
1.79208               -0.7340302       -29.92599        -38.77985       -137.6076             -200               0             -200               0
1.79868               -0.7595688       -30.25845        -38.55521       -141.4229             -200               0             -200               0
1.80528               -0.7860119       -30.59504        -38.33149       -145.2359             -200               0             -200               0
1.81188               -0.8133734       -30.93586        -38.10847       -149.0471             -200               0             -200               0
1.81848               -0.8416691         -31.281        -37.88593       -152.8569             -200               0             -200               0
1.82508               -0.8709167        -31.6306        -37.66363       -156.6662             -200               0             -200               0
1.83168               -0.9011362        -31.9848         -37.4414       -160.4758             -200               0             -200               0
1.83828               -0.9323521       -32.34379        -37.21903       -164.2867             -200               0             -200               0
1.84488               -0.9645936       -32.70776        -36.99638       -168.1001             -200               0             -200               0
1.85149               -0.9978952       -33.07692        -36.77328       -171.9172             -200               0             -200               0
