! TOUCHSTONE file generated by CST MICROWAVE STUDIO
! Date and time: Tue Mar 18 00:02:47 2025
! Project name: oblique.cst
! Parameters = {Tilt=40; Fracture=1; B=12.5; D=160; F=5; Feed=2.85625; L=100; M=10; R=0.384908; S=2; Theta=180; length=57.125; wave=114.25}
! Header version: 2024
! Port assignment regex: !\s*Touchstone port\s*([0-9]+)\s*=\s*(CST MWS port|CST DES external port|CST DES block port)\s*(.+)\s* \(\"(.*)\"\)(\s*mode\s*([0-9]+))?.*
! Touchstone port assignment:
! Touchstone port 1 = CST MWS port 1 ("")
! Touchstone port 2 = CST MWS port 2 ("")
# GHz S DB R 50
1                    -0.01897403       -9.783802        -71.04382        -126.154             -200               0             -200               0
1.00658              -0.01970062       -9.872635        -70.43911       -130.4636             -200               0             -200               0
1.01316              -0.02047913       -9.961917        -69.89115       -134.8819             -200               0             -200               0
1.01974              -0.02130596       -10.05162        -69.39529       -139.3769             -200               0             -200               0
1.02632              -0.02217625       -10.14171        -68.94763        -143.923             -200               0             -200               0
1.03289              -0.02308503       -10.23217        -68.54493       -148.4992             -200               0             -200               0
1.03947               -0.0240266         -10.323        -68.18446       -153.0873             -200               0             -200               0
1.04605              -0.02499295       -10.41419        -67.86394       -157.6715             -200               0             -200               0
1.05263              -0.02597795       -10.50574        -67.58146       -162.2375             -200               0             -200               0
1.05921              -0.02697516       -10.59766        -67.33543       -166.7716             -200               0             -200               0
1.06579              -0.02797735       -10.68999         -67.1245       -171.2608             -200               0             -200               0
1.07237              -0.02897812       -10.78274        -66.94752        -175.692             -200               0             -200               0
1.07895              -0.02997077       -10.87596        -66.80354        179.9485             -200               0             -200               0
1.08553              -0.03095102       -10.96969        -66.69169        175.6747             -200               0             -200               0
1.09211               -0.0319148       -11.06398         -66.6112        171.5021             -200               0             -200               0
1.09868              -0.03285838        -11.1589         -66.5613        167.4471             -200               0             -200               0
1.10526               -0.0337789        -11.2545         -66.5412        163.5282             -200               0             -200               0
1.11184              -0.03467759       -11.35084        -66.54997        159.7658             -200               0             -200               0
1.11842              -0.03555348         -11.448        -66.58646        156.1827             -200               0             -200               0
1.125                -0.03641014       -11.54604        -66.64918        152.8043             -200               0             -200               0
1.13158              -0.03724974       -11.64502        -66.73613        149.6589             -200               0             -200               0
1.13816              -0.03807703         -11.745        -66.84457        146.7776             -200               0             -200               0
1.14474              -0.03889889       -11.84606        -66.97078        144.1939             -200               0             -200               0
1.15132              -0.03972093       -11.94822        -67.10978        141.9425             -200               0             -200               0
1.15789              -0.04055244       -12.05154        -67.25492        140.0579             -200               0             -200               0
1.16447              -0.04140131       -12.15606        -67.39763        138.5708             -200               0             -200               0
1.17105              -0.04227797       -12.26181        -67.52719        137.5037             -200               0             -200               0
1.17763              -0.04319036       -12.36881        -67.63073        136.8647             -200               0             -200               0
1.18421              -0.04414942       -12.47706        -67.69376        136.6401             -200               0             -200               0
1.19079              -0.04516367       -12.58658        -67.70121        136.7878             -200               0             -200               0
1.19737              -0.04624352       -12.69734        -67.63917        137.2334             -200               0             -200               0
1.20395              -0.04739659       -12.80935        -67.49693        137.8721             -200               0             -200               0
1.21053              -0.04863179       -12.92258        -67.26891        138.5777             -200               0             -200               0
1.21711               -0.0499555         -13.037         -66.9558         139.218             -200               0             -200               0
1.22368              -0.05137306       -13.15257        -66.56429        139.6715             -200               0             -200               0
1.23026              -0.05288919       -13.26926        -66.10575        139.8412             -200               0             -200               0
1.23684              -0.05450776       -13.38703        -65.59414         139.662             -200               0             -200               0
1.24342              -0.05622909       -13.50583        -65.04406        139.1004             -200               0             -200               0
1.25                 -0.05805494       -13.62563        -64.46912        138.1497             -200               0             -200               0
1.25658              -0.05998245       -13.74638        -63.88111        136.8227             -200               0             -200               0
1.26316              -0.06201109       -13.86805        -63.28961         135.145             -200               0             -200               0
1.26974              -0.06413595       -13.99062        -62.70206         133.149             -200               0             -200               0
1.27632              -0.06635215       -14.11406          -62.124        130.8696             -200               0             -200               0
1.28289              -0.06865414       -14.23835         -61.5594        128.3415             -200               0             -200               0
1.28947              -0.07103615        -14.3635        -61.01098        125.5977             -200               0             -200               0
1.29605              -0.07349006        -14.4895        -60.48052        122.6686             -200               0             -200               0
1.30263              -0.07600872       -14.61636        -59.96905        119.5816             -200               0             -200               0
1.30921              -0.07858554       -14.74412        -59.47708        116.3614             -200               0             -200               0
1.31579              -0.08121358       -14.87282        -59.00474        113.0297             -200               0             -200               0
1.32237              -0.08388597       -15.00249        -58.55186         109.606             -200               0             -200               0
1.32895              -0.08659586       -15.13319        -58.11807        106.1075             -200               0             -200               0
1.33553              -0.08934065       -15.26499        -57.70286        102.5492             -200               0             -200               0
1.34211              -0.09211534       -15.39796         -57.3056        98.94493             -200               0             -200               0
1.34868               -0.0949179       -15.53218        -56.92561        95.30663             -200               0             -200               0
1.35526              -0.09774823       -15.66774        -56.56212        91.64517             -200               0             -200               0
1.36184               -0.1006071       -15.80471        -56.21435        87.97028             -200               0             -200               0
1.36842               -0.1034975       -15.94321        -55.88147        84.29074             -200               0             -200               0
1.375                 -0.1064234        -16.0833        -55.56262        80.61447             -200               0             -200               0
1.38158               -0.1093911       -16.22508        -55.25691        76.94862             -200               0             -200               0
1.38816                -0.112409       -16.36863        -54.96343        73.29966             -200               0             -200               0
1.39474               -0.1154852       -16.51403        -54.68126        69.67337             -200               0             -200               0
1.40132               -0.1186318       -16.66136        -54.40943        66.07495             -200               0             -200               0
1.40789               -0.1218597       -16.81068        -54.14696        62.50896             -200               0             -200               0
1.41447               -0.1251811       -16.96203        -53.89283        58.97939             -200               0             -200               0
1.42105               -0.1286115       -17.11548        -53.64601        55.48958             -200               0             -200               0
1.42763               -0.1321623       -17.27104        -53.40545        52.04226             -200               0             -200               0
1.43421               -0.1358493       -17.42876        -53.17007        48.63949             -200               0             -200               0
1.44079                -0.139686       -17.58862        -52.93877        45.28265             -200               0             -200               0
1.44737               -0.1436853       -17.75065        -52.71048        41.97238             -200               0             -200               0
1.45395               -0.1478602       -17.91483        -52.48409        38.70861             -200               0             -200               0
1.46053               -0.1522234       -18.08114        -52.25854        35.49045             -200               0             -200               0
1.46711               -0.1567842       -18.24957        -52.03277        32.31627             -200               0             -200               0
1.47368               -0.1615521       -18.42008        -51.80579        29.18365             -200               0             -200               0
1.48026               -0.1665354       -18.59264        -51.57665        26.08938             -200               0             -200               0
1.48684                 -0.17174       -18.76721        -51.34447        23.02957             -200               0             -200               0
1.49342               -0.1771703       -18.94376        -51.10847        19.99963             -200               0             -200               0
1.5                   -0.1828291       -19.12226        -50.86799        16.99442             -200               0             -200               0
1.50658               -0.1887165       -19.30266        -50.62247        14.00829             -200               0             -200               0
1.51316                -0.194833       -19.48496        -50.37147        11.03526             -200               0             -200               0
1.51974               -0.2011763       -19.66914         -50.1147        8.069103             -200               0             -200               0
1.52632               -0.2077425       -19.85518        -49.85202        5.103523             -200               0             -200               0
1.53289               -0.2145286       -20.04309         -49.5834        2.132277             -200               0             -200               0
1.53947               -0.2215287        -20.2329        -49.30896      -0.8506777             -200               0             -200               0
1.54605               -0.2287387       -20.42463        -49.02893       -3.851061             -200               0             -200               0
1.55263               -0.2361517       -20.61833        -48.74366       -6.874152             -200               0             -200               0
1.55921               -0.2437626       -20.81406        -48.45358       -9.924706             -200               0             -200               0
1.56579               -0.2515684       -21.01189        -48.15922       -13.00688             -200               0             -200               0
1.57237               -0.2595633       -21.21192        -47.86116       -16.12418             -200               0             -200               0
1.57895               -0.2677467       -21.41426        -47.56001       -19.27948             -200               0             -200               0
1.58553               -0.2761176       -21.61902        -47.25643       -22.47493             -200               0             -200               0
1.59211               -0.2846766       -21.82632        -46.95107       -25.71209             -200               0             -200               0
1.59868               -0.2934284       -22.03631        -46.64459       -28.99187             -200               0             -200               0
1.60526               -0.3023788       -22.24914        -46.33763       -32.31461             -200               0             -200               0
1.61184                -0.311536       -22.46494        -46.03081       -35.68012             -200               0             -200               0
1.61842               -0.3209118       -22.68388        -45.72469       -39.08777             -200               0             -200               0
1.625                 -0.3305203       -22.90611        -45.41983       -42.53649             -200               0             -200               0
1.63158               -0.3403796       -23.13179        -45.11672       -46.02489             -200               0             -200               0
1.63816               -0.3505076       -23.36106        -44.81579       -49.55127             -200               0             -200               0
1.64474               -0.3609284       -23.59406        -44.51746        -53.1137             -200               0             -200               0
1.65132                -0.371666       -23.83092        -44.22206       -56.71005             -200               0             -200               0
1.65789               -0.3827482       -24.07176        -43.92989       -60.33808             -200               0             -200               0
1.66447                -0.394203       -24.31669         -43.6412       -63.99543             -200               0             -200               0
1.67105                 -0.40606       -24.56581         -43.3562       -67.67967             -200               0             -200               0
1.67763               -0.4183551       -24.81918        -43.07503       -71.38836             -200               0             -200               0
1.68421               -0.4311177       -25.07687        -42.79781       -75.11905             -200               0             -200               0
1.69079               -0.4443811       -25.33893         -42.5246       -78.86932             -200               0             -200               0
1.69737                -0.458179       -25.60537        -42.25545       -82.63679             -200               0             -200               0
1.70395               -0.4725453       -25.87622        -41.99035       -86.41917             -200               0             -200               0
1.71053               -0.4875126       -26.15147        -41.72925       -90.21423             -200               0             -200               0
1.71711                 -0.50311       -26.43111        -41.47209       -94.01984             -200               0             -200               0
1.72368               -0.5193689       -26.71511        -41.21877       -97.83401             -200               0             -200               0
1.73026               -0.5363187       -27.00343        -40.96917       -101.6549             -200               0             -200               0
1.73684                -0.553984       -27.29604        -40.72312       -105.4806             -200               0             -200               0
1.74342               -0.5723912       -27.59289        -40.48047       -109.3097             -200               0             -200               0
1.75                  -0.5915627       -27.89393        -40.24102       -113.1407             -200               0             -200               0
1.75658               -0.6115183       -28.19912        -40.00456       -116.9723             -200               0             -200               0
1.76316               -0.6322793       -28.50842        -39.77087       -120.8033             -200               0             -200               0
1.76974               -0.6538618       -28.82179         -39.5397        -124.633             -200               0             -200               0
1.77632               -0.6762828       -29.13924        -39.31082       -128.4604             -200               0             -200               0
1.78289               -0.6995557       -29.46073        -39.08396       -132.2851             -200               0             -200               0
1.78947               -0.7236955       -29.78629        -38.85887       -136.1067             -200               0             -200               0
1.79605               -0.7487159       -30.11595        -38.63528        -139.925             -200               0             -200               0
1.80263               -0.7746307       -30.44976        -38.41294       -143.7399             -200               0             -200               0
1.80921               -0.8014541       -30.78777        -38.19159       -147.5518             -200               0             -200               0
1.81579               -0.8292029        -31.1301        -37.97098       -151.3609             -200               0             -200               0
1.82237               -0.8578942       -31.47685        -37.75087       -155.1679             -200               0             -200               0
1.82895               -0.8875491       -31.82815        -37.53102       -158.9734             -200               0             -200               0
1.83553               -0.9181898       -32.18417        -37.31124       -162.7784             -200               0             -200               0
1.84211               -0.9498455       -32.54507        -37.09131       -166.5839             -200               0             -200               0
1.84868               -0.9825477       -32.91106        -36.87106       -170.3912             -200               0             -200               0
