! TOUCHSTONE file generated by CST MICROWAVE STUDIO
! Date and time: Tue Mar 18 00:02:50 2025
! Project name: oblique.cst
! Parameters = {Tilt=40; Fracture=1; B=12.5; D=160; F=5; Feed=2.85625; L=100; M=30; R=0.384908; S=2; Theta=270; length=57.125; wave=114.25}
! Header version: 2024
! Port assignment regex: !\s*Touchstone port\s*([0-9]+)\s*=\s*(CST MWS port|CST DES external port|CST DES block port)\s*(.+)\s* \(\"(.*)\"\)(\s*mode\s*([0-9]+))?.*
! Touchstone port assignment:
! Touchstone port 1 = CST MWS port 1 ("")
! Touchstone port 2 = CST MWS port 2 ("")
# GHz S DB R 50
1                    -0.02088702       -9.798257        -67.12711       -178.2615             -200               0             -200               0
1.0066               -0.02170736       -9.886072        -67.14285        176.6481             -200               0             -200               0
1.0132                -0.0225475       -9.974316        -67.19121        171.6763             -200               0             -200               0
1.0198               -0.02340386       -10.06299        -67.27282        166.8371             -200               0             -200               0
1.0264               -0.02427421       -10.15212         -67.3884        162.1476             -200               0             -200               0
1.033                -0.02515408       -10.24171        -67.53875        157.6285             -200               0             -200               0
1.0396               -0.02604101       -10.33179        -67.72463        153.3049             -200               0             -200               0
1.0462               -0.02693282       -10.42239        -67.94671        149.2077             -200               0             -200               0
1.05281              -0.02782684       -10.51352        -68.20536        145.3746             -200               0             -200               0
1.05941              -0.02872115       -10.60524        -68.50044        141.8514             -200               0             -200               0
1.06601                -0.029616       -10.69756        -68.83086        138.6938             -200               0             -200               0
1.07261              -0.03050988       -10.79053        -69.19402        135.9689             -200               0             -200               0
1.07921              -0.03140392       -10.88419        -69.58485        133.7559             -200               0             -200               0
1.08581              -0.03229907       -10.97857        -69.99463        132.1445             -200               0             -200               0
1.09241              -0.03319747       -11.07371        -70.40925        131.2304             -200               0             -200               0
1.09901              -0.03410178       -11.16964        -70.80737        131.1021             -200               0             -200               0
1.10561              -0.03501411       -11.26641        -71.15906        131.8183             -200               0             -200               0
1.11221               -0.0359403       -11.36403        -71.42629        133.3719             -200               0             -200               0
1.11881              -0.03688371       -11.46254        -71.56725        135.6507             -200               0             -200               0
1.12541              -0.03784939       -11.56196        -71.54544        138.4154             -200               0             -200               0
1.13201              -0.03884144       -11.66231        -71.34107        141.3225             -200               0             -200               0
1.13861              -0.03986667       -11.76359        -70.95851        143.9984             -200               0             -200               0
1.14521                -0.040929       -11.86583        -70.42448        146.1307             -200               0             -200               0
1.15182              -0.04203444       -11.96901        -69.77845        147.5258             -200               0             -200               0
1.15842              -0.04318672       -12.07315        -69.06146        148.1135             -200               0             -200               0
1.16502              -0.04439168       -12.17823        -68.30869         147.915             -200               0             -200               0
1.17162              -0.04565266       -12.28425        -67.54668        147.0039             -200               0             -200               0
1.17822              -0.04697324       -12.39119        -66.79374        145.4739             -200               0             -200               0
1.18482              -0.04835643       -12.49904        -66.06159        143.4204             -200               0             -200               0
1.19142              -0.04980384       -12.60778        -65.35721        140.9307             -200               0             -200               0
1.19802              -0.05131653       -12.71739        -64.68436        138.0807             -200               0             -200               0
1.20462              -0.05289557       -12.82785        -64.04471        134.9346             -200               0             -200               0
1.21122              -0.05454046       -12.93915        -63.43861        131.5459             -200               0             -200               0
1.21782              -0.05624953       -13.05127        -62.86564        127.9589             -200               0             -200               0
1.22442              -0.05802066        -13.1642        -62.32488        124.2104             -200               0             -200               0
1.23102              -0.05985177       -13.27793        -61.81521        120.3311             -200               0             -200               0
1.23762              -0.06173951       -13.39246        -61.33536        116.3466             -200               0             -200               0
1.24422              -0.06367978       -13.50779        -60.88404        112.2788             -200               0             -200               0
1.25083              -0.06566773       -13.62391           -60.46         108.146             -200               0             -200               0
1.25743               -0.0677005       -13.74086        -60.06201        103.9643             -200               0             -200               0
1.26403              -0.06977259       -13.85865        -59.68889        99.74774             -200               0             -200               0
1.27063              -0.07188006        -13.9773        -59.33955        95.50863             -200               0             -200               0
1.27723              -0.07401849       -14.09684        -59.01293        91.25806             -200               0             -200               0
1.28383              -0.07618543       -14.21732        -58.70804        87.00609             -200               0             -200               0
1.29043              -0.07837545       -14.33879        -58.42394        82.76199             -200               0             -200               0
1.29703              -0.08058815       -14.46128        -58.15971        78.53442             -200               0             -200               0
1.30363              -0.08282027       -14.58486        -57.91446        74.33155             -200               0             -200               0
1.31023              -0.08507212       -14.70959        -57.68732        70.16118             -200               0             -200               0
1.31683              -0.08734406       -14.83552        -57.47742        66.03086             -200               0             -200               0
1.32343               -0.0896358       -14.96272        -57.28388        61.94793             -200               0             -200               0
1.33003               -0.0919517       -15.09125         -57.1058        57.91956             -200               0             -200               0
1.33663               -0.0942923       -15.22117        -56.94224        53.95282             -200               0             -200               0
1.34323              -0.09666465       -15.35256        -56.79218        50.05466             -200               0             -200               0
1.34984              -0.09907297       -15.48546        -56.65457        46.23188             -200               0             -200               0
1.35644               -0.1015227       -15.61994        -56.52825        42.49113             -200               0             -200               0
1.36304               -0.1040208       -15.75603        -56.41198        38.83881             -200               0             -200               0
1.36964               -0.1065755       -15.89381        -56.30437        35.28098             -200               0             -200               0
1.37624               -0.1091952       -16.03329        -56.20393        31.82325             -200               0             -200               0
1.38284               -0.1118868       -16.17452        -56.10902        28.47058             -200               0             -200               0
1.38944               -0.1146592       -16.31753        -56.01785         25.2271             -200               0             -200               0
1.39604               -0.1175219       -16.46235        -55.92851        22.09588             -200               0             -200               0
1.40264               -0.1204817       -16.60898        -55.83891        19.07863             -200               0             -200               0
1.40924                -0.123546       -16.75745         -55.7469        16.17546             -200               0             -200               0
1.41584               -0.1267249       -16.90776         -55.6502        13.38459             -200               0             -200               0
1.42244               -0.1300234       -17.05991        -55.54651         10.7021             -200               0             -200               0
1.42904               -0.1334467       -17.21391        -55.43356        8.121748             -200               0             -200               0
1.43564               -0.1370023       -17.36976        -55.30916        5.634819             -200               0             -200               0
1.44224               -0.1406914       -17.52745        -55.17129        3.230185             -200               0             -200               0
1.44884               -0.1445202       -17.68699        -55.01819       0.8944301             -200               0             -200               0
1.45545               -0.1484895       -17.84837        -54.84844       -1.387842             -200               0             -200               0
1.46205               -0.1526012        -18.0116        -54.66102       -3.633547             -200               0             -200               0
1.46865               -0.1568568       -18.17669        -54.45534        -5.86054             -200               0             -200               0
1.47525               -0.1612553       -18.34365        -54.23134        -8.08696             -200               0             -200               0
1.48185               -0.1657969       -18.51249        -53.98937       -10.33054             -200               0             -200               0
1.48845               -0.1704791       -18.68326        -53.73028       -12.60795             -200               0             -200               0
1.49505               -0.1753024       -18.85599        -53.45526       -14.93426             -200               0             -200               0
1.50165               -0.1802649       -19.03071        -53.16586       -17.32248             -200               0             -200               0
1.50825               -0.1853647       -19.20748        -52.86383        -19.7833             -200               0             -200               0
1.51485               -0.1906022       -19.38638         -52.5511       -22.32497             -200               0             -200               0
1.52145               -0.1959762       -19.56746        -52.22963       -24.95328             -200               0             -200               0
1.52805               -0.2014883       -19.75081        -51.90142       -27.67177             -200               0             -200               0
1.53465               -0.2071396       -19.93652        -51.56838       -30.48184             -200               0             -200               0
1.54125                -0.212932       -20.12468        -51.23232       -33.38307             -200               0             -200               0
1.54785               -0.2188731        -20.3154        -50.89494       -36.37354             -200               0             -200               0
1.55446               -0.2249648       -20.50879        -50.55773       -39.45001             -200               0             -200               0
1.56106               -0.2312189       -20.70495        -50.22205        -42.6083             -200               0             -200               0
1.56766               -0.2376428       -20.90401        -49.88908       -45.84347             -200               0             -200               0
1.57426               -0.2442468       -21.10606        -49.55983       -49.15005             -200               0             -200               0
1.58086               -0.2510447       -21.31123        -49.23517        -52.5222             -200               0             -200               0
1.58746               -0.2580526       -21.51963        -48.91578       -55.95388             -200               0             -200               0
1.59406               -0.2652853       -21.73135        -48.60224       -59.43897             -200               0             -200               0
1.60066                -0.272764       -21.94651        -48.29498       -62.97134             -200               0             -200               0
1.60726               -0.2805048        -22.1652        -47.99433       -66.54492             -200               0             -200               0
1.61386               -0.2885309       -22.38749        -47.70051        -70.1538             -200               0             -200               0
1.62046               -0.2968648       -22.61347        -47.41363        -73.7922             -200               0             -200               0
1.62706               -0.3055284        -22.8432        -47.13375       -77.45457             -200               0             -200               0
1.63366               -0.3145461       -23.07674        -46.86081       -81.13554             -200               0             -200               0
1.64026               -0.3239419       -23.31413        -46.59471          -84.83             -200               0             -200               0
1.64686               -0.3337394       -23.55541        -46.33526       -88.53309             -200               0             -200               0
1.65347               -0.3439623       -23.80059        -46.08222       -92.24021             -200               0             -200               0
1.66007               -0.3546347        -24.0497         -45.8353       -95.94703             -200               0             -200               0
1.66667               -0.3657796       -24.30275        -45.59414       -99.64949             -200               0             -200               0
1.67327               -0.3774193       -24.55972        -45.35833       -103.3439             -200               0             -200               0
1.67987               -0.3895741       -24.82063        -45.12743       -107.0267             -200               0             -200               0
1.68647               -0.4022638       -25.08545        -44.90094        -110.695             -200               0             -200               0
1.69307               -0.4155085       -25.35418        -44.67832       -114.3459             -200               0             -200               0
1.69967                -0.429324       -25.62681          -44.459       -117.9771             -200               0             -200               0
1.70627               -0.4437283       -25.90333        -44.24237       -121.5868             -200               0             -200               0
1.71287               -0.4587341       -26.18373        -44.02778       -125.1733             -200               0             -200               0
1.71947               -0.4743571       -26.46801        -43.81458       -128.7357             -200               0             -200               0
1.72607               -0.4906089       -26.75619        -43.60209       -132.2734             -200               0             -200               0
1.73267                -0.507504       -27.04828        -43.38962       -135.7863             -200               0             -200               0
1.73927               -0.5250523       -27.34432        -43.17646        -139.275             -200               0             -200               0
1.74587               -0.5432661       -27.64435        -42.96195       -142.7405             -200               0             -200               0
1.75248               -0.5621571       -27.94844        -42.74541       -146.1844             -200               0             -200               0
1.75908               -0.5817377       -28.25665         -42.5262       -149.6087             -200               0             -200               0
1.76568               -0.6020209       -28.56908        -42.30372       -153.0162             -200               0             -200               0
1.77228               -0.6230221       -28.88583        -42.07743       -156.4099             -200               0             -200               0
1.77888                -0.644757       -29.20703        -41.84683       -159.7934             -200               0             -200               0
1.78548               -0.6672447       -29.53281         -41.6115       -163.1707             -200               0             -200               0
1.79208               -0.6905059       -29.86333        -41.37111       -166.5461             -200               0             -200               0
1.79868               -0.7145676       -30.19875        -41.12539       -169.9242             -200               0             -200               0
1.80528               -0.7394528       -30.53925        -40.87419       -173.3097             -200               0             -200               0
1.81188               -0.7651969       -30.88501        -40.61742       -176.7075             -200               0             -200               0
1.81848               -0.7918337       -31.23623        -40.35511        179.8777             -200               0             -200               0
1.82508               -0.8194038       -31.59309        -40.08736        176.4412             -200               0             -200               0
1.83168               -0.8479508       -31.95581        -39.81437        172.9783             -200               0             -200               0
1.83828               -0.8775243       -32.32458        -39.53641        169.4849             -200               0             -200               0
1.84488               -0.9081789       -32.69958        -39.25384        165.9569             -200               0             -200               0
1.85149               -0.9399728       -33.08101        -38.96704        162.3907             -200               0             -200               0
