! TOUCHSTONE file generated by CST MICROWAVE STUDIO
! Date and time: Tue Mar 18 00:03:04 2025
! Project name: oblique.cst
! Parameters = {Tilt=40; Fracture=1; B=12.5; D=160; F=25; Feed=2.85625; L=100; M=50; R=0.384908; S=1; Theta=270; length=57.125; wave=114.25}
! Header version: 2024
! Port assignment regex: !\s*Touchstone port\s*([0-9]+)\s*=\s*(CST MWS port|CST DES external port|CST DES block port)\s*(.+)\s* \(\"(.*)\"\)(\s*mode\s*([0-9]+))?.*
! Touchstone port assignment:
! Touchstone port 1 = CST MWS port 1 ("")
! Touchstone port 2 = CST MWS port 2 ("")
# GHz S DB R 50
1                    -0.02026292        -9.83067        -69.39822        150.6778             -200               0             -200               0
1.0066               -0.02092099       -9.918852         -69.3392        145.3445             -200               0             -200               0
1.0132               -0.02158878       -10.00763         -69.3082        140.1221             -200               0             -200               0
1.0198               -0.02226848       -10.09703        -69.30504        135.0206             -200               0             -200               0
1.0264               -0.02296021       -10.18706        -69.32958        130.0519             -200               0             -200               0
1.033                -0.02366521       -10.27774        -69.38166        125.2302             -200               0             -200               0
1.0396               -0.02438359        -10.3691        -69.46101        120.5718             -200               0             -200               0
1.0462                -0.0251186       -10.46115        -69.56725        116.0961             -200               0             -200               0
1.05281              -0.02586986        -10.5539         -69.6997        111.8258             -200               0             -200               0
1.05941              -0.02664013       -10.64737        -69.85731         107.787             -200               0             -200               0
1.06601              -0.02743165       -10.74158        -70.03843        104.0097             -200               0             -200               0
1.07261              -0.02824618       -10.83654        -70.24061        100.5278             -200               0             -200               0
1.07921              -0.02908603       -10.93227        -70.46022        97.37898             -200               0             -200               0
1.08581              -0.02995194       -11.02876         -70.6921        94.60335             -200               0             -200               0
1.09241              -0.03084734       -11.12604        -70.92913        92.24162             -200               0             -200               0
1.09901              -0.03177409        -11.2241        -71.16169        90.33118             -200               0             -200               0
1.10561              -0.03273355       -11.32296        -71.37743        88.90022             -200               0             -200               0
1.11221              -0.03372809       -11.42263        -71.56116        87.95941             -200               0             -200               0
1.11881              -0.03475973        -11.5231         -71.6955        87.49198             -200               0             -200               0
1.12541              -0.03582878       -11.62439        -71.76233        87.44431             -200               0             -200               0
1.13201              -0.03693774       -11.72649        -71.74515        87.72089             -200               0             -200               0
1.13861              -0.03808646       -11.82942        -71.63201        88.18793             -200               0             -200               0
1.14521              -0.03927684       -11.93317        -71.41797        88.68749             -200               0             -200               0
1.15182              -0.04050919       -12.03775        -71.10628        89.05951             -200               0             -200               0
1.15842              -0.04178338       -12.14317        -70.70754        89.16464             -200               0             -200               0
1.16502               -0.0431011       -12.24943         -70.2374        88.90011             -200               0             -200               0
1.17162              -0.04445998       -12.35654        -69.71363        88.20523             -200               0             -200               0
1.17822               -0.0458618       -12.46451        -69.15363         87.0576             -200               0             -200               0
1.18482              -0.04730595       -12.57335        -68.57276        85.46416             -200               0             -200               0
1.19142              -0.04879194       -12.68307        -67.98363        83.45116             -200               0             -200               0
1.19802              -0.05031916        -12.7937        -67.39602        81.05549             -200               0             -200               0
1.20462              -0.05188828       -12.90525        -66.81719        78.31831             -200               0             -200               0
1.21122              -0.05349766       -13.01773        -66.25228        75.28093             -200               0             -200               0
1.21782              -0.05514822       -13.13118        -65.70482        71.98245             -200               0             -200               0
1.22442              -0.05683901       -13.24561         -65.1771        68.45857             -200               0             -200               0
1.23102                -0.058572       -13.36105        -64.67049        64.74121             -200               0             -200               0
1.23762              -0.06034646       -13.47754        -64.18573        60.85853             -200               0             -200               0
1.24422              -0.06216318        -13.5951         -63.7231         56.8352             -200               0             -200               0
1.25083              -0.06402433       -13.71376        -63.28255        52.69278             -200               0             -200               0
1.25743              -0.06593117       -13.83355        -62.86381         48.4501             -200               0             -200               0
1.26403              -0.06788571       -13.95452        -62.46651        44.12361             -200               0             -200               0
1.27063               -0.0698906       -14.07669        -62.09013        39.72779             -200               0             -200               0
1.27723              -0.07194847        -14.2001        -61.73416        35.27543             -200               0             -200               0
1.28383              -0.07406287       -14.32477        -61.39801        30.77788             -200               0             -200               0
1.29043               -0.0762375       -14.45075         -61.0811        26.24528             -200               0             -200               0
1.29703              -0.07847697       -14.57807        -60.78286        21.68681             -200               0             -200               0
1.30363              -0.08078494       -14.70675         -60.5027        17.11081             -200               0             -200               0
1.31023              -0.08316681       -14.83683        -60.24006        12.52492             -200               0             -200               0
1.31683              -0.08562791       -14.96832        -59.99438        7.936217             -200               0             -200               0
1.32343               -0.0881732       -15.10126         -59.7651        3.351334             -200               0             -200               0
1.33003              -0.09080903       -15.23567        -59.55169        -1.22349             -200               0             -200               0
1.33663              -0.09354026       -15.37156        -59.35359       -5.782311             -200               0             -200               0
1.34323              -0.09637192       -15.50895        -59.17027       -10.31944             -200               0             -200               0
1.34984              -0.09931131       -15.64786        -59.00117       -14.82936             -200               0             -200               0
1.35644               -0.1023624        -15.7883        -58.84573       -19.30672             -200               0             -200               0
1.36304               -0.1055321       -15.93027        -58.70337       -23.74632             -200               0             -200               0
1.36964               -0.1088243       -16.07379        -58.57348       -28.14301             -200               0             -200               0
1.37624               -0.1122447       -16.21887        -58.45542       -32.49178             -200               0             -200               0
1.38284                -0.115798        -16.3655        -58.34852        -36.7877             -200               0             -200               0
1.38944               -0.1194882        -16.5137        -58.25206       -41.02595             -200               0             -200               0
1.39604               -0.1233199       -16.66346        -58.16524       -45.20181             -200               0             -200               0
1.40264               -0.1272963        -16.8148        -58.08723       -49.31079             -200               0             -200               0
1.40924               -0.1314218       -16.96772        -58.01712       -53.34855             -200               0             -200               0
1.41584               -0.1356981       -17.12221        -57.95391       -57.31109             -200               0             -200               0
1.42244                -0.140129       -17.27831        -57.89654       -61.19474             -200               0             -200               0
1.42904               -0.1447157         -17.436        -57.84384       -64.99634             -200               0             -200               0
1.43564               -0.1494623       -17.59531        -57.79458       -68.71327             -200               0             -200               0
1.44224                 -0.15437       -17.75625        -57.74741       -72.34367             -200               0             -200               0
1.44884               -0.1594414       -17.91883        -57.70095       -75.88651             -200               0             -200               0
1.45545               -0.1646766       -18.08309        -57.65372       -79.34177             -200               0             -200               0
1.46205               -0.1700809       -18.24904        -57.60422       -82.71057             -200               0             -200               0
1.46865               -0.1756543       -18.41671        -57.55089       -85.99531             -200               0             -200               0
1.47525               -0.1814001       -18.58613        -57.49223       -89.19975             -200               0             -200               0
1.48185               -0.1873203       -18.75735        -57.42675        -92.3291             -200               0             -200               0
1.48845               -0.1934197       -18.93039        -57.35305       -95.39003             -200               0             -200               0
1.49505               -0.1997007       -19.10529        -57.26987       -98.39058             -200               0             -200               0
1.50165               -0.2061677       -19.28211        -57.17612       -101.3401             -200               0             -200               0
1.50825               -0.2128258       -19.46088        -57.07091       -104.2491             -200               0             -200               0
1.51485               -0.2196804       -19.64166        -56.95361       -107.1288             -200               0             -200               0
1.52145               -0.2267376       -19.82449        -56.82387        -109.991             -200               0             -200               0
1.52805               -0.2340034       -20.00941        -56.68159       -112.8478             -200               0             -200               0
1.53465               -0.2414863       -20.19648        -56.52699        -115.711             -200               0             -200               0
1.54125               -0.2491933       -20.38575        -56.36055       -118.5919             -200               0             -200               0
1.54785               -0.2571338       -20.57726          -56.183       -121.5009             -200               0             -200               0
1.55446               -0.2653185       -20.77106        -55.99527       -124.4474             -200               0             -200               0
1.56106               -0.2737554       -20.96718        -55.79848       -127.4394             -200               0             -200               0
1.56766               -0.2824553       -21.16568        -55.59389       -130.4836             -200               0             -200               0
1.57426               -0.2914313       -21.36658        -55.38282       -133.5851             -200               0             -200               0
1.58086               -0.3006927       -21.56992        -55.16665       -136.7474             -200               0             -200               0
1.58746               -0.3102519       -21.77573        -54.94677       -139.9728             -200               0             -200               0
1.59406               -0.3201205       -21.98404        -54.72453       -143.2622             -200               0             -200               0
1.60066               -0.3303115       -22.19486        -54.50124       -146.6151             -200               0             -200               0
1.60726               -0.3408351       -22.40823        -54.27812       -150.0303             -200               0             -200               0
1.61386                -0.351705       -22.62415        -54.05632       -153.5054             -200               0             -200               0
1.62046               -0.3629325       -22.84264        -53.83687       -157.0373             -200               0             -200               0
1.62706               -0.3745279       -23.06371        -53.62072       -160.6223             -200               0             -200               0
1.63366               -0.3865039       -23.28738         -53.4087       -164.2561             -200               0             -200               0
1.64026                -0.398871       -23.51364        -53.20153        -167.934             -200               0             -200               0
1.64686               -0.4116394       -23.74251        -52.99985       -171.6512             -200               0             -200               0
1.65347               -0.4248178         -23.974        -52.80417       -175.4022             -200               0             -200               0
1.66007               -0.4384189       -24.20811        -52.61493       -179.1818             -200               0             -200               0
1.66667               -0.4524496       -24.44486        -52.43245        177.0157             -200               0             -200               0
1.67327               -0.4669196       -24.68426          -52.257        173.1958             -200               0             -200               0
1.67987               -0.4818364       -24.92633        -52.08873        169.3643             -200               0             -200               0
1.68647               -0.4972093       -25.17109        -51.92772        165.5268             -200               0             -200               0
1.69307               -0.5130463       -25.41856        -51.77398        161.6891             -200               0             -200               0
1.69967               -0.5293551       -25.66879        -51.62741        157.8569             -200               0             -200               0
1.70627               -0.5461438        -25.9218        -51.48785        154.0358             -200               0             -200               0
1.71287               -0.5634201       -26.17765        -51.35506        150.2314             -200               0             -200               0
1.71947               -0.5811938       -26.43638        -51.22872        146.4492             -200               0             -200               0
1.72607               -0.5994737       -26.69807        -51.10839        142.6946             -200               0             -200               0
1.73267               -0.6182701       -26.96276        -50.99359        138.9729             -200               0             -200               0
1.73927               -0.6375931       -27.23054        -50.88372        135.2889             -200               0             -200               0
1.74587                -0.657455       -27.50149        -50.77807        131.6476             -200               0             -200               0
1.75248               -0.6778688       -27.77569        -50.67588        128.0531             -200               0             -200               0
1.75908               -0.6988492       -28.05325        -50.57624        124.5095             -200               0             -200               0
1.76568               -0.7204106       -28.33424        -50.47818        121.0203             -200               0             -200               0
1.77228               -0.7425726       -28.61879        -50.38061        117.5881             -200               0             -200               0
1.77888               -0.7653534       -28.90699        -50.28236         114.215             -200               0             -200               0
1.78548               -0.7887722       -29.19896         -50.1822        110.9021             -200               0             -200               0
1.79208               -0.8128553       -29.49482         -50.0788        107.6495             -200               0             -200               0
1.79868               -0.8376258       -29.79466         -49.9708        104.4562             -200               0             -200               0
1.80528               -0.8631103       -30.09861        -49.85683        101.3198             -200               0             -200               0
1.81188               -0.8893391       -30.40677        -49.73551        98.23671             -200               0             -200               0
1.81848               -0.9163429       -30.71926        -49.60553        95.20194             -200               0             -200               0
1.82508               -0.9441532       -31.03619        -49.46563        92.20908             -200               0             -200               0
1.83168               -0.9728069       -31.35765         -49.3147        89.25042             -200               0             -200               0
1.83828                 -1.00234       -31.68374        -49.15178        86.31707             -200               0             -200               0
1.84488                -1.032791       -32.01456         -48.9761        83.39911             -200               0             -200               0
1.85149                  -1.0642       -32.35018        -48.78712        80.48585             -200               0             -200               0
