! TOUCHSTONE file generated by CST MICROWAVE STUDIO
! Date and time: Tue Mar 18 00:02:41 2025
! Project name: oblique.cst
! Parameters = {Tilt=40; Fracture=1; B=12.5; D=160; F=5; Feed=2.85625; L=100; M=50; R=0.384908; S=1; Theta=270; length=57.125; wave=114.25}
! Header version: 2024
! Port assignment regex: !\s*Touchstone port\s*([0-9]+)\s*=\s*(CST MWS port|CST DES external port|CST DES block port)\s*(.+)\s* \(\"(.*)\"\)(\s*mode\s*([0-9]+))?.*
! Touchstone port assignment:
! Touchstone port 1 = CST MWS port 1 ("")
! Touchstone port 2 = CST MWS port 2 ("")
# GHz S DB R 50
1                    -0.02212702       -9.802615         -66.5898        165.4744             -200               0             -200               0
1.0066                -0.0227901       -9.889641        -66.58327        159.7431             -200               0             -200               0
1.0132                -0.0234484       -9.977354        -66.60878        154.1081             -200               0             -200               0
1.0198                -0.0241047       -10.06579        -66.66714        148.5772             -200               0             -200               0
1.0264               -0.02476441       -10.15499        -66.75934        143.1603             -200               0             -200               0
1.033                -0.02543137       -10.24498        -66.88656        137.8698             -200               0             -200               0
1.0396               -0.02611175       -10.33578         -67.0502        132.7212             -200               0             -200               0
1.0462                 -0.026814       -10.42742        -67.25184        127.7341             -200               0             -200               0
1.05281              -0.02754032       -10.51991        -67.49323        122.9328             -200               0             -200               0
1.05941              -0.02830208       -10.61326        -67.77627        118.3479             -200               0             -200               0
1.06601              -0.02910135       -10.70746        -68.10286        114.0182             -200               0             -200               0
1.07261              -0.02994787       -10.80251        -68.47475        109.9927             -200               0             -200               0
1.07921              -0.03084445        -10.8984        -68.89323        106.3338             -200               0             -200               0
1.08581               -0.0317991        -10.9951        -69.35852        103.1208             -200               0             -200               0
1.09241              -0.03281351       -11.09261        -69.86882        100.4539             -200               0             -200               0
1.09901               -0.0338943       -11.19089        -70.41865        98.45815             -200               0             -200               0
1.10561              -0.03504351       -11.28991        -70.99628        97.28333             -200               0             -200               0
1.11221               -0.0362605       -11.38964        -71.57991        97.09648             -200               0             -200               0
1.11881              -0.03754965       -11.49005        -72.13298        98.05502             -200               0             -200               0
1.12541              -0.03890933       -11.59111         -72.6007        100.2483             -200               0             -200               0
1.13201              -0.04033804       -11.69278        -72.91281         103.605             -200               0             -200               0
1.13861              -0.04183211       -11.79504          -72.999        107.8034             -200               0             -200               0
1.14521              -0.04339242       -11.89787        -72.81622        112.2761             -200               0             -200               0
1.15182              -0.04501035       -12.00123        -72.37059        116.3681             -200               0             -200               0
1.15842              -0.04668387       -12.10513        -71.71396        119.5613             -200               0             -200               0
1.16502               -0.0484082       -12.20955        -70.91866         121.598             -200               0             -200               0
1.17162                -0.050175       -12.31448        -70.05197        122.4541             -200               0             -200               0
1.17822              -0.05198121       -12.41994        -69.16415         122.243             -200               0             -200               0
1.18482               -0.0538174       -12.52595        -68.28767        121.1289             -200               0             -200               0
1.19142              -0.05568097       -12.63251        -67.44141        119.2769             -200               0             -200               0
1.19802              -0.05756365       -12.73965        -66.63513        116.8323             -200               0             -200               0
1.20462              -0.05946046       -12.84742        -65.87306        113.9152             -200               0             -200               0
1.21122                -0.061368       -12.95586        -65.15619        110.6217             -200               0             -200               0
1.21782              -0.06328249       -13.06501        -64.48376        107.0283             -200               0             -200               0
1.22442              -0.06519813       -13.17493         -63.8541        103.1955             -200               0             -200               0
1.23102              -0.06711721       -13.28567        -63.26513        99.17159             -200               0             -200               0
1.23762              -0.06903376       -13.39728        -62.71466        94.99515             -200               0             -200               0
1.24422              -0.07095219       -13.50985        -62.20053        90.69755             -200               0             -200               0
1.25083              -0.07287163       -13.62342        -61.72069        86.30445             -200               0             -200               0
1.25743              -0.07479478       -13.73806        -61.27322        81.83719             -200               0             -200               0
1.26403               -0.0767263       -13.85383         -60.8564         77.3137             -200               0             -200               0
1.27063               -0.0786694       -13.97078        -60.46862        72.74932             -200               0             -200               0
1.27723               -0.0806296       -14.08896        -60.10845        68.15733             -200               0             -200               0
1.28383              -0.08261443       -14.20844        -59.77458        63.54948             -200               0             -200               0
1.29043              -0.08462926       -14.32923        -59.46582        58.93629             -200               0             -200               0
1.29703              -0.08668327       -14.45139        -59.18108        54.32737             -200               0             -200               0
1.30363              -0.08878301       -14.57494        -58.91939        49.73166             -200               0             -200               0
1.31023              -0.09093658       -14.69991        -58.67979        45.15759             -200               0             -200               0
1.31683               -0.0931525        -14.8263        -58.46144        40.61329             -200               0             -200               0
1.32343              -0.09543786       -14.95414         -58.2635        36.10665             -200               0             -200               0
1.33003               -0.0977995       -15.08341        -58.08517        31.64552             -200               0             -200               0
1.33663               -0.1002441       -15.21413        -57.92566        27.23773             -200               0             -200               0
1.34323               -0.1027798       -15.34628        -57.78417        22.89121             -200               0             -200               0
1.34984               -0.1054093       -15.47984        -57.65987          18.614             -200               0             -200               0
1.35644               -0.1081365       -15.61482        -57.55187        14.41435             -200               0             -200               0
1.36304               -0.1109675       -15.75118        -57.45923        10.30071             -200               0             -200               0
1.36964               -0.1139012       -15.88892        -57.38089        6.281721             -200               0             -200               0
1.37624               -0.1169393       -16.02803        -57.31567        2.366186             -200               0             -200               0
1.38284               -0.1200828       -16.16849        -57.26225          -1.437             -200               0             -200               0
1.38944               -0.1233312       -16.31028         -57.2191       -5.118982             -200               0             -200               0
1.39604                -0.126681       -16.45342        -57.18451       -8.671121             -200               0             -200               0
1.40264               -0.1301295       -16.59789        -57.15649       -12.08524             -200               0             -200               0
1.40924               -0.1336758       -16.74372         -57.1328       -15.35398             -200               0             -200               0
1.41584                -0.137313       -16.89092        -57.11089       -18.47118             -200               0             -200               0
1.42244               -0.1410396        -17.0395        -57.08797       -21.43241             -200               0             -200               0
1.42904               -0.1448503       -17.18952        -57.06091       -24.23552             -200               0             -200               0
1.43564               -0.1487415       -17.34101        -57.02641       -26.88129             -200               0             -200               0
1.44224               -0.1527108       -17.49402        -56.98096       -29.37402             -200               0             -200               0
1.44884               -0.1567548       -17.64861        -56.92101       -31.72208             -200               0             -200               0
1.45545               -0.1608699       -17.80486        -56.84312       -33.93829             -200               0             -200               0
1.46205               -0.1650558       -17.96284        -56.74407          -36.04             -200               0             -200               0
1.46865                -0.169312       -18.12262         -56.6211       -38.04892             -200               0             -200               0
1.47525               -0.1736423       -18.28431        -56.47205       -39.99048             -200               0             -200               0
1.48185               -0.1780463       -18.44798        -56.29552       -41.89278             -200               0             -200               0
1.48845               -0.1825295       -18.61374        -56.09097       -43.78537             -200               0             -200               0
1.49505               -0.1870964       -18.78168        -55.85876       -45.69774             -200               0             -200               0
1.50165               -0.1917558       -18.95189        -55.60009       -47.65785             -200               0             -200               0
1.50825               -0.1965159       -19.12447        -55.31692       -49.69084             -200               0             -200               0
1.51485               -0.2013862       -19.29951        -55.01179        -51.8181             -200               0             -200               0
1.52145               -0.2063795       -19.47708        -54.68769       -54.05661             -200               0             -200               0
1.52805               -0.2115055       -19.65729         -54.3478       -56.41883             -200               0             -200               0
1.53465               -0.2167813       -19.84019        -53.99541       -58.91274             -200               0             -200               0
1.54125               -0.2222194       -20.02585         -53.6337        -61.5423             -200               0             -200               0
1.54785               -0.2278356       -20.21433        -53.26571       -64.30799             -200               0             -200               0
1.55446                -0.233645       -20.40568        -52.89418       -67.20741             -200               0             -200               0
1.56106               -0.2396647       -20.59994        -52.52162       -70.23592             -200               0             -200               0
1.56766                -0.245908       -20.79715        -52.15017       -73.38719             -200               0             -200               0
1.57426               -0.2523933       -20.99731         -51.7817       -76.65375             -200               0             -200               0
1.58086               -0.2591317       -21.20046        -51.41779       -80.02737             -200               0             -200               0
1.58746                 -0.26614        -21.4066        -51.05974       -83.49938             -200               0             -200               0
1.59406               -0.2734319       -21.61573         -50.7086         -87.061             -200               0             -200               0
1.60066               -0.2810172       -21.82787        -50.36522       -90.70346             -200               0             -200               0
1.60726               -0.2889085         -22.043        -50.03026       -94.41815             -200               0             -200               0
1.61386               -0.2971156       -22.26113        -49.70422       -98.19674             -200               0             -200               0
1.62046               -0.3056466       -22.48224        -49.38743       -102.0312             -200               0             -200               0
1.62706               -0.3145091       -22.70635        -49.08014       -105.9139             -200               0             -200               0
1.63366               -0.3237084       -22.93347        -48.78246       -109.8376             -200               0             -200               0
1.64026               -0.3332504       -23.16359        -48.49444       -113.7952             -200               0             -200               0
1.64686               -0.3431392       -23.39676        -48.21604       -117.7802             -200               0             -200               0
1.65347                -0.353377       -23.63299        -47.94713       -121.7865             -200               0             -200               0
1.66007               -0.3639672       -23.87232        -47.68755        -125.808             -200               0             -200               0
1.66667               -0.3749113       -24.11482        -47.43707       -129.8393             -200               0             -200               0
1.67327               -0.3862129       -24.36056        -47.19541       -133.8751             -200               0             -200               0
1.67987               -0.3978738       -24.60961        -46.96225       -137.9104             -200               0             -200               0
1.68647               -0.4098974       -24.86206        -46.73721       -141.9404             -200               0             -200               0
1.69307               -0.4222877       -25.11805        -46.51988       -145.9608             -200               0             -200               0
1.69967               -0.4350494       -25.37767        -46.30981       -149.9674             -200               0             -200               0
1.70627               -0.4481909       -25.64108         -46.1065       -153.9564             -200               0             -200               0
1.71287               -0.4617206       -25.90843        -45.90941       -157.9242             -200               0             -200               0
1.71947               -0.4756489       -26.17988        -45.71797       -161.8676             -200               0             -200               0
1.72607               -0.4899892        -26.4556        -45.53156       -165.7835             -200               0             -200               0
1.73267                 -0.50476       -26.73578        -45.34952       -169.6695             -200               0             -200               0
1.73927               -0.5199788        -27.0206        -45.17117       -173.5233             -200               0             -200               0
1.74587               -0.5356675       -27.31025        -44.99578       -177.3431             -200               0             -200               0
1.75248               -0.5518529       -27.60494         -44.8226        178.8724             -200               0             -200               0
1.75908               -0.5685622       -27.90486        -44.65084        175.1241             -200               0             -200               0
1.76568               -0.5858288        -28.2102        -44.47971        171.4123             -200               0             -200               0
1.77228               -0.6036856       -28.52116        -44.30839        167.7369             -200               0             -200               0
1.77888               -0.6221736       -28.83793        -44.13608        164.0968             -200               0             -200               0
1.78548               -0.6413322       -29.16067        -43.96195        160.4909             -200               0             -200               0
1.79208               -0.6612065       -29.48955        -43.78523         156.917             -200               0             -200               0
1.79868               -0.6818422       -29.82475        -43.60516        153.3725             -200               0             -200               0
1.80528               -0.7032887       -30.16639        -43.42102         149.854             -200               0             -200               0
1.81188               -0.7255994       -30.51462        -43.23217        146.3578             -200               0             -200               0
1.81848               -0.7488242       -30.86956        -43.03801        142.8795             -200               0             -200               0
1.82508               -0.7730212       -31.23132        -42.83806        139.4142             -200               0             -200               0
1.83168               -0.7982462       -31.59999        -42.63191        135.9566             -200               0             -200               0
1.83828               -0.8245583       -31.97566        -42.41926        132.5012             -200               0             -200               0
1.84488               -0.8520149       -32.35839        -42.19993        129.0422             -200               0             -200               0
1.85149               -0.8806771       -32.74825        -41.97382        125.5739             -200               0             -200               0
