! TOUCHSTONE file generated by CST MICROWAVE STUDIO
! Date and time: Tue Mar 18 00:02:23 2025
! Project name: oblique.cst
! Parameters = {Tilt=40; Fracture=1; B=10; D=160; F=25; Feed=2.85625; L=100; M=30; R=0.384908; S=1; Theta=180; length=57.125; wave=114.25}
! Header version: 2024
! Port assignment regex: !\s*Touchstone port\s*([0-9]+)\s*=\s*(CST MWS port|CST DES external port|CST DES block port)\s*(.+)\s* \(\"(.*)\"\)(\s*mode\s*([0-9]+))?.*
! Touchstone port assignment:
! Touchstone port 1 = CST MWS port 1 ("")
! Touchstone port 2 = CST MWS port 2 ("")
# GHz S DB R 50
1                    -0.02175564       -9.775956         -65.0115        164.8949             -200               0             -200               0
1.0066               -0.02226486        -9.86181        -65.10153        158.7229             -200               0             -200               0
1.0132               -0.02274493       -9.948433        -65.23044        152.6556             -200               0             -200               0
1.0198               -0.02319791       -10.03589        -65.40058        146.7018             -200               0             -200               0
1.0264               -0.02363324       -10.12423        -65.61484        140.8733             -200               0             -200               0
1.033                -0.02405786       -10.21351        -65.87663        135.1863             -200               0             -200               0
1.0396               -0.02448111       -10.30377        -66.19011        129.6622             -200               0             -200               0
1.0462               -0.02491239       -10.39504        -66.56025        124.3297             -200               0             -200               0
1.05281              -0.02536205       -10.48735        -66.99304        119.2277             -200               0             -200               0
1.05941              -0.02584065       -10.58071        -67.49564        114.4096             -200               0             -200               0
1.06601              -0.02635851       -10.67511        -68.07657          109.95             -200               0             -200               0
1.07261              -0.02692527       -10.77055        -68.74572        105.9545             -200               0             -200               0
1.07921              -0.02755232       -10.86701        -69.51399        102.5769             -200               0             -200               0
1.08581              -0.02824621       -10.96446        -70.39188        100.0446             -200               0             -200               0
1.09241              -0.02901535       -11.06286        -71.38532        98.69949             -200               0             -200               0
1.09901              -0.02986667       -11.16217        -72.48488        99.05189             -200               0             -200               0
1.10561              -0.03080482       -11.26235        -73.63987        101.8204             -200               0             -200               0
1.11221              -0.03183351       -11.36333        -74.70793        107.8156             -200               0             -200               0
1.11881              -0.03295395       -11.46506        -75.40487        117.3132             -200               0             -200               0
1.12541              -0.03416737        -11.5675        -75.39572        128.8873             -200               0             -200               0
1.13201              -0.03547137       -11.67058        -74.60329        139.5207             -200               0             -200               0
1.13861               -0.0368639       -11.77426        -73.30135        146.9984             -200               0             -200               0
1.14521              -0.03833979       -11.87848        -71.81901         151.068             -200               0             -200               0
1.15182               -0.0398935       -11.98322        -70.35066        152.4489             -200               0             -200               0
1.15842              -0.04151783       -12.08845        -68.97503        151.9277             -200               0             -200               0
1.16502              -0.04320514       -12.19414        -67.71311        150.0954             -200               0             -200               0
1.17162              -0.04494647       -12.30028        -66.56286        147.3529             -200               0             -200               0
1.17822              -0.04673304       -12.40688         -65.5146        143.9677             -200               0             -200               0
1.18482              -0.04855552       -12.51394        -64.55712        140.1195             -200               0             -200               0
1.19142              -0.05040432        -12.6215        -63.67984        135.9318             -200               0             -200               0
1.19802              -0.05227245        -12.7296        -62.87346        131.4913             -200               0             -200               0
1.20462              -0.05414996       -12.83826        -62.13006        126.8607             -200               0             -200               0
1.21122              -0.05603174       -12.94757        -61.44296        122.0859             -200               0             -200               0
1.21782              -0.05791064       -13.05757        -60.80654        117.2018             -200               0             -200               0
1.22442              -0.05978309       -13.16835        -60.21605         112.235             -200               0             -200               0
1.23102              -0.06164704       -13.27998        -59.66747        107.2064             -200               0             -200               0
1.23762              -0.06350009       -13.39254        -59.15741         102.133             -200               0             -200               0
1.24422              -0.06534504       -13.50613        -58.68295        97.02847             -200               0             -200               0
1.25083              -0.06718242       -13.62082        -58.24158        91.90426             -200               0             -200               0
1.25743              -0.06901825        -13.7367        -57.83114        86.77013             -200               0             -200               0
1.26403              -0.07085882       -13.85385        -57.44975        81.63458             -200               0             -200               0
1.27063               -0.0727115       -13.97234        -57.09576         76.5051             -200               0             -200               0
1.27723              -0.07458559       -14.09224        -56.76774        71.38852             -200               0             -200               0
1.28383              -0.07649264        -14.2136         -56.4644        66.29113             -200               0             -200               0
1.29043              -0.07844277       -14.33648         -56.1846        61.21886             -200               0             -200               0
1.29703              -0.08044971        -14.4609        -55.92731        56.17743             -200               0             -200               0
1.30363              -0.08252541        -14.5869        -55.69161         51.1724             -200               0             -200               0
1.31023              -0.08468212       -14.71448        -55.47663        46.20932             -200               0             -200               0
1.31683              -0.08693369       -14.84365        -55.28157        41.29378             -200               0             -200               0
1.32343               -0.0892912       -14.97438        -55.10567        36.43144             -200               0             -200               0
1.33003              -0.09176579       -15.10667        -54.94819        31.62814             -200               0             -200               0
1.33663              -0.09436783       -15.24048         -54.8084        26.88991             -200               0             -200               0
1.34323              -0.09710715       -15.37576        -54.68555        22.22304             -200               0             -200               0
1.34984              -0.09998947       -15.51247        -54.57888        17.63407             -200               0             -200               0
1.35644               -0.1030201       -15.65056        -54.48757        13.12982             -200               0             -200               0
1.36304               -0.1062033       -15.78997        -54.41073        8.717402             -200               0             -200               0
1.36964                -0.109541       -15.93066        -54.34738        4.404181             -200               0             -200               0
1.37624                -0.113032       -16.07255        -54.29642         0.19773             -200               0             -200               0
1.38284               -0.1166743       -16.21561        -54.25662        -3.89424             -200               0             -200               0
1.38944               -0.1204641       -16.35979        -54.22655       -7.864011             -200               0             -200               0
1.39604               -0.1243955       -16.50505        -54.20462       -11.70403             -200               0             -200               0
1.40264               -0.1284612       -16.65137        -54.18899       -15.40715             -200               0             -200               0
1.40924               -0.1326528       -16.79874        -54.17758       -18.96689             -200               0             -200               0
1.41584               -0.1369609       -16.94716        -54.16806       -22.37789             -200               0             -200               0
1.42244               -0.1413762       -17.09663        -54.15781       -25.63628             -200               0             -200               0
1.42904               -0.1458888       -17.24719        -54.14399       -28.74023             -200               0             -200               0
1.43564               -0.1504885       -17.39888        -54.12353       -31.69051             -200               0             -200               0
1.44224               -0.1551654       -17.55176         -54.0932       -34.49101             -200               0             -200               0
1.44884               -0.1599122       -17.70591        -54.04973       -37.14925             -200               0             -200               0
1.45545               -0.1647205        -17.8614        -53.98989       -39.67675             -200               0             -200               0
1.46205               -0.1695859       -18.01835        -53.91066       -42.08914             -200               0             -200               0
1.46865               -0.1745033       -18.17685        -53.80939       -44.40605             -200               0             -200               0
1.47525               -0.1794725       -18.33704        -53.68395        -46.6506             -200               0             -200               0
1.48185               -0.1844931       -18.49903        -53.53287       -48.84862             -200               0             -200               0
1.48845               -0.1895688       -18.66295        -53.35547       -51.02752             -200               0             -200               0
1.49505                -0.194706       -18.82894        -53.15184       -53.21503             -200               0             -200               0
1.50165               -0.1999119       -18.99712         -52.9229       -55.43788             -200               0             -200               0
1.50825               -0.2051981       -19.16762        -52.67025       -57.72055             -200               0             -200               0
1.51485               -0.2105776       -19.34057        -52.39612        -60.0844             -200               0             -200               0
1.52145               -0.2160653       -19.51606        -52.10316       -62.54692             -200               0             -200               0
1.52805               -0.2216809       -19.69421        -51.79431       -65.12148             -200               0             -200               0
1.53465               -0.2274408       -19.87509        -51.47263       -67.81731             -200               0             -200               0
1.54125               -0.2333672       -20.05878        -51.14116       -70.63982             -200               0             -200               0
1.54785               -0.2394811       -20.24534        -50.80284       -73.59093             -200               0             -200               0
1.55446               -0.2458043        -20.4348        -50.46039       -76.66969             -200               0             -200               0
1.56106               -0.2523584       -20.62719        -50.11629       -79.87281             -200               0             -200               0
1.56766               -0.2591658       -20.82251        -49.77275       -83.19519             -200               0             -200               0
1.57426               -0.2662468       -21.02076        -49.43169       -86.63039             -200               0             -200               0
1.58086               -0.2736219       -21.22192        -49.09478       -90.17108             -200               0             -200               0
1.58746               -0.2813078       -21.42593         -48.7634       -93.80934             -200               0             -200               0
1.59406               -0.2893217       -21.63276        -48.43872       -97.53696             -200               0             -200               0
1.60066               -0.2976759       -21.84235         -48.1217       -101.3456             -200               0             -200               0
1.60726               -0.3063843       -22.05463         -47.8131       -105.2271             -200               0             -200               0
1.61386               -0.3154549       -22.26954        -47.51354       -109.1732             -200               0             -200               0
1.62046               -0.3248921       -22.48701        -47.22347        -113.176             -200               0             -200               0
1.62706               -0.3347012       -22.70698        -46.94323       -117.2281             -200               0             -200               0
1.63366                -0.344881       -22.92939        -46.67305       -121.3219             -200               0             -200               0
1.64026                -0.355431       -23.15419        -46.41309       -125.4506             -200               0             -200               0
1.64686               -0.3663457       -23.38136         -46.1634       -129.6073             -200               0             -200               0
1.65347                -0.377619       -23.61088        -45.92397       -133.7855             -200               0             -200               0
1.66007               -0.3892433       -23.84275        -45.69473        -137.979             -200               0             -200               0
1.66667                -0.401208         -24.077        -45.47556       -142.1819             -200               0             -200               0
1.67327               -0.4135042       -24.31366        -45.26626       -146.3884             -200               0             -200               0
1.67987               -0.4261218       -24.55283        -45.06662       -150.5929             -200               0             -200               0
1.68647               -0.4390481       -24.79457        -44.87635       -154.7901             -200               0             -200               0
1.69307               -0.4522771       -25.03904        -44.69511       -158.9748             -200               0             -200               0
1.69967               -0.4657994       -25.28637        -44.52254       -163.1421             -200               0             -200               0
1.70627               -0.4796098       -25.53672         -44.3582        -167.287             -200               0             -200               0
1.71287               -0.4937049       -25.79031        -44.20161       -171.4051             -200               0             -200               0
1.71947               -0.5080856       -26.04734        -44.05225       -175.4917             -200               0             -200               0
1.72607               -0.5227547       -26.30805        -43.90951       -179.5428             -200               0             -200               0
1.73267               -0.5377225        -26.5727        -43.77276        176.4457             -200               0             -200               0
1.73927               -0.5529983       -26.84153        -43.64128        172.4775             -200               0             -200               0
1.74587               -0.5686008       -27.11483         -43.5143        168.5559             -200               0             -200               0
1.75248               -0.5845522       -27.39287        -43.39098         164.684             -200               0             -200               0
1.75908               -0.6008784       -27.67592        -43.27042        160.8642             -200               0             -200               0
1.76568               -0.6176102       -27.96425        -43.15166        157.0987             -200               0             -200               0
1.77228               -0.6347858       -28.25813        -43.03368        153.3888             -200               0             -200               0
1.77888               -0.6524439       -28.55783        -42.91542        149.7352             -200               0             -200               0
1.78548               -0.6706321       -28.86356        -42.79575         146.138             -200               0             -200               0
1.79208                -0.689397       -29.17556        -42.67355        142.5963             -200               0             -200               0
1.79868               -0.7087931       -29.49403        -42.54766        139.1082             -200               0             -200               0
1.80528                -0.728874       -29.81914        -42.41696         135.671             -200               0             -200               0
1.81188                  -0.7497       -30.15106        -42.28032        132.2809             -200               0             -200               0
1.81848               -0.7713281       -30.48991         -42.1367        128.9331             -200               0             -200               0
1.82508               -0.7938215       -30.83581        -41.98512        125.6218             -200               0             -200               0
1.83168               -0.8172418       -31.18884        -41.82473        122.3404             -200               0             -200               0
1.83828               -0.8416511       -31.54906        -41.65481        119.0812             -200               0             -200               0
1.84488               -0.8671114       -31.91652        -41.47478        115.8363             -200               0             -200               0
1.85149               -0.8936842       -32.29124        -41.28424        112.5968             -200               0             -200               0
