! TOUCHSTONE file generated by CST MICROWAVE STUDIO
! Date and time: Tue Mar 18 00:01:41 2025
! Project name: oblique.cst
! Parameters = {Tilt=30; Fracture=1; B=12.5; D=160; F=25; Feed=2.85625; L=100; M=10; R=0.384908; S=1; Theta=180; length=57.125; wave=114.25}
! Header version: 2024
! Port assignment regex: !\s*Touchstone port\s*([0-9]+)\s*=\s*(CST MWS port|CST DES external port|CST DES block port)\s*(.+)\s* \(\"(.*)\"\)(\s*mode\s*([0-9]+))?.*
! Touchstone port assignment:
! Touchstone port 1 = CST MWS port 1 ("")
! Touchstone port 2 = CST MWS port 2 ("")
# GHz S DB R 50
1                    -0.02084867       -9.854858        -67.60335       -171.4579             -200               0             -200               0
1.00658              -0.02136992       -9.942572        -67.71882        -175.864             -200               0             -200               0
1.01316              -0.02188566       -10.03104        -67.86932        179.9653             -200               0             -200               0
1.01974              -0.02240278        -10.1203        -68.05459        176.0653             -200               0             -200               0
1.02632              -0.02292412       -10.21039        -68.27374        172.4783             -200               0             -200               0
1.03289              -0.02345573       -10.30132         -68.5249        169.2551             -200               0             -200               0
1.03947              -0.02400503       -10.39313        -68.80464        166.4555             -200               0             -200               0
1.04605               -0.0245767       -10.48582        -69.10719        164.1482             -200               0             -200               0
1.05263               -0.0251784        -10.5794        -69.42335        162.4086             -200               0             -200               0
1.05921              -0.02581683       -10.67387        -69.73925         161.313             -200               0             -200               0
1.06579              -0.02649736       -10.76924        -70.03508        160.9269             -200               0             -200               0
1.07237              -0.02722548       -10.86548        -70.28442        161.2853             -200               0             -200               0
1.07895              -0.02800737       -10.96259         -70.4552        162.3659             -200               0             -200               0
1.08553              -0.02884773       -11.06055        -70.51351        164.0622             -200               0             -200               0
1.09211              -0.02974945       -11.15933        -70.43044        166.1709             -200               0             -200               0
1.09868               -0.0307159        -11.2589        -70.19024        168.4118             -200               0             -200               0
1.10526              -0.03174951       -11.35925        -69.79544        170.4809             -200               0             -200               0
1.11184              -0.03285068       -11.46033        -69.26594         172.116             -200               0             -200               0
1.11842               -0.0340198       -11.56213        -68.63255        173.1414             -200               0             -200               0
1.125                -0.03525621       -11.66462        -67.92886        173.4771             -200               0             -200               0
1.13158              -0.03655812       -11.76776        -67.18521        173.1206             -200               0             -200               0
1.13816              -0.03792309       -11.87155        -66.42575         172.119             -200               0             -200               0
1.14474              -0.03934705       -11.97596        -65.66809         170.543             -200               0             -200               0
1.15132              -0.04082674       -12.08099        -64.92419        168.4706             -200               0             -200               0
1.15789              -0.04235771       -12.18663        -64.20173        165.9767             -200               0             -200               0
1.16447              -0.04393475       -12.29287        -63.50524        163.1287             -200               0             -200               0
1.17105              -0.04555293       -12.39974        -62.83717        159.9853             -200               0             -200               0
1.17763               -0.0472076       -12.50723        -62.19851        156.5963             -200               0             -200               0
1.18421               -0.0488933       -12.61539         -61.5894        153.0036             -200               0             -200               0
1.19079              -0.05060598       -12.72422        -61.00935        149.2426             -200               0             -200               0
1.19737              -0.05234181       -12.83377        -60.45759        145.3428             -200               0             -200               0
1.20395               -0.0540962       -12.94408        -59.93313         141.329             -200               0             -200               0
1.21053              -0.05586801       -13.05519        -59.43488        137.2224             -200               0             -200               0
1.21711              -0.05765391       -13.16715        -58.96173        133.0409             -200               0             -200               0
1.22368              -0.05945391       -13.28001        -58.51259        128.7998             -200               0             -200               0
1.23026              -0.06126817       -13.39383        -58.08638        124.5125             -200               0             -200               0
1.23684              -0.06309801       -13.50866        -57.68204        120.1905             -200               0             -200               0
1.24342              -0.06494457       -13.62456         -57.2986        115.8441             -200               0             -200               0
1.25                 -0.06681181       -13.74158        -56.93508        111.4824             -200               0             -200               0
1.25658              -0.06870397       -13.85977         -56.5906        107.1135             -200               0             -200               0
1.26316              -0.07062635       -13.97917        -56.26426        102.7448             -200               0             -200               0
1.26974              -0.07258427       -14.09984        -55.95524        98.38314             -200               0             -200               0
1.27632              -0.07458449       -14.22181        -55.66273        94.03466             -200               0             -200               0
1.28289              -0.07663386        -14.3451        -55.38591        89.70521             -200               0             -200               0
1.28947              -0.07874043       -14.46976        -55.12403        85.40024             -200               0             -200               0
1.29605              -0.08090991       -14.59579        -54.87631        81.12489             -200               0             -200               0
1.30263               -0.0831515       -14.72321        -54.64197        76.88401             -200               0             -200               0
1.30921              -0.08547129       -14.85202        -54.42024        72.68223             -200               0             -200               0
1.31579              -0.08787689       -14.98224        -54.21032        68.52394             -200               0             -200               0
1.32237              -0.09037389       -15.11384        -54.01141        64.41329             -200               0             -200               0
1.32895              -0.09296856       -15.24683        -53.82267        60.35423             -200               0             -200               0
1.33553               -0.0956652       -15.38119        -53.64322        56.35043             -200               0             -200               0
1.34211              -0.09846838        -15.5169        -53.47216        52.40528             -200               0             -200               0
1.34868               -0.1013807       -15.65395        -53.30855        48.52187             -200               0             -200               0
1.35526               -0.1044034       -15.79231         -53.1514        44.70291             -200               0             -200               0
1.36184                -0.107538       -15.93198        -52.99966        40.95069             -200               0             -200               0
1.36842               -0.1107836       -16.07293        -52.85227        37.26698             -200               0             -200               0
1.375                 -0.1141394       -16.21516         -52.7081        33.65301             -200               0             -200               0
1.38158               -0.1176029       -16.35865        -52.56599        30.10936             -200               0             -200               0
1.38816               -0.1211713       -16.50341        -52.42477        26.63585             -200               0             -200               0
1.39474               -0.1248411       -16.64944        -52.28322        23.23155             -200               0             -200               0
1.40132               -0.1286071       -16.79675        -52.14015        19.89464             -200               0             -200               0
1.40789                -0.132466       -16.94537        -51.99437        16.62238             -200               0             -200               0
1.41447               -0.1364114       -17.09533        -51.84474         13.4111             -200               0             -200               0
1.42105               -0.1404395       -17.24665        -51.69017        10.25618             -200               0             -200               0
1.42763               -0.1445459        -17.3994        -51.52965        7.152079             -200               0             -200               0
1.43421               -0.1487263       -17.55362         -51.3623        4.092418             -200               0             -200               0
1.44079               -0.1529767       -17.70939        -51.18735        1.070059             -200               0             -200               0
1.44737               -0.1572956       -17.86677         -51.0042       -1.922744             -200               0             -200               0
1.45395               -0.1616813       -18.02585        -50.81242       -4.894186             -200               0             -200               0
1.46053               -0.1661329       -18.18671        -50.61173       -7.852717             -200               0             -200               0
1.46711               -0.1706516       -18.34944        -50.40208       -10.80684             -200               0             -200               0
1.47368               -0.1752386       -18.51414        -50.18356       -13.76489             -200               0             -200               0
1.48026               -0.1799004        -18.6809        -49.95647       -16.73486             -200               0             -200               0
1.48684               -0.1846405       -18.84983        -49.72124       -19.72423             -200               0             -200               0
1.49342               -0.1894649       -19.02102        -49.47846       -22.73975             -200               0             -200               0
1.5                   -0.1943829       -19.19456        -49.22882        -25.7874             -200               0             -200               0
1.50658               -0.1994031       -19.37055        -48.97311       -28.87227             -200               0             -200               0
1.51316                -0.204537       -19.54909         -48.7122        -31.9985             -200               0             -200               0
1.51974               -0.2097969       -19.73025        -48.44697       -35.16931             -200               0             -200               0
1.52632               -0.2151945       -19.91411        -48.17834       -38.38697             -200               0             -200               0
1.53289                -0.220743       -20.10074        -47.90723        -41.6529             -200               0             -200               0
1.53947               -0.2264573       -20.29021        -47.63452       -44.96768             -200               0             -200               0
1.54605                -0.232352       -20.48257        -47.36106       -48.33114             -200               0             -200               0
1.55263               -0.2384414       -20.67789        -47.08765       -51.74249             -200               0             -200               0
1.55921               -0.2447395       -20.87619        -46.81505       -55.20031             -200               0             -200               0
1.56579                -0.251261       -21.07752        -46.54393       -58.70274             -200               0             -200               0
1.57237                -0.258019        -21.2819        -46.27491       -62.24751             -200               0             -200               0
1.57895               -0.2650275       -21.48938        -46.00855       -65.83199             -200               0             -200               0
1.58553                -0.272299       -21.69996         -45.7453       -69.45333             -200               0             -200               0
1.59211               -0.2798455       -21.91368        -45.48559       -73.10846             -200               0             -200               0
1.59868               -0.2876772       -22.13056        -45.22975       -76.79418             -200               0             -200               0
1.60526               -0.2958041       -22.35062        -44.97806        -80.5072             -200               0             -200               0
1.61184               -0.3042359       -22.57388        -44.73074       -84.24417             -200               0             -200               0
1.61842                 -0.31298       -22.80038        -44.48794       -88.00173             -200               0             -200               0
1.625                 -0.3220449       -23.03016        -44.24976       -91.77654             -200               0             -200               0
1.63158               -0.3314369       -23.26325        -44.01625       -95.56531             -200               0             -200               0
1.63816               -0.3411634       -23.49971        -43.78741       -99.36482             -200               0             -200               0
1.64474               -0.3512304       -23.73961        -43.56318       -103.1719             -200               0             -200               0
1.65132               -0.3616447       -23.98301        -43.34347       -106.9836             -200               0             -200               0
1.65789                -0.372413          -24.23        -43.12813       -110.7969             -200               0             -200               0
1.66447               -0.3835426       -24.48068        -42.91699       -114.6092             -200               0             -200               0
1.67105               -0.3950424       -24.73515        -42.70982       -118.4178             -200               0             -200               0
1.67763               -0.4069225       -24.99354        -42.50637       -122.2202             -200               0             -200               0
1.68421               -0.4191932       -25.25597        -42.30635       -126.0144             -200               0             -200               0
1.69079               -0.4318675       -25.52258        -42.10944       -129.7983             -200               0             -200               0
1.69737               -0.4449626       -25.79353        -41.91528       -133.5701             -200               0             -200               0
1.70395                -0.458493       -26.06897        -41.72349       -137.3282             -200               0             -200               0
1.71053               -0.4724824       -26.34907        -41.53367       -141.0716             -200               0             -200               0
1.71711               -0.4869501       -26.63399         -41.3454        -144.799             -200               0             -200               0
1.72368               -0.5019232       -26.92392        -41.15823         -148.51             -200               0             -200               0
1.73026               -0.5174314       -27.21902        -40.97172       -152.2041             -200               0             -200               0
1.73684               -0.5335057       -27.51946        -40.78541       -155.8813             -200               0             -200               0
1.74342               -0.5501808       -27.82542        -40.59882       -159.5419             -200               0             -200               0
1.75                  -0.5674941       -28.13705        -40.41152       -163.1866             -200               0             -200               0
1.75658               -0.5854871       -28.45451        -40.22304       -166.8164             -200               0             -200               0
1.76316               -0.6042034       -28.77794        -40.03295       -170.4326             -200               0             -200               0
1.76974               -0.6236885       -29.10749        -39.84084        -174.037             -200               0             -200               0
1.77632                -0.643992       -29.44326        -39.64633       -177.6315             -200               0             -200               0
1.78289               -0.6651639       -29.78538        -39.44907        178.7816             -200               0             -200               0
1.78947               -0.6872575       -30.13394        -39.24876        175.1996             -200               0             -200               0
1.79605                -0.710327       -30.48901        -39.04513        171.6199             -200               0             -200               0
1.80263               -0.7344274       -30.85066        -38.83796        168.0393             -200               0             -200               0
1.80921               -0.7596174       -31.21893        -38.62711        164.4546             -200               0             -200               0
1.81579               -0.7859545       -31.59388        -38.41248        160.8628             -200               0             -200               0
1.82237                -0.813497       -31.97551        -38.19401        157.2603             -200               0             -200               0
1.82895               -0.8423059       -32.36383        -37.97173        153.6439             -200               0             -200               0
1.83553               -0.8724397       -32.75884         -37.7457        150.0104             -200               0             -200               0
1.84211               -0.9039584       -33.16054        -37.51606        146.3565             -200               0             -200               0
1.84868               -0.9369219       -33.56888        -37.28298        142.6792             -200               0             -200               0
