! TOUCHSTONE file generated by CST MICROWAVE STUDIO
! Date and time: Tue Mar 18 00:01:24 2025
! Project name: oblique.cst
! Parameters = {Tilt=30; Fracture=1; B=12.5; D=160; F=5; Feed=2.85625; L=100; M=30; R=0.384908; S=1; Theta=180; length=57.125; wave=114.25}
! Header version: 2024
! Port assignment regex: !\s*Touchstone port\s*([0-9]+)\s*=\s*(CST MWS port|CST DES external port|CST DES block port)\s*(.+)\s* \(\"(.*)\"\)(\s*mode\s*([0-9]+))?.*
! Touchstone port assignment:
! Touchstone port 1 = CST MWS port 1 ("")
! Touchstone port 2 = CST MWS port 2 ("")
# GHz S DB R 50
1                    -0.02091328       -9.858125        -66.89125       -178.1713             -200               0             -200               0
1.00662              -0.02175078       -9.947413        -66.90566         176.629             -200               0             -200               0
1.01325               -0.0226189       -10.03713        -66.95301        171.5426             -200               0             -200               0
1.01987              -0.02351104       -10.12728        -67.03402        166.5823             -200               0             -200               0
1.02649               -0.0244258       -10.21786        -67.14953        161.7639             -200               0             -200               0
1.03311              -0.02535847       -10.30889         -67.3005        157.1065             -200               0             -200               0
1.03974              -0.02630521       -10.40037        -67.48795        152.6338             -200               0             -200               0
1.04636               -0.0272609       -10.49233        -67.71285        148.3746             -200               0             -200               0
1.05298              -0.02822299       -10.58479        -67.97606        144.3647             -200               0             -200               0
1.0596                -0.0291887       -10.67778        -68.27805        140.6478             -200               0             -200               0
1.06623               -0.0301529       -10.77133        -68.61863        137.2781             -200               0             -200               0
1.07285              -0.03111683       -10.86549        -68.99637        134.3216             -200               0             -200               0
1.07947              -0.03207839       -10.96028        -69.40782        131.8586             -200               0             -200               0
1.08609               -0.0330347       -11.05576        -69.84627        129.9832             -200               0             -200               0
1.09272              -0.03398936       -11.15197        -70.30002        128.8017             -200               0             -200               0
1.09934              -0.03494207       -11.24895        -70.75015        128.4232             -200               0             -200               0
1.10596              -0.03589574       -11.34674        -71.16832        128.9393             -200               0             -200               0
1.11258              -0.03685225       -11.44538         -71.5157        130.3884             -200               0             -200               0
1.11921              -0.03781665       -11.54492        -71.74554        132.7071             -200               0             -200               0
1.12583              -0.03879259       -11.64537         -71.8117        135.6871             -200               0             -200               0
1.13245              -0.03978464       -11.74679         -71.6823        138.9756             -200               0             -200               0
1.13907              -0.04079829       -11.84919        -71.35203        142.1446             -200               0             -200               0
1.1457               -0.04183958        -11.9526         -70.8444        144.8039             -200               0             -200               0
1.15232              -0.04291305       -12.05702        -70.20206        146.6921             -200               0             -200               0
1.15894              -0.04402729       -12.16247        -69.47264        147.6994             -200               0             -200               0
1.16556              -0.04518667       -12.26895        -68.69806        147.8352             -200               0             -200               0
1.17219              -0.04639641       -12.37645        -67.91008        147.1781             -200               0             -200               0
1.17881              -0.04766178       -12.48499        -67.13044        145.8349             -200               0             -200               0
1.18543              -0.04898718       -12.59453        -66.37282        143.9152             -200               0             -200               0
1.19205              -0.05037726       -12.70508        -65.64519         141.519             -200               0             -200               0
1.19868              -0.05183291        -12.8166         -64.9517        138.7324             -200               0             -200               0
1.2053               -0.05335886       -12.92909        -64.29407        135.6276             -200               0             -200               0
1.21192              -0.05495474       -13.04252        -63.67255        132.2641             -200               0             -200               0
1.21854              -0.05662208       -13.15687        -63.08651        128.6909             -200               0             -200               0
1.22517              -0.05835983       -13.27212        -62.53483        124.9481             -200               0             -200               0
1.23179              -0.06016754       -13.38826        -62.01618        121.0688             -200               0             -200               0
1.23841              -0.06204071       -13.50527        -61.52908        117.0808             -200               0             -200               0
1.24503              -0.06397686       -13.62315        -61.07209        113.0072             -200               0             -200               0
1.25166              -0.06597344       -13.74188        -60.64377        108.8676             -200               0             -200               0
1.25828              -0.06802648       -13.86149        -60.24277        104.6791             -200               0             -200               0
1.2649               -0.07012969       -13.98196        -59.86781        100.4564             -200               0             -200               0
1.27152              -0.07227956       -14.10332        -59.51768        96.21239             -200               0             -200               0
1.27815              -0.07447024       -14.22559        -59.19123        91.95881             -200               0             -200               0
1.28477              -0.07669773       -14.34881        -58.88739        87.70622             -200               0             -200               0
1.29139              -0.07895701       -14.47301        -58.60515        83.46437             -200               0             -200               0
1.29801              -0.08124442       -14.59823        -58.34351        79.24238             -200               0             -200               0
1.30464              -0.08355658       -14.72453        -58.10153        75.04887             -200               0             -200               0
1.31126              -0.08589127       -14.85196        -57.87828        70.89214             -200               0             -200               0
1.31788              -0.08824496        -14.9806         -57.6728        66.78019             -200               0             -200               0
1.3245               -0.09061869       -15.11049        -57.48417        62.72087             -200               0             -200               0
1.33113              -0.09301235       -15.24172        -57.31138        58.72186             -200               0             -200               0
1.33775              -0.09542823       -15.37436        -57.15342        54.79075             -200               0             -200               0
1.34437              -0.09786952       -15.50847        -57.00918        50.93502             -200               0             -200               0
1.35099               -0.1003373       -15.64412        -56.87749          47.162             -200               0             -200               0
1.35762               -0.1028391        -15.7814        -56.75706        43.47882             -200               0             -200               0
1.36424               -0.1053804       -15.92036        -56.64649        39.89235             -200               0             -200               0
1.37086               -0.1079686       -16.06107        -56.54423        36.40904             -200               0             -200               0
1.37748               -0.1106112       -16.20358        -56.44858        33.03475             -200               0             -200               0
1.38411                -0.113317       -16.34795        -56.35769        29.77454             -200               0             -200               0
1.39073               -0.1160955       -16.49423        -56.26953        26.63243             -200               0             -200               0
1.39735               -0.1189555       -16.64246         -56.1819         23.6111             -200               0             -200               0
1.40397               -0.1219078       -16.79266        -56.09248        20.71155             -200               0             -200               0
1.4106                -0.1249609       -16.94488         -55.9988        17.93277             -200               0             -200               0
1.41722               -0.1281243       -17.09912        -55.89835        15.27146             -200               0             -200               0
1.42384               -0.1314077        -17.2554        -55.78859        12.72172             -200               0             -200               0
1.43046               -0.1348199       -17.41374        -55.66705        10.27489             -200               0             -200               0
1.43709               -0.1383681       -17.57414        -55.53145        7.919501             -200               0             -200               0
1.44371               -0.1420598        -17.7366        -55.37974        5.641407             -200               0             -200               0
1.45033               -0.1459002       -17.90113        -55.21023        3.424053             -200               0             -200               0
1.45695               -0.1498963       -18.06772        -55.02168        1.248995             -200               0             -200               0
1.46358               -0.1540508       -18.23638        -54.81335      -0.9034624             -200               0             -200               0
1.4702                -0.1583685       -18.40711        -54.58506       -3.053494             -200               0             -200               0
1.47682               -0.1628505       -18.57991        -54.33715       -5.220948             -200               0             -200               0
1.48344               -0.1674979       -18.75481         -54.0705       -7.424563             -200               0             -200               0
1.49007               -0.1723125        -18.9318        -53.78641       -9.681292             -200               0             -200               0
1.49669               -0.1772945       -19.11093        -53.48659       -12.00578             -200               0             -200               0
1.50331               -0.1824429       -19.29222        -53.17298       -14.41001             -200               0             -200               0
1.50993               -0.1877584       -19.47572        -52.84773       -16.90319             -200               0             -200               0
1.51656               -0.1932398       -19.66147        -52.51305       -19.49175             -200               0             -200               0
1.52318               -0.1988886       -19.84954        -52.17113       -22.17948             -200               0             -200               0
1.5298                -0.2047017       -20.03999         -51.8241       -24.96784             -200               0             -200               0
1.53642               -0.2106832       -20.23292        -51.47397       -27.85623             -200               0             -200               0
1.54305               -0.2168349       -20.42839        -51.12259       -30.84236             -200               0             -200               0
1.54967               -0.2231602       -20.62653         -50.7716       -33.92256             -200               0             -200               0
1.55629               -0.2296626       -20.82742         -50.4225       -37.09211             -200               0             -200               0
1.56291               -0.2363485        -21.0312        -50.07654        -40.3455             -200               0             -200               0
1.56954               -0.2432267       -21.23795        -49.73482       -43.67669             -200               0             -200               0
1.57616               -0.2503084       -21.44782        -49.39826       -47.07929             -200               0             -200               0
1.58278               -0.2576042       -21.66092        -49.06762       -50.54672             -200               0             -200               0
1.5894                -0.2651278       -21.87737         -48.7435       -54.07234             -200               0             -200               0
1.59603               -0.2728967        -22.0973        -48.42637       -57.64955             -200               0             -200               0
1.60265               -0.2809277       -22.32082        -48.11657       -61.27186             -200               0             -200               0
1.60927               -0.2892413       -22.54804        -47.81436       -64.93291             -200               0             -200               0
1.61589               -0.2978594       -22.77908        -47.51986       -68.62656             -200               0             -200               0
1.62252               -0.3068064       -23.01401        -47.23314       -72.34689             -200               0             -200               0
1.62914                -0.316104       -23.25294        -46.95417       -76.08819             -200               0             -200               0
1.63576               -0.3257809       -23.49595        -46.68285       -79.84502             -200               0             -200               0
1.64238               -0.3358621       -23.74308        -46.41902       -83.61217             -200               0             -200               0
1.64901               -0.3463775       -23.99442        -46.16246       -87.38472             -200               0             -200               0
1.65563               -0.3573527       -24.24998        -45.91287       -91.15799             -200               0             -200               0
1.66225               -0.3688173       -24.50981        -45.66993       -94.92758             -200               0             -200               0
1.66887               -0.3807987       -24.77393        -45.43324       -98.68937             -200               0             -200               0
1.6755                -0.3933246       -25.04235        -45.20237       -102.4396             -200               0             -200               0
1.68212               -0.4064209       -25.31506        -44.97684       -106.1746             -200               0             -200               0
1.68874               -0.4201152       -25.59207        -44.75612       -109.8914             -200               0             -200               0
1.69536               -0.4344307       -25.87336        -44.53963        -113.587             -200               0             -200               0
1.70199               -0.4493934       -26.15892        -44.32678        -117.259             -200               0             -200               0
1.70861               -0.4650236       -26.44872        -44.11691       -120.9054             -200               0             -200               0
1.71523               -0.4813437       -26.74276        -43.90935       -124.5246             -200               0             -200               0
1.72185               -0.4983735         -27.041         -43.7034       -128.1153             -200               0             -200               0
1.72848               -0.5161325       -27.34344        -43.49833        -131.677             -200               0             -200               0
1.7351                -0.5346374       -27.65008         -43.2934       -135.2095             -200               0             -200               0
1.74172               -0.5539057       -27.96092        -43.08787       -138.7132             -200               0             -200               0
1.74834               -0.5739536       -28.27597        -42.88099       -142.1892             -200               0             -200               0
1.75497               -0.5947972       -28.59526        -42.67205        -145.639             -200               0             -200               0
1.76159               -0.6164513       -28.91883        -42.46035       -149.0648             -200               0             -200               0
1.76821               -0.6389339       -29.24673        -42.24521       -152.4693             -200               0             -200               0
1.77483               -0.6622616       -29.57904        -42.02604       -155.8557             -200               0             -200               0
1.78146               -0.6864522       -29.91585        -41.80227       -159.2278             -200               0             -200               0
1.78808               -0.7115256       -30.25725        -41.57344       -162.5899             -200               0             -200               0
1.7947                -0.7375045       -30.60337        -41.33914       -165.9465             -200               0             -200               0
1.80132               -0.7644141       -30.95434        -41.09908       -169.3025             -200               0             -200               0
1.80795               -0.7922815       -31.31032        -40.85304       -172.6631             -200               0             -200               0
1.81457               -0.8211387       -31.67146        -40.60093       -176.0335             -200               0             -200               0
1.82119               -0.8510212       -32.03794        -40.34273       -179.4189             -200               0             -200               0
1.82781               -0.8819676       -32.40994        -40.07854        177.1756             -200               0             -200               0
1.83444               -0.9140231       -32.78764        -39.80855        173.7448             -200               0             -200               0
1.84106               -0.9472375       -33.17123        -39.53304        170.2842             -200               0             -200               0
1.84768               -0.9816637       -33.56091        -39.25236        166.7892             -200               0             -200               0
1.8543                 -1.017364       -33.95685        -38.96694         163.256             -200               0             -200               0
