! TOUCHSTONE file generated by CST MICROWAVE STUDIO
! Date and time: Tue Mar 18 00:01:42 2025
! Project name: oblique.cst
! Parameters = {Tilt=30; Fracture=1; B=12.5; D=160; F=25; Feed=2.85625; L=100; M=10; R=0.384908; S=1; Theta=270; length=57.125; wave=114.25}
! Header version: 2024
! Port assignment regex: !\s*Touchstone port\s*([0-9]+)\s*=\s*(CST MWS port|CST DES external port|CST DES block port)\s*(.+)\s* \(\"(.*)\"\)(\s*mode\s*([0-9]+))?.*
! Touchstone port assignment:
! Touchstone port 1 = CST MWS port 1 ("")
! Touchstone port 2 = CST MWS port 2 ("")
# GHz S DB R 50
1                    -0.02084095       -9.854871         -67.6058       -171.4061             -200               0             -200               0
1.00658              -0.02136253       -9.942593        -67.72051       -175.8102             -200               0             -200               0
1.01316              -0.02187964       -10.03107        -67.87017       -179.9789             -200               0             -200               0
1.01974               -0.0223971       -10.12034        -68.05451        176.1226             -200               0             -200               0
1.02632              -0.02291879       -10.21043        -68.27263        172.5367             -200               0             -200               0
1.03289              -0.02345188       -10.30137        -68.52267        169.3139             -200               0             -200               0
1.03947              -0.02400156       -10.39318        -68.80117        166.5139             -200               0             -200               0
1.04605              -0.02457473       -10.48587        -69.10235         164.205             -200               0             -200               0
1.05263              -0.02517746       -10.57945        -69.41705        162.4622             -200               0             -200               0
1.05921              -0.02581694       -10.67392        -69.73145        161.3611             -200               0             -200               0
1.06579               -0.0264986       -10.76929        -70.02581         160.967             -200               0             -200               0
1.07237              -0.02722838       -10.86553        -70.27385        161.3143             -200               0             -200               0
1.07895               -0.0280114       -10.96263         -70.4437         162.381             -200               0             -200               0
1.08553              -0.02885252       -11.06058        -70.50165        164.0612             -200               0             -200               0
1.09211              -0.02975492       -11.15936        -70.41894        166.1531             -200               0             -200               0
1.09868              -0.03072212       -11.25893        -70.17983        168.3786             -200               0             -200               0
1.10526              -0.03175595       -11.35926         -69.7867        170.4355             -200               0             -200               0
1.11184              -0.03285792       -11.46034        -69.25919        172.0626             -200               0             -200               0
1.11842              -0.03402732       -11.56213        -68.62784         173.084             -200               0             -200               0
1.125                -0.03526295        -11.6646        -67.92606        173.4192             -200               0             -200               0
1.13158              -0.03656409       -11.76774        -67.18406        173.0648             -200               0             -200               0
1.13816              -0.03792826       -11.87152        -66.42597        172.0668             -200               0             -200               0
1.14474              -0.03935191       -11.97593         -65.6694        170.4954             -200               0             -200               0
1.15132              -0.04083076       -12.08095        -64.92636        168.4279             -200               0             -200               0
1.15789               -0.0423603       -12.18658        -64.20455         165.939             -200               0             -200               0
1.16447              -0.04393585       -12.29282        -63.50855        163.0959             -200               0             -200               0
1.17105              -0.04555249       -12.39969        -62.84083        159.9572             -200               0             -200               0
1.17763              -0.04720559       -12.50718        -62.20242        156.5726             -200               0             -200               0
1.18421              -0.04888964       -12.61534        -61.59346        152.9841             -200               0             -200               0
1.19079              -0.05060117       -12.72417        -61.01351        149.2269             -200               0             -200               0
1.19737              -0.05233574       -12.83373        -60.46178        145.3306             -200               0             -200               0
1.20395              -0.05408935       -12.94404        -59.93731        141.3201             -200               0             -200               0
1.21053              -0.05585935       -13.05516        -59.43901        137.2166             -200               0             -200               0
1.21711              -0.05764442       -13.16713        -58.96579        133.0379             -200               0             -200               0
1.22368              -0.05944406          -13.28        -58.51654        128.7994             -200               0             -200               0
1.23026              -0.06125786       -13.39383         -58.0902        124.5144             -200               0             -200               0
1.23684              -0.06308684       -13.50868        -57.68572        120.1947             -200               0             -200               0
1.24342              -0.06493404       -13.62459        -57.30212        115.8503             -200               0             -200               0
1.25                 -0.06680188       -13.74162        -56.93843        111.4905             -200               0             -200               0
1.25658              -0.06869523       -13.85981        -56.59376        107.1233             -200               0             -200               0
1.26316              -0.07061832       -13.97923        -56.26723        102.7561             -200               0             -200               0
1.26974              -0.07257751       -14.09991          -55.958        98.39587             -200               0             -200               0
1.27632              -0.07457856       -14.22188        -55.66527        94.04867             -200               0             -200               0
1.28289              -0.07662974       -14.34518        -55.38823        89.72038             -200               0             -200               0
1.28947              -0.07873777       -14.46984        -55.12612        85.41644             -200               0             -200               0
1.29605              -0.08090982       -14.59587        -54.87816        81.14198             -200               0             -200               0
1.30263              -0.08315299       -14.72329        -54.64359        76.90187             -200               0             -200               0
1.30921              -0.08547454        -14.8521        -54.42161        72.70073             -200               0             -200               0
1.31579               -0.0878824       -14.98231        -54.21144        68.54295             -200               0             -200               0
1.32237              -0.09038117       -15.11391        -54.01228        64.43268             -200               0             -200               0
1.32895              -0.09297723       -15.24689        -53.82328        60.37386             -200               0             -200               0
1.33553              -0.09567542       -15.38124        -53.64358        56.37017             -200               0             -200               0
1.34211              -0.09848015       -15.51694        -53.47227          52.425             -200               0             -200               0
1.34868                -0.101393       -15.65398         -53.3084        48.54143             -200               0             -200               0
1.35526               -0.1044163       -15.79233          -53.151        44.72216             -200               0             -200               0
1.36184               -0.1075514       -15.93198        -52.99902        40.96949             -200               0             -200               0
1.36842               -0.1107972       -16.07292        -52.85139        37.28519             -200               0             -200               0
1.375                 -0.1141524       -16.21513          -52.707        33.67049             -200               0             -200               0
1.38158               -0.1176155       -16.35861        -52.56468        30.12596             -200               0             -200               0
1.38816               -0.1211835       -16.50336        -52.42325        26.65145             -200               0             -200               0
1.39474               -0.1248505       -16.64938        -52.28152        23.24603             -200               0             -200               0
1.40132               -0.1286154       -16.79668        -52.13828        19.90787             -200               0             -200               0
1.40789               -0.1324714       -16.94529        -51.99236        16.63427             -200               0             -200               0
1.41447               -0.1364155       -17.09524        -51.84261        13.42156             -200               0             -200               0
1.42105               -0.1404416       -17.24656        -51.68794        10.26513             -200               0             -200               0
1.42763               -0.1445449        -17.3993        -51.52735         7.15949             -200               0             -200               0
1.43421               -0.1487226       -17.55353        -51.35995        4.098259             -200               0             -200               0
1.44079               -0.1529717        -17.7093        -51.18499         1.07433             -200               0             -200               0
1.44737                -0.157288       -17.86669        -51.00185       -1.920021             -200               0             -200               0
1.45395               -0.1616712       -18.02577        -50.81011        -4.89296             -200               0             -200               0
1.46053               -0.1661213       -18.18664        -50.60948       -7.852915             -200               0             -200               0
1.46711               -0.1706382       -18.34939        -50.39992       -10.80836             -200               0             -200               0
1.47368               -0.1752244        -18.5141        -50.18151       -13.76764             -200               0             -200               0
1.48026                -0.179884       -18.68088        -49.95454       -16.73871             -200               0             -200               0
1.48684               -0.1846237       -18.84982        -49.71945       -19.72902             -200               0             -200               0
1.49342               -0.1894477       -19.02103        -49.47682       -22.74535             -200               0             -200               0
1.5                   -0.1943664       -19.19459        -49.22734       -25.79367             -200               0             -200               0
1.50658               -0.1993873        -19.3706        -48.97179       -28.87904             -200               0             -200               0
1.51316               -0.2045226       -19.54915        -48.71104       -32.00564             -200               0             -200               0
1.51974               -0.2097833       -19.73032        -48.44597       -35.17668             -200               0             -200               0
1.52632               -0.2151824       -19.91419         -48.1775       -38.39445             -200               0             -200               0
1.53289               -0.2207345       -20.10084        -47.90654       -41.66036             -200               0             -200               0
1.53947                 -0.22645       -20.29032        -47.63397         -44.975             -200               0             -200               0
1.54605               -0.2323477       -20.48269        -47.36064       -48.33825             -200               0             -200               0
1.55263                -0.238439       -20.67801        -47.08735       -51.74928             -200               0             -200               0
1.55921               -0.2447395       -20.87631        -46.81486       -55.20673             -200               0             -200               0
1.56579               -0.2512643       -21.07763        -46.54384       -58.70874             -200               0             -200               0
1.57237               -0.2580248       -21.28202        -46.27491       -62.25303             -200               0             -200               0
1.57895               -0.2650366       -21.48948        -46.00861       -65.83699             -200               0             -200               0
1.58553               -0.2723105       -21.70006        -45.74543       -69.45779             -200               0             -200               0
1.59211               -0.2798589       -21.91376        -45.48576       -73.11237             -200               0             -200               0
1.59868               -0.2876921       -22.13063        -45.22996       -76.79753             -200               0             -200               0
1.60526               -0.2958206       -22.35067         -44.9783       -80.50999             -200               0             -200               0
1.61184                -0.304253       -22.57391        -44.73099        -84.2464             -200               0             -200               0
1.61842               -0.3129978       -22.80039         -44.4882       -88.00342             -200               0             -200               0
1.625                 -0.3220624       -23.03015        -44.25002       -91.77772             -200               0             -200               0
1.63158               -0.3314541       -23.26322         -44.0165       -95.56599             -200               0             -200               0
1.63816               -0.3411799       -23.49967        -43.78764       -99.36503             -200               0             -200               0
1.64474               -0.3512448       -23.73954        -43.56338       -103.1717             -200               0             -200               0
1.65132               -0.3616567       -23.98293        -43.34363        -106.983             -200               0             -200               0
1.65789               -0.3724225       -24.22991        -43.12826       -110.7959             -200               0             -200               0
1.66447               -0.3835499       -24.48058        -42.91707       -114.6079             -200               0             -200               0
1.67105               -0.3950463       -24.73504        -42.70985       -118.4162             -200               0             -200               0
1.67763               -0.4069227       -24.99342        -42.50635       -122.2184             -200               0             -200               0
1.68421               -0.4191908       -25.25585        -42.30628       -126.0124             -200               0             -200               0
1.69079                -0.431862       -25.52246         -42.1093       -129.7961             -200               0             -200               0
1.69737               -0.4449531       -25.79342        -41.91508       -133.5678             -200               0             -200               0
1.70395               -0.4584813       -26.06887        -41.72323        -137.326             -200               0             -200               0
1.71053               -0.4724666       -26.34898        -41.53335       -141.0693             -200               0             -200               0
1.71711               -0.4869311       -26.63393        -41.34502       -144.7968             -200               0             -200               0
1.72368               -0.5019024       -26.92388        -41.15779       -148.5078             -200               0             -200               0
1.73026               -0.5174086         -27.219        -40.97123       -152.2021             -200               0             -200               0
1.73684               -0.5334819       -27.51947        -40.78486       -155.8794             -200               0             -200               0
1.74342                -0.550156       -27.82545        -40.59822       -159.5403             -200               0             -200               0
1.75                  -0.5674699       -28.13711        -40.41087       -163.1852             -200               0             -200               0
1.75658               -0.5854641        -28.4546        -40.22235       -166.8153             -200               0             -200               0
1.76316                -0.604182       -28.77806        -40.03222       -170.4318             -200               0             -200               0
1.76974               -0.6236693       -29.10764        -39.84008       -174.0365             -200               0             -200               0
1.77632               -0.6439753       -29.44344        -39.64555       -177.6314             -200               0             -200               0
1.78289               -0.6651514       -29.78559        -39.44827        178.7813             -200               0             -200               0
1.78947               -0.6872486       -30.13416        -39.24794         175.199             -200               0             -200               0
1.79605               -0.7103227       -30.48924         -39.0443        171.6188             -200               0             -200               0
1.80263               -0.7344293        -30.8509        -38.83713        168.0378             -200               0             -200               0
1.80921               -0.7596248       -31.21919        -38.62629        164.4528             -200               0             -200               0
1.81579               -0.7859685       -31.59414        -38.41166        160.8606             -200               0             -200               0
1.82237               -0.8135181       -31.97576        -38.19321        157.2578             -200               0             -200               0
1.82895               -0.8423326       -32.36407        -37.97095         153.641             -200               0             -200               0
1.83553               -0.8724717       -32.75907        -37.74495        150.0072             -200               0             -200               0
1.84211               -0.9039961       -33.16074        -37.51533         146.353             -200               0             -200               0
1.84868               -0.9369647       -33.56905        -37.28228        142.6754             -200               0             -200               0
