! TOUCHSTONE file generated by CST MICROWAVE STUDIO
! Date and time: Tue Mar 18 00:01:30 2025
! Project name: oblique.cst
! Parameters = {Tilt=30; Fracture=1; B=12.5; D=160; F=5; Feed=2.85625; L=100; M=50; R=0.384908; S=2; Theta=180; length=57.125; wave=114.25}
! Header version: 2024
! Port assignment regex: !\s*Touchstone port\s*([0-9]+)\s*=\s*(CST MWS port|CST DES external port|CST DES block port)\s*(.+)\s* \(\"(.*)\"\)(\s*mode\s*([0-9]+))?.*
! Touchstone port assignment:
! Touchstone port 1 = CST MWS port 1 ("")
! Touchstone port 2 = CST MWS port 2 ("")
# GHz S DB R 50
1                     -0.0218972       -9.803868        -66.50072        165.8548             -200               0             -200               0
1.0066               -0.02259542       -9.890946        -66.48628        160.0516             -200               0             -200               0
1.0132                -0.0232864       -9.978665        -66.50397        154.3413             -200               0             -200               0
1.0198               -0.02397548       -10.06707         -66.5546        148.7308             -200               0             -200               0
1.0264               -0.02466481       -10.15619        -66.63918        143.2291             -200               0             -200               0
1.033                -0.02535619       -10.24606        -66.75897        137.8475             -200               0             -200               0
1.0396               -0.02605774       -10.33672        -66.91542        132.6003             -200               0             -200               0
1.0462               -0.02677297       -10.42819        -67.11023        127.5056             -200               0             -200               0
1.05281              -0.02750759       -10.52049        -67.34531        122.5861             -200               0             -200               0
1.05941              -0.02826855       -10.61364        -67.62279        117.8704             -200               0             -200               0
1.06601              -0.02906032       -10.70763         -67.9449        113.3947             -200               0             -200               0
1.07261              -0.02989069       -10.80249        -68.31393        109.2055             -200               0             -200               0
1.07921              -0.03076441        -10.8982        -68.73186        105.3622             -200               0             -200               0
1.08581              -0.03168758       -10.99476        -69.20002        101.9413             -200               0             -200               0
1.09241              -0.03266577       -11.09215        -69.71814        99.04099             -200               0             -200               0
1.09901               -0.0337034       -11.19035        -70.28301        96.78649             -200               0             -200               0
1.10561              -0.03480312       -11.28934         -70.8859        95.33354             -200               0             -200               0
1.11221              -0.03597001        -11.3891        -71.50878        94.86585             -200               0             -200               0
1.11881              -0.03720449       -11.48959        -72.11882        95.57622             -200               0             -200               0
1.12541              -0.03850808        -11.5908        -72.66275        97.61454             -200               0             -200               0
1.13201              -0.03988222       -11.69268        -73.06578        100.9886             -200               0             -200               0
1.13861              -0.04132439       -11.79522        -73.24391        105.4396             -200               0             -200               0
1.14521              -0.04283485       -11.89838        -73.13423        110.3922             -200               0             -200               0
1.15182              -0.04440935       -12.00214        -72.72762        115.0942             -200               0             -200               0
1.15842              -0.04604437       -12.10648        -72.07409        118.8962             -200               0             -200               0
1.16502              -0.04773745       -12.21139        -71.25514        121.4472             -200               0             -200               0
1.17162              -0.04948264       -12.31685        -70.35012        122.6911             -200               0             -200               0
1.17822              -0.05127386       -12.42287        -69.41861        122.7497             -200               0             -200               0
1.18482              -0.05310738       -12.52946        -68.49861        121.8113             -200               0             -200               0
1.19142              -0.05497716       -12.63661        -67.61161        120.0662             -200               0             -200               0
1.19802              -0.05687584       -12.74435        -66.76834        117.6796             -200               0             -200               0
1.20462              -0.05879989       -12.85271        -65.97311        114.7863             -200               0             -200               0
1.21122              -0.06074297       -12.96171        -65.22663         111.493             -200               0             -200               0
1.21782              -0.06270059        -13.0714        -64.52772        107.8832             -200               0             -200               0
1.22442              -0.06466951       -13.18182         -63.8743        104.0225             -200               0             -200               0
1.23102              -0.06664635       -13.29302        -63.26388        99.96234             -200               0             -200               0
1.23762              -0.06862838       -13.40506        -62.69394        95.74365             -200               0             -200               0
1.24422              -0.07061464       -13.51799        -62.16201         91.3993             -200               0             -200               0
1.25083              -0.07260527       -13.63188         -61.6658        86.95601             -200               0             -200               0
1.25743              -0.07460098       -13.74678        -61.20322         82.4358             -200               0             -200               0
1.26403              -0.07660348       -13.86276        -60.77235        77.85707             -200               0             -200               0
1.27063              -0.07861705       -13.97988        -60.37147        73.23543             -200               0             -200               0
1.27723              -0.08064468       -14.09819        -59.99902        68.58435             -200               0             -200               0
1.28383              -0.08269165       -14.21776        -59.65362        63.91565             -200               0             -200               0
1.29043              -0.08476483       -14.33862          -59.334        59.23987             -200               0             -200               0
1.29703              -0.08687094       -14.46082        -59.03903         54.5666             -200               0             -200               0
1.30363              -0.08901655       -14.58441        -58.76767        49.90471             -200               0             -200               0
1.31023              -0.09120997       -14.70942        -58.51897        45.26255             -200               0             -200               0
1.31683              -0.09345936       -14.83587        -58.29205        40.64814             -200               0             -200               0
1.32343              -0.09577225       -14.96378        -58.08607        36.06928             -200               0             -200               0
1.33003              -0.09815738       -15.09317        -57.90024        31.53371             -200               0             -200               0
1.33663               -0.1006214       -15.22404        -57.73378        27.04913             -200               0             -200               0
1.34323               -0.1031732       -15.35639        -57.58591        22.62338             -200               0             -200               0
1.34984                -0.105818       -15.49022        -57.45585        18.26445             -200               0             -200               0
1.35644               -0.1085614       -15.62552        -57.34275        13.98052             -200               0             -200               0
1.36304               -0.1114098       -15.76228        -57.24572        9.780045             -200               0             -200               0
1.36964               -0.1143666       -15.90048        -57.16379        5.671731             -200               0             -200               0
1.37624               -0.1174346       -16.04011        -57.09586        1.664525             -200               0             -200               0
1.38284               -0.1206162       -16.18115        -57.04068       -2.232433             -200               0             -200               0
1.38944               -0.1239119       -16.32359        -56.99685       -6.009909             -200               0             -200               0
1.39604               -0.1273214       -16.46742        -56.96274       -9.658721             -200               0             -200               0
1.40264               -0.1308453       -16.61263        -56.93649       -13.16996             -200               0             -200               0
1.40924               -0.1344792       -16.75922        -56.91595        -16.5353             -200               0             -200               0
1.41584               -0.1382228       -16.90718        -56.89868       -19.74737             -200               0             -200               0
1.42244               -0.1420719       -17.05655        -56.88192       -22.80026             -200               0             -200               0
1.42904               -0.1460236       -17.20733        -56.86261       -25.69008             -200               0             -200               0
1.43564               -0.1500725       -17.35954        -56.83739       -28.41564             -200               0             -200               0
1.44224               -0.1542169       -17.51324        -56.80269       -30.97914             -200               0             -200               0
1.44884               -0.1584526       -17.66846        -56.75476        -33.3868             -200               0             -200               0
1.45545                -0.162776       -17.82526        -56.68991       -35.64942             -200               0             -200               0
1.46205               -0.1671852       -17.98369        -56.60455       -37.78268             -200               0             -200               0
1.46865               -0.1716783       -18.14384        -56.49548       -39.80714             -200               0             -200               0
1.47525               -0.1762556       -18.30578        -56.36006       -41.74778             -200               0             -200               0
1.48185               -0.1809166       -18.46958        -56.19637       -43.63315             -200               0             -200               0
1.48845               -0.1856634       -18.63535        -56.00339       -45.49408             -200               0             -200               0
1.49505               -0.1905001       -18.80316        -55.78104       -47.36211             -200               0             -200               0
1.50165               -0.1954313       -18.97312         -55.5302       -49.26793             -200               0             -200               0
1.50825               -0.2004626       -19.14533        -55.25262       -51.23974             -200               0             -200               0
1.51485               -0.2056028       -19.31986        -54.95077        -53.3021             -200               0             -200               0
1.52145               -0.2108613       -19.49683        -54.62764       -55.47505             -200               0             -200               0
1.52805               -0.2162489        -19.6763        -54.28658       -57.77375             -200               0             -200               0
1.53465               -0.2217777       -19.85838        -53.93104       -60.20847             -200               0             -200               0
1.54125               -0.2274602       -20.04313        -53.56447       -62.78493             -200               0             -200               0
1.54785               -0.2333121       -20.23064        -53.19015       -65.50487             -200               0             -200               0
1.55446                -0.239349       -20.42094        -52.81113       -68.36673             -200               0             -200               0
1.56106               -0.2455854       -20.61412        -52.43013       -71.36631             -200               0             -200               0
1.56766               -0.2520371        -20.8102        -52.04956       -74.49745             -200               0             -200               0
1.57426               -0.2587219       -21.00922        -51.67148       -77.75258             -200               0             -200               0
1.58086               -0.2656548       -21.21122        -51.29765       -81.12324             -200               0             -200               0
1.58746                -0.272852       -21.41621        -50.92952       -84.60045             -200               0             -200               0
1.59406               -0.2803282        -21.6242        -50.56829       -88.17499             -200               0             -200               0
1.60066               -0.2880985       -21.83521         -50.2149       -91.83768             -200               0             -200               0
1.60726               -0.2961759       -22.04922        -49.87011       -95.57949             -200               0             -200               0
1.61386               -0.3045731       -22.26624        -49.53448       -99.39165             -200               0             -200               0
1.62046               -0.3133002       -22.48626        -49.20843       -103.2657             -200               0             -200               0
1.62706               -0.3223674       -22.70928        -48.89225       -107.1937             -200               0             -200               0
1.63366               -0.3317842       -22.93529        -48.58612        -111.168             -200               0             -200               0
1.64026               -0.3415564       -23.16429         -48.2901       -115.1812             -200               0             -200               0
1.64686               -0.3516908       -23.39628        -48.00421       -119.2265             -200               0             -200               0
1.65347               -0.3621916       -23.63128        -47.72835       -123.2974             -200               0             -200               0
1.66007               -0.3730625        -23.8693        -47.46241       -127.3877             -200               0             -200               0
1.66667               -0.3843075       -24.11038        -47.20619       -131.4916             -200               0             -200               0
1.67327               -0.3959279       -24.35455        -46.95944       -135.6036             -200               0             -200               0
1.67987               -0.4079259       -24.60188        -46.72189       -139.7183             -200               0             -200               0
1.68647               -0.4203052       -24.85244        -46.49319       -143.8309             -200               0             -200               0
1.69307               -0.4330663        -25.1063        -46.27297       -147.9365             -200               0             -200               0
1.69967               -0.4462143       -25.36357        -46.06083       -152.0308             -200               0             -200               0
1.70627               -0.4597526       -25.62436        -45.85629       -156.1095             -200               0             -200               0
1.71287               -0.4736867       -25.88879        -45.65888       -160.1688             -200               0             -200               0
1.71947               -0.4880249       -26.15702        -45.46806       -164.2048             -200               0             -200               0
1.72607               -0.5027756        -26.4292        -45.28323       -168.2142             -200               0             -200               0
1.73267               -0.5179511       -26.70549         -45.1038       -172.1938             -200               0             -200               0
1.73927               -0.5335658       -26.98608        -44.92909        -176.141             -200               0             -200               0
1.74587                -0.549638       -27.27114        -44.75841        179.9467             -200               0             -200               0
1.75248               -0.5661869       -27.56087        -44.59102        176.0714             -200               0             -200               0
1.75908               -0.5832371       -27.85548        -44.42614        172.2347             -200               0             -200               0
1.76568               -0.6008137       -28.15513        -44.26297        168.4376             -200               0             -200               0
1.77228               -0.6189495       -28.46006        -44.10068        164.6809             -200               0             -200               0
1.77888               -0.6376783       -28.77043        -43.93841        160.9644             -200               0             -200               0
1.78548               -0.6570337       -29.08646         -43.7753        157.2877             -200               0             -200               0
1.79208                 -0.67706       -29.40831        -43.61048        153.6496             -200               0             -200               0
1.79868               -0.6977978       -29.73616         -43.4431        150.0483             -200               0             -200               0
1.80528               -0.7192934       -30.07017        -43.27233        146.4811             -200               0             -200               0
1.81188               -0.7415961       -30.41049        -43.09738        142.9448             -200               0             -200               0
1.81848               -0.7647578       -30.75727        -42.91752        139.4357             -200               0             -200               0
1.82508               -0.7888304       -31.11062        -42.73207        135.9493             -200               0             -200               0
1.83168               -0.8138693       -31.47065        -42.54046        132.4805             -200               0             -200               0
1.83828               -0.8399305       -31.83746         -42.3422        129.0237             -200               0             -200               0
1.84488               -0.8670727       -32.21113        -42.13691        125.5732             -200               0             -200               0
1.85149               -0.8953542       -32.59172        -41.92433        122.1228             -200               0             -200               0
