! TOUCHSTONE file generated by CST MICROWAVE STUDIO
! Date and time: Tue Mar 18 00:03:04 2025
! Project name: oblique.cst
! Parameters = {Tilt=40; Fracture=1; B=12.5; D=160; F=25; Feed=2.85625; L=100; M=50; R=0.384908; S=1; Theta=90; length=57.125; wave=114.25}
! Header version: 2024
! Port assignment regex: !\s*Touchstone port\s*([0-9]+)\s*=\s*(CST MWS port|CST DES external port|CST DES block port)\s*(.+)\s* \(\"(.*)\"\)(\s*mode\s*([0-9]+))?.*
! Touchstone port assignment:
! Touchstone port 1 = CST MWS port 1 ("")
! Touchstone port 2 = CST MWS port 2 ("")
# GHz S DB R 50
1                    -0.02026196       -9.830667        -69.39842        150.6767             -200               0             -200               0
1.0066               -0.02091955       -9.918846        -69.33941        145.3432             -200               0             -200               0
1.0132               -0.02158783       -10.00763         -69.3084        140.1207             -200               0             -200               0
1.0198                -0.0222675       -10.09702        -69.30524        135.0191             -200               0             -200               0
1.0264               -0.02295926       -10.18705        -69.32978        130.0504             -200               0             -200               0
1.033                -0.02366372       -10.27774        -69.38185        125.2285             -200               0             -200               0
1.0396               -0.02438261        -10.3691        -69.46121          120.57             -200               0             -200               0
1.0462               -0.02511656       -10.46114        -69.56744        116.0942             -200               0             -200               0
1.05281              -0.02586884        -10.5539         -69.6999        111.8238             -200               0             -200               0
1.05941              -0.02663909       -10.64737        -69.85751        107.7849             -200               0             -200               0
1.06601              -0.02743063       -10.74158        -70.03864        104.0074             -200               0             -200               0
1.07261              -0.02824514       -10.83654        -70.24083        100.5255             -200               0             -200               0
1.07921              -0.02908392       -10.93227        -70.46045        97.37652             -200               0             -200               0
1.08581              -0.02995034       -11.02876        -70.69235        94.60079             -200               0             -200               0
1.09241              -0.03084625       -11.12604         -70.9294        92.23899             -200               0             -200               0
1.09901              -0.03177294        -11.2241        -71.16199         90.3285             -200               0             -200               0
1.10561              -0.03273288       -11.32297        -71.37775        88.89753             -200               0             -200               0
1.11221              -0.03372745       -11.42263        -71.56152        87.95676             -200               0             -200               0
1.11881              -0.03475906       -11.52311        -71.69589        87.48942             -200               0             -200               0
1.12541              -0.03582862        -11.6244        -71.76275         87.4419             -200               0             -200               0
1.13201              -0.03693659        -11.7265         -71.7456         87.7187             -200               0             -200               0
1.13861              -0.03808632       -11.82942        -71.63247          88.186             -200               0             -200               0
1.14521               -0.0392767       -11.93317        -71.41844        88.68585             -200               0             -200               0
1.15182              -0.04050857       -12.03775        -71.10675        89.05818             -200               0             -200               0
1.15842              -0.04178324       -12.14317          -70.708         89.1636             -200               0             -200               0
1.16502              -0.04310096       -12.24943        -70.23784        88.89932             -200               0             -200               0
1.17162              -0.04446043       -12.35654        -69.71405        88.20466             -200               0             -200               0
1.17822              -0.04586171       -12.46451        -69.15402         87.0572             -200               0             -200               0
1.18482               -0.0473064       -12.57335        -68.57311         85.4639             -200               0             -200               0
1.19142              -0.04879191       -12.68308        -67.98396          83.451             -200               0             -200               0
1.19802              -0.05032017        -12.7937        -67.39632        81.05539             -200               0             -200               0
1.20462              -0.05188836       -12.90525        -66.81746        78.31826             -200               0             -200               0
1.21122              -0.05349822       -13.01773        -66.25253        75.28091             -200               0             -200               0
1.21782              -0.05514834       -13.13117        -65.70505        71.98245             -200               0             -200               0
1.22442              -0.05684017       -13.24561         -65.1773        68.45857             -200               0             -200               0
1.23102              -0.05857216       -13.36105        -64.67068        64.74121             -200               0             -200               0
1.23762               -0.0603467       -13.47753         -64.1859        60.85853             -200               0             -200               0
1.24422              -0.06216394       -13.59509        -63.72325        56.83519             -200               0             -200               0
1.25083              -0.06402461       -13.71375        -63.28268        52.69276             -200               0             -200               0
1.25743              -0.06593196       -13.83355        -62.86394        48.45006             -200               0             -200               0
1.26403              -0.06788606       -13.95451        -62.46662        44.12357             -200               0             -200               0
1.27063              -0.06989101       -14.07668        -62.09024        39.72774             -200               0             -200               0
1.27723              -0.07194838       -14.20008        -61.73425        35.27536             -200               0             -200               0
1.28383              -0.07406225       -14.32476        -61.39809        30.77779             -200               0             -200               0
1.29043              -0.07623685       -14.45074        -61.08117        26.24519             -200               0             -200               0
1.29703              -0.07847635       -14.57806        -60.78292        21.68671             -200               0             -200               0
1.30363              -0.08078433       -14.70674        -60.50276         17.1107             -200               0             -200               0
1.31023              -0.08316627       -14.83681        -60.24011        12.52479             -200               0             -200               0
1.31683               -0.0856273       -14.96831        -59.99442        7.936089             -200               0             -200               0
1.32343              -0.08817253       -15.10125        -59.76514        3.351198             -200               0             -200               0
1.33003              -0.09080792       -15.23566        -59.55172       -1.223632             -200               0             -200               0
1.33663              -0.09353852       -15.37155        -59.35362        -5.78246             -200               0             -200               0
1.34323              -0.09637113       -15.50894        -59.17029       -10.31959             -200               0             -200               0
1.34984              -0.09931001       -15.64785        -59.00119       -14.82951             -200               0             -200               0
1.35644               -0.1023606       -15.78829        -58.84575       -19.30688             -200               0             -200               0
1.36304               -0.1055303       -15.93026        -58.70338       -23.74648             -200               0             -200               0
1.36964                -0.108823       -16.07379        -58.57349       -28.14318             -200               0             -200               0
1.37624               -0.1122434       -16.21886        -58.45543       -32.49195             -200               0             -200               0
1.38284               -0.1157961        -16.3655        -58.34853       -36.78787             -200               0             -200               0
1.38944               -0.1194863       -16.51369        -58.25206       -41.02611             -200               0             -200               0
1.39604               -0.1233184       -16.66346        -58.16524       -45.20198             -200               0             -200               0
1.40264               -0.1272947        -16.8148        -58.08724       -49.31094             -200               0             -200               0
1.40924               -0.1314198       -16.96771        -58.01712        -53.3487             -200               0             -200               0
1.41584                -0.135696       -17.12221        -57.95392       -57.31124             -200               0             -200               0
1.42244               -0.1401269        -17.2783        -57.89654       -61.19489             -200               0             -200               0
1.42904               -0.1447142         -17.436        -57.84384       -64.99647             -200               0             -200               0
1.43564               -0.1494601       -17.59531        -57.79458        -68.7134             -200               0             -200               0
1.44224               -0.1543683       -17.75625        -57.74742       -72.34378             -200               0             -200               0
1.44884               -0.1594392       -17.91883        -57.70095       -75.88661             -200               0             -200               0
1.45545               -0.1646755       -18.08309        -57.65373       -79.34186             -200               0             -200               0
1.46205               -0.1700794       -18.24904        -57.60422       -82.71065             -200               0             -200               0
1.46865               -0.1756526       -18.41671         -57.5509       -85.99537             -200               0             -200               0
1.47525               -0.1813985       -18.58613        -57.49224       -89.19979             -200               0             -200               0
1.48185               -0.1873191       -18.75735        -57.42675       -92.32913             -200               0             -200               0
1.48845               -0.1934181       -18.93038        -57.35306       -95.39003             -200               0             -200               0
1.49505               -0.1996995       -19.10529        -57.26988       -98.39056             -200               0             -200               0
1.50165                -0.206167       -19.28211        -57.17613       -101.3401             -200               0             -200               0
1.50825               -0.2128251       -19.46088        -57.07092        -104.249             -200               0             -200               0
1.51485               -0.2196794       -19.64166        -56.95362       -107.1287             -200               0             -200               0
1.52145                -0.226736       -19.82449        -56.82388       -109.9909             -200               0             -200               0
1.52805               -0.2340022       -20.00941         -56.6816       -112.8477             -200               0             -200               0
1.53465               -0.2414846       -20.19648        -56.52701       -115.7109             -200               0             -200               0
1.54125               -0.2491922       -20.38575        -56.36056       -118.5917             -200               0             -200               0
1.54785               -0.2571331       -20.57726        -56.18301       -121.5007             -200               0             -200               0
1.55446               -0.2653161       -20.77106        -55.99528       -124.4472             -200               0             -200               0
1.56106               -0.2737535       -20.96719        -55.79849       -127.4392             -200               0             -200               0
1.56766               -0.2824541       -21.16568        -55.59389       -130.4833             -200               0             -200               0
1.57426               -0.2914298       -21.36658        -55.38282       -133.5848             -200               0             -200               0
1.58086               -0.3006908       -21.56992        -55.16666       -136.7471             -200               0             -200               0
1.58746                 -0.31025       -21.77573        -54.94677       -139.9725             -200               0             -200               0
1.59406               -0.3201187       -21.98404        -54.72453       -143.2618             -200               0             -200               0
1.60066               -0.3303089       -22.19486        -54.50124       -146.6148             -200               0             -200               0
1.60726               -0.3408335       -22.40823        -54.27812         -150.03             -200               0             -200               0
1.61386               -0.3517034       -22.62416        -54.05632        -153.505             -200               0             -200               0
1.62046               -0.3629303       -22.84265        -53.83687       -157.0369             -200               0             -200               0
1.62706               -0.3745262       -23.06372        -53.62072       -160.6219             -200               0             -200               0
1.63366               -0.3865022       -23.28738        -53.40869       -164.2557             -200               0             -200               0
1.64026               -0.3988694       -23.51365        -53.20153       -167.9336             -200               0             -200               0
1.64686               -0.4116376       -23.74252        -52.99984       -171.6507             -200               0             -200               0
1.65347               -0.4248177       -23.97401        -52.80416       -175.4018             -200               0             -200               0
1.66007               -0.4384182       -24.20812        -52.61492       -179.1813             -200               0             -200               0
1.66667                -0.452449       -24.44487        -52.43245        177.0161             -200               0             -200               0
1.67327               -0.4669189       -24.68427        -52.25699        173.1962             -200               0             -200               0
1.67987               -0.4818361       -24.92634        -52.08872        169.3647             -200               0             -200               0
1.68647               -0.4972085        -25.1711        -51.92771        165.5272             -200               0             -200               0
1.69307               -0.5130456       -25.41857        -51.77396        161.6895             -200               0             -200               0
1.69967               -0.5293539        -25.6688        -51.62739        157.8573             -200               0             -200               0
1.70627                -0.546143       -25.92181        -51.48784        154.0362             -200               0             -200               0
1.71287               -0.5634199       -26.17766        -51.35505        150.2318             -200               0             -200               0
1.71947               -0.5811932       -26.43639         -51.2287        146.4496             -200               0             -200               0
1.72607               -0.5994732       -26.69807        -51.10838         142.695             -200               0             -200               0
1.73267               -0.6182701       -26.96277        -50.99358        138.9732             -200               0             -200               0
1.73927               -0.6375925       -27.23055         -50.8837        135.2893             -200               0             -200               0
1.74587               -0.6574545        -27.5015        -50.77806        131.6479             -200               0             -200               0
1.75248                -0.677869        -27.7757        -50.67586        128.0534             -200               0             -200               0
1.75908               -0.6988488       -28.05325        -50.57622        124.5099             -200               0             -200               0
1.76568               -0.7204105       -28.33425        -50.47816        121.0206             -200               0             -200               0
1.77228               -0.7425725        -28.6188        -50.38059        117.5884             -200               0             -200               0
1.77888               -0.7653528         -28.907        -50.28235        114.2153             -200               0             -200               0
1.78548               -0.7887716       -29.19897        -50.18218        110.9024             -200               0             -200               0
1.79208               -0.8128549       -29.49482        -50.07878        107.6498             -200               0             -200               0
1.79868               -0.8376249       -29.79466        -49.97079        104.4564             -200               0             -200               0
1.80528               -0.8631098       -30.09861        -49.85681          101.32             -200               0             -200               0
1.81188               -0.8893383       -30.40678         -49.7355        98.23692             -200               0             -200               0
1.81848               -0.9163418       -30.71927        -49.60552        95.20213             -200               0             -200               0
1.82508               -0.9441533        -31.0362        -49.46562        92.20926             -200               0             -200               0
1.83168               -0.9728058       -31.35765        -49.31469        89.25059             -200               0             -200               0
1.83828                -1.002339       -31.68375        -49.15177        86.31722             -200               0             -200               0
1.84488                -1.032789       -32.01456        -48.97609        83.39925             -200               0             -200               0
1.85149                -1.064199       -32.35019        -48.78711        80.48597             -200               0             -200               0
