! TOUCHSTONE file generated by CST MICROWAVE STUDIO
! Date and time: Tue Mar 18 00:00:56 2025
! Project name: oblique.cst
! Parameters = {Tilt=30; Fracture=1; B=10; D=160; F=15; Feed=2.85625; L=100; M=10; R=0.384908; S=2; Theta=90; length=57.125; wave=114.25}
! Header version: 2024
! Port assignment regex: !\s*Touchstone port\s*([0-9]+)\s*=\s*(CST MWS port|CST DES external port|CST DES block port)\s*(.+)\s* \(\"(.*)\"\)(\s*mode\s*([0-9]+))?.*
! Touchstone port assignment:
! Touchstone port 1 = CST MWS port 1 ("")
! Touchstone port 2 = CST MWS port 2 ("")
# GHz S DB R 50
1                    -0.01908137       -9.785174        -70.35022       -144.9529             -200               0             -200               0
1.00658              -0.01981585       -9.873558        -70.09459       -148.1597             -200               0             -200               0
1.01316               -0.0205884       -9.962404        -69.85591       -151.3327             -200               0             -200               0
1.01974              -0.02139584        -10.0517        -69.63302       -154.4596             -200               0             -200               0
1.02632              -0.02223498       -10.14145        -69.42465       -157.5292             -200               0             -200               0
1.03289              -0.02310138       -10.23163        -69.22934       -160.5305             -200               0             -200               0
1.03947              -0.02399153       -10.32226        -69.04551       -163.4535             -200               0             -200               0
1.04605              -0.02490115       -10.41335         -68.8714       -166.2891             -200               0             -200               0
1.05263              -0.02582542       -10.50491        -68.70503        -169.029             -200               0             -200               0
1.05921              -0.02676183       -10.59695        -68.54426       -171.6663             -200               0             -200               0
1.06579              -0.02770619       -10.68951        -68.38676       -174.1957             -200               0             -200               0
1.07237              -0.02865575        -10.7826        -68.23001       -176.6136             -200               0             -200               0
1.07895              -0.02960749       -10.87628        -68.07134       -178.9187             -200               0             -200               0
1.08553              -0.03055896       -10.97057        -67.90799        178.8875             -200               0             -200               0
1.09211              -0.03151003       -11.06551        -67.73715         176.801             -200               0             -200               0
1.09868              -0.03245956       -11.16115        -67.55606        174.8143             -200               0             -200               0
1.10526               -0.0334089       -11.25752        -67.36211        172.9169             -200               0             -200               0
1.11184              -0.03435829       -11.35468        -67.15294        171.0951             -200               0             -200               0
1.11842              -0.03531013       -11.45266        -66.92656        169.3323             -200               0             -200               0
1.125                -0.03626779       -11.55151        -66.68146        167.6096             -200               0             -200               0
1.13158              -0.03723532       -11.65126        -66.41666        165.9064             -200               0             -200               0
1.13816              -0.03821565       -11.75195         -66.1318        164.2014             -200               0             -200               0
1.14474              -0.03921561       -11.85361        -65.82713        162.4734             -200               0             -200               0
1.15132              -0.04023949       -11.95626        -65.50348        160.7023             -200               0             -200               0
1.15789              -0.04129432       -12.05994        -65.16219          158.87             -200               0             -200               0
1.16447              -0.04238421       -12.16465        -64.80501        156.9605             -200               0             -200               0
1.17105                -0.043517        -12.2704        -64.43403        154.9612             -200               0             -200               0
1.17763              -0.04469768       -12.37721        -64.05151        152.8621             -200               0             -200               0
1.18421               -0.0459329       -12.48507        -63.65982        150.6566             -200               0             -200               0
1.19079              -0.04722691       -12.59397        -63.26129        148.3408             -200               0             -200               0
1.19737              -0.04858612        -12.7039         -62.8582        145.9133             -200               0             -200               0
1.20395              -0.05001357       -12.81486        -62.45268         143.375             -200               0             -200               0
1.21053              -0.05151437       -12.92682        -62.04667        140.7287             -200               0             -200               0
1.21711              -0.05308962       -13.03977        -61.64191        137.9786             -200               0             -200               0
1.22368              -0.05474365       -13.15369        -61.23993        135.1298             -200               0             -200               0
1.23026              -0.05647484       -13.26855        -60.84206        132.1885             -200               0             -200               0
1.23684              -0.05828434       -13.38433        -60.44941        129.1612             -200               0             -200               0
1.24342              -0.06017285       -13.50102        -60.06294        126.0546             -200               0             -200               0
1.25                   -0.062137        -13.6186        -59.68338        122.8759             -200               0             -200               0
1.25658              -0.06417626       -13.73706        -59.31135        119.6319             -200               0             -200               0
1.26316              -0.06628586       -13.85639        -58.94731        116.3295             -200               0             -200               0
1.26974              -0.06846541       -13.97658        -58.59161        112.9755             -200               0             -200               0
1.27632              -0.07070824       -14.09764        -58.24447        109.5763             -200               0             -200               0
1.28289              -0.07301023       -14.21959        -57.90604        106.1382             -200               0             -200               0
1.28947              -0.07536854       -14.34242        -57.57637         102.667             -200               0             -200               0
1.29605              -0.07777887       -14.46617        -57.25544        99.16845             -200               0             -200               0
1.30263              -0.08023513       -14.59087        -56.94315        95.64786             -200               0             -200               0
1.30921              -0.08273458       -14.71655        -56.63937        92.11029             -200               0             -200               0
1.31579              -0.08527371       -14.84325        -56.34389         88.5605             -200               0             -200               0
1.32237              -0.08784929       -14.97102        -56.05649        85.00294             -200               0             -200               0
1.32895              -0.09046143       -15.09992        -55.77686        81.44179             -200               0             -200               0
1.33553              -0.09310591       -15.22999        -55.50469        77.88093             -200               0             -200               0
1.34211              -0.09578347        -15.3613        -55.23963        74.32393             -200               0             -200               0
1.34868              -0.09849513       -15.49391        -54.98128         70.7741             -200               0             -200               0
1.35526               -0.1012434       -15.62788        -54.72924        67.23444             -200               0             -200               0
1.36184               -0.1040289       -15.76329        -54.48305        63.70765             -200               0             -200               0
1.36842               -0.1068566       -15.90018        -54.24226        60.19614             -200               0             -200               0
1.375                 -0.1097325       -16.03864        -54.00638          56.702             -200               0             -200               0
1.38158               -0.1126593        -16.1787        -53.77491        53.22698             -200               0             -200               0
1.38816               -0.1156444       -16.32043        -53.54733        49.77255             -200               0             -200               0
1.39474               -0.1186957       -16.46389        -53.32312         46.3398             -200               0             -200               0
1.40132               -0.1218214       -16.60911        -53.10175        42.92949             -200               0             -200               0
1.40789               -0.1250274       -16.75614        -52.88268        39.54204             -200               0             -200               0
1.41447               -0.1283227       -16.90502        -52.66539        36.17751             -200               0             -200               0
1.42105               -0.1317172       -17.05578        -52.44935        32.83559             -200               0             -200               0
1.42763               -0.1352182       -17.20844        -52.23407        29.51565             -200               0             -200               0
1.43421               -0.1388333       -17.36302        -52.01904         26.2167             -200               0             -200               0
1.44079               -0.1425717       -17.51954        -51.80382        22.93741             -200               0             -200               0
1.44737               -0.1464413       -17.67802        -51.58798        19.67618             -200               0             -200               0
1.45395               -0.1504466       -17.83846        -51.37111        16.43108             -200               0             -200               0
1.46053               -0.1545956       -18.00087        -51.15288        13.19995             -200               0             -200               0
1.46711               -0.1588919       -18.16525        -50.93297        9.980406             -200               0             -200               0
1.47368                -0.163343       -18.33161        -50.71115        6.769898             -200               0             -200               0
1.48026               -0.1679497       -18.49997        -50.48721        3.565736             -200               0             -200               0
1.48684               -0.1727173       -18.67031          -50.261       0.3651493             -200               0             -200               0
1.49342               -0.1776487       -18.84267        -50.03245       -2.834665             -200               0             -200               0
1.5                   -0.1827421       -19.01705        -49.80151       -6.036495             -200               0             -200               0
1.50658               -0.1880021       -19.19347        -49.56821        -9.24306             -200               0             -200               0
1.51316               -0.1934282       -19.37197        -49.33263       -12.45697             -200               0             -200               0
1.51974               -0.1990208       -19.55257        -49.09488       -15.68069             -200               0             -200               0
1.52632                -0.204781       -19.73532        -48.85513       -18.91649             -200               0             -200               0
1.53289               -0.2107072       -19.92027        -48.61357       -22.16641             -200               0             -200               0
1.53947               -0.2168016       -20.10747        -48.37044       -25.43226             -200               0             -200               0
1.54605               -0.2230658         -20.297          -48.126       -28.71557             -200               0             -200               0
1.55263               -0.2294984       -20.48893        -47.88053       -32.01762             -200               0             -200               0
1.55921               -0.2361059       -20.68333        -47.63431       -35.33939             -200               0             -200               0
1.56579               -0.2428902        -20.8803        -47.38765       -38.68157             -200               0             -200               0
1.57237               -0.2498544       -21.07993        -47.14084        -42.0446             -200               0             -200               0
1.57895               -0.2570062       -21.28232        -46.89419       -45.42863             -200               0             -200               0
1.58553               -0.2643541       -21.48759        -46.64798       -48.83358             -200               0             -200               0
1.59211               -0.2719029       -21.69583        -46.40248       -52.25913             -200               0             -200               0
1.59868               -0.2796679       -21.90715        -46.15796       -55.70473             -200               0             -200               0
1.60526                -0.287657       -22.12168        -45.91466       -59.16965             -200               0             -200               0
1.61184               -0.2958868       -22.33951         -45.6728       -62.65299             -200               0             -200               0
1.61842               -0.3043725       -22.56076        -45.43257       -66.15368             -200               0             -200               0
1.625                 -0.3131285       -22.78554        -45.19415       -69.67055             -200               0             -200               0
1.63158               -0.3221763       -23.01395        -44.95767        -73.2023             -200               0             -200               0
1.63816               -0.3315332       -23.24608        -44.72326       -76.74757             -200               0             -200               0
1.64474               -0.3412221       -23.48203        -44.49099       -80.30492             -200               0             -200               0
1.65132               -0.3512625       -23.72187        -44.26093       -83.87289             -200               0             -200               0
1.65789                 -0.36168        -23.9657        -44.03311       -87.44998             -200               0             -200               0
1.66447               -0.3724971       -24.21358        -43.80754       -91.03471             -200               0             -200               0
1.67105               -0.3837373       -24.46558        -43.58417       -94.62561             -200               0             -200               0
1.67763               -0.3954263       -24.72175        -43.36298       -98.22123             -200               0             -200               0
1.68421               -0.4075889       -24.98215        -43.14387       -101.8202             -200               0             -200               0
1.69079               -0.4202492       -25.24681        -42.92674       -105.4213             -200               0             -200               0
1.69737               -0.4334323       -25.51578        -42.71148       -109.0231             -200               0             -200               0
1.70395               -0.4471629       -25.78909        -42.49793       -112.6247             -200               0             -200               0
1.71053               -0.4614666       -26.06678        -42.28592        -116.225             -200               0             -200               0
1.71711                -0.476365       -26.34886        -42.07527       -119.8232             -200               0             -200               0
1.72368                -0.491886       -26.63538        -41.86578       -123.4185             -200               0             -200               0
1.73026               -0.5080484       -26.92637        -41.65723       -127.0104             -200               0             -200               0
1.73684               -0.5248794       -27.22184        -41.44939       -130.5984             -200               0             -200               0
1.74342               -0.5424003       -27.52184        -41.24204       -134.1825             -200               0             -200               0
1.75                  -0.5606352       -27.82641        -41.03492       -137.7624             -200               0             -200               0
1.75658               -0.5796072       -28.13558        -40.82779       -141.3384             -200               0             -200               0
1.76316               -0.5993404       -28.44942         -40.6204       -144.9107             -200               0             -200               0
1.76974                -0.619859       -28.76798        -40.41253         -148.48             -200               0             -200               0
1.77632               -0.6411887       -29.09132        -40.20393        -152.047             -200               0             -200               0
1.78289               -0.6633559       -29.41952        -39.99438       -155.6125             -200               0             -200               0
1.78947               -0.6863878       -29.75266        -39.78367       -159.1776             -200               0             -200               0
1.79605               -0.7103147       -30.09083        -39.57162       -162.7436             -200               0             -200               0
1.80263               -0.7351698       -30.43413        -39.35804       -166.3119             -200               0             -200               0
1.80921               -0.7609846       -30.78265        -39.14279       -169.8839             -200               0             -200               0
1.81579               -0.7877981       -31.13651        -38.92575       -173.4614             -200               0             -200               0
1.82237               -0.8156483       -31.49583        -38.70681       -177.0462             -200               0             -200               0
1.82895               -0.8445789       -31.86071        -38.48591        179.3601             -200               0             -200               0
1.83553               -0.8746376       -32.23128        -38.26302        175.7554             -200               0             -200               0
1.84211               -0.9058722       -32.60764        -38.03812        172.1379             -200               0             -200               0
1.84868               -0.9383375       -32.98991        -37.81124        168.5056             -200               0             -200               0
