! TOUCHSTONE file generated by CST MICROWAVE STUDIO
! Date and time: Tue Mar 18 00:01:36 2025
! Project name: oblique.cst
! Parameters = {Tilt=30; Fracture=1; B=12.5; D=160; F=15; Feed=2.85625; L=100; M=10; R=0.384908; S=2; Theta=180; length=57.125; wave=114.25}
! Header version: 2024
! Port assignment regex: !\s*Touchstone port\s*([0-9]+)\s*=\s*(CST MWS port|CST DES external port|CST DES block port)\s*(.+)\s* \(\"(.*)\"\)(\s*mode\s*([0-9]+))?.*
! Touchstone port assignment:
! Touchstone port 1 = CST MWS port 1 ("")
! Touchstone port 2 = CST MWS port 2 ("")
# GHz S DB R 50
1                    -0.01917509       -9.781206        -70.28331       -149.7343             -200               0             -200               0
1.00658               -0.0198903       -9.869438        -70.08309       -152.9486             -200               0             -200               0
1.01316              -0.02064359       -9.958154        -69.89808       -156.0907             -200               0             -200               0
1.01974              -0.02143129       -10.04734        -69.72675       -159.1497             -200               0             -200               0
1.02632              -0.02225123         -10.137        -69.56743        -162.115             -200               0             -200               0
1.03289              -0.02310099       -10.22712        -69.41822        -164.977             -200               0             -200               0
1.03947              -0.02397616        -10.3177        -69.27702       -167.7265             -200               0             -200               0
1.04605              -0.02487307       -10.40875        -69.14148       -170.3561             -200               0             -200               0
1.05263              -0.02578843       -10.50028        -69.00903       -172.8596             -200               0             -200               0
1.05921              -0.02671884       -10.59232        -68.87684       -175.2327             -200               0             -200               0
1.06579              -0.02766083       -10.68487        -68.74191        -177.474             -200               0             -200               0
1.07237              -0.02861213       -10.77796        -68.60104       -179.5845             -200               0             -200               0
1.07895              -0.02957005       -10.87163        -68.45101        178.4308             -200               0             -200               0
1.08553              -0.03053212        -10.9659        -68.28857        176.5636             -200               0             -200               0
1.09211              -0.03149739       -11.06081        -68.11064        174.8015             -200               0             -200               0
1.09868              -0.03246533        -11.1564        -67.91446         173.128             -200               0             -200               0
1.10526              -0.03343593       -11.25271        -67.69767        171.5232             -200               0             -200               0
1.11184              -0.03441004       -11.34977        -67.45853        169.9644             -200               0             -200               0
1.11842              -0.03539017       -11.44763        -67.19598        168.4267             -200               0             -200               0
1.125                 -0.0363772       -11.54633        -66.90969        166.8843             -200               0             -200               0
1.13158              -0.03737572        -11.6459        -66.60011        165.3121             -200               0             -200               0
1.13816              -0.03838832       -11.74637        -66.26841        163.6862             -200               0             -200               0
1.14474               -0.0394202       -11.84778        -65.91634        161.9856             -200               0             -200               0
1.15132              -0.04047568       -11.95015        -65.54617        160.1921             -200               0             -200               0
1.15789              -0.04156025        -12.0535         -65.1605        158.2918             -200               0             -200               0
1.16447              -0.04267898       -12.15786        -64.76211        156.2743             -200               0             -200               0
1.17105              -0.04383709       -12.26323        -64.35382         154.133             -200               0             -200               0
1.17763              -0.04504094       -12.36963        -63.93841        151.8647             -200               0             -200               0
1.18421              -0.04629565       -12.47705        -63.51851        149.4693             -200               0             -200               0
1.19079              -0.04760634        -12.5855        -63.09652         146.949             -200               0             -200               0
1.19737               -0.0489778       -12.69497        -62.67462        144.3079             -200               0             -200               0
1.20395              -0.05041391       -12.80545         -62.2547        141.5518             -200               0             -200               0
1.21053              -0.05191816       -12.91692        -61.83842        138.6873             -200               0             -200               0
1.21711              -0.05349504       -13.02938        -61.42717        135.7218             -200               0             -200               0
1.22368              -0.05514514        -13.1428        -61.02212         132.663             -200               0             -200               0
1.23026              -0.05687054       -13.25717         -60.6242        129.5191             -200               0             -200               0
1.23684              -0.05867226       -13.37247        -60.23418        126.2978             -200               0             -200               0
1.24342               -0.0605502       -13.48869        -59.85265         123.007             -200               0             -200               0
1.25                 -0.06250278        -13.6058        -59.48004        119.6543             -200               0             -200               0
1.25658              -0.06452818        -13.7238        -59.11668         116.247             -200               0             -200               0
1.26316              -0.06662541       -13.84269        -58.76275        112.7921             -200               0             -200               0
1.26974              -0.06879052       -13.96244        -58.41838        109.2963             -200               0             -200               0
1.27632              -0.07102048       -14.08307        -58.08357        105.7659             -200               0             -200               0
1.28289              -0.07331184       -14.20459        -57.75829        102.2068             -200               0             -200               0
1.28947              -0.07566077         -14.327        -57.44241        98.62473             -200               0             -200               0
1.29605              -0.07806314       -14.45033        -57.13578        95.02494             -200               0             -200               0
1.30263              -0.08051467        -14.5746        -56.83818         91.4124             -200               0             -200               0
1.30921              -0.08301171       -14.69984        -56.54935        87.79178             -200               0             -200               0
1.31579              -0.08555158       -14.82608          -56.269        84.16745             -200               0             -200               0
1.32237              -0.08813159       -14.95338         -55.9968        80.54347             -200               0             -200               0
1.32895              -0.09074855       -15.08177        -55.73238        76.92363             -200               0             -200               0
1.33553              -0.09340151       -15.21131        -55.47535        73.31141             -200               0             -200               0
1.34211              -0.09608886       -15.34206        -55.22529        69.71003             -200               0             -200               0
1.34868              -0.09881244       -15.47408        -54.98175        66.12242             -200               0             -200               0
1.35526               -0.1015719       -15.60741        -54.74427        62.55121             -200               0             -200               0
1.36184               -0.1043694       -15.74214        -54.51237        58.99875             -200               0             -200               0
1.36842               -0.1072087       -15.87831        -54.28552        55.46708             -200               0             -200               0
1.375                  -0.110093       -16.01599        -54.06321        51.95792             -200               0             -200               0
1.38158               -0.1130275       -16.15524        -53.84489        48.47268             -200               0             -200               0
1.38816               -0.1160177       -16.29611        -53.63003        45.01244             -200               0             -200               0
1.39474               -0.1190699       -16.43866        -53.41807        41.57793             -200               0             -200               0
1.40132               -0.1221906       -16.58293        -53.20845        38.16953             -200               0             -200               0
1.40789                -0.125388       -16.72898        -53.00062        34.78729             -200               0             -200               0
1.41447               -0.1286702       -16.87684        -52.79403        31.43086             -200               0             -200               0
1.42105               -0.1320439       -17.02654        -52.58816        28.09955             -200               0             -200               0
1.42763               -0.1355181       -17.17812        -52.38249        24.79233             -200               0             -200               0
1.43421               -0.1391004        -17.3316        -52.17653        21.50782             -200               0             -200               0
1.44079               -0.1427998         -17.487        -51.96983        18.24432             -200               0             -200               0
1.44737               -0.1466227       -17.64433        -51.76198        14.99981             -200               0             -200               0
1.45395               -0.1505761       -17.80362         -51.5526        11.77204             -200               0             -200               0
1.46053               -0.1546668       -17.96487        -51.34136        8.558488             -200               0             -200               0
1.46711                -0.158901       -18.12809        -51.12798        5.356459             -200               0             -200               0
1.47368               -0.1632828       -18.29329        -50.91226         2.16311             -200               0             -200               0
1.48026               -0.1678184       -18.46047        -50.69403         -1.0245             -200               0             -200               0
1.48684               -0.1725094       -18.62964        -50.47319       -4.209353             -200               0             -200               0
1.49342               -0.1773601       -18.80081        -50.24969       -7.394426             -200               0             -200               0
1.5                   -0.1823722         -18.974        -50.02356       -10.58263             -200               0             -200               0
1.50658               -0.1875474       -19.14923        -49.79485       -13.77678             -200               0             -200               0
1.51316               -0.1928869       -19.32652        -49.56369        -16.9795             -200               0             -200               0
1.51974                -0.198391       -19.50589        -49.33025       -20.19328             -200               0             -200               0
1.52632               -0.2040614       -19.68739        -49.09473       -23.42031             -200               0             -200               0
1.53289                -0.209897       -19.87106        -48.85737       -26.66257             -200               0             -200               0
1.53947               -0.2158982       -20.05696        -48.61844       -29.92176             -200               0             -200               0
1.54605               -0.2220651       -20.24512        -48.37824       -33.19926             -200               0             -200               0
1.55263               -0.2284022       -20.43565        -48.13707       -36.49617             -200               0             -200               0
1.55921               -0.2349074       -20.62859        -47.89524       -39.81329             -200               0             -200               0
1.56579               -0.2415845       -20.82405        -47.65307       -43.15112             -200               0             -200               0
1.57237                -0.248437       -21.02209        -47.41089       -46.50989             -200               0             -200               0
1.57895               -0.2554699       -21.22284        -47.16899       -49.88953             -200               0             -200               0
1.58553               -0.2626879       -21.42639        -46.92766       -53.28975             -200               0             -200               0
1.59211               -0.2700996       -21.63284         -46.6872       -56.71001             -200               0             -200               0
1.59868               -0.2777121       -21.84232        -46.44784       -60.14956             -200               0             -200               0
1.60526               -0.2855379       -22.05492        -46.20984       -63.60746             -200               0             -200               0
1.61184               -0.2935874       -22.27078        -45.97339       -67.08262             -200               0             -200               0
1.61842                -0.301874          -22.49        -45.73868       -70.57381             -200               0             -200               0
1.625                 -0.3104143       -22.71269        -45.50587       -74.07967             -200               0             -200               0
1.63158                -0.319225       -22.93898        -45.27508       -77.59876             -200               0             -200               0
1.63816               -0.3283233       -23.16897        -45.04639       -81.12957             -200               0             -200               0
1.64474               -0.3377293       -23.40277        -44.81988       -84.67054             -200               0             -200               0
1.65132               -0.3474664       -23.64047        -44.59558       -88.22009             -200               0             -200               0
1.65789               -0.3575536       -23.88218        -44.37349       -91.77665             -200               0             -200               0
1.66447                -0.368017       -24.12797        -44.15359       -95.33865             -200               0             -200               0
1.67105               -0.3788804       -24.37793        -43.93582       -98.90457             -200               0             -200               0
1.67763               -0.3901686       -24.63213        -43.72009       -102.4729             -200               0             -200               0
1.68421               -0.4019078       -24.89064        -43.50631       -106.0423             -200               0             -200               0
1.69079               -0.4141244       -25.15352        -43.29432       -109.6115             -200               0             -200               0
1.69737               -0.4268446       -25.42082        -43.08398       -113.1791             -200               0             -200               0
1.70395               -0.4400955       -25.69259        -42.87511       -116.7443             -200               0             -200               0
1.71053               -0.4539039       -25.96887        -42.66749        -120.306             -200               0             -200               0
1.71711               -0.4682957        -26.2497        -42.46091       -123.8635             -200               0             -200               0
1.72368               -0.4832995       -26.53512        -42.25514       -127.4162             -200               0             -200               0
1.73026               -0.4989405       -26.82515        -42.04992       -130.9636             -200               0             -200               0
1.73684               -0.5152441       -27.11983        -41.84501       -134.5055             -200               0             -200               0
1.74342                 -0.53224       -27.41918        -41.64012       -138.0419             -200               0             -200               0
1.75                  -0.5499507       -27.72325          -41.435       -141.5729             -200               0             -200               0
1.75658               -0.5684057       -28.03205        -41.22938        -145.099             -200               0             -200               0
1.76316               -0.5876297       -28.34564        -41.02299       -148.6208             -200               0             -200               0
1.76974               -0.6076508       -28.66405        -40.81558       -152.1389             -200               0             -200               0
1.77632               -0.6284954       -28.98734         -40.6069       -155.6546             -200               0             -200               0
1.78289               -0.6501917       -29.31553        -40.39672       -159.1688             -200               0             -200               0
1.78947               -0.6727692       -29.64871        -40.18483       -162.6832             -200               0             -200               0
1.79605               -0.6962585       -29.98694        -39.97105       -166.1991             -200               0             -200               0
1.80263               -0.7206902       -30.33028         -39.7552       -169.7183             -200               0             -200               0
1.80921               -0.7460991       -30.67881        -39.53715       -173.2428             -200               0             -200               0
1.81579                 -0.77252       -31.03261         -39.3168       -176.7743             -200               0             -200               0
1.82237                -0.799991       -31.39177        -39.09408         179.685             -200               0             -200               0
1.82895               -0.8285515       -31.75637        -38.86895         176.133             -200               0             -200               0
1.83553               -0.8582453       -32.12652         -38.6414        172.5677             -200               0             -200               0
1.84211               -0.8891188       -32.50231        -38.41146        168.9868             -200               0             -200               0
1.84868               -0.9212212       -32.88383         -38.1792        165.3884             -200               0             -200               0
