! TOUCHSTONE file generated by CST MICROWAVE STUDIO
! Date and time: Tue Mar 18 00:02:07 2025
! Project name: oblique.cst
! Parameters = {Tilt=40; Fracture=1; B=10; D=160; F=5; Feed=2.85625; L=100; M=10; R=0.384908; S=2; Theta=180; length=57.125; wave=114.25}
! Header version: 2024
! Port assignment regex: !\s*Touchstone port\s*([0-9]+)\s*=\s*(CST MWS port|CST DES external port|CST DES block port)\s*(.+)\s* \(\"(.*)\"\)(\s*mode\s*([0-9]+))?.*
! Touchstone port assignment:
! Touchstone port 1 = CST MWS port 1 ("")
! Touchstone port 2 = CST MWS port 2 ("")
# GHz S DB R 50
1                    -0.01891307       -9.783476        -71.00529       -124.6315             -200               0             -200               0
1.00658              -0.01962003       -9.872116        -70.40084       -128.8812             -200               0             -200               0
1.01316              -0.02037717       -9.961215         -69.8526       -133.2492             -200               0             -200               0
1.01974              -0.02118178       -10.05074         -69.3561       -137.7022             -200               0             -200               0
1.02632               -0.0220301       -10.14068        -68.90753       -142.2136             -200               0             -200               0
1.03289              -0.02291814         -10.231        -68.50374       -146.7615             -200               0             -200               0
1.03947              -0.02383875        -10.3217        -68.14206       -151.3273             -200               0             -200               0
1.04605              -0.02478598       -10.41277        -67.82025       -155.8947             -200               0             -200               0
1.05263              -0.02575432        -10.5042        -67.53646       -160.4492             -200               0             -200               0
1.05921              -0.02673584       -10.59602        -67.28912        -164.977             -200               0             -200               0
1.06579              -0.02772445       -10.68824        -67.07692        -169.465             -200               0             -200               0
1.07237              -0.02871381       -10.78089        -66.89877          -173.9             -200               0             -200               0
1.07895              -0.02969788       -10.87399        -66.75375       -178.2688             -200               0             -200               0
1.08553              -0.03067189       -10.96761        -66.64107        177.4428             -200               0             -200               0
1.09211              -0.03163034       -11.06177        -66.56002        173.2496             -200               0             -200               0
1.09868              -0.03257061       -11.15655        -66.50994        169.1679             -200               0             -200               0
1.10526              -0.03349103       -11.25199        -66.49014        165.2158             -200               0             -200               0
1.11184              -0.03438969       -11.34816        -66.49985        161.4132             -200               0             -200               0
1.11842              -0.03526677       -11.44512        -66.53811        157.7825             -200               0             -200               0
1.125                -0.03612438       -11.54294        -66.60369        154.3489             -200               0             -200               0
1.13158              -0.03696464       -11.64169        -66.69486        151.1405             -200               0             -200               0
1.13816              -0.03779335       -11.74142        -66.80928        148.1885             -200               0             -200               0
1.14474              -0.03861437       -11.84219        -66.94368         145.527             -200               0             -200               0
1.15132              -0.03943466       -11.94405        -67.09358        143.1926             -200               0             -200               0
1.15789              -0.04026195       -12.04706        -67.25292        141.2222             -200               0             -200               0
1.16447              -0.04110372       -12.15124         -67.4137        139.6509             -200               0             -200               0
1.17105              -0.04197115       -12.25665        -67.56566        138.5076             -200               0             -200               0
1.17763              -0.04287065       -12.36328        -67.69617        137.8089             -200               0             -200               0
1.18421              -0.04381394       -12.47117         -67.7905        137.5512             -200               0             -200               0
1.19079               -0.0448095       -12.58032        -67.83273        137.7031             -200               0             -200               0
1.19737              -0.04586662       -12.69073        -67.80734        138.1993             -200               0             -200               0
1.20395              -0.04699482       -12.80238         -67.7014        138.9397             -200               0             -200               0
1.21053              -0.04820129       -12.91525        -67.50689        139.7967             -200               0             -200               0
1.21711              -0.04949447       -13.02933        -67.22224        140.6297             -200               0             -200               0
1.22368              -0.05087996       -13.14458        -66.85269         141.304             -200               0             -200               0
1.23026              -0.05236207       -13.26096        -66.40908        141.7077             -200               0             -200               0
1.23684              -0.05394496       -13.37845        -65.90575        141.7618             -200               0             -200               0
1.24342              -0.05563203       -13.49698        -65.35824        141.4224             -200               0             -200               0
1.25                 -0.05742298       -13.61654         -64.7814        140.6763             -200               0             -200               0
1.25658              -0.05931702       -13.73707        -64.18825        139.5335             -200               0             -200               0
1.26316              -0.06131472       -13.85855        -63.58943        138.0191             -200               0             -200               0
1.26974              -0.06341135       -13.98093        -62.99325        136.1665             -200               0             -200               0
1.27632              -0.06560342       -14.10421        -62.40589        134.0126             -200               0             -200               0
1.28289              -0.06788531       -14.22835        -61.83178        131.5946             -200               0             -200               0
1.28947              -0.07025183       -14.35335        -61.27395        128.9476             -200               0             -200               0
1.29605               -0.0726955        -14.4792        -60.73437        126.1043             -200               0             -200               0
1.30263              -0.07521099       -14.60593         -60.2142        123.0939             -200               0             -200               0
1.30921              -0.07778945       -14.73354        -59.71401        119.9427             -200               0             -200               0
1.31579              -0.08042517       -14.86207        -59.23395        116.6739             -200               0             -200               0
1.32237              -0.08311157       -14.99156        -58.77385         113.308             -200               0             -200               0
1.32895              -0.08584255       -15.12206        -58.33333        109.8633             -200               0             -200               0
1.33553              -0.08861378       -15.25362        -57.91184        106.3556             -200               0             -200               0
1.34211              -0.09142003       -15.38632        -57.50874        102.7994             -200               0             -200               0
1.34868              -0.09426039       -15.52022        -57.12329        99.20714             -200               0             -200               0
1.35526              -0.09713206       -15.65541         -56.7547        95.59021             -200               0             -200               0
1.36184               -0.1000359       -15.79197        -56.40214        91.95872             -200               0             -200               0
1.36842               -0.1029746       -15.92999        -56.06475        88.32175             -200               0             -200               0
1.375                 -0.1059508       -16.06954        -55.74161         84.6875             -200               0             -200               0
1.38158               -0.1089707       -16.21074        -55.43183        81.06332             -200               0             -200               0
1.38816               -0.1120409       -16.35364        -55.13444        77.45585             -200               0             -200               0
1.39474               -0.1151692       -16.49834        -54.84848        73.87104             -200               0             -200               0
1.40132                -0.118366        -16.6449        -54.57296        70.31415             -200               0             -200               0
1.40789               -0.1216421       -16.79339        -54.30686        66.78985             -200               0             -200               0
1.41447               -0.1250103       -16.94387        -54.04913        63.30213             -200               0             -200               0
1.42105               -0.1284832       -17.09638        -53.79871        59.85437             -200               0             -200               0
1.42763               -0.1320743       -17.25097        -53.55451        56.44926             -200               0             -200               0
1.43421               -0.1357963       -17.40765        -53.31543        53.08882             -200               0             -200               0
1.44079               -0.1396648       -17.56646        -53.08035        49.77436             -200               0             -200               0
1.44737               -0.1436915       -17.72739        -52.84816        46.50642             -200               0             -200               0
1.45395               -0.1478898       -17.89044        -52.61776        43.28478             -200               0             -200               0
1.46053               -0.1522728       -18.05559        -52.38804        40.10844             -200               0             -200               0
1.46711               -0.1568496       -18.22284        -52.15795        36.97558             -200               0             -200               0
1.47368               -0.1616314       -18.39214        -51.92649         33.8836             -200               0             -200               0
1.48026               -0.1666267       -18.56348         -51.6927        30.82913             -200               0             -200               0
1.48684               -0.1718412        -18.7368        -51.45571        27.80806             -200               0             -200               0
1.49342               -0.1772807       -18.91209        -51.21477        24.81566             -200               0             -200               0
1.5                   -0.1829485       -19.08929        -50.96921        21.84659             -200               0             -200               0
1.50658               -0.1888466       -19.26839         -50.7185        18.89506             -200               0             -200               0
1.51316                -0.194975       -19.44935        -50.46223        15.95498             -200               0             -200               0
1.51974               -0.2013328       -19.63216        -50.20013        13.02002             -200               0             -200               0
1.52632               -0.2079173       -19.81679         -49.9321        10.08385             -200               0             -200               0
1.53289               -0.2147241       -20.00325        -49.65813        7.140196             -200               0             -200               0
1.53947               -0.2217498       -20.19155        -49.37837        4.183048             -200               0             -200               0
1.54605                -0.228989       -20.38171         -49.0931        1.206747             -200               0             -200               0
1.55263               -0.2364358       -20.57377        -48.80269       -1.793897             -200               0             -200               0
1.55921               -0.2440848       -20.76777        -48.50759       -4.823513             -200               0             -200               0
1.56579               -0.2519318       -20.96379        -48.20835       -7.886115             -200               0             -200               0
1.57237               -0.2599719       -21.16191        -47.90557       -10.98506             -200               0             -200               0
1.57895               -0.2682027       -21.36221        -47.59988       -14.12301             -200               0             -200               0
1.58553               -0.2766221       -21.56482        -47.29194       -17.30198             -200               0             -200               0
1.59211               -0.2852301       -21.76984        -46.98241       -20.52333             -200               0             -200               0
1.59868                 -0.29403       -21.97741        -46.67195        -23.7878             -200               0             -200               0
1.60526               -0.3030251       -22.18766        -46.36119       -27.09556             -200               0             -200               0
1.61184               -0.3122224       -22.40074        -46.05073       -30.44628             -200               0             -200               0
1.61842                -0.321632        -22.6168        -45.74116       -33.83918             -200               0             -200               0
1.625                 -0.3312657       -22.83598          -45.433       -37.27306             -200               0             -200               0
1.63158               -0.3411394       -23.05845        -45.12672       -40.74642             -200               0             -200               0
1.63816               -0.3512697       -23.28434        -44.82277       -44.25747             -200               0             -200               0
1.64474               -0.3616782       -23.51381        -44.52152       -47.80419             -200               0             -200               0
1.65132               -0.3723879       -23.74697         -44.2233       -51.38439             -200               0             -200               0
1.65789               -0.3834222       -23.98396        -43.92839       -54.99577             -200               0             -200               0
1.66447               -0.3948102       -24.22488        -43.63704       -58.63592             -200               0             -200               0
1.67105               -0.4065806       -24.46985        -43.34941       -62.30241             -200               0             -200               0
1.67763               -0.4187631       -24.71893        -43.06565       -65.99277             -200               0             -200               0
1.68421               -0.4313891        -24.9722        -42.78586       -69.70455             -200               0             -200               0
1.69079                -0.444492       -25.22971        -42.51009       -73.43533             -200               0             -200               0
1.69737               -0.4581036       -25.49149        -42.23836       -77.18275             -200               0             -200               0
1.70395               -0.4722566       -25.75757        -41.97064       -80.94453             -200               0             -200               0
1.71053               -0.4869823       -26.02796         -41.7069       -84.71849             -200               0             -200               0
1.71711               -0.5023117       -26.30263        -41.44703       -88.50253             -200               0             -200               0
1.72368               -0.5182759       -26.58158        -41.19095       -92.29471             -200               0             -200               0
1.73026               -0.5349026       -26.86477        -40.93849       -96.09319             -200               0             -200               0
1.73684               -0.5522189       -27.15216        -40.68952       -99.89629             -200               0             -200               0
1.74342               -0.5702499       -27.44372        -40.44383       -103.7025             -200               0             -200               0
1.75                  -0.5890192       -27.73939        -40.20124       -107.5104             -200               0             -200               0
1.75658               -0.6085477       -28.03914        -39.96153       -111.3188             -200               0             -200               0
1.76316               -0.6288557       -28.34291        -39.72446       -115.1268             -200               0             -200               0
1.76974               -0.6499592       -28.65068        -39.48979       -118.9333             -200               0             -200               0
1.77632                -0.671876       -28.96241        -39.25728       -122.7379             -200               0             -200               0
1.78289               -0.6946199        -29.2781        -39.02666         -126.54             -200               0             -200               0
1.78947               -0.7182042       -29.59774        -38.79768       -130.3394             -200               0             -200               0
1.79605               -0.7426421       -29.92135        -38.57007       -134.1359             -200               0             -200               0
1.80263               -0.7679469       -30.24897        -38.34357       -137.9298             -200               0             -200               0
1.80921               -0.7941314       -30.58066        -38.11794       -141.7211             -200               0             -200               0
1.81579               -0.8212099       -30.91648        -37.89294       -145.5106             -200               0             -200               0
1.82237                -0.849198       -31.25656        -37.66831       -149.2987             -200               0             -200               0
1.82895               -0.8781133         -31.601        -37.44386       -153.0864             -200               0             -200               0
1.83553               -0.9079749       -31.94995        -37.21937       -156.8746             -200               0             -200               0
1.84211               -0.9388087       -32.30357        -36.99466       -160.6644             -200               0             -200               0
1.84868               -0.9706401       -32.66205        -36.76957       -164.4571             -200               0             -200               0
