! TOUCHSTONE file generated by CST MICROWAVE STUDIO
! Date and time: Tue Mar 18 00:01:02 2025
! Project name: oblique.cst
! Parameters = {Tilt=30; Fracture=1; B=10; D=160; F=25; Feed=2.85625; L=100; M=30; R=0.384908; S=1; Theta=90; length=57.125; wave=114.25}
! Header version: 2024
! Port assignment regex: !\s*Touchstone port\s*([0-9]+)\s*=\s*(CST MWS port|CST DES external port|CST DES block port)\s*(.+)\s* \(\"(.*)\"\)(\s*mode\s*([0-9]+))?.*
! Touchstone port assignment:
! Touchstone port 1 = CST MWS port 1 ("")
! Touchstone port 2 = CST MWS port 2 ("")
# GHz S DB R 50
1                    -0.02175421        -9.77589         -65.0403        164.9686             -200               0             -200               0
1.0066               -0.02226617        -9.86176        -65.12983         158.809             -200               0             -200               0
1.0132                -0.0227475       -9.948396        -65.25821        152.7548             -200               0             -200               0
1.0198               -0.02320442       -10.03586        -65.42778         146.815             -200               0             -200               0
1.0264               -0.02364275       -10.12421        -65.64139        141.0015             -200               0             -200               0
1.033                -0.02407098       -10.21349        -65.90244        135.3308             -200               0             -200               0
1.0396               -0.02449792       -10.30375        -66.21504        129.8244             -200               0             -200               0
1.0462               -0.02493251       -10.39502        -66.58412        124.5115             -200               0             -200               0
1.05281               -0.0253851       -10.48732        -67.01559        119.4315             -200               0             -200               0
1.05941              -0.02586723       -10.58066        -67.51651        114.6382             -200               0             -200               0
1.06601               -0.0263882       -10.67505        -68.09523        110.2067             -200               0             -200               0
1.07261              -0.02695814       -10.77047        -68.76139        106.2435             -200               0             -200               0
1.07921               -0.0275864       -10.86691         -69.5255        102.9029             -200               0             -200               0
1.08581              -0.02828211       -10.96433         -70.3974        100.4126             -200               0             -200               0
1.09241              -0.02905308       -11.06271        -71.38203        99.11285             -200               0             -200               0
1.09901              -0.02990471         -11.162        -72.46842        99.50831             -200               0             -200               0
1.10561               -0.0308427       -11.26214        -73.60408        102.3007             -200               0             -200               0
1.11221              -0.03187069        -11.3631         -74.6464        108.2635             -200               0             -200               0
1.11881              -0.03299039       -11.46481        -75.31756        117.6238             -200               0             -200               0
1.12541               -0.0342015       -11.56722        -75.29726         128.965             -200               0             -200               0
1.13201               -0.0355041       -11.67028        -74.51517        139.3783             -200               0             -200               0
1.13861              -0.03689315       -11.77394        -73.23434        146.7303             -200               0             -200               0
1.14521              -0.03836595       -11.87815        -71.77237        150.7566             -200               0             -200               0
1.15182              -0.03991695       -11.98288        -70.31983        152.1383             -200               0             -200               0
1.15842              -0.04153744       -12.08809        -68.95564        151.6361             -200               0             -200               0
1.16502              -0.04322136       -12.19377        -67.70192        149.8286             -200               0             -200               0
1.17162              -0.04495915       -12.29991        -66.55759        147.1116             -200               0             -200               0
1.17822              -0.04674254       -12.40651         -65.5137        143.7504             -200               0             -200               0
1.18482              -0.04856174       -12.51358        -64.55948        139.9241             -200               0             -200               0
1.19142              -0.05040819       -12.62115        -63.68468        135.7563             -200               0             -200               0
1.19802              -0.05227289       -12.72926        -62.88021        131.3338             -200               0             -200               0
1.20462              -0.05414944       -12.83794         -62.1383        126.7194             -200               0             -200               0
1.21122              -0.05602864       -12.94726        -61.45236        121.9593             -200               0             -200               0
1.21782              -0.05790757       -13.05728        -60.81685        117.0886             -200               0             -200               0
1.22442              -0.05977999       -13.16807        -60.22707        112.1341             -200               0             -200               0
1.23102              -0.06164349       -13.27972        -59.67905        107.1169             -200               0             -200               0
1.23762              -0.06349857        -13.3923        -59.16942         102.054             -200               0             -200               0
1.24422              -0.06534428        -13.5059        -58.69527        96.95932             -200               0             -200               0
1.25083              -0.06718443       -13.62061        -58.25412         91.8443             -200               0             -200               0
1.25743              -0.06902315        -13.7365        -57.84382        86.71882             -200               0             -200               0
1.26403              -0.07086626       -13.85365         -57.4625        81.59143             -200               0             -200               0
1.27063              -0.07272267       -13.97214        -57.10853         76.4697             -200               0             -200               0
1.27723              -0.07460012       -14.09204        -56.78046        71.36047             -200               0             -200               0
1.28383              -0.07651072        -14.2134        -56.47702         66.2701             -200               0             -200               0
1.29043              -0.07846501       -14.33627        -56.19707        61.20455             -200               0             -200               0
1.29703              -0.08047483       -14.46067        -55.93959        56.16954             -200               0             -200               0
1.30363              -0.08255404       -14.58665        -55.70364        51.17069             -200               0             -200               0
1.31023              -0.08471399       -14.71421        -55.48838        46.21355             -200               0             -200               0
1.31683              -0.08696782       -14.84335        -55.29298        41.30369             -200               0             -200               0
1.32343               -0.0893278       -14.97406        -55.11671        36.44682             -200               0             -200               0
1.33003              -0.09180489       -15.10631         -54.9588        31.64877             -200               0             -200               0
1.33663              -0.09440851       -15.24008        -54.81854        26.91557             -200               0             -200               0
1.34323              -0.09714735       -15.37533        -54.69518        22.25348             -200               0             -200               0
1.34984               -0.1000298         -15.512        -54.58794        17.66905             -200               0             -200               0
1.35644               -0.1030599       -15.65006        -54.49602        13.16907             -200               0             -200               0
1.36304               -0.1062423       -15.78943        -54.41851        8.760639             -200               0             -200               0
1.36964               -0.1095774       -15.93008        -54.35443        4.451074             -200               0             -200               0
1.37624               -0.1130657       -16.07194         -54.3027       0.2479176             -200               0             -200               0
1.38284               -0.1167054       -16.21497        -54.26206       -3.841169             -200               0             -200               0
1.38944               -0.1204917       -16.35912        -54.23111       -7.808528             -200               0             -200               0
1.39604               -0.1244191       -16.50436        -54.20825       -11.64667             -200               0             -200               0
1.40264               -0.1284805       -16.65066        -54.19164        -15.3485             -200               0             -200               0
1.40924               -0.1326682       -16.79801        -54.17921       -18.90765             -200               0             -200               0
1.41584               -0.1369724       -16.94641        -54.16863        -22.3188             -200               0             -200               0
1.42244               -0.1413835       -17.09587        -54.15731       -25.57818             -200               0             -200               0
1.42904               -0.1458923       -17.24642        -54.14242       -28.68401             -200               0             -200               0
1.43564                -0.150488       -17.39811        -54.12091       -31.63713             -200               0             -200               0
1.44224               -0.1551624       -17.55099        -54.08958       -34.44144             -200               0             -200               0
1.44884               -0.1599061       -17.70514        -54.04517       -37.10448             -200               0             -200               0
1.45545               -0.1647113       -17.86064        -53.98449        -39.6377             -200               0             -200               0
1.46205                -0.169575       -18.01759        -53.90454       -42.05666             -200               0             -200               0
1.46865               -0.1744913        -18.1761        -53.80271       -44.38083             -200               0             -200               0
1.47525               -0.1794593       -18.33629        -53.67688       -46.63316             -200               0             -200               0
1.48185               -0.1844801       -18.49828        -53.52561       -48.83926             -200               0             -200               0
1.48845               -0.1895564       -18.66221        -53.34819        -51.0263             -200               0             -200               0
1.49505               -0.1946951        -18.8282        -53.14475       -53.22177             -200               0             -200               0
1.50165               -0.1999026       -18.99638        -52.91616       -55.45214             -200               0             -200               0
1.50825               -0.2051906       -19.16687        -52.66402       -57.74175             -200               0             -200               0
1.51485               -0.2105733        -19.3398        -52.39053       -60.11177             -200               0             -200               0
1.52145               -0.2160643       -19.51528        -52.09832        -62.5796             -200               0             -200               0
1.52805               -0.2216809       -19.69341         -51.7903       -65.15855             -200               0             -200               0
1.53465               -0.2274449       -19.87426        -51.46949       -67.85786             -200               0             -200               0
1.54125               -0.2333744       -20.05792        -51.13892       -70.68293             -200               0             -200               0
1.54785               -0.2394908       -20.24444        -50.80149       -73.63576             -200               0             -200               0
1.55446               -0.2458152       -20.43386        -50.45992       -76.71548             -200               0             -200               0
1.56106               -0.2523722       -20.62621        -50.11667       -79.91886             -200               0             -200               0
1.56766               -0.2591803       -20.82148        -49.77393       -83.24089             -200               0             -200               0
1.57426               -0.2662616       -21.01968        -49.43363       -86.67522             -200               0             -200               0
1.58086               -0.2736369       -21.22077        -49.09742        -90.2146             -200               0             -200               0
1.58746               -0.2813212       -21.42472        -48.76669       -93.85117             -200               0             -200               0
1.59406               -0.2893349       -21.63149        -48.44262       -97.57681             -200               0             -200               0
1.60066               -0.2976862       -21.84101        -48.12614       -101.3832             -200               0             -200               0
1.60726               -0.3063925       -22.05322        -47.81803       -105.2623             -200               0             -200               0
1.61386               -0.3154578       -22.26807         -47.5189       -109.2058             -200               0             -200               0
1.62046               -0.3248916       -22.48548        -47.22922        -113.206             -200               0             -200               0
1.62706                -0.334695       -22.70538        -46.94931       -117.2553             -200               0             -200               0
1.63366               -0.3448689       -22.92773        -46.67944       -121.3463             -200               0             -200               0
1.64026               -0.3554117       -23.15248        -46.41973       -125.4721             -200               0             -200               0
1.64686               -0.3663183        -23.3796        -46.17025        -129.626             -200               0             -200               0
1.65347               -0.3775841       -23.60907        -45.93099       -133.8013             -200               0             -200               0
1.66007               -0.3892005       -23.84089         -45.7019       -137.9921             -200               0             -200               0
1.66667               -0.4011583       -24.07509        -45.48283       -142.1922             -200               0             -200               0
1.67327               -0.4134462       -24.31172        -45.27361       -146.3959             -200               0             -200               0
1.67987               -0.4260549       -24.55084        -45.07402       -150.5977             -200               0             -200               0
1.68647               -0.4389737       -24.79255        -44.88376       -154.7923             -200               0             -200               0
1.69307               -0.4521951       -25.03699        -44.70251       -158.9745             -200               0             -200               0
1.69967               -0.4657096       -25.28428         -44.5299       -163.1393             -200               0             -200               0
1.70627               -0.4795135       -25.53461         -44.3655       -167.2818             -200               0             -200               0
1.71287                -0.493602       -25.78817        -44.20884       -171.3976             -200               0             -200               0
1.71947               -0.5079767       -26.04517        -44.05937        -175.482             -200               0             -200               0
1.72607               -0.5226411       -26.30585        -43.91651        -179.531             -200               0             -200               0
1.73267               -0.5376023       -26.57046        -43.77961        176.4595             -200               0             -200               0
1.73927               -0.5528738       -26.83925        -43.64797        172.4931             -200               0             -200               0
1.74587               -0.5684726       -27.11251        -43.52081        168.5732             -200               0             -200               0
1.75248               -0.5844199        -27.3905         -43.3973        164.7028             -200               0             -200               0
1.75908               -0.6007419        -27.6735        -43.27654        160.8845             -200               0             -200               0
1.76568                -0.617471       -27.96178        -43.15756        157.1202             -200               0             -200               0
1.77228                -0.634642        -28.2556        -43.03936        153.4114             -200               0             -200               0
1.77888               -0.6522969       -28.55522        -42.92086        149.7588             -200               0             -200               0
1.78548               -0.6704797       -28.86087        -42.80096        146.1624             -200               0             -200               0
1.79208               -0.6892408       -29.17279        -42.67852        142.6212             -200               0             -200               0
1.79868               -0.7086313       -29.49116         -42.5524        139.1335             -200               0             -200               0
1.80528               -0.7287057       -29.81618        -42.42147        135.6965             -200               0             -200               0
1.81188               -0.7495238       -30.14799        -42.28461        132.3064             -200               0             -200               0
1.81848               -0.7711445       -30.48673        -42.14078        128.9585             -200               0             -200               0
1.82508               -0.7936285       -30.83251        -41.98902        125.6469             -200               0             -200               0
1.83168               -0.8170383       -31.18542        -41.82846         122.365             -200               0             -200               0
1.83828               -0.8414364       -31.54551        -41.65838        119.1054             -200               0             -200               0
1.84488               -0.8668826       -31.91283        -41.47822        115.8598             -200               0             -200               0
1.85149               -0.8934414       -32.28741        -41.28758        112.6196             -200               0             -200               0
