! TOUCHSTONE file generated by CST MICROWAVE STUDIO
! Date and time: Tue Mar 18 00:01:22 2025
! Project name: oblique.cst
! Parameters = {Tilt=30; Fracture=1; B=12.5; D=160; F=5; Feed=2.85625; L=100; M=10; R=0.384908; S=1; Theta=90; length=57.125; wave=114.25}
! Header version: 2024
! Port assignment regex: !\s*Touchstone port\s*([0-9]+)\s*=\s*(CST MWS port|CST DES external port|CST DES block port)\s*(.+)\s* \(\"(.*)\"\)(\s*mode\s*([0-9]+))?.*
! Touchstone port assignment:
! Touchstone port 1 = CST MWS port 1 ("")
! Touchstone port 2 = CST MWS port 2 ("")
# GHz S DB R 50
1                    -0.01831591       -9.768041        -70.84764       -123.4791             -200               0             -200               0
1.00658              -0.01908731       -9.857163        -70.20362       -128.2016             -200               0             -200               0
1.01316              -0.01992675       -9.946659        -69.62338       -133.0151             -200               0             -200               0
1.01974              -0.02082954       -10.03648        -69.10086       -137.8918             -200               0             -200               0
1.02632              -0.02178772       -10.12659        -68.63115       -142.8097             -200               0             -200               0
1.03289              -0.02279405       -10.21695        -68.21028       -147.7512             -200               0             -200               0
1.03947              -0.02383809       -10.30753          -67.835       -152.7015             -200               0             -200               0
1.04605              -0.02491092       -10.39834        -67.50267       -157.6475             -200               0             -200               0
1.05263              -0.02600243       -10.48937        -67.21115       -162.5778             -200               0             -200               0
1.05921              -0.02710202       -10.58064        -66.95874       -167.4816             -200               0             -200               0
1.06579              -0.02819941       -10.67216        -66.74405       -172.3482             -200               0             -200               0
1.07237              -0.02928421       -10.76399        -66.56603       -177.1674             -200               0             -200               0
1.07895              -0.03034846       -10.85616        -66.42387        178.0719             -200               0             -200               0
1.08553              -0.03138329       -10.94874        -66.31701        173.3811             -200               0             -200               0
1.09211              -0.03238257        -11.0418        -66.24506        168.7727             -200               0             -200               0
1.09868                -0.033341       -11.13542        -66.20781        164.2607             -200               0             -200               0
1.10526               -0.0342551       -11.22967        -66.20516        159.8608             -200               0             -200               0
1.11184              -0.03512322       -11.32465         -66.2371         155.591             -200               0             -200               0
1.11842              -0.03594682       -11.42045        -66.30365         151.472             -200               0             -200               0
1.125                -0.03672784       -11.51715        -66.40479        147.5283             -200               0             -200               0
1.13158              -0.03746858       -11.61485        -66.54031        143.7882             -200               0             -200               0
1.13816              -0.03817832       -11.71363        -66.70973        140.2853             -200               0             -200               0
1.14474              -0.03886333       -11.81356          -66.912        137.0592             -200               0             -200               0
1.15132              -0.03953323       -11.91472         -67.1452        134.1559             -200               0             -200               0
1.15789              -0.04019944       -12.01716        -67.40612        131.6289             -200               0             -200               0
1.16447              -0.04087372       -12.12094        -67.68955        129.5386             -200               0             -200               0
1.17105              -0.04156859       -12.22609        -67.98753        127.9503             -200               0             -200               0
1.17763              -0.04229815       -12.33265        -68.28834        126.9306             -200               0             -200               0
1.18421               -0.0430748       -12.44061        -68.57553        126.5374             -200               0             -200               0
1.19079              -0.04391236       -12.54998        -68.82733        126.8068             -200               0             -200               0
1.19737              -0.04482354       -12.66074        -69.01713        127.7321             -200               0             -200               0
1.20395              -0.04582047       -12.77288        -69.11592        129.2427             -200               0             -200               0
1.21053              -0.04691452       -12.88635        -69.09708        131.1906             -200               0             -200               0
1.21711               -0.0481144        -13.0011        -68.94254        133.3569             -200               0             -200               0
1.22368              -0.04942863       -13.11708        -68.64799        135.4849             -200               0             -200               0
1.23026              -0.05086316       -13.23424        -68.22417          137.33             -200               0             -200               0
1.23684              -0.05242172       -13.35251        -67.69349        138.7036             -200               0             -200               0
1.24342              -0.05410807       -13.47182        -67.08402        139.4944             -200               0             -200               0
1.25                 -0.05592136        -13.5921        -66.42371        139.6641             -200               0             -200               0
1.25658              -0.05785949        -13.7133        -65.73666        139.2289             -200               0             -200               0
1.26316              -0.05991925       -13.83535        -65.04173        138.2377             -200               0             -200               0
1.26974              -0.06209506       -13.95821        -64.35262        136.7542             -200               0             -200               0
1.27632              -0.06438003       -14.08183        -63.67869         134.846             -200               0             -200               0
1.28289              -0.06676472       -14.20619          -63.026         132.577             -200               0             -200               0
1.28947              -0.06924027       -14.33126        -62.39818        130.0053             -200               0             -200               0
1.29605              -0.07179727       -14.45704         -61.7972        127.1817             -200               0             -200               0
1.30263              -0.07442425       -14.58354        -61.22386          124.15             -200               0             -200               0
1.30921              -0.07710789       -14.71078         -60.6782        120.9478             -200               0             -200               0
1.31579               -0.0798418        -14.8388        -60.15981         117.607             -200               0             -200               0
1.32237               -0.0826141       -14.96765        -59.66791        114.1551             -200               0             -200               0
1.32895              -0.08541496        -15.0974        -59.20157        110.6154             -200               0             -200               0
1.33553              -0.08823663       -15.22813        -58.75973        107.0083             -200               0             -200               0
1.34211              -0.09107549       -15.35993        -58.34128        103.3515             -200               0             -200               0
1.34868              -0.09392556       -15.49289        -57.94506        99.66039             -200               0             -200               0
1.35526              -0.09678604       -15.62712        -57.56992        95.94862             -200               0             -200               0
1.36184              -0.09965548       -15.76273        -57.21467        92.22838             -200               0             -200               0
1.36842               -0.1025376       -15.89983        -56.87815        88.51058             -200               0             -200               0
1.375                 -0.1054365       -16.03854        -56.55918        84.80507             -200               0             -200               0
1.38158               -0.1083605       -16.17897        -56.25657         81.1208             -200               0             -200               0
1.38816               -0.1113171       -16.32122         -55.9691        77.46589             -200               0             -200               0
1.39474               -0.1143188       -16.46538        -55.69556        73.84776             -200               0             -200               0
1.40132               -0.1173797       -16.61156        -55.43468        70.27308             -200               0             -200               0
1.40789               -0.1205133       -16.75981        -55.18517        66.74788             -200               0             -200               0
1.41447               -0.1237376       -16.91022        -54.94568        63.27749             -200               0             -200               0
1.42105               -0.1270683       -17.06282        -54.71484        59.86647             -200               0             -200               0
1.42763               -0.1305234       -17.21767        -54.49121        56.51865             -200               0             -200               0
1.43421               -0.1341211       -17.37476        -54.27332        53.23697             -200               0             -200               0
1.44079               -0.1378789       -17.53411        -54.05965        50.02346             -200               0             -200               0
1.44737                -0.141814       -17.69571        -53.84864        46.87908             -200               0             -200               0
1.45395                -0.145943       -17.85954        -53.63874        43.80372             -200               0             -200               0
1.46053               -0.1502811       -18.02556        -53.42838        40.79606             -200               0             -200               0
1.46711               -0.1548414       -18.19373        -53.21603        37.85351             -200               0             -200               0
1.47368               -0.1596334       -18.36398        -53.00018        34.97221             -200               0             -200               0
1.48026               -0.1646685       -18.53627        -52.77945          32.147             -200               0             -200               0
1.48684               -0.1699537       -18.71051        -52.55254        29.37149             -200               0             -200               0
1.49342               -0.1754906       -18.88665        -52.31831        26.63815             -200               0             -200               0
1.5                   -0.1812847       -19.06462        -52.07582        23.93846             -200               0             -200               0
1.50658               -0.1873354       -19.24436        -51.82432        21.26312             -200               0             -200               0
1.51316               -0.1936372       -19.42581        -51.56327        18.60228             -200               0             -200               0
1.51974               -0.2001898       -19.60895         -51.2924        15.94585             -200               0             -200               0
1.52632               -0.2069824       -19.79372        -51.01166         13.2837             -200               0             -200               0
1.53289               -0.2140105       -19.98012        -50.72125        10.60606             -200               0             -200               0
1.53947                -0.221264       -20.16815        -50.42158        7.903671             -200               0             -200               0
1.54605               -0.2287319       -20.35782        -50.11324        5.168089             -200               0             -200               0
1.55263               -0.2364059       -20.54917          -49.797        2.391825             -200               0             -200               0
1.55921                -0.244275       -20.74227        -49.47374      -0.4315174             -200               0             -200               0
1.56579               -0.2523298       -20.93717        -49.14446        -3.30717             -200               0             -200               0
1.57237               -0.2605623       -21.13399         -48.8102       -6.239172             -200               0             -200               0
1.57895               -0.2689656       -21.33283        -48.47202       -9.230408             -200               0             -200               0
1.58553               -0.2775345       -21.53383        -48.13099       -12.28265             -200               0             -200               0
1.59211               -0.2862687       -21.73712        -47.78816       -15.39666             -200               0             -200               0
1.59868               -0.2951647       -21.94287         -47.4445       -18.57228             -200               0             -200               0
1.60526               -0.3042295       -22.15124        -47.10096       -21.80857             -200               0             -200               0
1.61184               -0.3134687       -22.36242        -46.75839       -25.10391             -200               0             -200               0
1.61842                -0.322892       -22.57657        -46.41757       -28.45612             -200               0             -200               0
1.625                 -0.3325135       -22.79388        -46.07919       -31.86257             -200               0             -200               0
1.63158               -0.3423495       -23.01452        -45.74387       -35.32027             -200               0             -200               0
1.63816               -0.3524225       -23.23868        -45.41212       -38.82601             -200               0             -200               0
1.64474               -0.3627541       -23.46649         -45.0844       -42.37635             -200               0             -200               0
1.65132               -0.3733733       -23.69813        -44.76108       -45.96776             -200               0             -200               0
1.65789               -0.3843075       -23.93371        -44.44244       -49.59668             -200               0             -200               0
1.66447               -0.3955906       -24.17336        -44.12873        -53.2595             -200               0             -200               0
1.67105                -0.407255       -24.41717        -43.82009       -56.95269             -200               0             -200               0
1.67763               -0.4193362       -24.66523        -43.51665       -60.67276             -200               0             -200               0
1.68421               -0.4318707       -24.91759        -43.21843       -64.41632             -200               0             -200               0
1.69079               -0.4448946       -25.17428        -42.92546       -68.18012             -200               0             -200               0
1.69737               -0.4584438       -25.43531        -42.63768       -71.96102             -200               0             -200               0
1.70395               -0.4725549       -25.70068          -42.355       -75.75606             -200               0             -200               0
1.71053                 -0.48726       -25.97037         -42.0773       -79.56242             -200               0             -200               0
1.71711               -0.5025946       -26.24432        -41.80442       -83.37748             -200               0             -200               0
1.72368               -0.5185882       -26.52248        -41.53617       -87.19881             -200               0             -200               0
1.73026               -0.5352689       -26.80478        -41.27233       -91.02415             -200               0             -200               0
1.73684               -0.5526632       -27.09114        -41.01264       -94.85148             -200               0             -200               0
1.74342                -0.570794       -27.38149        -40.75685       -98.67897             -200               0             -200               0
1.75                  -0.5896803       -27.67572        -40.50467        -102.505             -200               0             -200               0
1.75658                 -0.60934       -27.97377        -40.25579       -106.3283             -200               0             -200               0
1.76316               -0.6297861       -28.27556        -40.00989       -110.1475             -200               0             -200               0
1.76974               -0.6510299       -28.58102        -39.76664       -113.9619             -200               0             -200               0
1.77632               -0.6730818       -28.89012        -39.52572       -117.7708             -200               0             -200               0
1.78289               -0.6959489       -29.20282        -39.28677       -121.5738             -200               0             -200               0
1.78947               -0.7196363        -29.5191        -39.04946       -125.3706             -200               0             -200               0
1.79605               -0.7441478       -29.83901        -38.81345       -129.1613             -200               0             -200               0
1.80263               -0.7694884       -30.16257         -38.5784       -132.9464             -200               0             -200               0
1.80921               -0.7956629       -30.48985        -38.34401       -136.7262             -200               0             -200               0
1.81579               -0.8226768       -30.82097        -38.10995       -140.5017             -200               0             -200               0
1.82237               -0.8505375       -31.15606        -37.87594       -144.2737             -200               0             -200               0
1.82895               -0.8792552       -31.49526        -37.64172       -148.0435             -200               0             -200               0
1.83553               -0.9088435        -31.8388        -37.40702       -151.8125             -200               0             -200               0
1.84211               -0.9393209       -32.18686        -37.17164       -155.5823             -200               0             -200               0
1.84868               -0.9707097       -32.53971        -36.93539       -159.3545             -200               0             -200               0
