! TOUCHSTONE file generated by CST MICROWAVE STUDIO
! Date and time: Tue Mar 18 00:02:53 2025
! Project name: oblique.cst
! Parameters = {Tilt=40; Fracture=1; B=12.5; D=160; F=15; Feed=2.85625; L=100; M=10; R=0.384908; S=1; Theta=270; length=57.125; wave=114.25}
! Header version: 2024
! Port assignment regex: !\s*Touchstone port\s*([0-9]+)\s*=\s*(CST MWS port|CST DES external port|CST DES block port)\s*(.+)\s* \(\"(.*)\"\)(\s*mode\s*([0-9]+))?.*
! Touchstone port assignment:
! Touchstone port 1 = CST MWS port 1 ("")
! Touchstone port 2 = CST MWS port 2 ("")
# GHz S DB R 50
1                    -0.01906175       -9.790696        -68.56935       -156.8874             -200               0             -200               0
1.0066               -0.01986574       -9.879311         -68.5401       -161.6254             -200               0             -200               0
1.0132               -0.02070606       -9.968293        -68.54723       -166.2406             -200               0             -200               0
1.0198               -0.02157798       -10.05763        -68.59125       -170.7155             -200               0             -200               0
1.0264               -0.02247464       -10.14733         -68.6728       -175.0285             -200               0             -200               0
1.033                -0.02339192       -10.23738        -68.79253        -179.154             -200               0             -200               0
1.0396               -0.02432086        -10.3278        -68.95106        176.9396             -200               0             -200               0
1.0462               -0.02525531       -10.41862        -69.14876        173.2907             -200               0             -200               0
1.05281              -0.02619215       -10.50986        -69.38553        169.9463             -200               0             -200               0
1.05941              -0.02712204       -10.60155        -69.66038        166.9636             -200               0             -200               0
1.06601              -0.02804353       -10.69375        -69.97085        164.4118             -200               0             -200               0
1.07261              -0.02895058       -10.78649        -70.31206        162.3732             -200               0             -200               0
1.07921              -0.02984276       -10.87984        -70.67539        160.9422             -200               0             -200               0
1.08581                -0.030718       -10.97385        -71.04669        160.2206             -200               0             -200               0
1.09241              -0.03157557       -11.06858        -71.40424        160.3054             -200               0             -200               0
1.09901              -0.03241635        -11.1641        -71.71704        161.2643             -200               0             -200               0
1.10561              -0.03324316       -11.26045         -71.9451        163.0976             -200               0             -200               0
1.11221              -0.03406002        -11.3577        -72.04378        165.6941             -200               0             -200               0
1.11881               -0.0348704       -11.45591        -71.97361        168.8044             -200               0             -200               0
1.12541              -0.03568105       -11.55511        -71.71297        172.0642             -200               0             -200               0
1.13201               -0.0365004       -11.65537        -71.26643        175.0755             -200               0             -200               0
1.13861              -0.03733448       -11.75671        -70.66284        177.5074             -200               0             -200               0
1.14521              -0.03819113       -11.85917         -69.9445        179.1595             -200               0             -200               0
1.15182              -0.03908042       -11.96276        -69.15491        179.9644             -200               0             -200               0
1.15842              -0.04000963        -12.0675        -68.33079        179.9514             -200               0             -200               0
1.16502              -0.04098947       -12.17339        -67.49938        179.2022             -200               0             -200               0
1.17162              -0.04202827       -12.28043        -66.67914        177.8183             -200               0             -200               0
1.17822              -0.04313355       -12.38861        -65.88162        175.9005             -200               0             -200               0
1.18482              -0.04431214        -12.4979        -65.11351        173.5398             -200               0             -200               0
1.19142              -0.04557098       -12.60828        -64.37823        170.8149             -200               0             -200               0
1.19802              -0.04691566       -12.71973        -63.67715        167.7914             -200               0             -200               0
1.20462              -0.04835162        -12.8322        -63.01032        164.5238             -200               0             -200               0
1.21122              -0.04987994       -12.94565        -62.37704         161.057             -200               0             -200               0
1.21782              -0.05150345       -13.06005         -61.7762        157.4282             -200               0             -200               0
1.22442              -0.05322191       -13.17536        -61.20644        153.6679             -200               0             -200               0
1.23102              -0.05503449       -13.29154        -60.66634         149.802             -200               0             -200               0
1.23762              -0.05693904       -13.40855        -60.15443        145.8518             -200               0             -200               0
1.24422              -0.05893141       -13.52637        -59.66929        141.8357             -200               0             -200               0
1.25083              -0.06100708       -13.64497        -59.20955        137.7695             -200               0             -200               0
1.25743              -0.06316177       -13.76435        -58.77392        133.6666             -200               0             -200               0
1.26403              -0.06538724       -13.88448        -58.36113        129.5391             -200               0             -200               0
1.27063              -0.06767806       -14.00538        -57.97001        125.3973             -200               0             -200               0
1.27723              -0.07002669       -14.12706        -57.59944        121.2509             -200               0             -200               0
1.28383              -0.07242642       -14.24954        -57.24833        117.1082             -200               0             -200               0
1.29043              -0.07487121       -14.37285        -56.91565        112.9772             -200               0             -200               0
1.29703              -0.07735279       -14.49704        -56.60038        108.8649             -200               0             -200               0
1.30363              -0.07986844       -14.62215        -56.30153        104.7782             -200               0             -200               0
1.31023              -0.08241068       -14.74824        -56.01813        100.7232             -200               0             -200               0
1.31683              -0.08497768       -14.87538        -55.74918        96.70592             -200               0             -200               0
1.32343              -0.08756688       -15.00365        -55.49369        92.73178             -200               0             -200               0
1.33003              -0.09017707       -15.13311        -55.25065        88.80603             -200               0             -200               0
1.33663              -0.09280945       -15.26386        -55.01901        84.93354             -200               0             -200               0
1.34323              -0.09546666       -15.39596        -54.79771        81.11881             -200               0             -200               0
1.34984              -0.09815326       -15.52951        -54.58562        77.36596             -200               0             -200               0
1.35644               -0.1008727       -15.66457        -54.38155        73.67868             -200               0             -200               0
1.36304               -0.1036338       -15.80122        -54.18431        70.06015             -200               0             -200               0
1.36964               -0.1064431       -15.93953        -53.99259        66.51295             -200               0             -200               0
1.37624               -0.1093125       -16.07957        -53.80508        63.03899             -200               0             -200               0
1.38284                 -0.11225       -16.22138        -53.62039         59.6394             -200               0             -200               0
1.38944               -0.1152672       -16.36501        -53.43711        56.31442             -200               0             -200               0
1.39604               -0.1183764       -16.51049         -53.2538        53.06332             -200               0             -200               0
1.40264               -0.1215877       -16.65786        -53.06899        49.88426             -200               0             -200               0
1.40924               -0.1249153       -16.80713        -52.88126         46.7743             -200               0             -200               0
1.41584               -0.1283705        -16.9583        -52.68922        43.72927             -200               0             -200               0
1.42244                -0.131961       -17.11138        -52.49153        40.74377             -200               0             -200               0
1.42904               -0.1356997       -17.26634        -52.28699        37.81127             -200               0             -200               0
1.43564               -0.1395941       -17.42317        -52.07452        34.92412             -200               0             -200               0
1.44224               -0.1436532       -17.58186        -51.85319         32.0737             -200               0             -200               0
1.44884               -0.1478816       -17.74237         -51.6223        29.25062             -200               0             -200               0
1.45545                -0.152284       -17.90467        -51.38135        26.44494             -200               0             -200               0
1.46205                -0.156863       -18.06873        -51.13007        23.64642             -200               0             -200               0
1.46865               -0.1616225       -18.23453        -50.86842        20.84482             -200               0             -200               0
1.47525               -0.1665601       -18.40204        -50.59661        18.03013             -200               0             -200               0
1.48185               -0.1716735       -18.57125        -50.31503        15.19287             -200               0             -200               0
1.48845               -0.1769617       -18.74214        -50.02431         12.3243             -200               0             -200               0
1.49505               -0.1824193       -18.91471        -49.72521        9.416607             -200               0             -200               0
1.50165               -0.1880411       -19.08898        -49.41863        6.463045             -200               0             -200               0
1.50825                -0.193822       -19.26497        -49.10559        3.458013             -200               0             -200               0
1.51485               -0.1997553       -19.44272        -48.78715       0.3970912             -200               0             -200               0
1.52145               -0.2058361       -19.62228        -48.46441        -2.72297             -200               0             -200               0
1.52805               -0.2120561       -19.80371        -48.13848       -5.904307             -200               0             -200               0
1.53465               -0.2184103       -19.98709        -47.81045       -9.148017             -200               0             -200               0
1.54125               -0.2248966       -20.17252        -47.48137       -12.45426             -200               0             -200               0
1.54785               -0.2315107       -20.36011        -47.15223       -15.82236             -200               0             -200               0
1.55446                -0.238252       -20.54997        -46.82394       -19.25093             -200               0             -200               0
1.56106               -0.2451215       -20.74224        -46.49736       -22.73799             -200               0             -200               0
1.56766               -0.2521217       -20.93705        -46.17325       -26.28107             -200               0             -200               0
1.57426               -0.2592586       -21.13455        -45.85229       -29.87728             -200               0             -200               0
1.58086                -0.266539       -21.33489         -45.5351       -33.52347             -200               0             -200               0
1.58746               -0.2739759       -21.53821        -45.22219       -37.21622             -200               0             -200               0
1.59406               -0.2815812       -21.74468        -44.91401       -40.95199             -200               0             -200               0
1.60066               -0.2893716       -21.95443        -44.61094       -44.72711             -200               0             -200               0
1.60726               -0.2973655       -22.16761        -44.31328       -48.53789             -200               0             -200               0
1.61386               -0.3055844       -22.38435        -44.02129       -52.38058             -200               0             -200               0
1.62046               -0.3140519       -22.60477        -43.73514       -56.25151             -200               0             -200               0
1.62706               -0.3227929       -22.82899        -43.45497       -60.14699             -200               0             -200               0
1.63366               -0.3318348       -23.05711        -43.18085       -64.06346             -200               0             -200               0
1.64026               -0.3412053        -23.2892        -42.91282       -67.99737             -200               0             -200               0
1.64686               -0.3509352       -23.52534        -42.65086       -71.94533             -200               0             -200               0
1.65347               -0.3610517       -23.76556        -42.39492       -75.90403             -200               0             -200               0
1.66007               -0.3715867       -24.00992        -42.14491       -79.87027             -200               0             -200               0
1.66667               -0.3825689       -24.25842        -41.90069       -83.84099             -200               0             -200               0
1.67327               -0.3940279       -24.51107        -41.66211       -87.81325             -200               0             -200               0
1.67987               -0.4059907       -24.76786        -41.42897       -91.78426             -200               0             -200               0
1.68647               -0.4184836       -25.02877        -41.20103       -95.75137             -200               0             -200               0
1.69307               -0.4315325       -25.29377        -40.97804       -99.71209             -200               0             -200               0
1.69967               -0.4451598       -25.56282        -40.75971       -103.6641             -200               0             -200               0
1.70627               -0.4593847       -25.83588        -40.54573       -107.6053             -200               0             -200               0
1.71287               -0.4742286       -26.11292        -40.33577       -111.5337             -200               0             -200               0
1.71947               -0.4897064       -26.39388        -40.12944       -115.4476             -200               0             -200               0
1.72607               -0.5058332       -26.67873        -39.92638       -119.3454             -200               0             -200               0
1.73267               -0.5226217       -26.96745        -39.72617       -123.2259             -200               0             -200               0
1.73927               -0.5400821       -27.26002        -39.52839        -127.088             -200               0             -200               0
1.74587               -0.5582234       -27.55645         -39.3326       -130.9309             -200               0             -200               0
1.75248               -0.5770545       -27.85674        -39.13834       -134.7541             -200               0             -200               0
1.75908               -0.5965821       -28.16094        -38.94516       -138.5575             -200               0             -200               0
1.76568               -0.6168139       -28.46909        -38.75259        -142.341             -200               0             -200               0
1.77228               -0.6377573       -28.78128        -38.56016       -146.1052             -200               0             -200               0
1.77888               -0.6594221       -29.09761        -38.36741       -149.8507             -200               0             -200               0
1.78548                -0.681817       -29.41821         -38.1739       -153.5785             -200               0             -200               0
1.79208               -0.7049555       -29.74322        -37.97919         -157.29             -200               0             -200               0
1.79868               -0.7288503       -30.07282        -37.78286        -160.987             -200               0             -200               0
1.80528               -0.7535245       -30.40721        -37.58452       -164.6713             -200               0             -200               0
1.81188               -0.7789972        -30.7466        -37.38383       -168.3452             -200               0             -200               0
1.81848               -0.8052972        -31.0912        -37.18046       -172.0113             -200               0             -200               0
1.82508               -0.8324559       -31.44128        -36.97415       -175.6722             -200               0             -200               0
1.83168               -0.8605126       -31.79708        -36.76466       -179.3309             -200               0             -200               0
1.83828               -0.8895106       -32.15886        -36.55183        177.0096             -200               0             -200               0
1.84488               -0.9194995       -32.52689        -36.33552         173.346             -200               0             -200               0
1.85149               -0.9505372       -32.90142        -36.11569        169.6751             -200               0             -200               0
