! TOUCHSTONE file generated by CST MICROWAVE STUDIO
! Date and time: Tue Mar 18 00:03:09 2025
! Project name: oblique.cst
! Parameters = {Tilt=40; Fracture=1; B=12.5; D=160; F=25; Feed=2.85625; L=100; M=50; R=0.384908; S=2; Theta=180; length=57.125; wave=114.25}
! Header version: 2024
! Port assignment regex: !\s*Touchstone port\s*([0-9]+)\s*=\s*(CST MWS port|CST DES external port|CST DES block port)\s*(.+)\s* \(\"(.*)\"\)(\s*mode\s*([0-9]+))?.*
! Touchstone port assignment:
! Touchstone port 1 = CST MWS port 1 ("")
! Touchstone port 2 = CST MWS port 2 ("")
# GHz S DB R 50
1                    -0.01919128       -9.811345        -70.20691        133.9804             -200               0             -200               0
1.0076               -0.02014679       -9.912701        -70.20144        128.8072             -200               0             -200               0
1.01521              -0.02111159       -10.01463        -70.21435        123.7274             -200               0             -200               0
1.02281              -0.02208113       -10.11717        -70.24575        118.7481             -200               0             -200               0
1.03042              -0.02304967       -10.22035        -70.29574        113.8778             -200               0             -200               0
1.03802              -0.02401491       -10.32423        -70.36437         109.126             -200               0             -200               0
1.04563              -0.02497375       -10.42885         -70.4516         104.504             -200               0             -200               0
1.05323              -0.02592564       -10.53427        -70.55734        100.0247             -200               0             -200               0
1.06084              -0.02686724       -10.64055         -70.6813        95.70306             -200               0             -200               0
1.06844              -0.02780134       -10.74775        -70.82299        91.55596             -200               0             -200               0
1.07605               -0.0287281       -10.85593         -70.9816         87.6027             -200               0             -200               0
1.08365              -0.02964968       -10.96515        -71.15591        83.86499             -200               0             -200               0
1.09125              -0.03057025       -11.07547        -71.34412         80.3669             -200               0             -200               0
1.09886              -0.03149357       -11.18695        -71.54369        77.13471             -200               0             -200               0
1.10646              -0.03242592       -11.29964        -71.75109        74.19624             -200               0             -200               0
1.11407              -0.03337276       -11.41359        -71.96161        71.57974             -200               0             -200               0
1.12167              -0.03434272       -11.52885        -72.16904        69.31195             -200               0             -200               0
1.12928              -0.03534188       -11.64546        -72.36553        67.41516             -200               0             -200               0
1.13688              -0.03637861       -11.76346        -72.54143        65.90312             -200               0             -200               0
1.14449              -0.03746204       -11.88286        -72.68552        64.77595             -200               0             -200               0
1.15209              -0.03860087        -12.0037        -72.78543        64.01458             -200               0             -200               0
1.1597               -0.03980519       -12.12598        -72.82867        63.57604             -200               0             -200               0
1.1673               -0.04108035       -12.24972        -72.80398        63.39146             -200               0             -200               0
1.1749               -0.04243687        -12.3749        -72.70295        63.36844             -200               0             -200               0
1.18251              -0.04388313       -12.50155         -72.5214        63.39867             -200               0             -200               0
1.19011              -0.04542533       -12.62963        -72.26015        63.36964             -200               0             -200               0
1.19772              -0.04707059       -12.75914        -71.92484        63.17756             -200               0             -200               0
1.20532              -0.04882387       -12.89005        -71.52492        62.73784             -200               0             -200               0
1.21293              -0.05069099       -13.02236         -71.0721         61.9909             -200               0             -200               0
1.22053              -0.05267492       -13.15603        -70.57879        60.90288             -200               0             -200               0
1.22814               -0.0547791       -13.29104        -70.05689        59.46238             -200               0             -200               0
1.23574              -0.05700474       -13.42738        -69.51693        57.67529             -200               0             -200               0
1.24335              -0.05935391       -13.56502        -68.96774        55.55934             -200               0             -200               0
1.25095              -0.06182441       -13.70395        -68.41641        53.13925             -200               0             -200               0
1.25856              -0.06441625       -13.84415         -67.8684        50.44312             -200               0             -200               0
1.26616              -0.06712945       -13.98562        -67.32778        47.49981             -200               0             -200               0
1.27376              -0.06995863       -14.12835        -66.79751        44.33734             -200               0             -200               0
1.28137              -0.07290326       -14.27236        -66.27964        40.98201             -200               0             -200               0
1.28897              -0.07595762       -14.41764        -65.77551        37.45787             -200               0             -200               0
1.29658              -0.07912194       -14.56422        -65.28597        33.78661             -200               0             -200               0
1.30418               -0.0823888       -14.71214        -64.81145        29.98764             -200               0             -200               0
1.31179              -0.08575832       -14.86142         -64.3521         26.0782             -200               0             -200               0
1.31939              -0.08922428       -15.01211        -63.90788        22.07354             -200               0             -200               0
1.327                -0.09278837       -15.16426        -63.47856        17.98718             -200               0             -200               0
1.3346               -0.09644636       -15.31793        -63.06383        13.83107             -200               0             -200               0
1.34221               -0.1001979       -15.47319         -62.6633        9.615807             -200               0             -200               0
1.34981               -0.1040441        -15.6301        -62.27653        5.350804             -200               0             -200               0
1.35741               -0.1079867       -15.78874        -61.90304        1.044446             -200               0             -200               0
1.36502               -0.1120273       -15.94919        -61.54234       -3.295776             -200               0             -200               0
1.37262               -0.1161727       -16.11153        -61.19391       -7.663145             -200               0             -200               0
1.38023               -0.1204262       -16.27585        -60.85724       -12.05162             -200               0             -200               0
1.38783               -0.1247948       -16.44222         -60.5318       -16.45575             -200               0             -200               0
1.39544               -0.1292895       -16.61073        -60.21708        -20.8706             -200               0             -200               0
1.40304               -0.1339167       -16.78145        -59.91255       -25.29168             -200               0             -200               0
1.41065               -0.1386901       -16.95445         -59.6177       -29.71493             -200               0             -200               0
1.41825               -0.1436223       -17.12982          -59.332       -34.13664             -200               0             -200               0
1.42586                -0.148724       -17.30759        -59.05493       -38.55342             -200               0             -200               0
1.43346               -0.1540105       -17.48785        -58.78597        -42.9622             -200               0             -200               0
1.44106               -0.1594983       -17.67062         -58.5246       -47.36017             -200               0             -200               0
1.44867               -0.1652012       -17.85595         -58.2703       -51.74482             -200               0             -200               0
1.45627               -0.1711353       -18.04387        -58.02254       -56.11387             -200               0             -200               0
1.46388               -0.1773163       -18.23441        -57.78077       -60.46529             -200               0             -200               0
1.47148               -0.1837616       -18.42757        -57.54448        -64.7973             -200               0             -200               0
1.47909               -0.1904847       -18.62336        -57.31312       -69.10838             -200               0             -200               0
1.48669               -0.1975011       -18.82177        -57.08614       -73.39723             -200               0             -200               0
1.4943                -0.2048249       -19.02281          -56.863       -77.66283             -200               0             -200               0
1.5019                -0.2124708       -19.22644        -56.64314       -81.90442             -200               0             -200               0
1.50951               -0.2204502       -19.43266        -56.42601       -86.12149             -200               0             -200               0
1.51711               -0.2287757       -19.64143        -56.21106       -90.31382             -200               0             -200               0
1.52471               -0.2374565       -19.85274        -55.99775       -94.48148             -200               0             -200               0
1.53232               -0.2465013       -20.06654        -55.78552       -98.62482             -200               0             -200               0
1.53992               -0.2559185       -20.28282        -55.57385       -102.7445             -200               0             -200               0
1.54753               -0.2657138       -20.50156        -55.36221       -106.8415             -200               0             -200               0
1.55513                -0.275892       -20.72272         -55.1501        -110.917             -200               0             -200               0
1.56274               -0.2864593        -20.9463        -54.93704       -114.9726             -200               0             -200               0
1.57034               -0.2974159       -21.17228        -54.72257       -119.0101             -200               0             -200               0
1.57795               -0.3087675       -21.40068        -54.50627       -123.0316             -200               0             -200               0
1.58555                -0.320512       -21.63149        -54.28775       -127.0395             -200               0             -200               0
1.59316               -0.3326517       -21.86473        -54.06666       -131.0364             -200               0             -200               0
1.60076               -0.3451886       -22.10044         -53.8427       -135.0251             -200               0             -200               0
1.60837               -0.3581218       -22.33866         -53.6156       -139.0085             -200               0             -200               0
1.61597               -0.3714526       -22.57944        -53.38517       -142.9897             -200               0             -200               0
1.62357               -0.3851832       -22.82285        -53.15123       -146.9719             -200               0             -200               0
1.63118               -0.3993158       -23.06897        -52.91371       -150.9585             -200               0             -200               0
1.63878               -0.4138532       -23.31789        -52.67253       -154.9525             -200               0             -200               0
1.64639               -0.4288015       -23.56971        -52.42772       -158.9573             -200               0             -200               0
1.65399               -0.4441658       -23.82455        -52.17932       -162.9761             -200               0             -200               0
1.6616                -0.4599546       -24.08252        -51.92744       -167.0118             -200               0             -200               0
1.6692                -0.4761778       -24.34376        -51.67223       -171.0673             -200               0             -200               0
1.67681               -0.4928482        -24.6084        -51.41387       -175.1454             -200               0             -200               0
1.68441               -0.5099801       -24.87659         -51.1526       -179.2487             -200               0             -200               0
1.69202               -0.5275911       -25.14847        -50.88866        176.6207             -200               0             -200               0
1.69962               -0.5456995       -25.42418        -50.62235        172.4606             -200               0             -200               0
1.70722               -0.5643277       -25.70388        -50.35397        168.2692             -200               0             -200               0
1.71483               -0.5835013       -25.98772        -50.08383        164.0449             -200               0             -200               0
1.72243               -0.6032454       -26.27582        -49.81228        159.7864             -200               0             -200               0
1.73004               -0.6235892       -26.56834        -49.53965        155.4926             -200               0             -200               0
1.73764               -0.6445656        -26.8654        -49.26627        151.1626             -200               0             -200               0
1.74525                -0.666206       -27.16712        -48.99251        146.7959             -200               0             -200               0
1.75285               -0.6885461       -27.47363        -48.71867         142.392             -200               0             -200               0
1.76046               -0.7116238       -27.78503        -48.44511        137.9506             -200               0             -200               0
1.76806               -0.7354765       -28.10142        -48.17212        133.4718             -200               0             -200               0
1.77567               -0.7601438       -28.42289        -47.90002        128.9557             -200               0             -200               0
1.78327               -0.7856663       -28.74951        -47.62911        124.4025             -200               0             -200               0
1.79087                -0.812084       -29.08137        -47.35965        119.8126             -200               0             -200               0
1.79848               -0.8394426       -29.41851        -47.09191        115.1865             -200               0             -200               0
1.80608               -0.8677797         -29.761        -46.82615        110.5248             -200               0             -200               0
1.81369               -0.8971413        -30.1089        -46.56258        105.8282             -200               0             -200               0
1.82129               -0.9275696       -30.46223        -46.30142        101.0974             -200               0             -200               0
1.8289                -0.9591076       -30.82105        -46.04288        96.33335             -200               0             -200               0
1.8365                -0.9917984        -31.1854        -45.78714        91.53675             -200               0             -200               0
1.84411                -1.025685       -31.55532        -45.53437        86.70853             -200               0             -200               0
1.85171                -1.060813       -31.93086        -45.28471        81.84959             -200               0             -200               0
1.85932                -1.097225       -32.31208        -45.03833        76.96085             -200               0             -200               0
1.86692                -1.134966       -32.69903        -44.79533        72.04325             -200               0             -200               0
1.87452                -1.174082       -33.09178        -44.55584        67.09773             -200               0             -200               0
1.88213                -1.214622       -33.49042        -44.31997        62.12521             -200               0             -200               0
1.88973                -1.256633       -33.89504         -44.0878        57.12661             -200               0             -200               0
1.89734                -1.300166       -34.30575        -43.85943        52.10287             -200               0             -200               0
1.90494                -1.345277       -34.72267        -43.63493        47.05487             -200               0             -200               0
1.91255                -1.392021       -35.14595        -43.41437        41.98351             -200               0             -200               0
1.92015                 -1.44046       -35.57573         -43.1978        36.88965             -200               0             -200               0
1.92776                -1.490662        -36.0122        -42.98529        31.77414             -200               0             -200               0
1.93536                -1.542695       -36.45554        -42.77686         26.6378             -200               0             -200               0
1.94297                -1.596638       -36.90596        -42.57258        21.48143             -200               0             -200               0
1.95057                -1.652574       -37.36366        -42.37246        16.30583             -200               0             -200               0
1.95817                -1.710597       -37.82889        -42.17654        11.11175             -200               0             -200               0
1.96578                -1.770804       -38.30188        -41.98484        5.899914             -200               0             -200               0
1.97338                -1.833306       -38.78286         -41.7974       0.6710439             -200               0             -200               0
1.98099                 -1.89822       -39.27207        -41.61421       -4.574176             -200               0             -200               0
