! TOUCHSTONE file generated by CST MICROWAVE STUDIO
! Date and time: Tue Mar 18 00:02:58 2025
! Project name: oblique.cst
! Parameters = {Tilt=40; Fracture=1; B=12.5; D=160; F=15; Feed=2.85625; L=100; M=30; R=0.384908; S=2; Theta=90; length=57.125; wave=114.25}
! Header version: 2024
! Port assignment regex: !\s*Touchstone port\s*([0-9]+)\s*=\s*(CST MWS port|CST DES external port|CST DES block port)\s*(.+)\s* \(\"(.*)\"\)(\s*mode\s*([0-9]+))?.*
! Touchstone port assignment:
! Touchstone port 1 = CST MWS port 1 ("")
! Touchstone port 2 = CST MWS port 2 ("")
# GHz S DB R 50
1                     -0.0219231       -9.770148        -65.56226         168.978             -200               0             -200               0
1.0066               -0.02250194        -9.85613        -65.64423        162.9479             -200               0             -200               0
1.0132               -0.02305639       -9.942823        -65.76499        157.0196             -200               0             -200               0
1.0198               -0.02359029       -10.03028        -65.92675        151.2021             -200               0             -200               0
1.0264               -0.02410852       -10.11855        -66.13221        145.5074             -200               0             -200               0
1.033                -0.02461769       -10.20769        -66.38458        139.9516             -200               0             -200               0
1.0396               -0.02512596       -10.29774        -66.68776         134.556             -200               0             -200               0
1.0462               -0.02563984       -10.38872         -67.0464        129.3489             -200               0             -200               0
1.05281              -0.02616844       -10.48067        -67.46607        124.3684             -200               0             -200               0
1.05941              -0.02672074        -10.5736        -67.95342        119.6665             -200               0             -200               0
1.06601              -0.02730687       -10.66751        -68.51628        115.3149             -200               0             -200               0
1.07261              -0.02793362       -10.76242         -69.1636        111.4146             -200               0             -200               0
1.07921              -0.02861121        -10.8583        -69.90513        108.1111             -200               0             -200               0
1.08581              -0.02934745       -10.95513        -70.74995        105.6164             -200               0             -200               0
1.09241              -0.03014825        -11.0529        -71.70274        104.2448             -200               0             -200               0
1.09901              -0.03102143       -11.15157        -72.75417        104.4577             -200               0             -200               0
1.10561              -0.03197181        -11.2511         -73.8591         106.896             -200               0             -200               0
1.11221               -0.0330016       -11.35144        -74.89474        112.2866             -200               0             -200               0
1.11881              -0.03411607       -11.45256        -75.61664        120.9487             -200               0             -200               0
1.12541              -0.03531497       -11.55441        -75.71803         131.817             -200               0             -200               0
1.13201              -0.03659888       -11.65694        -75.07981         142.288             -200               0             -200               0
1.13861              -0.03796394       -11.76011         -73.9054        150.0928             -200               0             -200               0
1.14521              -0.03940952       -11.86387         -72.5018        154.6708             -200               0             -200               0
1.15182               -0.0409311        -11.9682        -71.07578        156.5495             -200               0             -200               0
1.15842              -0.04252239       -12.07306        -69.72163        156.4573             -200               0             -200               0
1.16502              -0.04417851       -12.17844        -68.47039        154.9834             -200               0             -200               0
1.17162              -0.04589115       -12.28431         -67.3255        152.5417             -200               0             -200               0
1.17822              -0.04765262       -12.39067        -66.28018        149.4131             -200               0             -200               0
1.18482              -0.04945666       -12.49753         -65.3247        145.7882             -200               0             -200               0
1.19142               -0.0512933       -12.60491        -64.44923        141.7987             -200               0             -200               0
1.19802              -0.05315765       -12.71283        -63.64493        137.5374             -200               0             -200               0
1.20462              -0.05503851       -12.82132        -62.90407        133.0713             -200               0             -200               0
1.21122              -0.05693232       -12.93043         -62.2201        128.4497             -200               0             -200               0
1.21782              -0.05883254       -13.04021        -61.58747        123.7098             -200               0             -200               0
1.22442              -0.06073374       -13.15073        -61.00144        118.8803             -200               0             -200               0
1.23102              -0.06263351       -13.26204        -60.45806        113.9837             -200               0             -200               0
1.23762               -0.0645277       -13.37422         -59.9539         109.038             -200               0             -200               0
1.24422              -0.06641872       -13.48734        -59.48608         104.058             -200               0             -200               0
1.25083              -0.06830499       -13.60149         -59.0521        99.05604             -200               0             -200               0
1.25743              -0.07019067       -13.71672        -58.64982        94.04263             -200               0             -200               0
1.26403              -0.07207871       -13.83313        -58.27737        89.02694             -200               0             -200               0
1.27063              -0.07397376       -13.95077        -57.93313        84.01713             -200               0             -200               0
1.27723              -0.07588504       -14.06972        -57.61567        79.02064             -200               0             -200               0
1.28383              -0.07781895       -14.19003        -57.32375        74.04439             -200               0             -200               0
1.29043              -0.07978517       -14.31176        -57.05626        69.09494             -200               0             -200               0
1.29703              -0.08179384       -14.43495         -56.8122        64.17866             -200               0             -200               0
1.30363              -0.08385357       -14.55963        -56.59066        59.30184             -200               0             -200               0
1.31023              -0.08597745       -14.68583        -56.39082        54.47079             -200               0             -200               0
1.31683              -0.08817591       -14.81356        -56.21192         49.6919             -200               0             -200               0
1.32343              -0.09045794       -14.94282        -56.05321         44.9718             -200               0             -200               0
1.33003              -0.09283486       -15.07362        -55.91399        40.31736             -200               0             -200               0
1.33663              -0.09531693       -15.20594        -55.79354        35.73574             -200               0             -200               0
1.34323              -0.09791199       -15.33975        -55.69113        31.23453             -200               0             -200               0
1.34984               -0.1006277       -15.47503        -55.60597        26.82172             -200               0             -200               0
1.35644               -0.1034694       -15.61174        -55.53721        22.50573             -200               0             -200               0
1.36304               -0.1064419       -15.74984         -55.4839        18.29546             -200               0             -200               0
1.36964               -0.1095497        -15.8893        -55.44498        14.20023             -200               0             -200               0
1.37624               -0.1127927       -16.03007        -55.41919        10.22975             -200               0             -200               0
1.38284               -0.1161701       -16.17212        -55.40509        6.393971             -200               0             -200               0
1.38944               -0.1196827       -16.31542        -55.40098        2.702981             -200               0             -200               0
1.39604               -0.1233262       -16.45992        -55.40489      -0.8333078             -200               0             -200               0
1.40264               -0.1270946       -16.60561         -55.4145       -4.205485             -200               0             -200               0
1.40924               -0.1309827       -16.75248        -55.42715       -7.405121             -200               0             -200               0
1.41584               -0.1349849       -16.90052        -55.43978       -10.42536             -200               0             -200               0
1.42244               -0.1390942       -17.04974        -55.44894       -13.26164             -200               0             -200               0
1.42904               -0.1432995       -17.20017        -55.45084       -15.91254             -200               0             -200               0
1.43564               -0.1475957       -17.35182        -55.44138       -18.38064             -200               0             -200               0
1.44224               -0.1519739       -17.50475        -55.41631       -20.67339             -200               0             -200               0
1.44884               -0.1564261       -17.65903        -55.37133       -22.80377             -200               0             -200               0
1.45545               -0.1609465       -17.81471        -55.30241       -24.79071             -200               0             -200               0
1.46205               -0.1655278       -17.97188        -55.20593       -26.65897             -200               0             -200               0
1.46865               -0.1701682       -18.13063        -55.07901       -28.43859             -200               0             -200               0
1.47525               -0.1748612       -18.29108        -54.91971       -30.16358             -200               0             -200               0
1.48185               -0.1796095       -18.45333        -54.72718       -31.87023             -200               0             -200               0
1.48845               -0.1844121       -18.61749        -54.50174       -33.59509             -200               0             -200               0
1.49505               -0.1892736       -18.78369        -54.24485       -35.37292             -200               0             -200               0
1.50165               -0.1941962       -18.95206        -53.95893       -37.23477             -200               0             -200               0
1.50825               -0.1991907       -19.12272        -53.64721       -39.20673             -200               0             -200               0
1.51485               -0.2042652       -19.29578        -53.31342       -41.30908             -200               0             -200               0
1.52145               -0.2094325       -19.47136        -52.96154       -43.55611             -200               0             -200               0
1.52805               -0.2147051       -19.64959        -52.59562       -45.95636             -200               0             -200               0
1.53465                -0.220098       -19.83055        -52.21954        -48.5133             -200               0             -200               0
1.54125               -0.2256294       -20.01434        -51.83692       -51.22613             -200               0             -200               0
1.54785                -0.231318       -20.20105        -51.45101       -54.09065             -200               0             -200               0
1.55446               -0.2371828       -20.39074        -51.06467       -57.10011             -200               0             -200               0
1.56106               -0.2432436       -20.58346        -50.68034         -60.246             -200               0             -200               0
1.56766                 -0.24952       -20.77927        -50.30009       -63.51866             -200               0             -200               0
1.57426               -0.2560333       -20.97819        -49.92561       -66.90776             -200               0             -200               0
1.58086               -0.2628031       -21.18025        -49.55829       -70.40274             -200               0             -200               0
1.58746               -0.2698489       -21.38543        -49.19921       -73.99303             -200               0             -200               0
1.59406               -0.2771876       -21.59375        -48.84923       -77.66832             -200               0             -200               0
1.60066                -0.284838       -21.80518        -48.50896       -81.41861             -200               0             -200               0
1.60726               -0.2928148       -22.01971        -48.17887       -85.23434             -200               0             -200               0
1.61386               -0.3011325        -22.2373        -47.85926       -89.10643             -200               0             -200               0
1.62046               -0.3098023       -22.45793         -47.5503       -93.02627             -200               0             -200               0
1.62706                -0.318834       -22.68156        -47.25205       -96.98572             -200               0             -200               0
1.63366               -0.3282366       -22.90816        -46.96449       -100.9771             -200               0             -200               0
1.64026               -0.3380152        -23.1377        -46.68749       -104.9932             -200               0             -200               0
1.64686               -0.3481751       -23.37017        -46.42089       -109.0271             -200               0             -200               0
1.65347               -0.3587169       -23.60556        -46.16444       -113.0724             -200               0             -200               0
1.66007               -0.3696449       -23.84386        -45.91783        -117.123             -200               0             -200               0
1.66667               -0.3809559       -24.08509        -45.68072       -121.1732             -200               0             -200               0
1.67327               -0.3926499       -24.32928         -45.4527       -125.2176             -200               0             -200               0
1.67987                -0.404725       -24.57647        -45.23333       -129.2509             -200               0             -200               0
1.68647               -0.4171797       -24.82673         -45.0221       -133.2684             -200               0             -200               0
1.69307               -0.4300125       -25.08015        -44.81847       -137.2656             -200               0             -200               0
1.69967               -0.4432222       -25.33681        -44.62184       -141.2383             -200               0             -200               0
1.70627               -0.4568076       -25.59685        -44.43158       -145.1826             -200               0             -200               0
1.71287               -0.4707737       -25.86041        -44.24701        -149.095             -200               0             -200               0
1.71947               -0.4851202       -26.12763        -44.06738       -152.9723             -200               0             -200               0
1.72607               -0.4998557       -26.39869        -43.89191       -156.8118             -200               0             -200               0
1.73267               -0.5149883       -26.67379        -43.71979       -160.6113             -200               0             -200               0
1.73927                 -0.53053       -26.95312        -43.55014       -164.3689             -200               0             -200               0
1.74587                -0.546496       -27.23689        -43.38206       -168.0836             -200               0             -200               0
1.75248                -0.562903       -27.52532        -43.21463       -171.7546             -200               0             -200               0
1.75908                -0.579775       -27.81863        -43.04689       -175.3821             -200               0             -200               0
1.76568               -0.5971365       -28.11706        -42.87787       -178.9668             -200               0             -200               0
1.77228               -0.6150198       -28.42083        -42.70663        177.4899             -200               0             -200               0
1.77888               -0.6334565       -28.73016        -42.53221        173.9855             -200               0             -200               0
1.78548               -0.6524846       -29.04527         -42.3537        170.5171             -200               0             -200               0
1.79208               -0.6721457       -29.36639        -42.17025        167.0808             -200               0             -200               0
1.79868               -0.6924833       -29.69369        -41.98107        163.6721             -200               0             -200               0
1.80528               -0.7135449       -30.02739        -41.78546        160.2858             -200               0             -200               0
1.81188               -0.7353808       -30.36765        -41.58281         156.916             -200               0             -200               0
1.81848               -0.7580442       -30.71464        -41.37264        153.5564             -200               0             -200               0
1.82508               -0.7815902        -31.0685        -41.15462        150.2002             -200               0             -200               0
1.83168               -0.8060756       -31.42938        -40.92851        146.8404             -200               0             -200               0
1.83828               -0.8315599        -31.7974        -40.69426        143.4702             -200               0             -200               0
1.84488               -0.8581024       -32.17265        -40.45194        140.0824             -200               0             -200               0
1.85149               -0.8857656       -32.55523        -40.20175        136.6703             -200               0             -200               0
