! TOUCHSTONE file generated by CST MICROWAVE STUDIO
! Date and time: Tue Mar 18 00:02:13 2025
! Project name: oblique.cst
! Parameters = {Tilt=40; Fracture=1; B=10; D=160; F=15; Feed=2.85625; L=100; M=30; R=0.384908; S=1; Theta=180; length=57.125; wave=114.25}
! Header version: 2024
! Port assignment regex: !\s*Touchstone port\s*([0-9]+)\s*=\s*(CST MWS port|CST DES external port|CST DES block port)\s*(.+)\s* \(\"(.*)\"\)(\s*mode\s*([0-9]+))?.*
! Touchstone port assignment:
! Touchstone port 1 = CST MWS port 1 ("")
! Touchstone port 2 = CST MWS port 2 ("")
# GHz S DB R 50
1                     -0.0222615       -9.786004        -64.88768        172.4734             -200               0             -200               0
1.0066               -0.02292441       -9.871923         -64.9739        166.0648             -200               0             -200               0
1.0132               -0.02355895       -9.958447        -65.10004        159.7269             -200               0             -200               0
1.0198               -0.02416573       -10.04563        -65.26875         153.462             -200               0             -200               0
1.0264               -0.02474739       -10.13354        -65.48326        147.2739             -200               0             -200               0
1.033                -0.02530929       -10.22223        -65.74757        141.1686             -200               0             -200               0
1.0396               -0.02585509       -10.31176         -66.0666        135.1544             -200               0             -200               0
1.0462               -0.02638987       -10.40217        -66.44651        129.2436             -200               0             -200               0
1.05281               -0.0269244        -10.4935        -66.89506        123.4531             -200               0             -200               0
1.05941              -0.02746296       -10.58578        -67.42214        117.8073             -200               0             -200               0
1.06601              -0.02801562       -10.67906         -68.0406        112.3412             -200               0             -200               0
1.07261              -0.02859181       -10.77333        -68.76744        107.1075             -200               0             -200               0
1.07921              -0.02919856       -10.86861        -69.62564        102.1871             -200               0             -200               0
1.08581              -0.02984614       -10.96491        -70.64715        97.71082             -200               0             -200               0
1.09241              -0.03054317       -11.06221         -71.8775        93.90275             -200               0             -200               0
1.09901              -0.03129738        -11.1605        -73.38321        91.17648             -200               0             -200               0
1.10561              -0.03211524       -11.25974         -75.2609        90.37092             -200               0             -200               0
1.11221              -0.03300442       -11.35992           -77.63        93.38694             -200               0             -200               0
1.11881              -0.03396917       -11.46099        -80.45596        104.8317             -200               0             -200               0
1.12541              -0.03501389       -11.56291         -82.4533        131.8976             -200               0             -200               0
1.13201              -0.03614204       -11.66564        -80.99517        163.0043             -200               0             -200               0
1.13861              -0.03735359       -11.76913        -77.84403        178.5729             -200               0             -200               0
1.14521              -0.03864885       -11.87334        -74.99022       -176.4445             -200               0             -200               0
1.15182              -0.04002734       -11.97822        -72.65373        -176.215             -200               0             -200               0
1.15842              -0.04148576       -12.08373        -70.72376       -178.2632             -200               0             -200               0
1.16502              -0.04301892       -12.18984        -69.09379        178.4705             -200               0             -200               0
1.17162              -0.04462171       -12.29652        -67.68906        174.4924             -200               0             -200               0
1.17822              -0.04628759       -12.40374        -66.45848        170.0702             -200               0             -200               0
1.18482              -0.04801036       -12.51149        -65.36648        165.3581             -200               0             -200               0
1.19142              -0.04978073       -12.61977        -64.38759        160.4504             -200               0             -200               0
1.19802              -0.05159176       -12.72858        -63.50305        155.4084             -200               0             -200               0
1.20462              -0.05343407       -12.83794        -62.69874        150.2737             -200               0             -200               0
1.21122              -0.05529991       -12.94787        -61.96375        145.0755             -200               0             -200               0
1.21782              -0.05718103       -13.05842        -61.28953        139.8353             -200               0             -200               0
1.22442              -0.05907068       -13.16963        -60.66925        134.5693             -200               0             -200               0
1.23102               -0.0609624       -13.28155        -60.09739        129.2903             -200               0             -200               0
1.23762              -0.06285063       -13.39426        -59.56941        124.0084             -200               0             -200               0
1.24422              -0.06473115       -13.50781        -59.08155        118.7322             -200               0             -200               0
1.25083              -0.06660184        -13.6223        -58.63069        113.4688             -200               0             -200               0
1.25743              -0.06846161       -13.73781        -58.21415        108.2248             -200               0             -200               0
1.26403              -0.07031174       -13.85441        -57.82969         103.006             -200               0             -200               0
1.27063              -0.07215404       -13.97219        -57.47537         97.8178             -200               0             -200               0
1.27723               -0.0739918       -14.09123         -57.1495        92.66557             -200               0             -200               0
1.28383              -0.07583205       -14.21163        -56.85063        87.55445             -200               0             -200               0
1.29043              -0.07768198       -14.33344        -56.57747        82.48966             -200               0             -200               0
1.29703              -0.07954895       -14.45675        -56.32887        77.47651             -200               0             -200               0
1.30363              -0.08144472       -14.58162        -56.10378        72.52051             -200               0             -200               0
1.31023              -0.08337893       -14.70809        -55.90127        67.62742             -200               0             -200               0
1.31683              -0.08536482       -14.83622        -55.72043        62.80334             -200               0             -200               0
1.32343              -0.08741299       -14.96603        -55.56042        58.05476             -200               0             -200               0
1.33003                -0.089537       -15.09755        -55.42039         53.3886             -200               0             -200               0
1.33663              -0.09174917       -15.23079        -55.29949        48.81227             -200               0             -200               0
1.34323              -0.09406107       -15.36574        -55.19681        44.33368             -200               0             -200               0
1.34984              -0.09648591        -15.5024         -55.1114        39.96133             -200               0             -200               0
1.35644              -0.09903317       -15.64076        -55.04218        35.70421             -200               0             -200               0
1.36304               -0.1017134       -15.78077        -54.98796        31.57183             -200               0             -200               0
1.36964               -0.1045342        -15.9224        -54.94735        27.57413             -200               0             -200               0
1.37624               -0.1075011       -16.06562        -54.91874        23.72135             -200               0             -200               0
1.38284               -0.1106222       -16.21037        -54.90026        20.02384             -200               0             -200               0
1.38944               -0.1138978       -16.35661        -54.88971        16.49172             -200               0             -200               0
1.39604               -0.1173305        -16.5043        -54.88455        13.13448             -200               0             -200               0
1.40264                -0.120922       -16.65339        -54.88184        9.960478             -200               0             -200               0
1.40924               -0.1246665       -16.80384         -54.8782        6.976165             -200               0             -200               0
1.41584               -0.1285636       -16.95562        -54.86987        4.185319             -200               0             -200               0
1.42244               -0.1326076        -17.1087        -54.85272        1.588088             -200               0             -200               0
1.42904               -0.1367919       -17.26307        -54.82233      -0.8199792             -200               0             -200               0
1.43564               -0.1411073       -17.41873        -54.77414       -3.048822             -200               0             -200               0
1.44224               -0.1455477       -17.57569        -54.70368       -5.114535             -200               0             -200               0
1.44884               -0.1501043       -17.73396        -54.60679       -7.039624             -200               0             -200               0
1.45545               -0.1547695        -17.8936        -54.47992        -8.85272             -200               0             -200               0
1.46205               -0.1595313       -18.05464        -54.32038       -10.58762             -200               0             -200               0
1.46865               -0.1643857       -18.21717        -54.12659       -12.28173             -200               0             -200               0
1.47525               -0.1693237       -18.38125        -53.89819       -13.97393             -200               0             -200               0
1.48185               -0.1743402       -18.54699        -53.63608        -15.7024             -200               0             -200               0
1.48845               -0.1794309       -18.71449        -53.34232       -17.50234             -200               0             -200               0
1.49505               -0.1845955       -18.88387         -53.0199       -19.40424             -200               0             -200               0
1.50165               -0.1898313       -19.05525        -52.67255        -21.4327             -200               0             -200               0
1.50825               -0.1951428       -19.22877        -52.30437       -23.60585             -200               0             -200               0
1.51485               -0.2005347       -19.40455        -51.91963       -25.93553             -200               0             -200               0
1.52145               -0.2060129       -19.58274        -51.52252       -28.42773             -200               0             -200               0
1.52805               -0.2115879       -19.76347          -51.117       -31.08349             -200               0             -200               0
1.53465               -0.2172723       -19.94688        -50.70663       -33.89979             -200               0             -200               0
1.54125               -0.2230806       -20.13309         -50.2946       -36.87061             -200               0             -200               0
1.54785                -0.229031       -20.32222        -49.88365       -39.98768             -200               0             -200               0
1.55446               -0.2351401       -20.51439        -49.47607        -43.2413             -200               0             -200               0
1.56106               -0.2414314       -20.70968        -49.07379       -46.62094             -200               0             -200               0
1.56766               -0.2479247       -20.90819        -48.67835       -50.11566             -200               0             -200               0
1.57426               -0.2546458       -21.10997        -48.29099       -53.71451             -200               0             -200               0
1.58086                -0.261618       -21.31509        -47.91268        -57.4067             -200               0             -200               0
1.58746               -0.2688643       -21.52358        -47.54412       -61.18183             -200               0             -200               0
1.59406               -0.2764109       -21.73546        -47.18587       -65.02995             -200               0             -200               0
1.60066               -0.2842809       -21.95074        -46.83826       -68.94158             -200               0             -200               0
1.60726               -0.2924978       -22.16941        -46.50153       -72.90782             -200               0             -200               0
1.61386               -0.3010836       -22.39144        -46.17578       -76.92026             -200               0             -200               0
1.62046                -0.310057       -22.61681        -45.86101       -80.97101             -200               0             -200               0
1.62706               -0.3194383       -22.84546        -45.55715       -85.05264             -200               0             -200               0
1.63366               -0.3292422       -23.07736        -45.26404       -89.15821             -200               0             -200               0
1.64026               -0.3394844       -23.31244        -44.98148       -93.28115             -200               0             -200               0
1.64686               -0.3501755       -23.55064         -44.7092       -97.41533             -200               0             -200               0
1.65347               -0.3613242       -23.79192        -44.44687       -101.5549             -200               0             -200               0
1.66007               -0.3729394       -24.03623        -44.19415       -105.6945             -200               0             -200               0
1.66667               -0.3850238       -24.28351        -43.95063        -109.829             -200               0             -200               0
1.67327               -0.3975793       -24.53373        -43.71585       -113.9534             -200               0             -200               0
1.67987               -0.4106075       -24.78689        -43.48934       -118.0633             -200               0             -200               0
1.68647               -0.4241074       -25.04297        -43.27056       -122.1545             -200               0             -200               0
1.69307               -0.4380761       -25.30199        -43.05895       -126.2229             -200               0             -200               0
1.69967               -0.4525097       -25.56399         -42.8539        -130.265             -200               0             -200               0
1.70627               -0.4674066       -25.82902        -42.65475       -134.2774             -200               0             -200               0
1.71287               -0.4827625       -26.09715        -42.46083       -138.2572             -200               0             -200               0
1.71947               -0.4985746       -26.36849        -42.27139       -142.2018             -200               0             -200               0
1.72607               -0.5148422       -26.64318        -42.08568       -146.1089             -200               0             -200               0
1.73267               -0.5315643       -26.92134        -41.90288        -149.977             -200               0             -200               0
1.73927               -0.5487445       -27.20315        -41.72215       -153.8047             -200               0             -200               0
1.74587               -0.5663884       -27.48881        -41.54265       -157.5914             -200               0             -200               0
1.75248               -0.5845037       -27.77852        -41.36347        -161.337             -200               0             -200               0
1.75908               -0.6031036        -28.0725        -41.18374       -165.0419             -200               0             -200               0
1.76568               -0.6222049       -28.37098        -41.00256       -168.7074             -200               0             -200               0
1.77228                -0.641828       -28.67423        -40.81904       -172.3352             -200               0             -200               0
1.77888               -0.6619986       -28.98248        -40.63233        -175.928             -200               0             -200               0
1.78548               -0.6827461         -29.296        -40.44161       -179.4889             -200               0             -200               0
1.79208                -0.704107       -29.61504        -40.24612        176.9781             -200               0             -200               0
1.79868               -0.7261204       -29.93985        -40.04518        173.4685             -200               0             -200               0
1.80528               -0.7488309       -30.27068        -39.83817        169.9772             -200               0             -200               0
1.81188               -0.7722871       -30.60776        -39.62461        166.4987             -200               0             -200               0
1.81848               -0.7965444       -30.95132        -39.40408        163.0268             -200               0             -200               0
1.82508               -0.8216597       -31.30155        -39.17634        159.5553             -200               0             -200               0
1.83168               -0.8476943       -31.65864        -38.94122        156.0778             -200               0             -200               0
1.83828               -0.8747124       -32.02275        -38.69872        152.5879             -200               0             -200               0
1.84488               -0.9027831       -32.39403        -38.44893        149.0791             -200               0             -200               0
1.85149               -0.9319765        -32.7726        -38.19209        145.5454             -200               0             -200               0
