! TOUCHSTONE file generated by CST MICROWAVE STUDIO
! Date and time: Tue Mar 18 00:02:51 2025
! Project name: oblique.cst
! Parameters = {Tilt=40; Fracture=1; B=12.5; D=160; F=5; Feed=2.85625; L=100; M=50; R=0.384908; S=2; Theta=180; length=57.125; wave=114.25}
! Header version: 2024
! Port assignment regex: !\s*Touchstone port\s*([0-9]+)\s*=\s*(CST MWS port|CST DES external port|CST DES block port)\s*(.+)\s* \(\"(.*)\"\)(\s*mode\s*([0-9]+))?.*
! Touchstone port assignment:
! Touchstone port 1 = CST MWS port 1 ("")
! Touchstone port 2 = CST MWS port 2 ("")
# GHz S DB R 50
1                    -0.02194609       -9.803349         -66.3534        165.4593             -200               0             -200               0
1.0066               -0.02263917       -9.890367         -66.3436        159.5911             -200               0             -200               0
1.0132                -0.0233233       -9.978033        -66.36619        153.8147             -200               0             -200               0
1.0198               -0.02400371       -10.06639        -66.42207        148.1364             -200               0             -200               0
1.0264               -0.02468415       -10.15548        -66.51237         142.565             -200               0             -200               0
1.033                -0.02536641       -10.24532        -66.63843        137.1114             -200               0             -200               0
1.0396               -0.02605741       -10.33597        -66.80187        131.7893             -200               0             -200               0
1.0462               -0.02676176       -10.42744        -67.00455        126.6164             -200               0             -200               0
1.05281              -0.02748627       -10.51975        -67.24864        121.6148             -200               0             -200               0
1.05941              -0.02823734       -10.61291        -67.53654        116.8128             -200               0             -200               0
1.06601              -0.02902045       -10.70694         -67.8709        112.2464             -200               0             -200               0
1.07261              -0.02984236       -10.80184        -68.25449        107.9623             -200               0             -200               0
1.07921              -0.03070952        -10.8976        -68.68998        104.0204             -200               0             -200               0
1.08581               -0.0316274       -10.99421        -69.17957        100.4991             -200               0             -200               0
1.09241              -0.03260024       -11.09166        -69.72413        97.50075             -200               0             -200               0
1.09901              -0.03363543       -11.18993        -70.32179        95.15807             -200               0             -200               0
1.10561              -0.03473478       -11.28899        -70.96534        93.64065             -200               0             -200               0
1.11221              -0.03590291       -11.38881        -71.63791        93.15567             -200               0             -200               0
1.11881               -0.0371402       -11.48937        -72.30644        93.93216             -200               0             -200               0
1.12541              -0.03844879       -11.59064        -72.91394        96.16691             -200               0             -200               0
1.13201              -0.03982926       -11.69258        -73.37598        99.90789             -200               0             -200               0
1.13861               -0.0412784       -11.79516        -73.59325        104.8914             -200               0             -200               0
1.14521              -0.04279777       -11.89836        -73.48901        110.4582             -200               0             -200               0
1.15182              -0.04438092       -12.00214        -73.05228        115.7219             -200               0             -200               0
1.15842              -0.04602709        -12.1065        -72.34496        119.9309             -200               0             -200               0
1.16502              -0.04772955       -12.21142        -71.46461        122.7122             -200               0             -200               0
1.17162              -0.04948503       -12.31688        -70.50193        124.0441             -200               0             -200               0
1.17822              -0.05128748       -12.42288        -69.52143        124.0971             -200               0             -200               0
1.18482                -0.053131       -12.52944        -68.56191        123.0997             -200               0             -200               0
1.19142              -0.05500911       -12.63655        -67.64381        121.2687             -200               0             -200               0
1.19802              -0.05691584       -12.74424        -66.77631        118.7852             -200               0             -200               0
1.20462              -0.05884616       -12.85254        -65.96226         115.793             -200               0             -200               0
1.21122              -0.06079421       -12.96148        -65.20117        112.4031             -200               0             -200               0
1.21782              -0.06275531       -13.07111        -64.49092        108.7015             -200               0             -200               0
1.22442              -0.06472635       -13.18146        -63.82867        104.7544             -200               0             -200               0
1.23102              -0.06670257       -13.29259        -63.21142        100.6135             -200               0             -200               0
1.23762              -0.06868364       -13.40456        -62.63622        96.31952             -200               0             -200               0
1.24422              -0.07066551       -13.51742        -62.10031        91.90501             -200               0             -200               0
1.25083              -0.07265167       -13.63125        -61.60115        87.39625             -200               0             -200               0
1.25743               -0.0746399        -13.7461        -61.13646         82.8148             -200               0             -200               0
1.26403              -0.07663532       -13.86203        -60.70419        78.17866             -200               0             -200               0
1.27063              -0.07863879       -13.97911        -60.30251        73.50307             -200               0             -200               0
1.27723              -0.08065637       -14.09739        -59.92979        68.80114             -200               0             -200               0
1.28383              -0.08269451       -14.21694        -59.58456         64.0844             -200               0             -200               0
1.29043               -0.0847568       -14.33779        -59.26553        59.36313             -200               0             -200               0
1.29703               -0.0868515       -14.46001        -58.97151        54.64669             -200               0             -200               0
1.30363              -0.08898752       -14.58361        -58.70145        49.94375             -200               0             -200               0
1.31023              -0.09117137       -14.70865        -58.45436        45.26253             -200               0             -200               0
1.31683              -0.09341114       -14.83514        -58.22935         40.6109             -200               0             -200               0
1.32343              -0.09571741        -14.9631        -58.02557        35.99659             -200               0             -200               0
1.33003               -0.0980965       -15.09255        -57.84224        31.42724             -200               0             -200               0
1.33663               -0.1005553       -15.22348        -57.67856        26.91055             -200               0             -200               0
1.34323               -0.1031034        -15.3559        -57.53377        22.45434             -200               0             -200               0
1.34984               -0.1057475        -15.4898        -57.40706        18.06663             -200               0             -200               0
1.35644               -0.1084917       -15.62518        -57.29762        13.75568             -200               0             -200               0
1.36304               -0.1113432         -15.762        -57.20456        9.530039             -200               0             -200               0
1.36964               -0.1143031       -15.90027        -57.12689        5.398564             -200               0             -200               0
1.37624               -0.1173774       -16.03996        -57.06354        1.370396             -200               0             -200               0
1.38284               -0.1205652       -16.18106        -57.01325       -2.545088             -200               0             -200               0
1.38944               -0.1238704       -16.32354        -56.97462        -6.33836             -200               0             -200               0
1.39604               -0.1272891       -16.46741          -56.946       -9.999898             -200               0             -200               0
1.40264               -0.1308236       -16.61264        -56.92551       -13.52041             -200               0             -200               0
1.40924               -0.1344689       -16.75924        -56.91097       -16.89114             -200               0             -200               0
1.41584               -0.1382233       -16.90721        -56.89989       -20.10426             -200               0             -200               0
1.42244               -0.1420827       -17.05656        -56.88945       -23.15341             -200               0             -200               0
1.42904               -0.1460448       -17.20732        -56.87649        -26.0343             -200               0             -200               0
1.43564               -0.1501038        -17.3595        -56.85753       -28.74537             -200               0             -200               0
1.44224               -0.1542567       -17.51316        -56.82886       -31.28863             -200               0             -200               0
1.44884               -0.1585001       -17.66833         -56.7866       -33.67025             -200               0             -200               0
1.45545               -0.1628296       -17.82507        -56.72684       -35.90127             -200               0             -200               0
1.46205               -0.1672433       -17.98344        -56.64586       -37.99788             -200               0             -200               0
1.46865               -0.1717399       -18.14352        -56.54029       -39.98147             -200               0             -200               0
1.47525               -0.1763177       -18.30538        -56.40734       -41.87814             -200               0             -200               0
1.48185                -0.180978       -18.46912        -56.24502        -43.7178             -200               0             -200               0
1.48845               -0.1857225       -18.63481        -56.05226       -45.53276             -200               0             -200               0
1.49505               -0.1905549       -18.80257        -55.82903       -47.35611             -200               0             -200               0
1.50165                 -0.19548       -18.97247        -55.57627        -49.2199             -200               0             -200               0
1.50825               -0.2005041       -19.14462        -55.29588       -51.15355             -200               0             -200               0
1.51485               -0.2056362       -19.31912        -54.99047       -53.18249             -200               0             -200               0
1.52145               -0.2108851       -19.49605        -54.66324       -55.32731             -200               0             -200               0
1.52805               -0.2162622       -19.67551         -54.3177       -57.60341             -200               0             -200               0
1.53465                 -0.22178       -19.85758        -53.95748         -60.021             -200               0             -200               0
1.54125               -0.2274525       -20.04233        -53.58619       -62.58554             -200               0             -200               0
1.54785               -0.2332948       -20.22985        -53.20724       -65.29836             -200               0             -200               0
1.55446                 -0.23932       -20.42019        -52.82374       -68.15736             -200               0             -200               0
1.56106               -0.2455472        -20.6134        -52.43851        -71.1578             -200               0             -200               0
1.56766                -0.251991       -20.80953        -52.05401       -74.29296             -200               0             -200               0
1.57426               -0.2586686       -21.00862        -51.67232       -77.55474             -200               0             -200               0
1.58086               -0.2655962       -21.21068        -51.29522       -80.93418             -200               0             -200               0
1.58746               -0.2727897       -21.41575        -50.92416       -84.42185             -200               0             -200               0
1.59406               -0.2802636       -21.62382        -50.56034       -88.00818             -200               0             -200               0
1.60066               -0.2880339        -21.8349         -50.2047       -91.68363             -200               0             -200               0
1.60726               -0.2961126       -22.04899        -49.85796       -95.43889             -200               0             -200               0
1.61386                -0.304513       -22.26609        -49.52069       -99.26496             -200               0             -200               0
1.62046               -0.3132458       -22.48619        -49.19328       -103.1532             -200               0             -200               0
1.62706               -0.3223198       -22.70927          -48.876       -107.0955             -200               0             -200               0
1.63366               -0.3317443       -22.93534        -48.56901       -111.0839             -200               0             -200               0
1.64026               -0.3415263       -23.16439        -48.27237       -115.1111             -200               0             -200               0
1.64686               -0.3516714       -23.39642        -47.98606       -119.1702             -200               0             -200               0
1.65347               -0.3621828       -23.63145        -47.70999       -123.2545             -200               0             -200               0
1.66007               -0.3730662        -23.8695        -47.44401       -127.3578             -200               0             -200               0
1.66667               -0.3843229       -24.11059        -47.18793       -131.4742             -200               0             -200               0
1.67327               -0.3959549       -24.35476        -46.94147       -135.5982             -200               0             -200               0
1.67987               -0.4079649       -24.60208        -46.70435       -139.7243             -200               0             -200               0
1.68647               -0.4203545       -24.85261        -46.47622       -143.8477             -200               0             -200               0
1.69307               -0.4331245       -25.10644         -46.2567       -147.9635             -200               0             -200               0
1.69967               -0.4462821       -25.36366        -46.04537       -152.0673             -200               0             -200               0
1.70627               -0.4598271        -25.6244        -45.84175       -156.1547             -200               0             -200               0
1.71287               -0.4737666       -25.88879        -45.64535       -160.2219             -200               0             -200               0
1.71947               -0.4881076       -26.15696        -45.45561       -164.2651             -200               0             -200               0
1.72607               -0.5028599       -26.42908        -45.27196       -168.2809             -200               0             -200               0
1.73267               -0.5180358       -26.70532        -45.09375       -172.2661             -200               0             -200               0
1.73927               -0.5336494       -26.98585        -44.92033        -176.218             -200               0             -200               0
1.74587               -0.5497179       -27.27087        -44.75098         179.866             -200               0             -200               0
1.75248               -0.5662624       -27.56056        -44.58494        175.9879             -200               0             -200               0
1.75908               -0.5833057       -27.85513        -44.42144        172.1492             -200               0             -200               0
1.76568                -0.600876       -28.15477        -44.25965        168.3512             -200               0             -200               0
1.77228               -0.6190034       -28.45968        -44.09872        164.5944             -200               0             -200               0
1.77888               -0.6377228       -28.77006         -43.9378        160.8788             -200               0             -200               0
1.78548               -0.6570703        -29.0861        -43.77599         157.204             -200               0             -200               0
1.79208               -0.6770872       -29.40798        -43.61243        153.5686             -200               0             -200               0
1.79868               -0.6978152       -29.73587        -43.44623        149.9708             -200               0             -200               0
1.80528               -0.7193034       -30.06994        -43.27656         146.408             -200               0             -200               0
1.81188               -0.7415996       -30.41034        -43.10262        142.8769             -200               0             -200               0
1.81848                -0.764755        -30.7572        -42.92365        139.3735             -200               0             -200               0
1.82508               -0.7888236       -31.11064        -42.73899        135.8933             -200               0             -200               0
1.83168               -0.8138593       -31.47077        -42.54802        132.4312             -200               0             -200               0
1.83828               -0.8399207       -31.83769        -42.35027        128.9816             -200               0             -200               0
1.84488               -0.8670642       -32.21147        -42.14535        125.5383             -200               0             -200               0
1.85149               -0.8953487       -32.59217          -41.933        122.0952             -200               0             -200               0
