! TOUCHSTONE file generated by CST MICROWAVE STUDIO
! Date and time: Tue Mar 18 00:02:29 2025
! Project name: oblique.cst
! Parameters = {Tilt=40; Fracture=1; B=10; D=160; F=25; Feed=2.85625; L=100; M=50; R=0.384908; S=2; Theta=180; length=57.125; wave=114.25}
! Header version: 2024
! Port assignment regex: !\s*Touchstone port\s*([0-9]+)\s*=\s*(CST MWS port|CST DES external port|CST DES block port)\s*(.+)\s* \(\"(.*)\"\)(\s*mode\s*([0-9]+))?.*
! Touchstone port assignment:
! Touchstone port 1 = CST MWS port 1 ("")
! Touchstone port 2 = CST MWS port 2 ("")
# GHz S DB R 50
1                    -0.01978394        -9.82017        -69.17823        136.0549             -200               0             -200               0
1.0076               -0.02087312       -9.921094        -69.17649        130.6432             -200               0             -200               0
1.01521              -0.02195845       -10.02247        -69.19473         125.317             -200               0             -200               0
1.02281               -0.0230324       -10.12433        -69.23332        120.0827             -200               0             -200               0
1.03042              -0.02408712       -10.22676        -69.29269        114.9479             -200               0             -200               0
1.03802              -0.02511824       -10.32981        -69.37328        109.9218             -200               0             -200               0
1.04563              -0.02612103       -10.43356        -69.47553        105.0151             -200               0             -200               0
1.05323              -0.02709322       -10.53808        -69.59988        100.2406             -200               0             -200               0
1.06084              -0.02803288       -10.64347         -69.7467        95.61343             -200               0             -200               0
1.06844              -0.02894204        -10.7498        -69.91629        91.15131             -200               0             -200               0
1.07605              -0.02982114       -10.85716        -70.10875        86.87528             -200               0             -200               0
1.08365              -0.03067476       -10.96564         -70.3239        82.81005             -200               0             -200               0
1.09125              -0.03150852       -11.07531        -70.56116        78.98453             -200               0             -200               0
1.09886              -0.03232965       -11.18625        -70.81929        75.43233             -200               0             -200               0
1.10646              -0.03314652       -11.29854        -71.09616        72.19204             -200               0             -200               0
1.11407              -0.03396874       -11.41224        -71.38834        69.30714             -200               0             -200               0
1.12167              -0.03480675        -11.5274         -71.6906        66.82503             -200               0             -200               0
1.12928              -0.03567257       -11.64407        -71.99537        64.79487             -200               0             -200               0
1.13688              -0.03657866       -11.76229        -72.29208        63.26317             -200               0             -200               0
1.14449              -0.03753728       -11.88207        -72.56664        62.26646             -200               0             -200               0
1.15209              -0.03856148       -12.00344        -72.80134        61.82065             -200               0             -200               0
1.1597               -0.03966307       -12.12639        -72.97553        61.90765             -200               0             -200               0
1.1673               -0.04085479       -12.25092        -73.06755        62.46259             -200               0             -200               0
1.1749                -0.0421481       -12.37702        -73.05796        63.36707             -200               0             -200               0
1.18251              -0.04355372       -12.50465        -72.93344        64.45507             -200               0             -200               0
1.19011              -0.04507964       -12.63379        -72.69003        65.53391             -200               0             -200               0
1.19772              -0.04673507       -12.76438        -72.33416        66.41505             -200               0             -200               0
1.20532              -0.04852669        -12.8964        -71.88092        66.94331             -200               0             -200               0
1.21293              -0.05045908       -13.02978        -71.35057        67.01415             -200               0             -200               0
1.22053               -0.0525355       -13.16447        -70.76463        66.57587             -200               0             -200               0
1.22814              -0.05475801       -13.30043        -70.14299        65.62067             -200               0             -200               0
1.23574              -0.05712669       -13.43761        -69.50231        64.17125             -200               0             -200               0
1.24335              -0.05964037       -13.57597         -68.8556        62.26799             -200               0             -200               0
1.25095              -0.06229481       -13.71545        -68.21248        59.95911             -200               0             -200               0
1.25856              -0.06508614       -13.85604        -67.57969        57.29416             -200               0             -200               0
1.26616              -0.06800908       -13.99771        -66.96179        54.32035             -200               0             -200               0
1.27376                -0.071057       -14.14044        -66.36167         51.0806             -200               0             -200               0
1.28137               -0.0742213       -14.28423        -65.78103          47.613             -200               0             -200               0
1.28897              -0.07749533        -14.4291        -65.22073        43.95075             -200               0             -200               0
1.29658              -0.08087054       -14.57506        -64.68106        40.12259             -200               0             -200               0
1.30418              -0.08433973       -14.72216        -64.16189        36.15322             -200               0             -200               0
1.31179              -0.08789388       -14.87042        -63.66285        32.06389             -200               0             -200               0
1.31939              -0.09152681       -15.01993        -63.18341        27.87287             -200               0             -200               0
1.327                -0.09523225       -15.17074        -62.72294        23.59593             -200               0             -200               0
1.3346                -0.0990059       -15.32294        -62.28073         19.2467             -200               0             -200               0
1.34221               -0.1028443       -15.47662        -61.85607        14.83705             -200               0             -200               0
1.34981               -0.1067455       -15.63188        -61.44823        10.37734             -200               0             -200               0
1.35741               -0.1107111       -15.78882        -61.05651        5.876679             -200               0             -200               0
1.36502               -0.1147419       -15.94757        -60.68019        1.343102             -200               0             -200               0
1.37262               -0.1188432       -16.10821         -60.3186       -3.216235             -200               0             -200               0
1.38023               -0.1230212       -16.27089        -59.97106        -7.79493             -200               0             -200               0
1.38783               -0.1272853       -16.43569        -59.63694       -12.38723             -200               0             -200               0
1.39544               -0.1316455       -16.60273        -59.31562       -16.98791             -200               0             -200               0
1.40304               -0.1361152       -16.77212        -59.00649       -21.59224             -200               0             -200               0
1.41065                -0.140709       -16.94395        -58.70896       -26.19584             -200               0             -200               0
1.41825               -0.1454427        -17.1183        -58.42245       -30.79473             -200               0             -200               0
1.42586               -0.1503343       -17.29524        -58.14639       -35.38521             -200               0             -200               0
1.43346               -0.1554024       -17.47485        -57.88024       -39.96384             -200               0             -200               0
1.44106               -0.1606668       -17.65717        -57.62342       -44.52744             -200               0             -200               0
1.44867               -0.1661481       -17.84223         -57.3754       -49.07305             -200               0             -200               0
1.45627               -0.1718667       -18.03007         -57.1356        -53.5979             -200               0             -200               0
1.46388                -0.177842       -18.22068        -56.90348       -58.09944             -200               0             -200               0
1.47148               -0.1840948       -18.41407        -56.67846        -62.5753             -200               0             -200               0
1.47909               -0.1906446       -18.61021        -56.45998       -67.02332             -200               0             -200               0
1.48669               -0.1975077       -18.80908        -56.24745       -71.44153             -200               0             -200               0
1.4943                -0.2047028       -19.01063        -56.04028       -75.82818             -200               0             -200               0
1.5019                -0.2122439       -19.21483        -55.83784       -80.18173             -200               0             -200               0
1.50951               -0.2201437       -19.42161        -55.63954        -84.5009             -200               0             -200               0
1.51711                -0.228414       -19.63092        -55.44472       -88.78466             -200               0             -200               0
1.52471               -0.2370642       -19.84269        -55.25274       -93.03224             -200               0             -200               0
1.53232               -0.2461013       -20.05687        -55.06295       -97.24321             -200               0             -200               0
1.53992               -0.2555297       -20.27338        -54.87467       -101.4174             -200               0             -200               0
1.54753               -0.2653521       -20.49219        -54.68724       -105.5551             -200               0             -200               0
1.55513               -0.2755707       -20.71324        -54.49999       -109.6569             -200               0             -200               0
1.56274               -0.2861828       -20.93649        -54.31223       -113.7238             -200               0             -200               0
1.57034               -0.2971872       -21.16192        -54.12333       -117.7571             -200               0             -200               0
1.57795               -0.3085789       -21.38952        -53.93264       -121.7586             -200               0             -200               0
1.58555               -0.3203536       -21.61929        -53.73953       -125.7306             -200               0             -200               0
1.59316               -0.3325049       -21.85125        -53.54343       -129.6757             -200               0             -200               0
1.60076               -0.3450267       -22.08543        -53.34379       -133.5968             -200               0             -200               0
1.60837               -0.3579139       -22.32191        -53.14012       -137.4974             -200               0             -200               0
1.61597                -0.371161       -22.56074        -52.93197       -141.3812             -200               0             -200               0
1.62357               -0.3847622       -22.80203        -52.71896       -145.2521             -200               0             -200               0
1.63118               -0.3987169       -23.04589         -52.5008       -149.1145             -200               0             -200               0
1.63878               -0.4130215       -23.29244        -52.27724       -152.9727             -200               0             -200               0
1.64639               -0.4276773       -23.54183        -52.04813       -156.8314             -200               0             -200               0
1.65399               -0.4426873       -23.79423        -51.81339        -160.695             -200               0             -200               0
1.6616                -0.4580586        -24.0498        -51.57302       -164.5682             -200               0             -200               0
1.6692                -0.4737972       -24.30873        -51.32709       -168.4554             -200               0             -200               0
1.67681               -0.4899198       -24.57121        -51.07576       -172.3609             -200               0             -200               0
1.68441               -0.5064373       -24.83742        -50.81923        -176.289             -200               0             -200               0
1.69202               -0.5233723       -25.10758         -50.5578        179.7567             -200               0             -200               0
1.69962               -0.5407456       -25.38187        -50.29178        175.7726             -200               0             -200               0
1.70722               -0.5585842        -25.6605        -50.02157        171.7554             -200               0             -200               0
1.71483               -0.5769167       -25.94364        -49.74756        167.7024             -200               0             -200               0
1.72243               -0.5957771       -26.23148        -49.47021         163.611             -200               0             -200               0
1.73004               -0.6151984       -26.52419        -49.18998        159.4793             -200               0             -200               0
1.73764               -0.6352211       -26.82192        -48.90735        155.3055             -200               0             -200               0
1.74525               -0.6558837       -27.12481         -48.6228        151.0882             -200               0             -200               0
1.75285               -0.6772305       -27.43299         -48.3368        146.8266             -200               0             -200               0
1.76046               -0.6993066       -27.74659        -48.04983        142.5199             -200               0             -200               0
1.76806               -0.7221554       -28.06567        -47.76236        138.1678             -200               0             -200               0
1.77567               -0.7458244       -28.39034        -47.47482        133.7702             -200               0             -200               0
1.78327                -0.770358       -28.72063        -47.18764        129.3272             -200               0             -200               0
1.79087               -0.7958072       -29.05662        -46.90124        124.8393             -200               0             -200               0
1.79848               -0.8222152       -29.39833        -46.61598        120.3069             -200               0             -200               0
1.80608               -0.8496293       -29.74577        -46.33222        115.7308             -200               0             -200               0
1.81369               -0.8780938       -30.09899        -46.05031        111.1118             -200               0             -200               0
1.82129               -0.9076548       -30.45796        -45.77054        106.4509             -200               0             -200               0
1.8289                -0.9383534       -30.82272        -45.49321        101.7492             -200               0             -200               0
1.8365                -0.9702326       -31.19326        -45.21856        97.00775             -200               0             -200               0
1.84411                -1.003333       -31.56959        -44.94685        92.22773             -200               0             -200               0
1.85171                -1.037695       -31.95174        -44.67828        87.41036             -200               0             -200               0
1.85932                -1.073358       -32.33973        -44.41304        82.55687             -200               0             -200               0
1.86692                 -1.11036       -32.73361        -44.15132         77.6685             -200               0             -200               0
1.87452                 -1.14874       -33.13345        -43.89327        72.74649             -200               0             -200               0
1.88213                -1.188539       -33.53932        -43.63903         67.7921             -200               0             -200               0
1.88973                -1.229797       -33.95134        -43.38872        62.80653             -200               0             -200               0
1.89734                -1.272555       -34.36963        -43.14246        57.79102             -200               0             -200               0
1.90494                -1.316861       -34.79438        -42.90034        52.74672             -200               0             -200               0
1.91255                -1.362763       -35.22575        -42.66244         47.6748             -200               0             -200               0
1.92015                -1.410314       -35.66398        -42.42885        42.57639             -200               0             -200               0
1.92776                -1.459573       -36.10932        -42.19961        37.45258             -200               0             -200               0
1.93536                -1.510605       -36.56204        -41.97479        32.30444             -200               0             -200               0
1.94297                -1.563484       -37.02245        -41.75444        27.13298             -200               0             -200               0
1.95057                -1.618288       -37.49089        -41.53859        21.93921             -200               0             -200               0
1.95817                -1.675112       -37.96771        -41.32727        16.72407             -200               0             -200               0
1.96578                -1.734053       -38.45328        -41.12051        11.48849             -200               0             -200               0
1.97338                -1.795227       -38.94798        -40.91834        6.233367             -200               0             -200               0
1.98099                -1.858757       -39.45222        -40.72076       0.9595358             -200               0             -200               0
