! TOUCHSTONE file generated by CST MICROWAVE STUDIO
! Date and time: Tue Mar 18 00:01:29 2025
! Project name: oblique.cst
! Parameters = {Tilt=30; Fracture=1; B=12.5; D=160; F=5; Feed=2.85625; L=100; M=30; R=0.384908; S=2; Theta=270; length=57.125; wave=114.25}
! Header version: 2024
! Port assignment regex: !\s*Touchstone port\s*([0-9]+)\s*=\s*(CST MWS port|CST DES external port|CST DES block port)\s*(.+)\s* \(\"(.*)\"\)(\s*mode\s*([0-9]+))?.*
! Touchstone port assignment:
! Touchstone port 1 = CST MWS port 1 ("")
! Touchstone port 2 = CST MWS port 2 ("")
# GHz S DB R 50
1                    -0.02074873       -9.799616        -67.44933       -176.5607             -200               0             -200               0
1.0066               -0.02158413       -9.887586        -67.44285        178.5211             -200               0             -200               0
1.0132               -0.02244297       -9.975963        -67.46727        173.7202             -200               0             -200               0
1.0198               -0.02332113       -10.06476        -67.52286        169.0507             -200               0             -200               0
1.0264                -0.0242145       -10.15397        -67.60997        164.5293             -200               0             -200               0
1.033                -0.02512019       -10.24362        -67.72891        160.1761             -200               0             -200               0
1.0396               -0.02603372       -10.33374        -67.87987        156.0149             -200               0             -200               0
1.0462               -0.02695299       -10.42433        -68.06285        152.0743             -200               0             -200               0
1.05281               -0.0278732       -10.51544        -68.27748        148.3883             -200               0             -200               0
1.05941              -0.02879293        -10.6071        -68.52274        144.9973             -200               0             -200               0
1.06601              -0.02970977       -10.69934        -68.79663         141.949             -200               0             -200               0
1.07261              -0.03062378       -10.79221        -69.09567        139.2983             -200               0             -200               0
1.07921               -0.0315359       -10.88574        -69.41419        137.1074             -200               0             -200               0
1.08581              -0.03244448       -10.97998        -69.74345        135.4432             -200               0             -200               0
1.09241              -0.03335251       -11.07496        -70.07061        134.3718             -200               0             -200               0
1.09901              -0.03426146       -11.17073        -70.37775        133.9485             -200               0             -200               0
1.10561              -0.03517483       -11.26733        -70.64146         134.201             -200               0             -200               0
1.11221              -0.03609792       -11.36479        -70.83374        135.1083             -200               0             -200               0
1.11881              -0.03703282       -11.46314        -70.92506        136.5786             -200               0             -200               0
1.12541              -0.03798597       -11.56242        -70.88989        138.4398             -200               0             -200               0
1.13201              -0.03896232       -11.66263        -70.71313        140.4529             -200               0             -200               0
1.13861              -0.03996708       -11.76381        -70.39469        142.3531             -200               0             -200               0
1.14521              -0.04100716       -11.86596        -69.94944        143.9017             -200               0             -200               0
1.15182              -0.04208903       -11.96909        -69.40268        144.9267             -200               0             -200               0
1.15842              -0.04321572       -12.07319        -68.78371        145.3367             -200               0             -200               0
1.16502              -0.04439462       -12.17827         -68.1203        145.1112             -200               0             -200               0
1.17162              -0.04562914       -12.28432        -67.43559        144.2785             -200               0             -200               0
1.17822              -0.04692383       -12.39132        -66.74726        142.8943             -200               0             -200               0
1.18482              -0.04828276       -12.49925        -66.06786        141.0257             -200               0             -200               0
1.19142              -0.04970759        -12.6081        -65.40585        138.7402             -200               0             -200               0
1.19802              -0.05120271       -12.71784        -64.76658         136.101             -200               0             -200               0
1.20462              -0.05276608       -12.82846        -64.15323        133.1642             -200               0             -200               0
1.21122               -0.0543989       -12.93993        -63.56745        129.9787             -200               0             -200               0
1.21782              -0.05610077       -13.05223        -63.00987        126.5861             -200               0             -200               0
1.22442              -0.05786911       -13.16535        -62.48048         123.022             -200               0             -200               0
1.23102              -0.05970056       -13.27927        -61.97884        119.3166             -200               0             -200               0
1.23762              -0.06159502       -13.39398        -61.50427        115.4956             -200               0             -200               0
1.24422               -0.0635444       -13.50949        -61.05592        111.5812             -200               0             -200               0
1.25083              -0.06554716       -13.62578        -60.63289        107.5922             -200               0             -200               0
1.25743              -0.06759748       -13.74287        -60.23425        103.5453             -200               0             -200               0
1.26403               -0.0696921       -13.86078        -59.85905        99.45484             -200               0             -200               0
1.27063              -0.07182315       -13.97953        -59.50638        95.33378             -200               0             -200               0
1.27723              -0.07398699       -14.09915        -59.17533         91.1936             -200               0             -200               0
1.28383              -0.07617958       -14.21968        -58.86502        87.04476             -200               0             -200               0
1.29043              -0.07839781       -14.34116         -58.5746        82.89686             -200               0             -200               0
1.29703              -0.08063851       -14.46364        -58.30325        78.75881             -200               0             -200               0
1.30363              -0.08289696       -14.58717        -58.05012        74.63895             -200               0             -200               0
1.31023              -0.08517312       -14.71183         -57.8144        70.54523             -200               0             -200               0
1.31683              -0.08746675       -14.83766        -57.59528        66.48524             -200               0             -200               0
1.32343              -0.08977725       -14.96474         -57.3919         62.4663             -200               0             -200               0
1.33003              -0.09210792       -15.09314        -57.20339        58.49552             -200               0             -200               0
1.33663              -0.09446014       -15.22292        -57.02886        54.57982             -200               0             -200               0
1.34323              -0.09683922       -15.35414        -56.86734        50.72593             -200               0             -200               0
1.34984              -0.09925028       -15.48688         -56.7178        46.94038             -200               0             -200               0
1.35644               -0.1016975       -15.62119        -56.57916        43.22953             -200               0             -200               0
1.36304               -0.1041895       -15.75713        -56.45021        39.59938             -200               0             -200               0
1.36964               -0.1067341       -15.89475        -56.32966        36.05562             -200               0             -200               0
1.37624               -0.1093391        -16.0341        -56.21611        32.60345             -200               0             -200               0
1.38284               -0.1120123       -16.17522        -56.10802        29.24741             -200               0             -200               0
1.38944               -0.1147638       -16.31814        -56.00374         25.9913             -200               0             -200               0
1.39604               -0.1176017       -16.46289         -55.9015        22.83788             -200               0             -200               0
1.40264               -0.1205367       -16.60948        -55.79942        19.78871             -200               0             -200               0
1.40924               -0.1235749       -16.75795        -55.69551        16.84392             -200               0             -200               0
1.41584               -0.1267274       -16.90828        -55.58771        14.00195             -200               0             -200               0
1.42244               -0.1299986       -17.06048        -55.47395        11.25936             -200               0             -200               0
1.42904               -0.1333975       -17.21456        -55.35217        8.610711             -200               0             -200               0
1.43564               -0.1369299       -17.37052        -55.22039        6.048399             -200               0             -200               0
1.44224               -0.1405996       -17.52835        -55.07678         3.56273             -200               0             -200               0
1.44884               -0.1444116       -17.68804        -54.91973        1.142006             -200               0             -200               0
1.45545               -0.1483684       -17.84959        -54.74789       -1.227221             -200               0             -200               0
1.46205                -0.152471       -18.01301        -54.56027       -3.559783             -200               0             -200               0
1.46865               -0.1567212       -18.17829        -54.35627       -5.871435             -200               0             -200               0
1.47525               -0.1611204       -18.34544         -54.1357       -8.178298             -200               0             -200               0
1.48185               -0.1656661       -18.51449        -53.89876        -10.4963             -200               0             -200               0
1.48845                -0.170357       -18.68545        -53.64606       -12.84062             -200               0             -200               0
1.49505               -0.1751945       -18.85835        -53.37857       -15.22518             -200               0             -200               0
1.50165                -0.180174       -19.03324        -53.09756       -17.66226             -200               0             -200               0
1.50825                -0.185295       -19.21016         -52.8045       -20.16219             -200               0             -200               0
1.51485               -0.1905551       -19.38917        -52.50105       -22.73325             -200               0             -200               0
1.52145               -0.1959551       -19.57035        -52.18897       -25.38156             -200               0             -200               0
1.52805               -0.2014949       -19.75377        -51.87001        -28.1112             -200               0             -200               0
1.53465               -0.2071738       -19.93952        -51.54592       -30.92433             -200               0             -200               0
1.54125               -0.2129961       -20.12769        -51.21839       -33.82139             -200               0             -200               0
1.54785               -0.2189643       -20.31839        -50.88896       -36.80133             -200               0             -200               0
1.55446               -0.2250837       -20.51173        -50.55909       -39.86188             -200               0             -200               0
1.56106               -0.2313613       -20.70781        -50.23007       -42.99971             -200               0             -200               0
1.56766               -0.2378059       -20.90676        -49.90307       -46.21074             -200               0             -200               0
1.57426                -0.244429        -21.1087        -49.57906       -49.49025             -200               0             -200               0
1.58086               -0.2512421       -21.31373        -49.25893       -52.83315             -200               0             -200               0
1.58746               -0.2582599       -21.52198        -48.94338         -56.234             -200               0             -200               0
1.59406               -0.2654993       -21.73356        -48.63301       -59.68725             -200               0             -200               0
1.60066               -0.2729781       -21.94855        -48.32828       -63.18724             -200               0             -200               0
1.60726               -0.2807163       -22.16708        -48.02955       -66.72835             -200               0             -200               0
1.61386               -0.2887355       -22.38923        -47.73707       -70.30502             -200               0             -200               0
1.62046               -0.2970577       -22.61508        -47.45101        -73.9118             -200               0             -200               0
1.62706               -0.3057064       -22.84469        -47.17144       -77.54339             -200               0             -200               0
1.63366               -0.3147053       -23.07813        -46.89835       -81.19468             -200               0             -200               0
1.64026               -0.3240793       -23.31545        -46.63167       -84.86076             -200               0             -200               0
1.64686               -0.3338534       -23.55668        -46.37126       -88.53694             -200               0             -200               0
1.65347               -0.3440517       -23.80185         -46.1169       -92.21876             -200               0             -200               0
1.66007               -0.3546988       -24.05098        -45.86833       -95.90204             -200               0             -200               0
1.66667                -0.365818       -24.30407        -45.62523       -99.58283             -200               0             -200               0
1.67327               -0.3774333       -24.56112        -45.38724       -103.2575             -200               0             -200               0
1.67987               -0.3895646       -24.82213        -45.15393       -106.9227             -200               0             -200               0
1.68647               -0.4022342       -25.08709        -44.92484       -110.5754             -200               0             -200               0
1.69307               -0.4154624       -25.35598        -44.69948        -114.213             -200               0             -200               0
1.69967               -0.4292642       -25.62878        -44.47728       -117.8331             -200               0             -200               0
1.70627               -0.4436569        -25.9055        -44.25769       -121.4339             -200               0             -200               0
1.71287               -0.4586579        -26.1861         -44.0401       -125.0138             -200               0             -200               0
1.71947               -0.4742805        -26.4706        -43.82387       -128.5718             -200               0             -200               0
1.72607               -0.4905376         -26.759        -43.60836       -132.1073             -200               0             -200               0
1.73267               -0.5074419        -27.0513        -43.39292       -135.6203             -200               0             -200               0
1.73927               -0.5250036       -27.34755        -43.17688       -139.1111             -200               0             -200               0
1.74587               -0.5432358       -27.64778         -42.9596       -142.5806             -200               0             -200               0
1.75248               -0.5621491       -27.95204        -42.74044       -146.0305             -200               0             -200               0
1.75908               -0.5817552        -28.2604        -42.51879       -149.4625             -200               0             -200               0
1.76568               -0.6020673       -28.57296        -42.29407       -152.8792             -200               0             -200               0
1.77228               -0.6230996       -28.88981        -42.06576       -156.2836             -200               0             -200               0
1.77888               -0.6448678       -29.21108        -41.83339       -159.6789             -200               0             -200               0
1.78548               -0.6673887        -29.5369        -41.59656        -163.069             -200               0             -200               0
1.79208               -0.6906844       -29.86743        -41.35493       -166.4578             -200               0             -200               0
1.79868               -0.7147786       -30.20283        -41.10825       -169.8499             -200               0             -200               0
1.80528               -0.7396964       -30.54327        -40.85636       -173.2496             -200               0             -200               0
1.81188               -0.7654703       -30.88895        -40.59918       -176.6615             -200               0             -200               0
1.81848                -0.792133       -31.24005        -40.33671        179.9098             -200               0             -200               0
1.82508               -0.8197262       -31.59679        -40.06906        176.4598             -200               0             -200               0
1.83168               -0.8482935       -31.95936         -39.7964         172.984             -200               0             -200               0
1.83828                -0.877882       -32.32796        -39.51898        169.4784             -200               0             -200               0
1.84488               -0.9085461        -32.7028        -39.23711        165.9392             -200               0             -200               0
1.85149               -0.9403441       -33.08405        -38.95119        162.3628             -200               0             -200               0
