! TOUCHSTONE file generated by CST MICROWAVE STUDIO
! Date and time: Tue Mar 18 00:02:56 2025
! Project name: oblique.cst
! Parameters = {Tilt=40; Fracture=1; B=12.5; D=160; F=15; Feed=2.85625; L=100; M=10; R=0.384908; S=2; Theta=90; length=57.125; wave=114.25}
! Header version: 2024
! Port assignment regex: !\s*Touchstone port\s*([0-9]+)\s*=\s*(CST MWS port|CST DES external port|CST DES block port)\s*(.+)\s* \(\"(.*)\"\)(\s*mode\s*([0-9]+))?.*
! Touchstone port assignment:
! Touchstone port 1 = CST MWS port 1 ("")
! Touchstone port 2 = CST MWS port 2 ("")
# GHz S DB R 50
1                    -0.01912197       -9.779914         -69.9504       -154.8733             -200               0             -200               0
1.0066               -0.01983763       -9.868439        -69.84414       -158.2193             -200               0             -200               0
1.0132               -0.02059165       -9.957453        -69.75417       -161.4319             -200               0             -200               0
1.0198               -0.02138137       -10.04694        -69.67842       -164.4972             -200               0             -200               0
1.0264               -0.02220362       -10.13691        -69.61452       -167.4016             -200               0             -200               0
1.033                -0.02305658       -10.22733        -69.55966       -170.1322             -200               0             -200               0
1.0396               -0.02393417       -10.31823         -69.5106        -172.677             -200               0             -200               0
1.0462               -0.02483531       -10.40959         -69.4636        -175.026             -200               0             -200               0
1.05281               -0.0257553       -10.50144        -69.41439       -177.1721             -200               0             -200               0
1.05941              -0.02669068       -10.59379        -69.35826       -179.1122             -200               0             -200               0
1.06601              -0.02763841       -10.68667        -69.29006        179.1517             -200               0             -200               0
1.07261              -0.02859481       -10.78008        -69.20442         177.611             -200               0             -200               0
1.07921              -0.02955809       -10.87407        -69.09597        176.2495             -200               0             -200               0
1.08581              -0.03052684       -10.96867        -68.95964        175.0433             -200               0             -200               0
1.09241              -0.03149761       -11.06391        -68.79106        173.9606             -200               0             -200               0
1.09901              -0.03247185       -11.15983        -68.58686        172.9629             -200               0             -200               0
1.10561              -0.03344843       -11.25647        -68.34501         172.007             -200               0             -200               0
1.11221              -0.03442883       -11.35388        -68.06499        171.0475             -200               0             -200               0
1.11881              -0.03541439       -11.45208        -67.74787          170.04             -200               0             -200               0
1.12541              -0.03640759       -11.55112        -67.39608        168.9438             -200               0             -200               0
1.13201              -0.03741144       -11.65104        -67.01326        167.7241             -200               0             -200               0
1.13861              -0.03842948       -11.75187        -66.60382        166.3538             -200               0             -200               0
1.14521              -0.03946697       -11.85364        -66.17263        164.8134             -200               0             -200               0
1.15182              -0.04052762       -11.95638        -65.72467        163.0912             -200               0             -200               0
1.15842              -0.04161692       -12.06011        -65.26472        161.1826             -200               0             -200               0
1.16502              -0.04274097       -12.16486        -64.79723        159.0883             -200               0             -200               0
1.17162              -0.04390494       -12.27062        -64.32615        156.8137             -200               0             -200               0
1.17822              -0.04511471       -12.37742        -63.85491        154.3674             -200               0             -200               0
1.18482              -0.04637583       -12.48526        -63.38642        151.7599             -200               0             -200               0
1.19142              -0.04769196       -12.59413        -62.92304        149.0033             -200               0             -200               0
1.19802              -0.04907036       -12.70402        -62.46672        146.1103             -200               0             -200               0
1.20462               -0.0505139       -12.81494        -62.01896        143.0934             -200               0             -200               0
1.21122              -0.05202663       -12.92686        -61.58095        139.9652             -200               0             -200               0
1.21782              -0.05361142       -13.03978        -61.15355        136.7379             -200               0             -200               0
1.22442              -0.05527055       -13.15366        -60.73739        133.4227             -200               0             -200               0
1.23102              -0.05700645        -13.2685        -60.33289        130.0306             -200               0             -200               0
1.23762              -0.05881861       -13.38428        -59.94032        126.5716             -200               0             -200               0
1.24422              -0.06070761       -13.50099        -59.55979        123.0551             -200               0             -200               0
1.25083              -0.06267219       -13.61859        -59.19129        119.4899             -200               0             -200               0
1.25743              -0.06471066        -13.7371        -58.83475         115.884             -200               0             -200               0
1.26403              -0.06682104       -13.85649        -58.48999        112.2451             -200               0             -200               0
1.27063              -0.06900017       -13.97676        -58.15679        108.5799             -200               0             -200               0
1.27723              -0.07124477       -14.09791        -57.83487        104.8951             -200               0             -200               0
1.28383              -0.07355063       -14.21996        -57.52391        101.1964             -200               0             -200               0
1.29043              -0.07591559       -14.34291        -57.22353        97.48962             -200               0             -200               0
1.29703              -0.07833345       -14.46678        -56.93334        93.77974             -200               0             -200               0
1.30363              -0.08080125        -14.5916        -56.65291        90.07156             -200               0             -200               0
1.31023              -0.08331452        -14.7174        -56.38179        86.36949             -200               0             -200               0
1.31683              -0.08587144       -14.84422        -56.11948        82.67759             -200               0             -200               0
1.32343              -0.08846731        -14.9721        -55.86549        78.99961             -200               0             -200               0
1.33003              -0.09110131       -15.10108        -55.61928        75.33896             -200               0             -200               0
1.33663              -0.09377152       -15.23123        -55.38029        71.69874             -200               0             -200               0
1.34323              -0.09647726        -15.3626        -55.14795        68.08172             -200               0             -200               0
1.34984              -0.09921775       -15.49524        -54.92167        64.49033             -200               0             -200               0
1.35644               -0.1019957       -15.62923        -54.70084        60.92669             -200               0             -200               0
1.36304               -0.1048118       -15.76461        -54.48482        57.39255             -200               0             -200               0
1.36964                 -0.10767       -15.90147        -54.27297        53.88931             -200               0             -200               0
1.37624                -0.110574       -16.03984        -54.06465        50.41795             -200               0             -200               0
1.38284               -0.1135282        -16.1798        -53.85919        46.97912             -200               0             -200               0
1.38944               -0.1165393       -16.32141        -53.65595        43.57302             -200               0             -200               0
1.39604               -0.1196139       -16.46471        -53.45425        40.19945             -200               0             -200               0
1.40264               -0.1227581       -16.60976        -53.25347        36.85778             -200               0             -200               0
1.40924               -0.1259802        -16.7566        -53.05297        33.54697             -200               0             -200               0
1.41584               -0.1292878       -16.90527        -52.85216        30.26555             -200               0             -200               0
1.42244               -0.1326897        -17.0558        -52.65047        27.01166             -200               0             -200               0
1.42904               -0.1361932       -17.20824        -52.44737        23.78303             -200               0             -200               0
1.43564               -0.1398065       -17.36259        -52.24238        20.57705             -200               0             -200               0
1.44224               -0.1435391       -17.51889        -52.03508         17.3908             -200               0             -200               0
1.44884               -0.1473968       -17.67714        -51.82509        14.22109             -200               0             -200               0
1.45545               -0.1513877       -17.83736        -51.61213        11.06448             -200               0             -200               0
1.46205               -0.1555182       -17.99956        -51.39595        7.917425             -200               0             -200               0
1.46865               -0.1597941       -18.16376        -51.17642        4.776248             -200               0             -200               0
1.47525                 -0.16422       -18.32994        -50.95343        1.637263             -200               0             -200               0
1.48185               -0.1688017       -18.49814        -50.72698       -1.503179             -200               0             -200               0
1.48845               -0.1735409       -18.66834        -50.49714        -4.64862             -200               0             -200               0
1.49505                -0.178442       -18.84056        -50.26402       -7.802436             -200               0             -200               0
1.50165               -0.1835064       -19.01483         -50.0278       -10.96778             -200               0             -200               0
1.50825               -0.1887361       -19.19114        -49.78874       -14.14754             -200               0             -200               0
1.51485               -0.1941325       -19.36954         -49.5471        -17.3443             -200               0             -200               0
1.52145               -0.1996962       -19.55006        -49.30322       -20.56028             -200               0             -200               0
1.52805               -0.2054265       -19.73272        -49.05745       -23.79739             -200               0             -200               0
1.53465               -0.2113247       -19.91757        -48.81016       -27.05713             -200               0             -200               0
1.54125               -0.2173906       -20.10467        -48.56174       -30.34065             -200               0             -200               0
1.54785               -0.2236257       -20.29408        -48.31259       -33.64874             -200               0             -200               0
1.55446               -0.2300304       -20.48588        -48.06309       -36.98181             -200               0             -200               0
1.56106               -0.2366066       -20.68012        -47.81364       -40.33996             -200               0             -200               0
1.56766               -0.2433571       -20.87692        -47.56461       -43.72298             -200               0             -200               0
1.57426               -0.2502856       -21.07634        -47.31634       -47.13034             -200               0             -200               0
1.58086                -0.257397       -21.27851        -47.06918       -50.56128             -200               0             -200               0
1.58746               -0.2646966       -21.48351        -46.82341       -54.01479             -200               0             -200               0
1.59406               -0.2721928       -21.69147        -46.57933       -57.48967             -200               0             -200               0
1.60066               -0.2798951       -21.90249        -46.33716       -60.98452             -200               0             -200               0
1.60726               -0.2878133       -22.11669        -46.09714       -64.49783             -200               0             -200               0
1.61386               -0.2959605       -22.33419        -45.85942       -68.02793             -200               0             -200               0
1.62046               -0.3043498       -22.55511        -45.62417       -71.57309             -200               0             -200               0
1.62706               -0.3129987       -22.77956        -45.39148       -75.13149             -200               0             -200               0
1.63366               -0.3219226       -23.00766        -45.16144        -78.7013             -200               0             -200               0
1.64026               -0.3311426       -23.23951        -44.93408       -82.28063             -200               0             -200               0
1.64686               -0.3406775       -23.47523        -44.70942       -85.86762             -200               0             -200               0
1.65347               -0.3505502       -23.71491        -44.48744       -89.46041             -200               0             -200               0
1.66007                -0.360783       -23.95865        -44.26806       -93.05721             -200               0             -200               0
1.66667               -0.3714004       -24.20653        -44.05122       -96.65626             -200               0             -200               0
1.67327               -0.3824265       -24.45864        -43.83678       -100.2559             -200               0             -200               0
1.67987               -0.3938887       -24.71505        -43.62462       -103.8546             -200               0             -200               0
1.68647               -0.4058127       -24.97582        -43.41455       -107.4508             -200               0             -200               0
1.69307               -0.4182255       -25.24102        -43.20638       -111.0433             -200               0             -200               0
1.69967               -0.4311539       -25.51069         -42.9999       -114.6309             -200               0             -200               0
1.70627               -0.4446253       -25.78489        -42.79485       -118.2125             -200               0             -200               0
1.71287               -0.4586669       -26.06365        -42.59099       -121.7873             -200               0             -200               0
1.71947               -0.4733058       -26.34701        -42.38804       -125.3548             -200               0             -200               0
1.72607               -0.4885698         -26.635        -42.18571       -128.9144             -200               0             -200               0
1.73267               -0.5044857       -26.92766         -41.9837       -132.4659             -200               0             -200               0
1.73927               -0.5210798       -27.22502        -41.78172       -136.0093             -200               0             -200               0
1.74587               -0.5383801        -27.5271        -41.57946       -139.5449             -200               0             -200               0
1.75248               -0.5564123       -27.83394        -41.37661        -143.073             -200               0             -200               0
1.75908               -0.5752025       -28.14558        -41.17287       -146.5945             -200               0             -200               0
1.76568               -0.5947803       -28.46205        -40.96795       -150.1102             -200               0             -200               0
1.77228                -0.615171       -28.78339        -40.76159       -153.6212             -200               0             -200               0
1.77888               -0.6364027       -29.10965        -40.55351        -157.129             -200               0             -200               0
1.78548               -0.6585061       -29.44088        -40.34349       -160.6351             -200               0             -200               0
1.79208               -0.6815083       -29.77715        -40.13131       -164.1412             -200               0             -200               0
1.79868               -0.7054414       -30.11851         -39.9168       -167.6493             -200               0             -200               0
1.80528               -0.7303389       -30.46504        -39.69979       -171.1615             -200               0             -200               0
1.81188                -0.756234       -30.81682        -39.48019       -174.6799             -200               0             -200               0
1.81848               -0.7831646       -31.17393         -39.2579       -178.2067             -200               0             -200               0
1.82508                -0.811168       -31.53646        -39.03289        178.2556             -200               0             -200               0
1.83168               -0.8402871        -31.9045        -38.80516        174.7048             -200               0             -200               0
1.83828                -0.870565       -32.27815        -38.57474        171.1386             -200               0             -200               0
1.84488               -0.9020509       -32.65749        -38.34169        167.5546             -200               0             -200               0
1.85149               -0.9347936       -33.04262        -38.10614        163.9507             -200               0             -200               0
