! TOUCHSTONE file generated by CST MICROWAVE STUDIO
! Date and time: Tue Mar 18 00:02:59 2025
! Project name: oblique.cst
! Parameters = {Tilt=40; Fracture=1; B=12.5; D=160; F=15; Feed=2.85625; L=100; M=30; R=0.384908; S=2; Theta=270; length=57.125; wave=114.25}
! Header version: 2024
! Port assignment regex: !\s*Touchstone port\s*([0-9]+)\s*=\s*(CST MWS port|CST DES external port|CST DES block port)\s*(.+)\s* \(\"(.*)\"\)(\s*mode\s*([0-9]+))?.*
! Touchstone port assignment:
! Touchstone port 1 = CST MWS port 1 ("")
! Touchstone port 2 = CST MWS port 2 ("")
# GHz S DB R 50
1                    -0.02197655       -9.769634        -65.40215        168.6216             -200               0             -200               0
1.00662              -0.02255078       -9.855816         -65.4867        162.5007             -200               0             -200               0
1.01325              -0.02309868       -9.942719        -65.61045        156.4787             -200               0             -200               0
1.01987              -0.02362339        -10.0304        -65.77571        150.5636             -200               0             -200               0
1.02649              -0.02413234       -10.11892        -65.98529        144.7667             -200               0             -200               0
1.03311              -0.02463046       -10.20832         -66.2426        139.1029             -200               0             -200               0
1.03974              -0.02512493       -10.29866        -66.55175        133.5922             -200               0             -200               0
1.04636              -0.02562631       -10.38995        -66.91771        128.2613             -200               0             -200               0
1.05298              -0.02614377       -10.48223        -67.34652        123.1467             -200               0             -200               0
1.0596               -0.02668403       -10.57551        -67.84544        118.2979             -200               0             -200               0
1.06623              -0.02725949        -10.6698        -68.42325        113.7846             -200               0             -200               0
1.07285              -0.02787796        -10.7651        -69.09032        109.7054             -200               0             -200               0
1.07947              -0.02854866       -10.86139        -69.85855        106.2045             -200               0             -200               0
1.08609              -0.02928096       -10.95866        -70.74039        103.4963             -200               0             -200               0
1.09272              -0.03008091       -11.05687        -71.74564         101.907             -200               0             -200               0
1.09934              -0.03095644       -11.15599         -72.8724        101.9345             -200               0             -200               0
1.10596              -0.03191075       -11.25598        -74.08365        104.3132             -200               0             -200               0
1.11258              -0.03294897       -11.35679         -75.2559        109.9644             -200               0             -200               0
1.11921              -0.03407413       -11.45838        -76.10925        119.4581             -200               0             -200               0
1.12583              -0.03528626       -11.56069         -76.2559        131.6718             -200               0             -200               0
1.13245              -0.03658593       -11.66368        -75.53779        143.3735             -200               0             -200               0
1.13907              -0.03797106        -11.7673         -74.2243        151.8101             -200               0             -200               0
1.1457               -0.03943673       -11.87151        -72.69356        156.5168             -200               0             -200               0
1.15232              -0.04098123       -11.97627        -71.17361        158.2775             -200               0             -200               0
1.15894              -0.04259559       -12.08155        -69.75453        157.9816             -200               0             -200               0
1.16556              -0.04427504       -12.18733        -68.45886        156.2892             -200               0             -200               0
1.17219              -0.04601119       -12.29359        -67.28326        153.6407             -200               0             -200               0
1.17881              -0.04779697       -12.40033        -66.21636        150.3244             -200               0             -200               0
1.18543              -0.04962388       -12.50757        -65.24551        146.5318             -200               0             -200               0
1.19205              -0.05148199        -12.6153          -64.359        142.3924             -200               0             -200               0
1.19868              -0.05336465       -12.72357        -63.54673        137.9969             -200               0             -200               0
1.2053               -0.05526426       -12.83241        -62.80016        133.4097             -200               0             -200               0
1.21192                -0.057173       -12.94187        -62.11217        128.6782             -200               0             -200               0
1.21854              -0.05908514         -13.052        -61.47681         123.838             -200               0             -200               0
1.22517              -0.06099627       -13.16287        -60.88909        118.9162             -200               0             -200               0
1.23179              -0.06290226       -13.27454        -60.34482        113.9342             -200               0             -200               0
1.23841              -0.06480175       -13.38711        -59.84047        108.9092             -200               0             -200               0
1.24503              -0.06669399       -13.50063        -59.37302         103.855             -200               0             -200               0
1.25166              -0.06858065       -13.61519         -58.9399        98.78351             -200               0             -200               0
1.25828              -0.07046422       -13.73087        -58.53892        93.70458             -200               0             -200               0
1.2649               -0.07234904       -13.84774        -58.16815        88.62702             -200               0             -200               0
1.27152              -0.07424099       -13.96588        -57.82595        83.55865             -200               0             -200               0
1.27815              -0.07614822       -14.08536        -57.51086        78.50663             -200               0             -200               0
1.28477              -0.07807919       -14.20623        -57.22163        73.47766             -200               0             -200               0
1.29139              -0.08004192       -14.32855        -56.95712        68.47816             -200               0             -200               0
1.29801              -0.08204867       -14.45236        -56.71634        63.51438             -200               0             -200               0
1.30464              -0.08411093       -14.57769        -56.49837        58.59253             -200               0             -200               0
1.31126              -0.08623767       -14.70457        -56.30238        53.71889             -200               0             -200               0
1.31788              -0.08844197       -14.83301        -56.12762        48.89988             -200               0             -200               0
1.3245               -0.09073582         -14.963        -55.97334        44.14216             -200               0             -200               0
1.33113              -0.09312762       -15.09455        -55.83883        39.45268             -200               0             -200               0
1.33775              -0.09562775       -15.22763        -55.72338        34.83877             -200               0             -200               0
1.34437              -0.09824517       -15.36222        -55.62626        30.30817             -200               0             -200               0
1.35099               -0.1009878       -15.49828        -55.54666         25.8691             -200               0             -200               0
1.35762               -0.1038604       -15.63579        -55.48375        21.53026             -200               0             -200               0
1.36424               -0.1068688       -15.77468        -55.43655        17.30085             -200               0             -200               0
1.37086               -0.1100153       -15.91493        -55.40396        13.19058             -200               0             -200               0
1.37748               -0.1132994        -16.0565        -55.38471        9.209565             -200               0             -200               0
1.38411               -0.1167224       -16.19933         -55.3773        5.368224             -200               0             -200               0
1.39073               -0.1202819       -16.34339        -55.37997        1.677114             -200               0             -200               0
1.39735               -0.1239731       -16.48866        -55.39067       -1.853361             -200               0             -200               0
1.40397               -0.1277918       -16.63511        -55.40696       -5.213328             -200               0             -200               0
1.4106                -0.1317303       -16.78272        -55.42604        -8.39396             -200               0             -200               0
1.41722               -0.1357828        -16.9315        -55.44468       -11.38814             -200               0             -200               0
1.42384               -0.1399399       -17.08145        -55.45924       -14.19124             -200               0             -200               0
1.43046               -0.1441938        -17.2326        -55.46569       -16.80206             -200               0             -200               0
1.43709               -0.1485352       -17.38499        -55.45971       -19.22376             -200               0             -200               0
1.44371               -0.1529563       -17.53866        -55.43679       -21.46479             -200               0             -200               0
1.45033               -0.1574498       -17.69368        -55.39246       -23.53964             -200               0             -200               0
1.45695               -0.1620076       -17.85012        -55.32247       -25.46919             -200               0             -200               0
1.46358               -0.1666249       -18.00808        -55.22313       -27.28054             -200               0             -200               0
1.4702                -0.1712968       -18.16764        -55.09157       -29.00625             -200               0             -200               0
1.47682               -0.1760217       -18.32893        -54.92595       -30.68286             -200               0             -200               0
1.48344               -0.1807978       -18.49206        -54.72564       -32.34896             -200               0             -200               0
1.49007               -0.1856268       -18.65715        -54.49125       -34.04292             -200               0             -200               0
1.49669               -0.1905126       -18.82432        -54.22461       -35.80062             -200               0             -200               0
1.50331               -0.1954627       -18.99371        -53.92853       -37.65365             -200               0             -200               0
1.50993               -0.2004824       -19.16544        -53.60657       -39.62789             -200               0             -200               0
1.51656                -0.205585       -19.33964         -53.2628        -41.7429             -200               0             -200               0
1.52318               -0.2107811       -19.51642        -52.90147       -44.01181             -200               0             -200               0
1.5298                -0.2160867       -19.69589        -52.52681       -46.44182             -200               0             -200               0
1.53642               -0.2215186       -19.87816        -52.14283       -49.03492             -200               0             -200               0
1.54305               -0.2270926       -20.06332        -51.75323       -51.78889             -200               0             -200               0
1.54967               -0.2328302       -20.25145        -51.36127       -54.69819             -200               0             -200               0
1.55629               -0.2387507       -20.44262        -50.96981       -57.75492             -200               0             -200               0
1.56291               -0.2448749       -20.63687        -50.58125       -60.94956             -200               0             -200               0
1.56954               -0.2512234       -20.83425         -50.1976       -64.27159             -200               0             -200               0
1.57616               -0.2578174       -21.03478         -49.8205       -67.71003             -200               0             -200               0
1.58278               -0.2646778       -21.23848        -49.45125       -71.25376             -200               0             -200               0
1.5894                -0.2718214       -21.44534        -49.09089       -74.89181             -200               0             -200               0
1.59603               -0.2792694       -21.65535        -48.74018       -78.61353             -200               0             -200               0
1.60265               -0.2870381        -21.8685        -48.39971       -82.40868             -200               0             -200               0
1.60927               -0.2951416       -22.08476        -48.06986       -86.26754             -200               0             -200               0
1.61589               -0.3035945       -22.30409        -47.75089       -90.18086             -200               0             -200               0
1.62252               -0.3124078       -22.52646        -47.44293       -94.13994             -200               0             -200               0
1.62914                 -0.32159       -22.75184        -47.14598       -98.13658             -200               0             -200               0
1.63576               -0.3311499       -22.98019        -46.85998        -102.163             -200               0             -200               0
1.64238               -0.3410921       -23.21148        -46.58478        -106.212             -200               0             -200               0
1.64901                 -0.35142       -23.44571        -46.32016       -110.2767             -200               0             -200               0
1.65563                -0.362135       -23.68285        -46.06586       -114.3506             -200               0             -200               0
1.66225                -0.373237       -23.92291        -45.82153       -118.4277             -200               0             -200               0
1.66887               -0.3847265       -24.16591        -45.58679        -122.502             -200               0             -200               0
1.6755                -0.3966011       -24.41189        -45.36122       -126.5683             -200               0             -200               0
1.68212                -0.408858        -24.6609        -45.14434       -130.6214             -200               0             -200               0
1.68874               -0.4214953       -24.91301        -44.93561       -134.6564             -200               0             -200               0
1.69536               -0.4345117        -25.1683        -44.73446        -138.669             -200               0             -200               0
1.70199               -0.4479059        -25.4269        -44.54027       -142.6548             -200               0             -200               0
1.70861               -0.4616773       -25.68893        -44.35236       -146.6101             -200               0             -200               0
1.71523               -0.4758293       -25.95454        -44.17002       -150.5313             -200               0             -200               0
1.72185                -0.490365        -26.2239        -43.99248       -154.4155             -200               0             -200               0
1.72848                -0.505293       -26.49718        -43.81893       -158.2599             -200               0             -200               0
1.7351                -0.5206216       -26.77459         -43.6485       -162.0625             -200               0             -200               0
1.74172                -0.536363       -27.05635         -43.4803       -165.8215             -200               0             -200               0
1.74834               -0.5525362       -27.34265        -43.31338       -169.5359             -200               0             -200               0
1.75497               -0.5691598       -27.63374         -43.1468       -173.2054             -200               0             -200               0
1.76159               -0.5862579       -27.92984        -42.97956       -176.8303             -200               0             -200               0
1.76821                -0.603859       -28.23118        -42.81067        179.5885             -200               0             -200               0
1.77483               -0.6219942       -28.53801        -42.63916         176.049             -200               0             -200               0
1.78146               -0.6407005       -28.85052        -42.46406        172.5488             -200               0             -200               0
1.78808               -0.6600171       -29.16897        -42.28446        169.0843             -200               0             -200               0
1.7947                -0.6799862       -29.49354        -42.09949        165.6514             -200               0             -200               0
1.80132               -0.7006551       -29.82445        -41.90838        162.2452             -200               0             -200               0
1.80795               -0.7220733       -30.16187        -41.71043        158.8599             -200               0             -200               0
1.81457               -0.7442928       -30.50599        -41.50509        155.4895             -200               0             -200               0
1.82119               -0.7673676       -30.85695         -41.2919        152.1271             -200               0             -200               0
1.82781               -0.7913563       -31.21491        -41.07055        148.7659             -200               0             -200               0
1.83444               -0.8163166          -31.58        -40.84089        145.3985             -200               0             -200               0
1.84106               -0.8423089       -31.95231         -40.6029        142.0178             -200               0             -200               0
1.84768               -0.8693952       -32.33197        -40.35671        138.6167             -200               0             -200               0
1.8543                -0.8976376       -32.71904         -40.1026        135.1882             -200               0             -200               0
