! TOUCHSTONE file generated by CST MICROWAVE STUDIO
! Date and time: Tue Mar 18 00:00:59 2025
! Project name: oblique.cst
! Parameters = {Tilt=30; Fracture=1; B=10; D=160; F=15; Feed=2.85625; L=100; M=50; R=0.384908; S=2; Theta=90; length=57.125; wave=114.25}
! Header version: 2024
! Port assignment regex: !\s*Touchstone port\s*([0-9]+)\s*=\s*(CST MWS port|CST DES external port|CST DES block port)\s*(.+)\s* \(\"(.*)\"\)(\s*mode\s*([0-9]+))?.*
! Touchstone port assignment:
! Touchstone port 1 = CST MWS port 1 ("")
! Touchstone port 2 = CST MWS port 2 ("")
# GHz S DB R 50
1                    -0.02072923       -9.802714        -67.63226        162.0877             -200               0             -200               0
1.0066               -0.02148539       -9.890265        -67.58601        156.3937             -200               0             -200               0
1.0132               -0.02224417       -9.978339        -67.57062        150.7961             -200               0             -200               0
1.0198               -0.02300708       -10.06696        -67.58651         145.302             -200               0             -200               0
1.0264               -0.02377134       -10.15617        -67.63429        139.9206             -200               0             -200               0
1.033                -0.02453671       -10.24599        -67.71467        134.6634             -200               0             -200               0
1.0396               -0.02530613       -10.33646        -67.82853        129.5443             -200               0             -200               0
1.0462               -0.02607875        -10.4276        -67.97685        124.5808             -200               0             -200               0
1.05281              -0.02685741       -10.51946        -68.16067        119.7943             -200               0             -200               0
1.05941              -0.02764396       -10.61205        -68.38105        115.2112             -200               0             -200               0
1.06601              -0.02844182       -10.70542        -68.63897         110.864             -200               0             -200               0
1.07261              -0.02925448       -10.79958        -68.93514         106.793             -200               0             -200               0
1.07921               -0.0300859       -10.89457        -69.26973         103.048             -200               0             -200               0
1.08581              -0.03094033       -10.99038        -69.64193         99.6901             -200               0             -200               0
1.09241              -0.03182199       -11.08706        -70.04925        96.79393             -200               0             -200               0
1.09901              -0.03273574        -11.1846         -70.4865        94.44866             -200               0             -200               0
1.10561              -0.03368553       -11.28301        -70.94417        92.75709             -200               0             -200               0
1.11221              -0.03467807        -11.3823        -71.40647        91.82971             -200               0             -200               0
1.11881              -0.03571437       -11.48246        -71.84885        91.76947             -200               0             -200               0
1.12541              -0.03680252       -11.58349        -72.23629        92.64207             -200               0             -200               0
1.13201              -0.03794257       -11.68539         -72.5241        94.43042             -200               0             -200               0
1.13861              -0.03913964       -11.78814        -72.66397        96.98494             -200               0             -200               0
1.14521              -0.04039518       -11.89174        -72.61626        100.0018             -200               0             -200               0
1.15182              -0.04171334       -11.99615        -72.36422        103.0652             -200               0             -200               0
1.15842               -0.0430919       -12.10138        -71.92096        105.7523             -200               0             -200               0
1.16502              -0.04453566        -12.2074         -71.3239        107.7423             -200               0             -200               0
1.17162              -0.04604141        -12.3142        -70.62084        108.8675             -200               0             -200               0
1.17822              -0.04760952       -12.42177        -69.85718        109.0979             -200               0             -200               0
1.18482              -0.04923838       -12.53009        -69.06901        108.4922             -200               0             -200               0
1.19142              -0.05092546       -12.63917        -68.28184        107.1517             -200               0             -200               0
1.19802              -0.05267051       -12.74899         -67.5122        105.1875             -200               0             -200               0
1.20462              -0.05446768       -12.85955        -66.76997        102.7048             -200               0             -200               0
1.21122              -0.05631571       -12.97086        -66.06054        99.79557             -200               0             -200               0
1.21782              -0.05820991       -13.08294        -65.38641        96.53714             -200               0             -200               0
1.22442              -0.06014762       -13.19579        -64.74827        92.99358             -200               0             -200               0
1.23102              -0.06212384       -13.30945        -64.14576        89.21737             -200               0             -200               0
1.23762              -0.06413736       -13.42393        -63.57789        85.25146             -200               0             -200               0
1.24422              -0.06618534       -13.53927        -63.04338        81.13115             -200               0             -200               0
1.25083               -0.0682631       -13.65551        -62.54082        76.88558             -200               0             -200               0
1.25743              -0.07037157       -13.77269        -62.06875        72.53902             -200               0             -200               0
1.26403              -0.07250708       -13.89085        -61.62575        68.11185             -200               0             -200               0
1.27063              -0.07467248       -14.01006        -61.21047        63.62141             -200               0             -200               0
1.27723              -0.07686483       -14.13035        -60.82163        59.08256             -200               0             -200               0
1.28383              -0.07908659       -14.25179        -60.45805        54.50826             -200               0             -200               0
1.29043              -0.08134281       -14.37443        -60.11863        49.90993             -200               0             -200               0
1.29703              -0.08363352       -14.49832        -59.80235        45.29776             -200               0             -200               0
1.30363              -0.08596487       -14.62351        -59.50826        40.68101             -200               0             -200               0
1.31023              -0.08834069       -14.75006        -59.23548         36.0682             -200               0             -200               0
1.31683              -0.09076825       -14.87802        -58.98319        31.46729             -200               0             -200               0
1.32343              -0.09325554       -15.00741         -58.7506        26.88582             -200               0             -200               0
1.33003              -0.09580678       -15.13829        -58.53696        22.33104             -200               0             -200               0
1.33663              -0.09843229       -15.27069        -58.34154        17.80999             -200               0             -200               0
1.34323               -0.1011385       -15.40464        -58.16363        13.32961             -200               0             -200               0
1.34984               -0.1039366       -15.54014        -58.00251        8.896786             -200               0             -200               0
1.35644               -0.1068326       -15.67723        -57.85745        4.518426             -200               0             -200               0
1.36304               -0.1098355       -15.81591        -57.72768        0.201474             -200               0             -200               0
1.36964               -0.1129538       -15.95618        -57.61238       -4.047048             -200               0             -200               0
1.37624               -0.1161944       -16.09805        -57.51069       -8.220037             -200               0             -200               0
1.38284               -0.1195659        -16.2415        -57.42166       -12.31033             -200               0             -200               0
1.38944               -0.1230729       -16.38652        -57.34423       -16.31072             -200               0             -200               0
1.39604               -0.1267215        -16.5331        -57.27721       -20.21406             -200               0             -200               0
1.40264               -0.1305177       -16.68123        -57.21931       -24.01333             -200               0             -200               0
1.40924               -0.1344643       -16.83088        -57.16904       -27.70177             -200               0             -200               0
1.41584               -0.1385636       -16.98204        -57.12475       -31.27311             -200               0             -200               0
1.42244               -0.1428191        -17.1347        -57.08459       -34.72176             -200               0             -200               0
1.42904               -0.1472304       -17.28884        -57.04651       -38.04314             -200               0             -200               0
1.43564               -0.1517994       -17.44446        -57.00826       -41.23397             -200               0             -200               0
1.44224                -0.156522       -17.60154        -56.96741       -44.29268             -200               0             -200               0
1.44884               -0.1614006       -17.76009        -56.92135       -47.21982             -200               0             -200               0
1.45545               -0.1664312       -17.92012        -56.86738       -50.01843             -200               0             -200               0
1.46205               -0.1716133       -18.08163        -56.80276       -52.69439             -200               0             -200               0
1.46865                -0.176943       -18.24466        -56.72476       -55.25669             -200               0             -200               0
1.47525               -0.1824176       -18.40924        -56.63083       -57.71755             -200               0             -200               0
1.48185               -0.1880383       -18.57539        -56.51869       -60.09234             -200               0             -200               0
1.48845               -0.1937999       -18.74317        -56.38642       -62.39927             -200               0             -200               0
1.49505               -0.1997011       -18.91263        -56.23261       -64.65884             -200               0             -200               0
1.50165               -0.2057443       -19.08383        -56.05641        -66.8931             -200               0             -200               0
1.50825               -0.2119288       -19.25683        -55.85759       -69.12477             -200               0             -200               0
1.51485               -0.2182567       -19.43171        -55.63656       -71.37624             -200               0             -200               0
1.52145                 -0.22473       -19.60854        -55.39432       -73.66869             -200               0             -200               0
1.52805               -0.2313533       -19.78741        -55.13238        -76.0212             -200               0             -200               0
1.53465               -0.2381326       -19.96839        -54.85267        -78.4502             -200               0             -200               0
1.54125               -0.2450743       -20.15156        -54.55745       -80.96906             -200               0             -200               0
1.54785               -0.2521859       -20.33701        -54.24914       -83.58789             -200               0             -200               0
1.55446               -0.2594793       -20.52481        -53.93025       -86.31365             -200               0             -200               0
1.56106               -0.2669643       -20.71503        -53.60327       -89.15032             -200               0             -200               0
1.56766               -0.2746527       -20.90775        -53.27056       -92.09926             -200               0             -200               0
1.57426               -0.2825582       -21.10303        -52.93438       -95.15955             -200               0             -200               0
1.58086                -0.290695       -21.30093        -52.59674       -98.32845             -200               0             -200               0
1.58746               -0.2990772       -21.50149        -52.25947       -101.6018             -200               0             -200               0
1.59406               -0.3077199       -21.70475        -51.92419       -104.9742             -200               0             -200               0
1.60066               -0.3166395       -21.91076        -51.59228       -108.4396             -200               0             -200               0
1.60726               -0.3258496       -22.11953        -51.26492       -111.9915             -200               0             -200               0
1.61386               -0.3353666       -22.33108        -50.94311       -115.6229             -200               0             -200               0
1.62046               -0.3452049       -22.54542        -50.62765       -119.3268             -200               0             -200               0
1.62706               -0.3553779       -22.76255        -50.31923       -123.0962             -200               0             -200               0
1.63366                -0.365898       -22.98248        -50.01834       -126.9242             -200               0             -200               0
1.64026               -0.3767799       -23.20519        -49.72539       -130.8039             -200               0             -200               0
1.64686               -0.3880325       -23.43068        -49.44066       -134.7288             -200               0             -200               0
1.65347               -0.3996659       -23.65893        -49.16435       -138.6924             -200               0             -200               0
1.66007               -0.4116891       -23.88994        -48.89655       -142.6888             -200               0             -200               0
1.66667               -0.4241087        -24.1237         -48.6373        -146.712             -200               0             -200               0
1.67327               -0.4369314       -24.36022        -48.38656       -150.7564             -200               0             -200               0
1.67987               -0.4501608       -24.59949        -48.14423       -154.8166             -200               0             -200               0
1.68647               -0.4638002       -24.84152        -47.91015       -158.8876             -200               0             -200               0
1.69307               -0.4778553       -25.08634        -47.68412       -162.9645             -200               0             -200               0
1.69967               -0.4923258       -25.33399        -47.46588       -167.0427             -200               0             -200               0
1.70627               -0.5072154        -25.5845        -47.25515       -171.1177             -200               0             -200               0
1.71287               -0.5225249       -25.83795        -47.05156       -175.1854             -200               0             -200               0
1.71947               -0.5382557       -26.09439        -46.85475       -179.2418             -200               0             -200               0
1.72607               -0.5544126       -26.35393        -46.66428        176.7167             -200               0             -200               0
1.73267               -0.5709971       -26.61667        -46.47968        172.6935             -200               0             -200               0
1.73927                -0.588014       -26.88272        -46.30046        168.6919             -200               0             -200               0
1.74587               -0.6054716       -27.15222        -46.12607        164.7147             -200               0             -200               0
1.75248               -0.6233778        -27.4253        -45.95591        160.7644             -200               0             -200               0
1.75908               -0.6417419       -27.70215        -45.78938        156.8433             -200               0             -200               0
1.76568               -0.6605786        -27.9829        -45.62582        152.9533             -200               0             -200               0
1.77228               -0.6799033       -28.26776        -45.46453        149.0958             -200               0             -200               0
1.77888               -0.6997342       -28.55689        -45.30481        145.2719             -200               0             -200               0
1.78548               -0.7200946       -28.85048        -45.14592         141.482             -200               0             -200               0
1.79208               -0.7410094       -29.14873        -44.98711        137.7263             -200               0             -200               0
1.79868               -0.7625079       -29.45181        -44.82762        134.0043             -200               0             -200               0
1.80528               -0.7846208       -29.75993        -44.66669         130.315             -200               0             -200               0
1.81188                -0.807383       -30.07325        -44.50356        126.6566             -200               0             -200               0
1.81848               -0.8308332       -30.39196        -44.33751        123.0271             -200               0             -200               0
1.82508                -0.855012       -30.71621        -44.16785        119.4237             -200               0             -200               0
1.83168               -0.8799634       -31.04617        -43.99394        115.8429             -200               0             -200               0
1.83828               -0.9057321       -31.38197        -43.81518         112.281             -200               0             -200               0
1.84488               -0.9323677       -31.72374        -43.63106        108.7337             -200               0             -200               0
1.85149               -0.9599196        -32.0716        -43.44115         105.196             -200               0             -200               0
