! TOUCHSTONE file generated by CST MICROWAVE STUDIO
! Date and time: Tue Mar 18 00:02:49 2025
! Project name: oblique.cst
! Parameters = {Tilt=40; Fracture=1; B=12.5; D=160; F=5; Feed=2.85625; L=100; M=30; R=0.384908; S=2; Theta=180; length=57.125; wave=114.25}
! Header version: 2024
! Port assignment regex: !\s*Touchstone port\s*([0-9]+)\s*=\s*(CST MWS port|CST DES external port|CST DES block port)\s*(.+)\s* \(\"(.*)\"\)(\s*mode\s*([0-9]+))?.*
! Touchstone port assignment:
! Touchstone port 1 = CST MWS port 1 ("")
! Touchstone port 2 = CST MWS port 2 ("")
# GHz S DB R 50
1                    -0.02088869       -9.798253        -67.13344       -178.2253             -200               0             -200               0
1.0066               -0.02170853       -9.886068        -67.14871        176.6877             -200               0             -200               0
1.0132               -0.02254877       -9.974308        -67.19656        171.7193             -200               0             -200               0
1.0198               -0.02340467       -10.06298        -67.27762        166.8836             -200               0             -200               0
1.0264               -0.02427453       -10.15211        -67.39261        162.1975             -200               0             -200               0
1.033                -0.02515442        -10.2417        -67.54228        157.6818             -200               0             -200               0
1.0396               -0.02604085       -10.33178        -67.72742        153.3616             -200               0             -200               0
1.0462               -0.02693215       -10.42237        -67.94865        149.2677             -200               0             -200               0
1.05281              -0.02782564       -10.51351        -68.20635        145.4376             -200               0             -200               0
1.05941              -0.02871995       -10.60522        -68.50035        141.9172             -200               0             -200               0
1.06601              -0.02961373       -10.69755        -68.82953        138.7619             -200               0             -200               0
1.07261              -0.03050757       -10.79052        -69.19127        136.0385             -200               0             -200               0
1.07921              -0.03140151       -10.88418         -69.5805        133.8258             -200               0             -200               0
1.08581              -0.03229664       -10.97856        -69.98848        132.2131             -200               0             -200               0
1.09241              -0.03319444        -11.0737        -70.40112        131.2951             -200               0             -200               0
1.09901              -0.03409811       -11.16964        -70.79717        131.1598             -200               0             -200               0
1.10561              -0.03501138       -11.26641        -71.14688        131.8648             -200               0             -200               0
1.11221              -0.03593747       -11.36404        -71.41246        133.4027             -200               0             -200               0
1.11881               -0.0368808       -11.46255        -71.55241         135.662             -200               0             -200               0
1.12541              -0.03784638       -11.56197        -71.53051        138.4051             -200               0             -200               0
1.13201              -0.03883834       -11.66232        -71.32709        141.2914             -200               0             -200               0
1.13861              -0.03986349       -11.76361        -70.94634        143.9501             -200               0             -200               0
1.14521              -0.04092622       -11.86585        -70.41463        146.0703             -200               0             -200               0
1.15182              -0.04203214       -11.96904        -69.77106        147.4588             -200               0             -200               0
1.15842               -0.0431854       -12.07318        -69.05641        148.0443             -200               0             -200               0
1.16502              -0.04439083       -12.17826        -68.30568        147.8471             -200               0             -200               0
1.17162              -0.04565231       -12.28428        -67.54539        146.9393             -200               0             -200               0
1.17822               -0.0469734       -12.39122        -66.79384        145.4139             -200               0             -200               0
1.18482              -0.04835714       -12.49907        -66.06279        143.3655             -200               0             -200               0
1.19142              -0.04980507       -12.60781        -65.35927        140.8812             -200               0             -200               0
1.19802              -0.05131884       -12.71741        -64.68708        138.0366             -200               0             -200               0
1.20462              -0.05289798       -12.82787        -64.04794        134.8957             -200               0             -200               0
1.21122              -0.05454351       -12.93917        -63.44222        131.5119             -200               0             -200               0
1.21782              -0.05625267       -13.05129        -62.86951        127.9296             -200               0             -200               0
1.22442              -0.05802493       -13.16422        -62.32895        124.1854             -200               0             -200               0
1.23102              -0.05985624       -13.27794        -61.81939        120.3102             -200               0             -200               0
1.23762              -0.06174354       -13.39247         -61.3396        116.3296             -200               0             -200               0
1.24422              -0.06368348       -13.50779         -60.8883        112.2652             -200               0             -200               0
1.25083              -0.06567209       -13.62391        -60.46423        108.1358             -200               0             -200               0
1.25743              -0.06770455       -13.74085        -60.06617        103.9573             -200               0             -200               0
1.26403              -0.06977676       -13.85863        -59.69296        99.74361             -200               0             -200               0
1.27063              -0.07188386       -13.97728         -59.3435        95.50722             -200               0             -200               0
1.27723              -0.07402239       -14.09682        -59.01675        91.25919             -200               0             -200               0
1.28383              -0.07618741        -14.2173         -58.7117         87.0096             -200               0             -200               0
1.29043              -0.07837794       -14.33876        -58.42741        82.76771             -200               0             -200               0
1.29703               -0.0805892       -14.46126        -58.16297        78.54219             -200               0             -200               0
1.30363              -0.08282132       -14.58483         -57.9175        74.34121             -200               0             -200               0
1.31023              -0.08507268       -14.70956        -57.69013        70.17258             -200               0             -200               0
1.31683              -0.08734355       -14.83549        -57.47998        66.04384             -200               0             -200               0
1.32343              -0.08963472       -14.96269        -57.28617        61.96233             -200               0             -200               0
1.33003              -0.09194999       -15.09122        -57.10781        57.93523             -200               0             -200               0
1.33663              -0.09429053       -15.22115        -56.94395        53.96958             -200               0             -200               0
1.34323               -0.0966616       -15.35254        -56.79358        50.07232             -200               0             -200               0
1.34984              -0.09906921       -15.48544        -56.65566        46.25027             -200               0             -200               0
1.35644               -0.1015184       -15.61992        -56.52901        42.51004             -200               0             -200               0
1.36304               -0.1040174       -15.75603         -56.4124        38.85802             -200               0             -200               0
1.36964               -0.1065719        -15.8938        -56.30445        35.30028             -200               0             -200               0
1.37624               -0.1091907       -16.03329        -56.20366         31.8424             -200               0             -200               0
1.38284               -0.1118827       -16.17453        -56.10841        28.48934             -200               0             -200               0
1.38944               -0.1146554       -16.31754        -56.01691        25.24521             -200               0             -200               0
1.39604                -0.117518       -16.46236        -55.92723        22.11306             -200               0             -200               0
1.40264                -0.120478         -16.609        -55.83733        19.09461             -200               0             -200               0
1.40924               -0.1235433       -16.75747        -55.74502        16.18997             -200               0             -200               0
1.41584               -0.1267231       -16.90779        -55.64805        13.39738             -200               0             -200               0
1.42244               -0.1300214       -17.05994        -55.54414        10.71293             -200               0             -200               0
1.42904               -0.1334468       -17.21395        -55.43099        8.130397             -200               0             -200               0
1.43564               -0.1370018        -17.3698        -55.30645        5.641116             -200               0             -200               0
1.44224               -0.1406931       -17.52749        -55.16848        3.234003             -200               0             -200               0
1.44884               -0.1445215       -17.68702        -55.01535       0.8956973             -200               0             -200               0
1.45545               -0.1484919        -17.8484        -54.84562       -1.389134             -200               0             -200               0
1.46205               -0.1526052       -18.01163        -54.65827       -3.637341             -200               0             -200               0
1.46865               -0.1568607       -18.17671        -54.45273       -5.866713             -200               0             -200               0
1.47525               -0.1612604       -18.34367        -54.22891       -8.095329             -200               0             -200               0
1.48185               -0.1658017       -18.51251        -53.98717       -10.34087             -200               0             -200               0
1.48845               -0.1704853       -18.68327        -53.72834       -12.61997             -200               0             -200               0
1.49505               -0.1753084       -18.85599        -53.45362       -14.94766             -200               0             -200               0
1.50165               -0.1802713        -19.0307        -53.16452       -17.33694             -200               0             -200               0
1.50825               -0.1853712       -19.20748        -52.86282        -19.7985             -200               0             -200               0
1.51485               -0.1906082       -19.38636        -52.55041       -22.34059             -200               0             -200               0
1.52145               -0.1959824       -19.56744        -52.22926       -24.96904             -200               0             -200               0
1.52805               -0.2014931       -19.75078        -51.90135       -27.68737             -200               0             -200               0
1.53465               -0.2071437       -19.93648        -51.56861       -30.49704             -200               0             -200               0
1.54125               -0.2129367       -20.12464        -51.23283       -33.39766             -200               0             -200               0
1.54785               -0.2188755       -20.31536        -50.89569       -36.38732             -200               0             -200               0
1.55446               -0.2249681       -20.50874         -50.5587       -39.46284             -200               0             -200               0
1.56106               -0.2312205        -20.7049        -50.22322       -42.62005             -200               0             -200               0
1.56766               -0.2376412       -20.90395        -49.89043       -45.85403             -200               0             -200               0
1.57426               -0.2442446       -21.10601        -49.56133       -49.15935             -200               0             -200               0
1.58086               -0.2510425       -21.31118        -49.23678       -52.53018             -200               0             -200               0
1.58746                -0.258048       -21.51958        -48.91749       -55.96052             -200               0             -200               0
1.59406               -0.2652818       -21.73131        -48.60402       -59.44424             -200               0             -200               0
1.60066               -0.2727573       -21.94647        -48.29681       -62.97524             -200               0             -200               0
1.60726               -0.2804978       -22.16516        -47.99619       -66.54747             -200               0             -200               0
1.61386               -0.2885236       -22.38746        -47.70238       -70.15502             -200               0             -200               0
1.62046               -0.2968564       -22.61345        -47.41549       -73.79212             -200               0             -200               0
1.62706                 -0.30552       -22.84319        -47.13558       -77.45322             -200               0             -200               0
1.63366               -0.3145371       -23.07674        -46.86259       -81.13298             -200               0             -200               0
1.64026               -0.3239324       -23.31413        -46.59643       -84.82629             -200               0             -200               0
1.64686               -0.3337299       -23.55542         -46.3369       -88.52829             -200               0             -200               0
1.65347               -0.3439532       -23.80061        -46.08377       -92.23439             -200               0             -200               0
1.66007               -0.3546267       -24.04973        -45.83674       -95.94026             -200               0             -200               0
1.66667               -0.3657718       -24.30278        -45.59546       -99.64185             -200               0             -200               0
1.67327                -0.377412       -24.55977        -45.35952       -103.3354             -200               0             -200               0
1.67987               -0.3895677       -24.82068        -45.12848       -107.0176             -200               0             -200               0
1.68647               -0.4022591       -25.08551        -44.90185       -110.6853             -200               0             -200               0
1.69307               -0.4155045       -25.35425        -44.67907       -114.3357             -200               0             -200               0
1.69967               -0.4293215       -25.62688        -44.45959       -117.9665             -200               0             -200               0
1.70627               -0.4437256        -25.9034         -44.2428       -121.5759             -200               0             -200               0
1.71287               -0.4587338       -26.18379        -44.02805       -125.1622             -200               0             -200               0
1.71947               -0.4743585       -26.46808        -43.81468       -128.7246             -200               0             -200               0
1.72607               -0.4906121       -26.75626        -43.60202       -132.2623             -200               0             -200               0
1.73267               -0.5075087       -27.04835        -43.38938       -135.7754             -200               0             -200               0
1.73927               -0.5250586       -27.34438        -43.17606       -139.2644             -200               0             -200               0
1.74587               -0.5432741       -27.64441        -42.96139       -142.7302             -200               0             -200               0
1.75248               -0.5621664       -27.94849         -42.7447       -146.1745             -200               0             -200               0
1.75908               -0.5817474       -28.25669        -42.52535       -149.5994             -200               0             -200               0
1.76568               -0.6020321       -28.56911        -42.30275       -153.0075             -200               0             -200               0
1.77228               -0.6230339       -28.88585        -42.07634        -156.402             -200               0             -200               0
1.77888               -0.6447692       -29.20704        -41.84563       -159.7863             -200               0             -200               0
1.78548               -0.6672571       -29.53281        -41.61021       -163.1645             -200               0             -200               0
1.79208               -0.6905195       -29.86332        -41.36974       -166.5408             -200               0             -200               0
1.79868               -0.7145786       -30.19872        -41.12397       -169.9199             -200               0             -200               0
1.80528               -0.7394641       -30.53921        -40.87272       -173.3064             -200               0             -200               0
1.81188               -0.7652072       -30.88496        -40.61592       -176.7052             -200               0             -200               0
1.81848               -0.7918432       -31.23617         -40.3536         179.879             -200               0             -200               0
1.82508               -0.8194126       -31.59302        -40.08586        176.4415             -200               0             -200               0
1.83168               -0.8479579       -31.95573        -39.81289        172.9777             -200               0             -200               0
1.83828               -0.8775304       -32.32449        -39.53497        169.4833             -200               0             -200               0
1.84488               -0.9081827       -32.69949        -39.25244        165.9544             -200               0             -200               0
1.85149               -0.9399741       -33.08092         -38.9657        162.3874             -200               0             -200               0
