! TOUCHSTONE file generated by CST MICROWAVE STUDIO
! Date and time: Tue Mar 18 00:02:11 2025
! Project name: oblique.cst
! Parameters = {Tilt=40; Fracture=1; B=10; D=160; F=15; Feed=2.85625; L=100; M=10; R=0.384908; S=1; Theta=90; length=57.125; wave=114.25}
! Header version: 2024
! Port assignment regex: !\s*Touchstone port\s*([0-9]+)\s*=\s*(CST MWS port|CST DES external port|CST DES block port)\s*(.+)\s* \(\"(.*)\"\)(\s*mode\s*([0-9]+))?.*
! Touchstone port assignment:
! Touchstone port 1 = CST MWS port 1 ("")
! Touchstone port 2 = CST MWS port 2 ("")
# GHz S DB R 50
1                    -0.01847042       -9.796171        -69.38217       -139.8908             -200               0             -200               0
1.00662              -0.01932684       -9.885696        -69.12804       -144.3139             -200               0             -200               0
1.01325              -0.02023395       -9.975528        -68.90823       -148.6857             -200               0             -200               0
1.01987              -0.02118334       -10.06564        -68.72169       -152.9921             -200               0             -200               0
1.02649              -0.02216779       -10.15603        -68.56748       -157.2183             -200               0             -200               0
1.03311              -0.02317778       -10.24668        -68.44475       -161.3487             -200               0             -200               0
1.03974              -0.02420361        -10.3376        -68.35264       -165.3664             -200               0             -200               0
1.04636              -0.02523708       -10.42882        -68.29026       -169.2527             -200               0             -200               0
1.05298              -0.02626883       -10.52035        -68.25658       -172.9873             -200               0             -200               0
1.0596               -0.02729158       -10.61224        -68.25034       -176.5472             -200               0             -200               0
1.06623              -0.02829792       -10.70454        -68.26993       -179.9074             -200               0             -200               0
1.07285              -0.02928008       -10.79731         -68.3132          176.96             -200               0             -200               0
1.07947              -0.03023513       -10.89061        -68.37728        174.0853             -200               0             -200               0
1.08609              -0.03115904       -10.98452        -68.45832         171.501             -200               0             -200               0
1.09272              -0.03205061       -11.07911         -68.5512        169.2401             -200               0             -200               0
1.09934              -0.03290907       -11.17446        -68.64921         167.335             -200               0             -200               0
1.10596              -0.03373625       -11.27065         -68.7438        165.8138             -200               0             -200               0
1.11258              -0.03453649       -11.36776        -68.82438        164.6959             -200               0             -200               0
1.11921              -0.03531531       -11.46587        -68.87844        163.9859             -200               0             -200               0
1.12583              -0.03607836       -11.56503        -68.89205        163.6675             -200               0             -200               0
1.13245              -0.03683496       -11.66531        -68.85096        163.6967             -200               0             -200               0
1.13907              -0.03759435       -11.76677        -68.74217        163.9997             -200               0             -200               0
1.1457               -0.03836694       -11.86945        -68.55594        164.4746             -200               0             -200               0
1.15232              -0.03916457       -11.97337        -68.28741        165.0008             -200               0             -200               0
1.15894              -0.03999788       -12.07857        -67.93757        165.4531             -200               0             -200               0
1.16556              -0.04087989       -12.18505        -67.51298        165.7171             -200               0             -200               0
1.17219              -0.04182098        -12.2928        -67.02452        165.7015             -200               0             -200               0
1.17881              -0.04283331       -12.40182        -66.48543        165.3448             -200               0             -200               0
1.18543                -0.043927       -12.51208        -65.90956        164.6149             -200               0             -200               0
1.19205              -0.04511085       -12.62354        -65.30985        163.5047             -200               0             -200               0
1.19868               -0.0463929       -12.73617        -64.69758        162.0258             -200               0             -200               0
1.2053               -0.04778043        -12.8499        -64.08196        160.2018             -200               0             -200               0
1.21192              -0.04927728       -12.96469        -63.47022        158.0629             -200               0             -200               0
1.21854              -0.05088798       -13.08049         -62.8678         155.642             -200               0             -200               0
1.22517              -0.05261186       -13.19722        -62.27863        152.9721             -200               0             -200               0
1.23179              -0.05444821       -13.31484        -61.70547        150.0847             -200               0             -200               0
1.23841              -0.05639685       -13.43328        -61.15013        147.0088             -200               0             -200               0
1.24503              -0.05845105       -13.55251        -60.61375        143.7711             -200               0             -200               0
1.25166              -0.06060655       -13.67248        -60.09692        140.3951             -200               0             -200               0
1.25828              -0.06285501       -13.79315        -59.59986        136.9022             -200               0             -200               0
1.2649               -0.06518872       -13.91451        -59.12253         133.311             -200               0             -200               0
1.27152              -0.06759862       -14.03655        -58.66466        129.6384             -200               0             -200               0
1.27815              -0.07007502       -14.15926        -58.22585        125.8993             -200               0             -200               0
1.28477              -0.07260719       -14.28267        -57.80561        122.1069             -200               0             -200               0
1.29139              -0.07518598        -14.4068        -57.40335        118.2732             -200               0             -200               0
1.29801              -0.07780058        -14.5317        -57.01846         114.409             -200               0             -200               0
1.30464              -0.08044433       -14.65742        -56.65027        110.5238             -200               0             -200               0
1.31126               -0.0831087       -14.78403        -56.29809        106.6267             -200               0             -200               0
1.31788              -0.08578688        -14.9116         -55.9612        102.7255             -200               0             -200               0
1.3245               -0.08847456       -15.04023        -55.63886        98.82782             -200               0             -200               0
1.33113              -0.09116966       -15.17001        -55.33032        94.94036             -200               0             -200               0
1.33775              -0.09387037       -15.30103         -55.0348        91.06942             -200               0             -200               0
1.34437              -0.09657866        -15.4334        -54.75149         87.2208             -200               0             -200               0
1.35099              -0.09929836       -15.56723        -54.47956        83.39984             -200               0             -200               0
1.35762               -0.1020342        -15.7026        -54.21815        79.61144             -200               0             -200               0
1.36424               -0.1047934       -15.83962        -53.96638        75.86004             -200               0             -200               0
1.37086                -0.107586       -15.97837        -53.72331        72.14968             -200               0             -200               0
1.37748               -0.1104235       -16.11894          -53.488        68.48387             -200               0             -200               0
1.38411                -0.113318        -16.2614        -53.25945        64.86567             -200               0             -200               0
1.39073               -0.1162831       -16.40582        -53.03663        61.29756             -200               0             -200               0
1.39735                -0.119334       -16.55223         -52.8185        57.78148             -200               0             -200               0
1.40397               -0.1224853       -16.70067        -52.60396        54.31868             -200               0             -200               0
1.4106                -0.1257524       -16.85116        -52.39191        50.90977             -200               0             -200               0
1.41722               -0.1291497       -17.00372        -52.18124         47.5546             -200               0             -200               0
1.42384                -0.132693       -17.15833        -51.97084        44.25223             -200               0             -200               0
1.43046               -0.1363938       -17.31497        -51.75961        41.00092             -200               0             -200               0
1.43709                -0.140266       -17.47362        -51.54649        37.79809             -200               0             -200               0
1.44371               -0.1443187       -17.63425        -51.33047        34.64032             -200               0             -200               0
1.45033                -0.148561       -17.79679         -51.1106         31.5234             -200               0             -200               0
1.45695               -0.1529997       -17.96121        -50.88603        28.44232             -200               0             -200               0
1.46358               -0.1576396       -18.12746        -50.65602        25.39143             -200               0             -200               0
1.4702                 -0.162482       -18.29548        -50.41992        22.36447             -200               0             -200               0
1.47682               -0.1675272       -18.46523        -50.17727        19.35472             -200               0             -200               0
1.48344               -0.1727734       -18.63666        -49.92773        16.35519             -200               0             -200               0
1.49007               -0.1782165       -18.80974        -49.67111         13.3587             -200               0             -200               0
1.49669               -0.1838504       -18.98445        -49.40738        10.35813             -200               0             -200               0
1.50331                -0.189668       -19.16078        -49.13668        7.346508             -200               0             -200               0
1.50993               -0.1956597       -19.33873        -48.85926         4.31723             -200               0             -200               0
1.51656               -0.2018165       -19.51834        -48.57551        1.264151             -200               0             -200               0
1.52318               -0.2081295       -19.69963        -48.28596       -1.818279             -200               0             -200               0
1.5298                 -0.214587       -19.88268        -47.99118       -4.934939             -200               0             -200               0
1.53642               -0.2211811       -20.06755        -47.69186       -8.089971             -200               0             -200               0
1.54305               -0.2279025       -20.25436        -47.38872       -11.28675             -200               0             -200               0
1.54967               -0.2347455       -20.44321        -47.08252       -14.52788             -200               0             -200               0
1.55629               -0.2417037       -20.63424        -46.77401        -17.8152             -200               0             -200               0
1.56291               -0.2487747        -20.8276        -46.46399       -21.14986             -200               0             -200               0
1.56954               -0.2559592       -21.02344        -46.15318       -24.53231             -200               0             -200               0
1.57616               -0.2632586       -21.22195        -45.84232        -27.9624             -200               0             -200               0
1.58278               -0.2706808       -21.42329        -45.53208       -31.43943             -200               0             -200               0
1.5894                 -0.278235       -21.62767         -45.2231       -34.96226             -200               0             -200               0
1.59603                -0.285933       -21.83524        -44.91596        -38.5293             -200               0             -200               0
1.60265               -0.2937915       -22.04621         -44.6112       -42.13864             -200               0             -200               0
1.60927                -0.301832       -22.26075         -44.3093       -45.78808             -200               0             -200               0
1.61589               -0.3100778       -22.47903        -44.01066       -49.47523             -200               0             -200               0
1.62252                -0.318553        -22.7012        -43.71565       -53.19751             -200               0             -200               0
1.62914               -0.3272889       -22.92741        -43.42458        -56.9522             -200               0             -200               0
1.63576               -0.3363166       -23.15777        -43.13769       -60.73653             -200               0             -200               0
1.64238               -0.3456692        -23.3924        -42.85521       -64.54765             -200               0             -200               0
1.64901               -0.3553814       -23.63139        -42.57727       -68.38274             -200               0             -200               0
1.65563               -0.3654894       -23.87478        -42.30398       -72.23894             -200               0             -200               0
1.66225               -0.3760297       -24.12263        -42.03541       -76.11347             -200               0             -200               0
1.66887               -0.3870382       -24.37496        -41.77159       -80.00356             -200               0             -200               0
1.6755                -0.3985508       -24.63176        -41.51249       -83.90655             -200               0             -200               0
1.68212               -0.4106017       -24.89302        -41.25807       -87.81985             -200               0             -200               0
1.68874               -0.4232229       -25.15869        -41.00823       -91.74098             -200               0             -200               0
1.69536                -0.436447       -25.42873        -40.76286       -95.66755             -200               0             -200               0
1.70199               -0.4503004       -25.70306        -40.52181       -99.59732             -200               0             -200               0
1.70861                -0.464811       -25.98162        -40.28491       -103.5282             -200               0             -200               0
1.71523               -0.4799995       -26.26432        -40.05194       -107.4582             -200               0             -200               0
1.72185               -0.4958861       -26.55109        -39.82268       -111.3855             -200               0             -200               0
1.72848               -0.5124895       -26.84185        -39.59688       -115.3085             -200               0             -200               0
1.7351                -0.5298212       -27.13652        -39.37426       -119.2258             -200               0             -200               0
1.74172               -0.5478941       -27.43505        -39.15455        -123.136             -200               0             -200               0
1.74834               -0.5667163        -27.7374        -38.93743       -127.0382             -200               0             -200               0
1.75497               -0.5862955       -28.04353        -38.72258       -130.9314             -200               0             -200               0
1.76159               -0.6066369       -28.35344        -38.50968        -134.815             -200               0             -200               0
1.76821               -0.6277422       -28.66715        -38.29839       -138.6886             -200               0             -200               0
1.77483               -0.6496193       -28.98471        -38.08837       -142.5521             -200               0             -200               0
1.78146               -0.6722685       -29.30618        -37.87927       -146.4054             -200               0             -200               0
1.78808                -0.695698       -29.63169        -37.67076       -150.2489             -200               0             -200               0
1.7947                -0.7199133       -29.96135         -37.4625       -154.0831             -200               0             -200               0
1.80132               -0.7449242       -30.29533        -37.25416       -157.9087             -200               0             -200               0
1.80795               -0.7707442       -30.63382        -37.04543       -161.7268             -200               0             -200               0
1.81457               -0.7973897       -30.97703        -36.83602       -165.5386             -200               0             -200               0
1.82119               -0.8248839       -31.32521        -36.62566       -169.3454             -200               0             -200               0
1.82781               -0.8532535       -31.67861         -36.4141        -173.149             -200               0             -200               0
1.83444               -0.8825322       -32.03751        -36.20111       -176.9511             -200               0             -200               0
1.84106                 -0.91276        -32.4022         -35.9865        179.2463             -200               0             -200               0
1.84768               -0.9439855       -32.77297        -35.77014        175.4412             -200               0             -200               0
1.8543                -0.9762617        -33.1501        -35.55188        171.6314             -200               0             -200               0
