! TOUCHSTONE file generated by CST MICROWAVE STUDIO
! Date and time: Tue Mar 18 00:02:28 2025
! Project name: oblique.cst
! Parameters = {Tilt=40; Fracture=1; B=10; D=160; F=25; Feed=2.85625; L=100; M=50; R=0.384908; S=2; Theta=90; length=57.125; wave=114.25}
! Header version: 2024
! Port assignment regex: !\s*Touchstone port\s*([0-9]+)\s*=\s*(CST MWS port|CST DES external port|CST DES block port)\s*(.+)\s* \(\"(.*)\"\)(\s*mode\s*([0-9]+))?.*
! Touchstone port assignment:
! Touchstone port 1 = CST MWS port 1 ("")
! Touchstone port 2 = CST MWS port 2 ("")
# GHz S DB R 50
1                    -0.01980069       -9.820856        -69.34934        137.7121             -200               0             -200               0
1.0076               -0.02089999        -9.92177        -69.33138        132.3665             -200               0             -200               0
1.01521              -0.02199622       -10.02312        -69.33274        127.1048             -200               0             -200               0
1.02281              -0.02307871       -10.12496        -69.35367        121.9334             -200               0             -200               0
1.03042              -0.02414175       -10.22735        -69.39447        116.8596             -200               0             -200               0
1.03802              -0.02518087       -10.33035        -69.45543         111.892             -200               0             -200               0
1.04563              -0.02618981       -10.43405        -69.53684         107.041             -200               0             -200               0
1.05323              -0.02716623       -10.53851        -69.63895        102.3184             -200               0             -200               0
1.06084              -0.02810964       -10.64384        -69.76194        97.73833             -200               0             -200               0
1.06844              -0.02901961        -10.7501        -69.90589        93.31707             -200               0             -200               0
1.07605              -0.02989898       -10.85739        -70.07066         89.0737             -200               0             -200               0
1.08365              -0.03075133        -10.9658        -70.25586        85.03032             -200               0             -200               0
1.09125               -0.0315816       -11.07541        -70.46067        81.21248             -200               0             -200               0
1.09886               -0.0323981        -11.1863         -70.6837        77.64935             -200               0             -200               0
1.10646              -0.03320808       -11.29854        -70.92271        74.37387             -200               0             -200               0
1.11407              -0.03402332       -11.41219        -71.17437        71.42239             -200               0             -200               0
1.12167              -0.03485341       -11.52731        -71.43386        68.83375             -200               0             -200               0
1.12928              -0.03570958       -11.64396        -71.69442        66.64727             -200               0             -200               0
1.13688              -0.03660617       -11.76215        -71.94698        64.89917             -200               0             -200               0
1.14449              -0.03755442       -11.88193        -72.17977        63.61708             -200               0             -200               0
1.15209              -0.03856792        -12.0033        -72.37836         62.8122             -200               0             -200               0
1.1597               -0.03965947       -12.12627        -72.52613        62.47003             -200               0             -200               0
1.1673               -0.04084132       -12.25083        -72.60563        62.54132             -200               0             -200               0
1.1749               -0.04212497       -12.37696        -72.60078         62.9369             -200               0             -200               0
1.18251              -0.04352115       -12.50464        -72.49956        63.53031             -200               0             -200               0
1.19011               -0.0450404       -12.63383        -72.29652        64.17031             -200               0             -200               0
1.19772              -0.04668989       -12.76449        -71.99395        64.70124             -200               0             -200               0
1.20532              -0.04847545       -12.89657        -71.60136        64.98481             -200               0             -200               0
1.21293              -0.05040521       -13.03002        -71.13342        64.91631             -200               0             -200               0
1.22053               -0.0524805       -13.16479        -70.60719        64.43108             -200               0             -200               0
1.22814              -0.05470326       -13.30083        -70.03969          63.502             -200               0             -200               0
1.23574              -0.05707345       -13.43808        -69.44618        62.13153             -200               0             -200               0
1.24335              -0.05959007       -13.57651        -68.83937        60.34216             -200               0             -200               0
1.25095              -0.06224977       -13.71606        -68.22921        58.16794             -200               0             -200               0
1.25856              -0.06504756       -13.85671        -67.62318        55.64797             -200               0             -200               0
1.26616              -0.06797726       -13.99844        -67.02666        52.82214             -200               0             -200               0
1.27376              -0.07103432       -14.14122        -66.44335        49.72859             -200               0             -200               0
1.28137               -0.0742086       -14.28505         -65.8757        46.40237             -200               0             -200               0
1.28897              -0.07749292       -14.42995        -65.32523        42.87494             -200               0             -200               0
1.29658              -0.08087947       -14.57593        -64.79276        39.17409             -200               0             -200               0
1.30418              -0.08435887       -14.72303        -64.27864        35.32419             -200               0             -200               0
1.31179              -0.08792302        -14.8713        -63.78288        31.34648             -200               0             -200               0
1.31939              -0.09156752       -15.02079        -63.30524        27.25944             -200               0             -200               0
1.327                -0.09528344       -15.17158        -62.84535        23.07917             -200               0             -200               0
1.3346               -0.09906629       -15.32375         -62.4027         18.8197             -200               0             -200               0
1.34221               -0.1029126       -15.47739        -61.97676        14.49331             -200               0             -200               0
1.34981               -0.1068221        -15.6326        -61.56694        10.11076             -200               0             -200               0
1.35741               -0.1107932       -15.78949        -61.17263        5.681561             -200               0             -200               0
1.36502               -0.1148286       -15.94817        -60.79322         1.21413             -200               0             -200               0
1.37262               -0.1189329       -16.10876        -60.42811       -3.284042             -200               0             -200               0
1.38023               -0.1231126       -16.27137        -60.07669       -7.806244             -200               0             -200               0
1.38783               -0.1273762       -16.43611        -59.73838       -12.34644             -200               0             -200               0
1.39544               -0.1317342       -16.60309        -59.41259       -16.89916             -200               0             -200               0
1.40304               -0.1361999       -16.77242        -59.09876       -21.45944             -200               0             -200               0
1.41065               -0.1407885       -16.94419        -58.79633       -26.02274             -200               0             -200               0
1.41825                -0.145515       -17.11849        -58.50476       -30.58488             -200               0             -200               0
1.42586               -0.1503998        -17.2954         -58.2235       -35.14202             -200               0             -200               0
1.43346               -0.1554594       -17.47498        -57.95201       -39.69061             -200               0             -200               0
1.44106               -0.1607143       -17.65727        -57.68976       -44.22734             -200               0             -200               0
1.44867               -0.1661861       -17.84233        -57.43622       -48.74918             -200               0             -200               0
1.45627               -0.1718941       -18.03017        -57.19084       -53.25328             -200               0             -200               0
1.46388               -0.1778587       -18.22079        -56.95309       -57.73703             -200               0             -200               0
1.47148                -0.184102        -18.4142        -56.72243         -62.198             -200               0             -200               0
1.47909               -0.1906427       -18.61038        -56.49829       -66.63399             -200               0             -200               0
1.48669               -0.1974972       -18.80929         -56.2801       -71.04299             -200               0             -200               0
1.4943                -0.2046844        -19.0109         -56.0673       -75.42322             -200               0             -200               0
1.5019                -0.2122174       -19.21516         -55.8593       -79.77311             -200               0             -200               0
1.50951               -0.2201122       -19.42202         -55.6555       -84.09134             -200               0             -200               0
1.51711               -0.2283801       -19.63139        -55.45528       -88.37683             -200               0             -200               0
1.52471               -0.2370277       -19.84325        -55.25803       -92.62878             -200               0             -200               0
1.53232               -0.2460639        -20.0575        -55.06311        -96.8467             -200               0             -200               0
1.53992               -0.2554935        -20.2741        -54.86988       -101.0304             -200               0             -200               0
1.54753               -0.2653194       -20.49299        -54.67771         -105.18             -200               0             -200               0
1.55513                -0.275542       -20.71412        -54.48593        -109.296             -200               0             -200               0
1.56274               -0.2861599       -20.93745        -54.29392       -113.3792             -200               0             -200               0
1.57034               -0.2971717       -21.16295        -54.10105        -117.431             -200               0             -200               0
1.57795                -0.308573       -21.39061         -53.9067       -121.4528             -200               0             -200               0
1.58555                -0.320357       -21.62043        -53.71027       -125.4468             -200               0             -200               0
1.59316               -0.3325194       -21.85244        -53.51121       -129.4154             -200               0             -200               0
1.60076               -0.3450535       -22.08666        -53.30899       -133.3613             -200               0             -200               0
1.60837               -0.3579521       -22.32316        -53.10313       -137.2876             -200               0             -200               0
1.61597               -0.3712122       -22.56201        -52.89319       -141.1978             -200               0             -200               0
1.62357               -0.3848261        -22.8033        -52.67881       -145.0956             -200               0             -200               0
1.63118               -0.3987926       -23.04715        -52.45969        -148.985             -200               0             -200               0
1.63878               -0.4131089       -23.29369        -52.23557       -152.8701             -200               0             -200               0
1.64639                -0.427775       -23.54306        -52.00629       -156.7552             -200               0             -200               0
1.65399               -0.4427954       -23.79542        -51.77176       -160.6446             -200               0             -200               0
1.6616                -0.4581749       -24.05095        -51.53195       -164.5427             -200               0             -200               0
1.6692                -0.4739223       -24.30983        -51.28692       -168.4536             -200               0             -200               0
1.67681               -0.4900497       -24.57225        -51.03678       -172.3815             -200               0             -200               0
1.68441               -0.5065724       -24.83841        -50.78173       -176.3304             -200               0             -200               0
1.69202               -0.5235101       -25.10851        -50.52199         179.696             -200               0             -200               0
1.69962               -0.5408851       -25.38275        -50.25788        175.6944             -200               0             -200               0
1.70722               -0.5587225       -25.66132        -49.98974        171.6615             -200               0             -200               0
1.71483               -0.5770533       -25.94441        -49.71794        167.5946             -200               0             -200               0
1.72243               -0.5959082        -26.2322        -49.44288        163.4912             -200               0             -200               0
1.73004               -0.6153251       -26.52487        -49.16502        159.3492             -200               0             -200               0
1.73764               -0.6353421       -26.82257        -48.88478        155.1669             -200               0             -200               0
1.74525               -0.6559985       -27.12544        -48.60263        150.9429             -200               0             -200               0
1.75285               -0.6773386       -27.43362        -48.31902        146.6761             -200               0             -200               0
1.76046               -0.6994056       -27.74721        -48.03441        142.3658             -200               0             -200               0
1.76806               -0.7222461        -28.0663        -47.74922        138.0115             -200               0             -200               0
1.77567               -0.7459062       -28.39099         -47.4639         133.613             -200               0             -200               0
1.78327               -0.7704334       -28.72133        -47.17886        129.1703             -200               0             -200               0
1.79087               -0.7958743       -29.05736        -46.89448        124.6837             -200               0             -200               0
1.79848               -0.8222755       -29.39912        -46.61115        120.1536             -200               0             -200               0
1.80608               -0.8496846       -29.74664        -46.32922        115.5807             -200               0             -200               0
1.81369               -0.8781453       -30.09993        -46.04901        110.9657             -200               0             -200               0
1.82129               -0.9077031       -30.45899        -45.77082        106.3094             -200               0             -200               0
1.8289                -0.9384008       -30.82384        -45.49496        101.6128             -200               0             -200               0
1.8365                -0.9702804       -31.19447        -45.22166        96.87691             -200               0             -200               0
1.84411                -1.003384        -31.5709        -44.95117        92.10287             -200               0             -200               0
1.85171                 -1.03775       -31.95315        -44.68372        87.29178             -200               0             -200               0
1.85932                -1.073419       -32.34125        -44.41949        82.44481             -200               0             -200               0
1.86692                 -1.11043       -32.73523        -44.15866        77.56314             -200               0             -200               0
1.87452                -1.148821       -33.13517        -43.90141        72.64795             -200               0             -200               0
1.88213                -1.188631       -33.54113        -43.64786        67.70045             -200               0             -200               0
1.88973                -1.229903       -33.95324        -43.39815        62.72179             -200               0             -200               0
1.89734                -1.272677       -34.37162         -43.1524        57.71317             -200               0             -200               0
1.90494                -1.316999       -34.79643         -42.9107        52.67571             -200               0             -200               0
1.91255                 -1.36292       -35.22787        -42.67315        47.61055             -200               0             -200               0
1.92015                 -1.41049       -35.66615        -42.43982        42.51878             -200               0             -200               0
1.92776                -1.459768       -36.11152        -42.21078        37.40149             -200               0             -200               0
1.93536                -1.510821       -36.56427        -41.98609         32.2597             -200               0             -200               0
1.94297                 -1.56372       -37.02471         -41.7658        27.09443             -200               0             -200               0
1.95057                -1.618546       -37.49315        -41.54996        21.90665             -200               0             -200               0
1.95817                -1.675388       -37.96996        -41.33859        16.69732             -200               0             -200               0
1.96578                 -1.73435       -38.45551        -41.13174        11.46733             -200               0             -200               0
1.97338                -1.795543       -38.95019        -40.92942         6.21757             -200               0             -200               0
1.98099                -1.859091        -39.4544        -40.73166        0.948888             -200               0             -200               0
