! TOUCHSTONE file generated by CST MICROWAVE STUDIO
! Date and time: Tue Mar 18 00:01:03 2025
! Project name: oblique.cst
! Parameters = {Tilt=30; Fracture=1; B=10; D=160; F=25; Feed=2.85625; L=100; M=30; R=0.384908; S=1; Theta=180; length=57.125; wave=114.25}
! Header version: 2024
! Port assignment regex: !\s*Touchstone port\s*([0-9]+)\s*=\s*(CST MWS port|CST DES external port|CST DES block port)\s*(.+)\s* \(\"(.*)\"\)(\s*mode\s*([0-9]+))?.*
! Touchstone port assignment:
! Touchstone port 1 = CST MWS port 1 ("")
! Touchstone port 2 = CST MWS port 2 ("")
# GHz S DB R 50
1                    -0.02175614       -9.775897        -65.04035        164.9749             -200               0             -200               0
1.0066               -0.02226815       -9.861765        -65.12983        158.8155             -200               0             -200               0
1.0132                -0.0227495         -9.9484        -65.25814        152.7616             -200               0             -200               0
1.0198               -0.02320649       -10.03586        -65.42764        146.8219             -200               0             -200               0
1.0264               -0.02364481       -10.12421        -65.64117        141.0087             -200               0             -200               0
1.033                -0.02407309       -10.21349        -65.90214        135.3382             -200               0             -200               0
1.0396               -0.02449845       -10.30375        -66.21465        129.8321             -200               0             -200               0
1.0462               -0.02493411       -10.39502        -66.58363        124.5195             -200               0             -200               0
1.05281              -0.02538724       -10.48732        -67.01497        119.4397             -200               0             -200               0
1.05941              -0.02586885       -10.58066        -67.51574        114.6467             -200               0             -200               0
1.06601              -0.02638932       -10.67505        -68.09429        110.2154             -200               0             -200               0
1.07261              -0.02695926       -10.77047        -68.76024        106.2524             -200               0             -200               0
1.07921              -0.02758696       -10.86691        -69.52408        102.9119             -200               0             -200               0
1.08581              -0.02828265       -10.96433        -70.39565        100.4214             -200               0             -200               0
1.09241              -0.02905415       -11.06271        -71.37987          99.121             -200               0             -200               0
1.09901               -0.0299058         -11.162        -72.46576        99.51489             -200               0             -200               0
1.10561              -0.03084379       -11.26214        -73.60085        102.3041             -200               0             -200               0
1.11221              -0.03187176        -11.3631        -74.64271         108.261             -200               0             -200               0
1.11881              -0.03299095       -11.46481        -75.31388         117.613             -200               0             -200               0
1.12541              -0.03420255       -11.56722        -75.29437        128.9465             -200               0             -200               0
1.13201              -0.03550514       -11.67028         -74.5135        139.3566             -200               0             -200               0
1.13861              -0.03689363       -11.77394        -73.23374        146.7096             -200               0             -200               0
1.14521              -0.03836798       -11.87815        -71.77247        150.7389             -200               0             -200               0
1.15182              -0.03991802       -11.98287        -70.32031        152.1236             -200               0             -200               0
1.15842              -0.04153953       -12.08809        -68.95632        151.6242             -200               0             -200               0
1.16502              -0.04322235       -12.19377        -67.70268        149.8188             -200               0             -200               0
1.17162              -0.04496121       -12.29991        -66.55839        147.1036             -200               0             -200               0
1.17822              -0.04674353       -12.40651         -65.5145        143.7438             -200               0             -200               0
1.18482              -0.04856335       -12.51358        -64.56027        139.9187             -200               0             -200               0
1.19142              -0.05040929       -12.62115        -63.68544        135.7518             -200               0             -200               0
1.19802              -0.05227506       -12.72925        -62.88094        131.3301             -200               0             -200               0
1.20462               -0.0541506       -12.83794        -62.13899        126.7164             -200               0             -200               0
1.21122              -0.05603037       -12.94725        -61.45302         121.957             -200               0             -200               0
1.21782              -0.05790987       -13.05727        -60.81747        117.0867             -200               0             -200               0
1.22442              -0.05978124       -13.16807        -60.22765        112.1326             -200               0             -200               0
1.23102              -0.06164591       -13.27971         -59.6796        107.1158             -200               0             -200               0
1.23762              -0.06349947       -13.39229        -59.16993        102.0533             -200               0             -200               0
1.24422              -0.06534566       -13.50589        -58.69575        96.95885             -200               0             -200               0
1.25083              -0.06718593       -13.62059        -58.25457        91.84408             -200               0             -200               0
1.25743              -0.06902473       -13.73648        -57.84423        86.71882             -200               0             -200               0
1.26403              -0.07086784       -13.85364        -57.46288        81.59162             -200               0             -200               0
1.27063              -0.07272318       -13.97213        -57.10888        76.47005             -200               0             -200               0
1.27723              -0.07460173       -14.09203        -56.78078        71.36097             -200               0             -200               0
1.28383              -0.07651184       -14.21338         -56.4773        66.27072             -200               0             -200               0
1.29043              -0.07846613       -14.33625        -56.19732        61.20527             -200               0             -200               0
1.29703              -0.08047539       -14.46066        -55.93981        56.17035             -200               0             -200               0
1.30363              -0.08255416       -14.58664        -55.70384        51.17156             -200               0             -200               0
1.31023              -0.08471459       -14.71419        -55.48854        46.21446             -200               0             -200               0
1.31683              -0.08696842       -14.84333        -55.29312        41.30464             -200               0             -200               0
1.32343              -0.08932726       -14.97404        -55.11681        36.44778             -200               0             -200               0
1.33003              -0.09180435        -15.1063        -54.95888        31.64973             -200               0             -200               0
1.33663              -0.09440798       -15.24007         -54.8186         26.9165             -200               0             -200               0
1.34323              -0.09714619       -15.37532        -54.69521        22.25438             -200               0             -200               0
1.34984               -0.1000281       -15.51199        -54.58795        17.66989             -200               0             -200               0
1.35644               -0.1030592       -15.65005          -54.496        13.16985             -200               0             -200               0
1.36304               -0.1062416       -15.78942        -54.41846        8.761323             -200               0             -200               0
1.36964               -0.1095761       -15.93007        -54.35437        4.451649             -200               0             -200               0
1.37624               -0.1130645       -16.07193        -54.30261       0.2483662             -200               0             -200               0
1.38284               -0.1167046       -16.21496        -54.26196       -3.840867             -200               0             -200               0
1.38944               -0.1204909       -16.35911          -54.231       -7.808388             -200               0             -200               0
1.39604               -0.1244183       -16.50435        -54.20812        -11.6467             -200               0             -200               0
1.40264                -0.128479       -16.65065         -54.1915       -15.34873             -200               0             -200               0
1.40924               -0.1326667       -16.79801        -54.17907       -18.90809             -200               0             -200               0
1.41584               -0.1369708       -16.94641         -54.1685       -22.31946             -200               0             -200               0
1.42244               -0.1413824       -17.09587        -54.15719       -25.57906             -200               0             -200               0
1.42904               -0.1458918       -17.24642        -54.14231       -28.68512             -200               0             -200               0
1.43564               -0.1504869       -17.39811        -54.12082       -31.63845             -200               0             -200               0
1.44224               -0.1551608       -17.55099        -54.08951       -34.44297             -200               0             -200               0
1.44884               -0.1599044       -17.70514        -54.04513        -37.1062             -200               0             -200               0
1.45545               -0.1647113       -17.86064        -53.98449       -39.63958             -200               0             -200               0
1.46205               -0.1695744       -18.01759        -53.90459       -42.05865             -200               0             -200               0
1.46865               -0.1744906        -18.1761         -53.8028        -44.3829             -200               0             -200               0
1.47525               -0.1794593       -18.33629        -53.67703       -46.63525             -200               0             -200               0
1.48185               -0.1844802       -18.49828         -53.5258       -48.84131             -200               0             -200               0
1.48845               -0.1895566       -18.66221        -53.34844       -51.02825             -200               0             -200               0
1.49505                -0.194694        -18.8282        -53.14504       -53.22357             -200               0             -200               0
1.50165               -0.1999021       -18.99638         -52.9165       -55.45374             -200               0             -200               0
1.50825               -0.2051906       -19.16687         -52.6644        -57.7431             -200               0             -200               0
1.51485               -0.2105722        -19.3398        -52.39095       -60.11283             -200               0             -200               0
1.52145               -0.2160633       -19.51528        -52.09877       -62.58034             -200               0             -200               0
1.52805               -0.2216815       -19.69341        -51.79076       -65.15895             -200               0             -200               0
1.53465               -0.2274449       -19.87426        -51.46997       -67.85791             -200               0             -200               0
1.54125               -0.2333729       -20.05792        -51.13941       -70.68263             -200               0             -200               0
1.54785               -0.2394897       -20.24444        -50.80198       -73.63511             -200               0             -200               0
1.55446               -0.2458152       -20.43386         -50.4604       -76.71449             -200               0             -200               0
1.56106               -0.2523706        -20.6262        -50.11713       -79.91754             -200               0             -200               0
1.56766               -0.2591792       -20.82148        -49.77438       -83.23925             -200               0             -200               0
1.57426                -0.266261       -21.01968        -49.43406       -86.67329             -200               0             -200               0
1.58086               -0.2736356       -21.22077        -49.09783       -90.21239             -200               0             -200               0
1.58746               -0.2813211       -21.42472        -48.76707       -93.84871             -200               0             -200               0
1.59406                -0.289333       -21.63149        -48.44296       -97.57411             -200               0             -200               0
1.60066                -0.297686       -21.84101        -48.12645       -101.3803             -200               0             -200               0
1.60726               -0.3063911       -22.05323        -47.81831       -105.2592             -200               0             -200               0
1.61386                -0.315457       -22.26807        -47.51914       -109.2025             -200               0             -200               0
1.62046               -0.3248906       -22.48548        -47.22941       -113.2026             -200               0             -200               0
1.62706                -0.334694       -22.70539        -46.94947       -117.2517             -200               0             -200               0
1.63366               -0.3448681       -22.92774        -46.67955       -121.3427             -200               0             -200               0
1.64026               -0.3554113       -23.15249         -46.4198       -125.4684             -200               0             -200               0
1.64686               -0.3663191        -23.3796        -46.17028       -129.6221             -200               0             -200               0
1.65347                -0.377585       -23.60907        -45.93098       -133.7975             -200               0             -200               0
1.66007               -0.3892008        -23.8409        -45.70184       -137.9882             -200               0             -200               0
1.66667               -0.4011587       -24.07509        -45.48273       -142.1883             -200               0             -200               0
1.67327               -0.4134466       -24.31172        -45.27347        -146.392             -200               0             -200               0
1.67987               -0.4260557       -24.55084        -45.07383       -150.5939             -200               0             -200               0
1.68647               -0.4389747       -24.79256        -44.88352       -154.7885             -200               0             -200               0
1.69307               -0.4521961       -25.03699        -44.70223       -158.9707             -200               0             -200               0
1.69967               -0.4657107       -25.28428        -44.52958       -163.1356             -200               0             -200               0
1.70627                -0.479513       -25.53461        -44.36513       -167.2783             -200               0             -200               0
1.71287               -0.4936033       -25.78817        -44.20842       -171.3942             -200               0             -200               0
1.71947               -0.5079767       -26.04517        -44.05891       -175.4788             -200               0             -200               0
1.72607               -0.5226412       -26.30585        -43.91601        -179.528             -200               0             -200               0
1.73267               -0.5376026       -26.57045        -43.77907        176.4623             -200               0             -200               0
1.73927               -0.5528748       -26.83925        -43.64739        172.4957             -200               0             -200               0
1.74587               -0.5684732        -27.1125         -43.5202        168.5756             -200               0             -200               0
1.75248               -0.5844203        -27.3905        -43.39665        164.7049             -200               0             -200               0
1.75908                -0.600742       -27.67349        -43.27586        160.8863             -200               0             -200               0
1.76568               -0.6174703       -27.96177        -43.15685        157.1217             -200               0             -200               0
1.77228               -0.6346419       -28.25559        -43.03863        153.4125             -200               0             -200               0
1.77888               -0.6522961       -28.55521        -42.92011        149.7595             -200               0             -200               0
1.78548               -0.6704796       -28.86087        -42.80019        146.1626             -200               0             -200               0
1.79208               -0.6892401       -29.17278        -42.67775         142.621             -200               0             -200               0
1.79868               -0.7086301       -29.49116        -42.55163        139.1329             -200               0             -200               0
1.80528               -0.7287042       -29.81617        -42.42069        135.6955             -200               0             -200               0
1.81188               -0.7495225       -30.14798        -42.28385         132.305             -200               0             -200               0
1.81848               -0.7711431       -30.48673        -42.14003        128.9566             -200               0             -200               0
1.82508                -0.793627       -30.83251        -41.98829        125.6446             -200               0             -200               0
1.83168               -0.8170365       -31.18541        -41.82776        122.3623             -200               0             -200               0
1.83828                -0.841434       -31.54551        -41.65772        119.1023             -200               0             -200               0
1.84488               -0.8668811       -31.91284         -41.4776        115.8563             -200               0             -200               0
1.85149               -0.8934392       -32.28742        -41.28701        112.6158             -200               0             -200               0
