! TOUCHSTONE file generated by CST MICROWAVE STUDIO
! Date and time: Tue Mar 18 00:02:34 2025
! Project name: oblique.cst
! Parameters = {Tilt=40; Fracture=1; B=12.5; D=160; F=5; Feed=2.85625; L=100; M=50; R=0.384908; S=1; Theta=180; length=57.125; wave=114.25}
! Header version: 2024
! Port assignment regex: !\s*Touchstone port\s*([0-9]+)\s*=\s*(CST MWS port|CST DES external port|CST DES block port)\s*(.+)\s* \(\"(.*)\"\)(\s*mode\s*([0-9]+))?.*
! Touchstone port assignment:
! Touchstone port 1 = CST MWS port 1 ("")
! Touchstone port 2 = CST MWS port 2 ("")
# GHz S DB R 50
1                    -0.02212684       -9.802602        -66.59275        165.4743             -200               0             -200               0
1.0066               -0.02279041       -9.889629         -66.5862        159.7442             -200               0             -200               0
1.0132               -0.02344823       -9.977341         -66.6117        154.1105             -200               0             -200               0
1.0198               -0.02410397       -10.06578        -66.67004        148.5809             -200               0             -200               0
1.0264               -0.02476255       -10.15498        -66.76221        143.1653             -200               0             -200               0
1.033                -0.02543051       -10.24497         -66.8894        137.8762             -200               0             -200               0
1.0396               -0.02611089       -10.33577          -67.053        132.7292             -200               0             -200               0
1.0462               -0.02681201       -10.42742        -67.25459        127.7437             -200               0             -200               0
1.05281              -0.02753933       -10.51991        -67.49592        122.9442             -200               0             -200               0
1.05941              -0.02829999       -10.61326        -67.77887        118.3612             -200               0             -200               0
1.06601              -0.02910026       -10.70746        -68.10534        114.0335             -200               0             -200               0
1.07261              -0.02994563       -10.80251        -68.47708        110.0103             -200               0             -200               0
1.07921              -0.03084324        -10.8984        -68.89536        106.3538             -200               0             -200               0
1.08581               -0.0317978       -10.99511        -69.36038        103.1433             -200               0             -200               0
1.09241              -0.03281273       -11.09262        -69.87032        100.4792             -200               0             -200               0
1.09901              -0.03389346        -11.1909        -70.41967        98.48626             -200               0             -200               0
1.10561              -0.03504208       -11.28992        -70.99666         97.3141             -200               0             -200               0
1.11221              -0.03626062       -11.38965        -71.57946        97.12936             -200               0             -200               0
1.11881              -0.03754921       -11.49006        -72.13149        98.08886             -200               0             -200               0
1.12541              -0.03890886       -11.59112        -72.59802        100.2811             -200               0             -200               0
1.13201              -0.04033761       -11.69279         -72.9089        103.6339             -200               0             -200               0
1.13861              -0.04183321       -11.79506        -72.99406        107.8254             -200               0             -200               0
1.14521              -0.04339299       -11.89788         -72.8107         112.289             -200               0             -200               0
1.15182               -0.0450115       -12.00125        -72.36501        116.3716             -200               0             -200               0
1.15842              -0.04668558       -12.10514        -71.70878        119.5567             -200               0             -200               0
1.16502              -0.04840937       -12.20956        -70.91412        121.5872             -200               0             -200               0
1.17162              -0.05017678       -12.31449        -70.04818        122.4394             -200               0             -200               0
1.17822              -0.05198245       -12.41996        -69.16109        122.2259             -200               0             -200               0
1.18482               -0.0538198       -12.52595        -68.28527        121.1106             -200               0             -200               0
1.19142              -0.05568235       -12.63251        -67.43958        119.2583             -200               0             -200               0
1.19802              -0.05756559       -12.73966        -66.63379        116.8139             -200               0             -200               0
1.20462              -0.05946303       -12.84743        -65.87213        113.8973             -200               0             -200               0
1.21122              -0.06137062       -12.95586        -65.15561        110.6045             -200               0             -200               0
1.21782              -0.06328398       -13.06501        -64.48348        107.0119             -200               0             -200               0
1.22442              -0.06520031       -13.17492        -63.85407        103.1799             -200               0             -200               0
1.23102              -0.06711835       -13.28566        -63.26532         99.1569             -200               0             -200               0
1.23762               -0.0690354       -13.39728        -62.71504        94.98137             -200               0             -200               0
1.24422              -0.07095336       -13.50985        -62.20108        90.68466             -200               0             -200               0
1.25083               -0.0728728       -13.62342        -61.72137        86.29246             -200               0             -200               0
1.25743              -0.07479557       -13.73806        -61.27403        81.82608             -200               0             -200               0
1.26403              -0.07672646       -13.85382        -60.85731        77.30346             -200               0             -200               0
1.27063              -0.07866956       -13.97077        -60.46963        72.73993             -200               0             -200               0
1.27723              -0.08062979       -14.08896        -60.10954        68.14878             -200               0             -200               0
1.28383              -0.08261456       -14.20843        -59.77574        63.54176             -200               0             -200               0
1.29043              -0.08462932       -14.32923        -59.46704        58.92939             -200               0             -200               0
1.29703              -0.08668277       -14.45139        -59.18236        54.32128             -200               0             -200               0
1.30363              -0.08878193       -14.57494        -58.92071        49.72638             -200               0             -200               0
1.31023              -0.09093543       -14.69991        -58.68115        45.15311             -200               0             -200               0
1.31683              -0.09315128       -14.82631        -58.46283         40.6096             -200               0             -200               0
1.32343              -0.09543665       -14.95414        -58.26491        36.10376             -200               0             -200               0
1.33003              -0.09779835       -15.08342         -58.0866        31.64343             -200               0             -200               0
1.33663               -0.1002444       -15.21413        -57.92711        27.23644             -200               0             -200               0
1.34323                -0.102779       -15.34628        -57.78562        22.89071             -200               0             -200               0
1.34984               -0.1054085       -15.47985        -57.66131         18.6143             -200               0             -200               0
1.35644               -0.1081362       -15.61483         -57.5533        14.41546             -200               0             -200               0
1.36304                -0.110967       -15.75119        -57.46064        10.30262             -200               0             -200               0
1.36964               -0.1139007       -15.88894        -57.38226        6.284431             -200               0             -200               0
1.37624               -0.1169395       -16.02804          -57.317        2.369693             -200               0             -200               0
1.38284               -0.1200839        -16.1685        -57.26353       -1.432705             -200               0             -200               0
1.38944               -0.1233318       -16.31029        -57.22033       -5.113912             -200               0             -200               0
1.39604               -0.1266811       -16.45343        -57.18566       -8.665296             -200               0             -200               0
1.40264               -0.1301308        -16.5979        -57.15756        -12.0787             -200               0             -200               0
1.40924               -0.1336764       -16.74373        -57.13376       -15.34675             -200               0             -200               0
1.41584               -0.1373143       -16.89092        -57.11175       -18.46332             -200               0             -200               0
1.42244               -0.1410407       -17.03951         -57.0887       -21.42398             -200               0             -200               0
1.42904               -0.1448515       -17.18953        -57.06151       -24.22662             -200               0             -200               0
1.43564               -0.1487434       -17.34102        -57.02686       -26.87202             -200               0             -200               0
1.44224               -0.1527125       -17.49403        -56.98125        -29.3645             -200               0             -200               0
1.44884               -0.1567555       -17.64862        -56.92114       -31.71245             -200               0             -200               0
1.45545               -0.1608707       -17.80487        -56.84309       -33.92868             -200               0             -200               0
1.46205               -0.1650572       -17.96284        -56.74387       -36.03059             -200               0             -200               0
1.46865               -0.1693135       -18.12263        -56.62074       -38.03987             -200               0             -200               0
1.47525               -0.1736431       -18.28431        -56.47154       -39.98192             -200               0             -200               0
1.48185               -0.1780466       -18.44799        -56.29487       -41.88486             -200               0             -200               0
1.48845               -0.1825293       -18.61375        -56.09021       -43.77822             -200               0             -200               0
1.49505               -0.1870973       -18.78168         -55.8579       -45.69145             -200               0             -200               0
1.50165               -0.1917572        -18.9519        -55.59916       -47.65247             -200               0             -200               0
1.50825               -0.1965167       -19.12448        -55.31593       -49.68641             -200               0             -200               0
1.51485               -0.2013874       -19.29951        -55.01078       -51.81461             -200               0             -200               0
1.52145               -0.2063789       -19.47709        -54.68667       -54.05405             -200               0             -200               0
1.52805               -0.2115067        -19.6573         -54.3468       -56.41713             -200               0             -200               0
1.53465               -0.2167824        -19.8402        -53.99443       -58.91185             -200               0             -200               0
1.54125               -0.2222205       -20.02586        -53.63277       -61.54216             -200               0             -200               0
1.54785               -0.2278367       -20.21434        -53.26482       -64.30851             -200               0             -200               0
1.55446               -0.2336461       -20.40569        -52.89336       -67.20851             -200               0             -200               0
1.56106               -0.2396656       -20.59996        -52.52086       -70.23751             -200               0             -200               0
1.56766                 -0.24591       -20.79716        -52.14948        -73.3892             -200               0             -200               0
1.57426               -0.2523934       -20.99733        -51.78109       -76.65611             -200               0             -200               0
1.58086               -0.2591336       -21.20048        -51.41726       -80.02999             -200               0             -200               0
1.58746               -0.2661424       -21.40662        -51.05927       -83.50222             -200               0             -200               0
1.59406               -0.2734341       -21.61576        -50.70821       -87.06399             -200               0             -200               0
1.60066               -0.2810202       -21.82789         -50.3649       -90.70655             -200               0             -200               0
1.60726               -0.2889113       -22.04302        -50.03001       -94.42129             -200               0             -200               0
1.61386               -0.2971187       -22.26114        -49.70403        -98.1999             -200               0             -200               0
1.62046               -0.3056507       -22.48226         -49.3873       -102.0344             -200               0             -200               0
1.62706               -0.3145127       -22.70637        -49.08007        -105.917             -200               0             -200               0
1.63366               -0.3237128       -22.93348        -48.78245       -109.8405             -200               0             -200               0
1.64026               -0.3332549       -23.16361        -48.49448       -113.7981             -200               0             -200               0
1.64686               -0.3431439       -23.39677        -48.21612        -117.783             -200               0             -200               0
1.65347               -0.3533819       -23.63299        -47.94725       -121.7891             -200               0             -200               0
1.66007               -0.3639731       -23.87233        -47.68772       -125.8105             -200               0             -200               0
1.66667               -0.3749175       -24.11483        -47.43727       -129.8416             -200               0             -200               0
1.67327               -0.3862183       -24.36056        -47.19564       -133.8771             -200               0             -200               0
1.67987               -0.3978795        -24.6096        -46.96251       -137.9122             -200               0             -200               0
1.68647               -0.4099027       -24.86206        -46.73749        -141.942             -200               0             -200               0
1.69307               -0.4222928       -25.11803        -46.52019       -145.9622             -200               0             -200               0
1.69967               -0.4350546       -25.37765        -46.31014       -149.9686             -200               0             -200               0
1.70627               -0.4481959       -25.64106        -46.10684       -153.9573             -200               0             -200               0
1.71287               -0.4617253       -25.90841        -45.90976       -157.9249             -200               0             -200               0
1.71947               -0.4756537       -26.17985        -45.71833        -161.868             -200               0             -200               0
1.72607               -0.4899941       -26.45557        -45.53192       -165.7837             -200               0             -200               0
1.73267                -0.504764       -26.73575        -45.34988       -169.6695             -200               0             -200               0
1.73927               -0.5199816       -27.02057        -45.17153        -173.523             -200               0             -200               0
1.74587               -0.5356699       -27.31022        -44.99613       -177.3426             -200               0             -200               0
1.75248               -0.5518541       -27.60491        -44.82294        178.8732             -200               0             -200               0
1.75908               -0.5685636       -27.90483        -44.65117        175.1251             -200               0             -200               0
1.76568               -0.5858294       -28.21017        -44.48002        171.4135             -200               0             -200               0
1.77228               -0.6036873       -28.52114        -44.30868        167.7381             -200               0             -200               0
1.77888               -0.6221745        -28.8379        -44.13635        164.0983             -200               0             -200               0
1.78548               -0.6413319       -29.16064         -43.9622        160.4925             -200               0             -200               0
1.79208               -0.6612061       -29.48953        -43.78545        156.9187             -200               0             -200               0
1.79868               -0.6818412       -29.82472        -43.60535        153.3743             -200               0             -200               0
1.80528               -0.7032874       -30.16637        -43.42118         149.856             -200               0             -200               0
1.81188               -0.7255969       -30.51461         -43.2323        146.3598             -200               0             -200               0
1.81848               -0.7488225       -30.86955        -43.03811        142.8815             -200               0             -200               0
1.82508               -0.7730197       -31.23131        -42.83813        139.4162             -200               0             -200               0
1.83168               -0.7982443       -31.59998        -42.63195        135.9586             -200               0             -200               0
1.83828                -0.824556       -31.97565        -42.41927        132.5032             -200               0             -200               0
1.84488               -0.8520125       -32.35839         -42.1999        129.0442             -200               0             -200               0
1.85149               -0.8806752       -32.74825        -41.97377        125.5758             -200               0             -200               0
