! TOUCHSTONE file generated by CST MICROWAVE STUDIO
! Date and time: Tue Mar 18 00:02:22 2025
! Project name: oblique.cst
! Parameters = {Tilt=40; Fracture=1; B=10; D=160; F=25; Feed=2.85625; L=100; M=10; R=0.384908; S=1; Theta=270; length=57.125; wave=114.25}
! Header version: 2024
! Port assignment regex: !\s*Touchstone port\s*([0-9]+)\s*=\s*(CST MWS port|CST DES external port|CST DES block port)\s*(.+)\s* \(\"(.*)\"\)(\s*mode\s*([0-9]+))?.*
! Touchstone port assignment:
! Touchstone port 1 = CST MWS port 1 ("")
! Touchstone port 2 = CST MWS port 2 ("")
# GHz S DB R 50
1                    -0.02063754       -9.785107        -68.81658       -159.4914             -200               0             -200               0
1.00658                -0.021221       -9.871709        -68.77393       -163.0461             -200               0             -200               0
1.01316              -0.02179479       -9.958971        -68.74882       -166.4137             -200               0             -200               0
1.01974              -0.02236368       -10.04693        -68.73866       -169.5766             -200               0             -200               0
1.02632              -0.02292989       -10.13563         -68.7403       -172.5171             -200               0             -200               0
1.03289              -0.02349834        -10.2251        -68.74994       -175.2179             -200               0             -200               0
1.03947              -0.02407189       -10.31538        -68.76296       -177.6632             -200               0             -200               0
1.04605              -0.02465719       -10.40647        -68.77392       -179.8406             -200               0             -200               0
1.05263              -0.02525992       -10.49842         -68.7765        178.2575             -200               0             -200               0
1.05921              -0.02588436       -10.59123        -68.76358        176.6312             -200               0             -200               0
1.06579              -0.02653808       -10.68491        -68.72751        175.2711             -200               0             -200               0
1.07237              -0.02722615       -10.77947        -68.66044        174.1558             -200               0             -200               0
1.07895              -0.02795445        -10.8749        -68.55493        173.2508             -200               0             -200               0
1.08553              -0.02872874       -10.97121        -68.40458        172.5085             -200               0             -200               0
1.09211               -0.0295537       -11.06837        -68.20473        171.8702             -200               0             -200               0
1.09868              -0.03043488       -11.16638        -67.95303        171.2704             -200               0             -200               0
1.10526              -0.03137452       -11.26522        -67.64972        170.6413             -200               0             -200               0
1.11184              -0.03237649       -11.36485        -67.29753        169.9192             -200               0             -200               0
1.11842              -0.03344299       -11.46527        -66.90135        169.0488             -200               0             -200               0
1.125                -0.03457554       -11.56643        -66.46758        167.9869             -200               0             -200               0
1.13158              -0.03577534       -11.66833        -66.00342        166.7035             -200               0             -200               0
1.13816              -0.03704122       -11.77093        -65.51627        165.1816             -200               0             -200               0
1.14474              -0.03837241       -11.87421        -65.01316        163.4153             -200               0             -200               0
1.15132               -0.0397664       -11.97815        -64.50047        161.4078             -200               0             -200               0
1.15789              -0.04122128       -12.08274        -63.98372        159.1686             -200               0             -200               0
1.16447              -0.04273271       -12.18795        -63.46753        156.7119             -200               0             -200               0
1.17105              -0.04429734        -12.2938        -62.95567        154.0543             -200               0             -200               0
1.17763              -0.04591168       -12.40026         -62.4511        151.2136             -200               0             -200               0
1.18421              -0.04757029       -12.50736        -61.95612        148.2079             -200               0             -200               0
1.19079               -0.0492682       -12.61509        -61.47244        145.0548             -200               0             -200               0
1.19737              -0.05100164       -12.72349         -61.0013         141.771             -200               0             -200               0
1.20395              -0.05276512       -12.83256        -60.54359        138.3724             -200               0             -200               0
1.21053              -0.05455602       -12.94234        -60.09985        134.8734             -200               0             -200               0
1.21711              -0.05636938       -13.05287        -59.67043        131.2875             -200               0             -200               0
1.22368              -0.05820264       -13.16419        -59.25544         127.627             -200               0             -200               0
1.23026              -0.06005365       -13.27633         -58.8549        123.9029             -200               0             -200               0
1.23684              -0.06192158       -13.38936        -58.46867        120.1257             -200               0             -200               0
1.24342              -0.06380547       -13.50332        -58.09653        116.3044             -200               0             -200               0
1.25                 -0.06570539       -13.61826        -57.73822        112.4478             -200               0             -200               0
1.25658              -0.06762329       -13.73423        -57.39339        108.5634             -200               0             -200               0
1.26316              -0.06956186        -13.8513        -57.06167        104.6586             -200               0             -200               0
1.26974              -0.07152304       -13.96951        -56.74264        100.7399             -200               0             -200               0
1.27632               -0.0735126        -14.0889        -56.43586        96.81323             -200               0             -200               0
1.28289              -0.07553485       -14.20953        -56.14087         92.8843             -200               0             -200               0
1.28947              -0.07759579       -14.33144        -55.85716        88.95823             -200               0             -200               0
1.29605              -0.07970104       -14.45466        -55.58424        85.03981             -200               0             -200               0
1.30263              -0.08185903       -14.57922        -55.32158        81.13348             -200               0             -200               0
1.30921              -0.08407484       -14.70515        -55.06862        77.24332             -200               0             -200               0
1.31579              -0.08635659       -14.83246         -54.8248        73.37311             -200               0             -200               0
1.32237              -0.08871208       -14.96118        -54.58952        69.52632             -200               0             -200               0
1.32895              -0.09114675       -15.09131        -54.36219         65.7061             -200               0             -200               0
1.33553              -0.09366771       -15.22284        -54.14218         61.9153             -200               0             -200               0
1.34211               -0.0962815       -15.35578        -53.92883        58.15646             -200               0             -200               0
1.34868              -0.09899271       -15.49011         -53.7215        54.43177             -200               0             -200               0
1.35526               -0.1018062       -15.62584        -53.51948        50.74308             -200               0             -200               0
1.36184               -0.1047253       -15.76293         -53.3221         47.0919             -200               0             -200               0
1.36842                -0.107753       -15.90139        -53.12863        43.47935             -200               0             -200               0
1.375                 -0.1108908       -16.04119        -52.93836        39.90612             -200               0             -200               0
1.38158               -0.1141388       -16.18231        -52.75056        36.37252             -200               0             -200               0
1.38816               -0.1174972       -16.32476        -52.56452        32.87839             -200               0             -200               0
1.39474                -0.120965       -16.46852        -52.37951        29.42314             -200               0             -200               0
1.40132               -0.1245397       -16.61359        -52.19483         26.0057             -200               0             -200               0
1.40789               -0.1282186       -16.75996        -52.00981        22.62454             -200               0             -200               0
1.41447               -0.1319972       -16.90766        -51.82379        19.27769             -200               0             -200               0
1.42105               -0.1358717       -17.05669        -51.63618         15.9627             -200               0             -200               0
1.42763               -0.1398385       -17.20709         -51.4464        12.67676             -200               0             -200               0
1.43421               -0.1438927       -17.35888        -51.25396        9.416624             -200               0             -200               0
1.44079               -0.1480292       -17.51211        -51.05842        6.178757             -200               0             -200               0
1.44737               -0.1522447       -17.66683        -50.85941        2.959334             -200               0             -200               0
1.45395               -0.1565341       -17.82311        -50.65666      -0.2456742             -200               0             -200               0
1.46053               -0.1608977         -17.981        -50.44995       -3.440433             -200               0             -200               0
1.46711               -0.1653302        -18.1406        -50.23916       -6.629163             -200               0             -200               0
1.47368               -0.1698315       -18.30197        -50.02426       -9.816067             -200               0             -200               0
1.48026               -0.1744034       -18.46523        -49.80528       -13.00525             -200               0             -200               0
1.48684               -0.1790461       -18.63045        -49.58235       -16.20064             -200               0             -200               0
1.49342               -0.1837631       -18.79774        -49.35566       -19.40593             -200               0             -200               0
1.5                   -0.1885579       -18.96719        -49.12546       -22.62452             -200               0             -200               0
1.50658               -0.1934388       -19.13893        -48.89206       -25.85947             -200               0             -200               0
1.51316               -0.1984113       -19.31303        -48.65581       -29.11345             -200               0             -200               0
1.51974               -0.2034857       -19.48961        -48.41712       -32.38872             -200               0             -200               0
1.52632                -0.208673       -19.66876        -48.17639       -35.68713             -200               0             -200               0
1.53289               -0.2139849       -19.85057        -47.93407        -39.0101             -200               0             -200               0
1.53947               -0.2194339       -20.03514        -47.69059       -42.35862             -200               0             -200               0
1.54605               -0.2250351       -20.22253        -47.44641       -45.73327             -200               0             -200               0
1.55263               -0.2308025       -20.41283        -47.20194       -49.13428             -200               0             -200               0
1.55921               -0.2367527        -20.6061        -46.95762       -52.56148             -200               0             -200               0
1.56579               -0.2429014        -20.8024        -46.71384       -56.01439             -200               0             -200               0
1.57237               -0.2492651       -21.00178        -46.47098       -59.49221             -200               0             -200               0
1.57895               -0.2558598       -21.20427        -46.22937       -62.99391             -200               0             -200               0
1.58553               -0.2627023       -21.40992        -45.98932        -66.5182             -200               0             -200               0
1.59211               -0.2698073       -21.61876        -45.75111       -70.06361             -200               0             -200               0
1.59868               -0.2771903        -21.8308        -45.51498        -73.6285             -200               0             -200               0
1.60526               -0.2848649       -22.04607        -45.28113       -77.21109             -200               0             -200               0
1.61184               -0.2928468       -22.26458        -45.04972       -80.80952             -200               0             -200               0
1.61842               -0.3011467       -22.48634        -44.82087       -84.42184             -200               0             -200               0
1.625                 -0.3097755       -22.71138        -44.59468       -88.04607             -200               0             -200               0
1.63158               -0.3187453        -22.9397        -44.37118       -91.68019             -200               0             -200               0
1.63816                -0.328066       -23.17133        -44.15039       -95.32222             -200               0             -200               0
1.64474               -0.3377434       -23.40628        -43.93228       -98.97017             -200               0             -200               0
1.65132               -0.3477885       -23.64461         -43.7168       -102.6221             -200               0             -200               0
1.65789               -0.3582072       -23.88634        -43.50384       -106.2762             -200               0             -200               0
1.66447               -0.3690075       -24.13152         -43.2933       -109.9308             -200               0             -200               0
1.67105               -0.3801956       -24.38022        -43.08499        -113.584             -200               0             -200               0
1.67763               -0.3917788       -24.63251        -42.87876       -117.2345             -200               0             -200               0
1.68421               -0.4037639       -24.88848        -42.67437       -120.8809             -200               0             -200               0
1.69079               -0.4161604       -25.14821         -42.4716       -124.5219             -200               0             -200               0
1.69737               -0.4289766       -25.41184        -42.27019       -128.1566             -200               0             -200               0
1.70395               -0.4422237       -25.67947        -42.06987       -131.7841             -200               0             -200               0
1.71053               -0.4559151       -25.95124        -41.87033       -135.4038             -200               0             -200               0
1.71711               -0.4700633       -26.22731        -41.67127       -139.0153             -200               0             -200               0
1.72368               -0.4846878       -26.50782        -41.47238       -142.6185             -200               0             -200               0
1.73026               -0.4998079       -26.79295        -41.27335       -146.2134             -200               0             -200               0
1.73684               -0.5154445       -27.08286        -41.07383       -149.8004             -200               0             -200               0
1.74342               -0.5316252       -27.37773        -40.87353       -153.3801             -200               0             -200               0
1.75                  -0.5483783       -27.67774        -40.67213       -156.9534             -200               0             -200               0
1.75658               -0.5657371       -27.98306        -40.46933       -160.5212             -200               0             -200               0
1.76316               -0.5837355       -28.29387        -40.26484        -164.085             -200               0             -200               0
1.76974               -0.6024138       -28.61035        -40.05842       -167.6464             -200               0             -200               0
1.77632               -0.6218156       -28.93265        -39.84983       -171.2069             -200               0             -200               0
1.78289               -0.6419856       -29.26093        -39.63885       -174.7688             -200               0             -200               0
1.78947               -0.6629743       -29.59533        -39.42533       -178.3339             -200               0             -200               0
1.79605               -0.6848333       -29.93599        -39.20912        178.0954             -200               0             -200               0
1.80263               -0.7076162         -30.283        -38.99012        174.5167             -200               0             -200               0
1.80921               -0.7313828       -30.63648        -38.76829        170.9277             -200               0             -200               0
1.81579               -0.7561919       -30.99649        -38.54359        167.3258             -200               0             -200               0
1.82237               -0.7821056       -31.36311        -38.31606        163.7086             -200               0             -200               0
1.82895               -0.8091867       -31.73635        -38.08576        160.0737             -200               0             -200               0
1.83553               -0.8375001       -32.11626         -37.8528        156.4186             -200               0             -200               0
1.84211               -0.8671116       -32.50282         -37.6173        152.7411             -200               0             -200               0
1.84868               -0.8980871       -32.89602        -37.37946        149.0391             -200               0             -200               0
