! TOUCHSTONE file generated by CST MICROWAVE STUDIO
! Date and time: Tue Mar 18 00:01:48 2025
! Project name: oblique.cst
! Parameters = {Tilt=30; Fracture=1; B=12.5; D=160; F=25; Feed=2.85625; L=100; M=30; R=0.384908; S=2; Theta=180; length=57.125; wave=114.25}
! Header version: 2024
! Port assignment regex: !\s*Touchstone port\s*([0-9]+)\s*=\s*(CST MWS port|CST DES external port|CST DES block port)\s*(.+)\s* \(\"(.*)\"\)(\s*mode\s*([0-9]+))?.*
! Touchstone port assignment:
! Touchstone port 1 = CST MWS port 1 ("")
! Touchstone port 2 = CST MWS port 2 ("")
# GHz S DB R 50
1                    -0.02145191       -9.791967        -66.81724        164.7304             -200               0             -200               0
1.00658              -0.02197389       -9.877994        -66.80584        159.2505             -200               0             -200               0
1.01316              -0.02246605       -9.964794        -66.82496        153.8826             -200               0             -200               0
1.01974              -0.02293228       -10.05244        -66.87502        148.6372             -200               0             -200               0
1.02632              -0.02337941       -10.14097        -66.95656        143.5268             -200               0             -200               0
1.03289              -0.02381585       -10.23047         -67.0702        138.5669             -200               0             -200               0
1.03947              -0.02425135       -10.32096        -67.21656        133.7763             -200               0             -200               0
1.04605              -0.02469526       -10.41248        -67.39624        129.1779             -200               0             -200               0
1.05263              -0.02515836       -10.50506         -67.6097        124.7996             -200               0             -200               0
1.05921              -0.02565218       -10.59871        -67.85712        120.6753             -200               0             -200               0
1.06579              -0.02618747       -10.69343        -68.13819        116.8461             -200               0             -200               0
1.07237              -0.02677485       -10.78922        -68.45171        113.3612             -200               0             -200               0
1.07895              -0.02742472       -10.88606        -68.79515        110.2795             -200               0             -200               0
1.08553              -0.02814569       -10.98391        -69.16387        107.6695             -200               0             -200               0
1.09211              -0.02894878       -11.08275        -69.55013        105.6085             -200               0             -200               0
1.09868              -0.02983893       -11.18252        -69.94176        104.1781             -200               0             -200               0
1.10526               -0.0308224       -11.28317        -70.32074        103.4547             -200               0             -200               0
1.11184              -0.03190459       -11.38465        -70.66208        103.4916             -200               0             -200               0
1.11842              -0.03308687        -11.4869        -70.93399        104.2926             -200               0             -200               0
1.125                -0.03437012       -11.58986        -71.10071        105.7805             -200               0             -200               0
1.13158              -0.03575528       -11.69346        -71.12895        107.7759             -200               0             -200               0
1.13816              -0.03723747       -11.79766         -70.9967        110.0044             -200               0             -200               0
1.14474              -0.03881381       -11.90239        -70.70047         112.145             -200               0             -200               0
1.15132              -0.04047854       -12.00762        -70.25652         113.901             -200               0             -200               0
1.15789              -0.04222426        -12.1133        -69.69525        115.0588             -200               0             -200               0
1.16447              -0.04404311       -12.21941        -69.05228        115.5089             -200               0             -200               0
1.17105              -0.04592595       -12.32593        -68.36102         115.232             -200               0             -200               0
1.17763               -0.0478632       -12.43285        -67.64866         114.269             -200               0             -200               0
1.18421              -0.04984541       -12.54017        -66.93525        112.6916             -200               0             -200               0
1.19079              -0.05186109       -12.64793        -66.23455        110.5819             -200               0             -200               0
1.19737              -0.05390251       -12.75614        -65.55538        108.0204             -200               0             -200               0
1.20395              -0.05595943       -12.86484        -64.90308        105.0798             -200               0             -200               0
1.21053              -0.05802321        -12.9741        -64.28053        101.8234             -200               0             -200               0
1.21711              -0.06008799       -13.08397        -63.68906        98.30508             -200               0             -200               0
1.22368              -0.06214703       -13.19452        -63.12895        94.57009             -200               0             -200               0
1.23026              -0.06419685       -13.30584        -62.59986        90.65638             -200               0             -200               0
1.23684              -0.06623447         -13.418        -62.10109        86.59572             -200               0             -200               0
1.24342              -0.06825901        -13.5311        -61.63173        82.41486             -200               0             -200               0
1.25                 -0.07027288       -13.64523        -61.19077        78.13645             -200               0             -200               0
1.25658              -0.07227889       -13.76047        -60.77716        73.77984             -200               0             -200               0
1.26316              -0.07428193       -13.87692        -60.38989        69.36168             -200               0             -200               0
1.26974              -0.07628875       -13.99464        -60.02798        64.89651             -200               0             -200               0
1.27632              -0.07830827       -14.11372        -59.69049        60.39713             -200               0             -200               0
1.28289              -0.08035073       -14.23422        -59.37652        55.87499             -200               0             -200               0
1.28947              -0.08242676       -14.35621        -59.08527        51.34048             -200               0             -200               0
1.29605              -0.08454949       -14.47972        -58.81595        46.80315             -200               0             -200               0
1.30263              -0.08673086       -14.60479        -58.56783         42.2719             -200               0             -200               0
1.30921              -0.08898484       -14.73145        -58.34023        37.75519             -200               0             -200               0
1.31579              -0.09132455       -14.85969        -58.13248        33.26114             -200               0             -200               0
1.32237              -0.09376235       -14.98952        -57.94394         28.7977             -200               0             -200               0
1.32895              -0.09631114       -15.12092        -57.77398        24.37269             -200               0             -200               0
1.33553              -0.09898259       -15.25387        -57.62197        19.99395             -200               0             -200               0
1.34211               -0.1017865       -15.38833        -57.48726         15.6694             -200               0             -200               0
1.34868               -0.1047318       -15.52425        -57.36917        11.40709             -200               0             -200               0
1.35526                -0.107825       -15.66159        -57.26696        7.215265             -200               0             -200               0
1.36184               -0.1110715       -15.80028        -57.17984        3.102381             -200               0             -200               0
1.36842               -0.1144751       -15.94027        -57.10691      -0.9228642             -200               0             -200               0
1.375                 -0.1180355        -16.0815        -57.04716       -4.851554             -200               0             -200               0
1.38158               -0.1217539       -16.22391        -56.99944       -8.674603             -200               0             -200               0
1.38816               -0.1256254       -16.36745        -56.96241       -12.38284             -200               0             -200               0
1.39474               -0.1296466       -16.51207        -56.93454       -15.96717             -200               0             -200               0
1.40132               -0.1338109       -16.65774        -56.91406       -19.41873             -200               0             -200               0
1.40789               -0.1381103       -16.80444        -56.89893       -22.72923             -200               0             -200               0
1.41447               -0.1425355       -16.95214        -56.88681       -25.89129             -200               0             -200               0
1.42105               -0.1470773       -17.10085        -56.87508       -28.89889             -200               0             -200               0
1.42763                -0.151725       -17.25058        -56.86079       -31.74793             -200               0             -200               0
1.43421               -0.1564673       -17.40136        -56.84071       -34.43685             -200               0             -200               0
1.44079               -0.1612941       -17.55324         -56.8114       -36.96731             -200               0             -200               0
1.44737               -0.1661966       -17.70628        -56.76926       -39.34476             -200               0             -200               0
1.45395               -0.1711638       -17.86055        -56.71065       -41.57903             -200               0             -200               0
1.46053               -0.1761895       -18.01616        -56.63211       -43.68466             -200               0             -200               0
1.46711                -0.181268       -18.17319        -56.53043       -45.68089             -200               0             -200               0
1.47368               -0.1863943       -18.33176        -56.40297       -47.59131             -200               0             -200               0
1.48026               -0.1915668         -18.492        -56.24773       -49.44315             -200               0             -200               0
1.48684               -0.1967867       -18.65403        -56.06357       -51.26603             -200               0             -200               0
1.49342                -0.202057       -18.81799        -55.85024       -53.09058             -200               0             -200               0
1.5                   -0.2073827       -18.98401        -55.60842       -54.94684             -200               0             -200               0
1.50658                -0.212773       -19.15222        -55.33965        -56.8628             -200               0             -200               0
1.51316               -0.2182387       -19.32275        -55.04619       -58.86311             -200               0             -200               0
1.51974               -0.2237931       -19.49573        -54.73086       -60.96824             -200               0             -200               0
1.52632               -0.2294507       -19.67126        -54.39682       -63.19398             -200               0             -200               0
1.53289               -0.2352304       -19.84946        -54.04744       -65.55137             -200               0             -200               0
1.53947               -0.2411508       -20.03039        -53.68607       -68.04703             -200               0             -200               0
1.54605               -0.2472329       -20.21415        -53.31594       -70.68357             -200               0             -200               0
1.55263               -0.2534971       -20.40079        -52.94006       -73.46023             -200               0             -200               0
1.55921               -0.2599653       -20.59034        -52.56116       -76.37358             -200               0             -200               0
1.56579               -0.2666619       -20.78284        -52.18165       -79.41812             -200               0             -200               0
1.57237               -0.2736054       -20.97829        -51.80362       -82.58687             -200               0             -200               0
1.57895               -0.2808172       -21.17668        -51.42885       -85.87186             -200               0             -200               0
1.58553               -0.2883179       -21.37799        -51.05881       -89.26451             -200               0             -200               0
1.59211               -0.2961242       -21.58219        -50.69474         -92.756             -200               0             -200               0
1.59868               -0.3042524       -21.78922         -50.3376       -96.33742             -200               0             -200               0
1.60526               -0.3127155       -21.99904        -49.98816            -100             -200               0             -200               0
1.61184               -0.3215262       -22.21158        -49.64702       -103.7353             -200               0             -200               0
1.61842               -0.3306922       -22.42677        -49.31461       -107.5351             -200               0             -200               0
1.625                 -0.3402184       -22.64456        -48.99121       -111.3916             -200               0             -200               0
1.63158               -0.3501077       -22.86489        -48.67703       -115.2975             -200               0             -200               0
1.63816               -0.3603613       -23.08771        -48.37214       -119.2456             -200               0             -200               0
1.64474               -0.3709777       -23.31298        -48.07655       -123.2294             -200               0             -200               0
1.65132               -0.3819499       -23.54066        -47.79018       -127.2427             -200               0             -200               0
1.65789               -0.3932741       -23.77076        -47.51291       -131.2796             -200               0             -200               0
1.66447               -0.4049403       -24.00328        -47.24455       -135.3348             -200               0             -200               0
1.67105               -0.4169406       -24.23824        -46.98486        -139.403             -200               0             -200               0
1.67763               -0.4292638       -24.47571        -46.73357       -143.4794             -200               0             -200               0
1.68421               -0.4419008       -24.71577        -46.49035       -147.5595             -200               0             -200               0
1.69079               -0.4548413       -24.95851        -46.25487       -151.6391             -200               0             -200               0
1.69737               -0.4680772       -25.20406        -46.02672       -155.7143             -200               0             -200               0
1.70395               -0.4816013       -25.45259        -45.80548       -159.7815             -200               0             -200               0
1.71053                 -0.49541       -25.70426        -45.59072       -163.8374             -200               0             -200               0
1.71711               -0.5094986       -25.95928        -45.38194       -167.8788             -200               0             -200               0
1.72368               -0.5238696       -26.21787        -45.17864        -171.903             -200               0             -200               0
1.73026               -0.5385284       -26.48027        -44.98028       -175.9076             -200               0             -200               0
1.73684               -0.5534838       -26.74672         -44.7863       -179.8905             -200               0             -200               0
1.74342               -0.5687476        -27.0175        -44.59612        176.1503             -200               0             -200               0
1.75                  -0.5843391       -27.29287        -44.40914         172.216             -200               0             -200               0
1.75658               -0.6002804       -27.57312        -44.22472        168.3078             -200               0             -200               0
1.76316               -0.6165981        -27.8585        -44.04225        164.4263             -200               0             -200               0
1.76974               -0.6333246       -28.14929        -43.86107        160.5719             -200               0             -200               0
1.77632               -0.6504967       -28.44577        -43.68053        156.7443             -200               0             -200               0
1.78289               -0.6681544       -28.74817            -43.5        152.9431             -200               0             -200               0
1.78947               -0.6863451       -29.05673        -43.31883        149.1671             -200               0             -200               0
1.79605               -0.7051149       -29.37168        -43.13642        145.4148             -200               0             -200               0
1.80263               -0.7245166       -29.69321        -42.95216        141.6843             -200               0             -200               0
1.80921               -0.7446046        -30.0215        -42.76551        137.9733             -200               0             -200               0
1.81579               -0.7654362       -30.35671        -42.57595        134.2789             -200               0             -200               0
1.82237               -0.7870681       -30.69897        -42.38301         130.598             -200               0             -200               0
1.82895               -0.8095609        -31.0484        -42.18629         126.927             -200               0             -200               0
1.83553                -0.832975       -31.40508        -41.98545        123.2621             -200               0             -200               0
1.84211               -0.8573679       -31.76909        -41.78023        119.5993             -200               0             -200               0
1.84868               -0.8828029       -32.14049        -41.57043        115.9344             -200               0             -200               0
