! TOUCHSTONE file generated by CST MICROWAVE STUDIO
! Date and time: Tue Mar 18 00:01:34 2025
! Project name: oblique.cst
! Parameters = {Tilt=30; Fracture=1; B=12.5; D=160; F=15; Feed=2.85625; L=100; M=50; R=0.384908; S=1; Theta=90; length=57.125; wave=114.25}
! Header version: 2024
! Port assignment regex: !\s*Touchstone port\s*([0-9]+)\s*=\s*(CST MWS port|CST DES external port|CST DES block port)\s*(.+)\s* \(\"(.*)\"\)(\s*mode\s*([0-9]+))?.*
! Touchstone port assignment:
! Touchstone port 1 = CST MWS port 1 ("")
! Touchstone port 2 = CST MWS port 2 ("")
# GHz S DB R 50
1                    -0.02126729       -9.861522        -68.10203        156.2413             -200               0             -200               0
1.00662              -0.02201337        -9.95034        -68.10798        150.5471             -200               0             -200               0
1.01325              -0.02277362       -10.03973        -68.14772        144.9581             -200               0             -200               0
1.01987              -0.02354928       -10.12973        -68.22215        139.4839             -200               0             -200               0
1.02649               -0.0243411       -10.22033        -68.33242         134.137             -200               0             -200               0
1.03311              -0.02514926       -10.31156        -68.47985        128.9327             -200               0             -200               0
1.03974              -0.02597452       -10.40343        -68.66598        123.8905             -200               0             -200               0
1.04636              -0.02681751       -10.49597        -68.89253        119.0348             -200               0             -200               0
1.05298              -0.02768168       -10.58918        -69.16137        114.3962             -200               0             -200               0
1.0596                -0.0285671       -10.68308         -69.4744        110.0134             -200               0             -200               0
1.06623              -0.02947506       -10.77769        -69.83336        105.9356             -200               0             -200               0
1.07285              -0.03040741       -10.87301        -70.23957        102.2254             -200               0             -200               0
1.07947              -0.03136695       -10.96906        -70.69326        98.96261             -200               0             -200               0
1.08609              -0.03235456       -11.06585        -71.19267        96.24808             -200               0             -200               0
1.09272              -0.03337202       -11.16338        -71.73236        94.20772             -200               0             -200               0
1.09934              -0.03442239       -11.26167        -72.30059        92.99305             -200               0             -200               0
1.10596              -0.03550535       -11.36073        -72.87548        92.77331             -200               0             -200               0
1.11258              -0.03662512       -11.46055        -73.42017        93.70868             -200               0             -200               0
1.11921              -0.03778095       -11.56114        -73.87927          95.891             -200               0             -200               0
1.12583              -0.03897535       -11.66251        -74.18153          99.249             -200               0             -200               0
1.13245               -0.0402077       -11.76465        -74.25562        103.4568             -200               0             -200               0
1.13907              -0.04148102       -11.86759        -74.05801        107.9381             -200               0             -200               0
1.1457               -0.04279529        -11.9713        -73.59532        112.0292             -200               0             -200               0
1.15232              -0.04415185       -12.07581        -72.92056        115.2073             -200               0             -200               0
1.15894              -0.04554848       -12.18112        -72.10715        117.2159             -200               0             -200               0
1.16556              -0.04698711       -12.28722        -71.22303         118.035             -200               0             -200               0
1.17219              -0.04846741       -12.39413         -70.3186        117.7816             -200               0             -200               0
1.17881              -0.04998858       -12.50186         -69.4263        116.6231             -200               0             -200               0
1.18543              -0.05155025       -12.61041         -68.5648        114.7266             -200               0             -200               0
1.19205              -0.05315088        -12.7198        -67.74369        112.2384             -200               0             -200               0
1.19868              -0.05479267       -12.83004        -66.96704        109.2789             -200               0             -200               0
1.2053               -0.05647117       -12.94114        -66.23569        105.9448             -200               0             -200               0
1.21192              -0.05818884       -13.05313        -65.54877        102.3126             -200               0             -200               0
1.21854              -0.05994379       -13.16602         -64.9045         98.4427             -200               0             -200               0
1.22517               -0.0617351       -13.27984        -64.30073        94.38338             -200               0             -200               0
1.23179              -0.06356321       -13.39461        -63.73519        90.17322             -200               0             -200               0
1.23841              -0.06542712       -13.51036        -63.20564        85.84345             -200               0             -200               0
1.24503              -0.06732759       -13.62711        -62.70996        81.41967             -200               0             -200               0
1.25166              -0.06926546        -13.7449        -62.24618        76.92308             -200               0             -200               0
1.25828              -0.07124149       -13.86376        -61.81249        72.37152             -200               0             -200               0
1.2649                 -0.073256       -13.98372        -61.40723        67.78017             -200               0             -200               0
1.27152              -0.07531035       -14.10481        -61.02889        63.16218             -200               0             -200               0
1.27815              -0.07740647       -14.22707        -60.67609        58.52911             -200               0             -200               0
1.28477              -0.07954643       -14.35053        -60.34755        53.89125             -200               0             -200               0
1.29139              -0.08173442       -14.47523        -60.04212        49.25797             -200               0             -200               0
1.29801              -0.08397121        -14.6012        -59.75869        44.63787             -200               0             -200               0
1.30464               -0.0862606       -14.72847        -59.49627        40.03902             -200               0             -200               0
1.31126              -0.08860699       -14.85708        -59.25386        35.46907             -200               0             -200               0
1.31788               -0.0910135       -14.98706        -59.03056        30.93538             -200               0             -200               0
1.3245               -0.09348329       -15.11843        -58.82544        26.44512             -200               0             -200               0
1.33113              -0.09602274       -15.25122         -58.6376        22.00533             -200               0             -200               0
1.33775              -0.09863537       -15.38547        -58.46613        17.62297             -200               0             -200               0
1.34437               -0.1013249       -15.52119        -58.31008        13.30498             -200               0             -200               0
1.35099               -0.1040959       -15.65841        -58.16845        9.058263             -200               0             -200               0
1.35762                -0.106954       -15.79715        -58.04021        4.889696             -200               0             -200               0
1.36424               -0.1099028       -15.93742         -57.9242       0.8060982             -200               0             -200               0
1.37086               -0.1129465       -16.07927        -57.81921        -3.18583             -200               0             -200               0
1.37748               -0.1160903       -16.22268        -57.72388         -7.0796             -200               0             -200               0
1.38411               -0.1193385        -16.3677        -57.63672       -10.86905             -200               0             -200               0
1.39073               -0.1226948       -16.51432        -57.55608       -14.54853             -200               0             -200               0
1.39735               -0.1261615       -16.66258        -57.48017       -18.11309             -200               0             -200               0
1.40397               -0.1297441       -16.81248        -57.40702       -21.55874             -200               0             -200               0
1.4106                -0.1334451       -16.96405        -57.33448       -24.88273             -200               0             -200               0
1.41722               -0.1372683       -17.11731        -57.26026       -28.08389             -200               0             -200               0
1.42384               -0.1412171       -17.27227        -57.18195       -31.16296             -200               0             -200               0
1.43046               -0.1452933       -17.42896        -57.09703       -34.12291             -200               0             -200               0
1.43709               -0.1495004        -17.5874        -57.00297        -36.9692             -200               0             -200               0
1.44371               -0.1538407       -17.74762         -56.8973       -39.71007             -200               0             -200               0
1.45033               -0.1583187       -17.90965        -56.77766       -42.35652             -200               0             -200               0
1.45695               -0.1629364       -18.07352        -56.64194       -44.92235             -200               0             -200               0
1.46358               -0.1676965       -18.23926        -56.48837       -47.42378             -200               0             -200               0
1.4702                -0.1726024       -18.40691        -56.31558       -49.87915             -200               0             -200               0
1.47682               -0.1776585       -18.57652        -56.12271       -52.30818             -200               0             -200               0
1.48344               -0.1828679       -18.74811        -55.90945        -54.7313             -200               0             -200               0
1.49007               -0.1882345       -18.92173        -55.67601       -57.16881             -200               0             -200               0
1.49669               -0.1937644       -19.09744        -55.42315       -59.64008             -200               0             -200               0
1.50331               -0.1994604       -19.27528        -55.15209       -62.16289             -200               0             -200               0
1.50993               -0.2053297       -19.45529        -54.86446       -64.75278             -200               0             -200               0
1.51656               -0.2113776       -19.63753        -54.56218       -67.42272             -200               0             -200               0
1.52318               -0.2176127       -19.82205        -54.24735       -70.18293             -200               0             -200               0
1.5298                -0.2240392        -20.0089         -53.9222       -73.04079             -200               0             -200               0
1.53642               -0.2306666       -20.19813        -53.58895       -76.00106             -200               0             -200               0
1.54305               -0.2375031        -20.3898        -53.24979       -79.06603             -200               0             -200               0
1.54967                -0.244556       -20.58395        -52.90677       -82.23592             -200               0             -200               0
1.55629               -0.2518356       -20.78063        -52.56181       -85.50912             -200               0             -200               0
1.56291               -0.2593521        -20.9799        -52.21664       -88.88262             -200               0             -200               0
1.56954               -0.2671152       -21.18179         -51.8728       -92.35227             -200               0             -200               0
1.57616               -0.2751359       -21.38637        -51.53165       -95.91309             -200               0             -200               0
1.58278               -0.2834234       -21.59366        -51.19437        -99.5595             -200               0             -200               0
1.5894                -0.2919899       -21.80371        -50.86195       -103.2856             -200               0             -200               0
1.59603                -0.300846       -22.01656        -50.53524       -107.0851             -200               0             -200               0
1.60265               -0.3100037       -22.23226        -50.21492        -110.952             -200               0             -200               0
1.60927               -0.3194734       -22.45083        -49.90155       -114.8799             -200               0             -200               0
1.61589                -0.329268       -22.67232        -49.59558       -118.8627             -200               0             -200               0
1.62252               -0.3393972       -22.89676        -49.29733       -122.8945             -200               0             -200               0
1.62914               -0.3498735       -23.12418        -49.00705       -126.9695             -200               0             -200               0
1.63576               -0.3607087       -23.35464        -48.72491       -131.0822             -200               0             -200               0
1.64238               -0.3719132       -23.58815          -48.451       -135.2271             -200               0             -200               0
1.64901                -0.383499       -23.82477        -48.18534       -139.3993             -200               0             -200               0
1.65563               -0.3954766       -24.06453         -47.9279       -143.5937             -200               0             -200               0
1.66225               -0.4078586       -24.30747        -47.67861       -147.8058             -200               0             -200               0
1.66887               -0.4206557       -24.55365        -47.43735        -152.031             -200               0             -200               0
1.6755                -0.4338805        -24.8031        -47.20394       -156.2652             -200               0             -200               0
1.68212               -0.4475439       -25.05589        -46.97819       -160.5044             -200               0             -200               0
1.68874                -0.461658       -25.31208        -46.75986       -164.7446             -200               0             -200               0
1.69536               -0.4762359       -25.57171        -46.54867       -168.9825             -200               0             -200               0
1.70199                -0.491292       -25.83486        -46.34433       -173.2144             -200               0             -200               0
1.70861               -0.5068386       -26.10161        -46.14649       -177.4373             -200               0             -200               0
1.71523               -0.5228909       -26.37201        -45.95479         178.352             -200               0             -200               0
1.72185               -0.5394657       -26.64617        -45.76883         174.156             -200               0             -200               0
1.72848               -0.5565778       -26.92415         -45.5882        169.9775             -200               0             -200               0
1.7351                -0.5742466       -27.20605        -45.41245        165.8188             -200               0             -200               0
1.74172               -0.5924892       -27.49196        -45.24108        161.6819             -200               0             -200               0
1.74834               -0.6113272       -27.78198        -45.07362        157.5687             -200               0             -200               0
1.75497               -0.6307822        -28.0762        -44.90952        153.4808             -200               0             -200               0
1.76159               -0.6508783       -28.37472        -44.74824        149.4193             -200               0             -200               0
1.76821               -0.6716391       -28.67764        -44.58921        145.3851             -200               0             -200               0
1.77483               -0.6930923       -28.98506        -44.43186         141.379             -200               0             -200               0
1.78146               -0.7152654       -29.29709        -44.27559        137.4011             -200               0             -200               0
1.78808               -0.7381887       -29.61382        -44.11979        133.4511             -200               0             -200               0
1.7947                -0.7618928       -29.93535        -43.96388        129.5287             -200               0             -200               0
1.80132               -0.7864134       -30.26177        -43.80725        125.6327             -200               0             -200               0
1.80795               -0.8117834       -30.59317        -43.64932        121.7618             -200               0             -200               0
1.81457               -0.8380397       -30.92966        -43.48953        117.9142             -200               0             -200               0
1.82119               -0.8652207       -31.27129        -43.32735        114.0877             -200               0             -200               0
1.82781               -0.8933663       -31.61817        -43.16228        110.2796             -200               0             -200               0
1.83444               -0.9225175       -31.97036        -42.99387        106.4869             -200               0             -200               0
1.84106               -0.9527166       -32.32792         -42.8217        102.7064             -200               0             -200               0
1.84768               -0.9840076       -32.69094        -42.64546        98.93434             -200               0             -200               0
1.8543                 -1.016436       -33.05947        -42.46484        95.16694             -200               0             -200               0
