! TOUCHSTONE file generated by CST MICROWAVE STUDIO
! Date and time: Tue Mar 18 00:01:44 2025
! Project name: oblique.cst
! Parameters = {Tilt=30; Fracture=1; B=12.5; D=160; F=25; Feed=2.85625; L=100; M=50; R=0.384908; S=1; Theta=90; length=57.125; wave=114.25}
! Header version: 2024
! Port assignment regex: !\s*Touchstone port\s*([0-9]+)\s*=\s*(CST MWS port|CST DES external port|CST DES block port)\s*(.+)\s* \(\"(.*)\"\)(\s*mode\s*([0-9]+))?.*
! Touchstone port assignment:
! Touchstone port 1 = CST MWS port 1 ("")
! Touchstone port 2 = CST MWS port 2 ("")
# GHz S DB R 50
1                    -0.02025807       -9.830694        -69.39735         150.686             -200               0             -200               0
1.0066               -0.02091568       -9.918873        -69.33822         145.352             -200               0             -200               0
1.0132               -0.02158451       -10.00765         -69.3071        140.1289             -200               0             -200               0
1.0198               -0.02226424       -10.09705        -69.30382        135.0267             -200               0             -200               0
1.0264               -0.02295601       -10.18708        -69.32825        130.0572             -200               0             -200               0
1.033                -0.02366054       -10.27776        -69.38021        125.2345             -200               0             -200               0
1.0396               -0.02437897       -10.36911        -69.45946        120.5751             -200               0             -200               0
1.0462               -0.02511351       -10.46116        -69.56559        116.0983             -200               0             -200               0
1.05281              -0.02586481       -10.55391        -69.69794        111.8268             -200               0             -200               0
1.05941              -0.02663513       -10.64738        -69.85546        107.7865             -200               0             -200               0
1.06601              -0.02742672       -10.74159        -70.03651        104.0077             -200               0             -200               0
1.07261              -0.02824127       -10.83655        -70.23863         100.524             -200               0             -200               0
1.07921               -0.0290802       -10.93227        -70.45822        97.37326             -200               0             -200               0
1.08581              -0.02994669       -11.02876        -70.69012         94.5955             -200               0             -200               0
1.09241              -0.03084214       -11.12603         -70.9272        92.23147             -200               0             -200               0
1.09901              -0.03176843       -11.22409         -71.1599        90.31863             -200               0             -200               0
1.10561              -0.03272845       -11.32296        -71.37584        88.88523             -200               0             -200               0
1.11221              -0.03372259       -11.42262        -71.55987        87.94209             -200               0             -200               0
1.11881              -0.03475377       -11.52309         -71.6946        87.47263             -200               0             -200               0
1.12541              -0.03582293       -11.62437        -71.76191        87.42346             -200               0             -200               0
1.13201              -0.03693146       -11.72647        -71.74527        87.69927             -200               0             -200               0
1.13861              -0.03808027        -11.8294        -71.63269         88.1664             -200               0             -200               0
1.14521              -0.03927073       -11.93314        -71.41919        88.66695             -200               0             -200               0
1.15182               -0.0405032       -12.03772        -71.10798        89.04076             -200               0             -200               0
1.15842              -0.04177745       -12.14314        -70.70964        89.14826             -200               0             -200               0
1.16502              -0.04309427       -12.24939        -70.23978        88.88644             -200               0             -200               0
1.17162              -0.04445383        -12.3565        -69.71619        88.19438             -200               0             -200               0
1.17822              -0.04585569       -12.46447        -69.15627        87.04949             -200               0             -200               0
1.18482              -0.04729898        -12.5733        -68.57541        85.45859             -200               0             -200               0
1.19142              -0.04878513       -12.68302        -67.98623        83.44789             -200               0             -200               0
1.19802              -0.05031244       -12.79365        -67.39854        81.05423             -200               0             -200               0
1.20462              -0.05188074       -12.90519        -66.81959         78.3188             -200               0             -200               0
1.21122              -0.05349022       -13.01767        -66.25455        75.28292             -200               0             -200               0
1.21782              -0.05514047       -13.13111        -65.70694         71.9857             -200               0             -200               0
1.22442              -0.05683194       -13.24554        -65.17907        68.46288             -200               0             -200               0
1.23102              -0.05856412       -13.36097        -64.67231        64.74641             -200               0             -200               0
1.23762              -0.06033875       -13.47746         -64.1874        60.86448             -200               0             -200               0
1.24422              -0.06215565       -13.59501        -63.72462        56.84176             -200               0             -200               0
1.25083               -0.0640165       -13.71366        -63.28392        52.69983             -200               0             -200               0
1.25743              -0.06592305       -13.83345        -62.86505        48.45754             -200               0             -200               0
1.26403              -0.06787731       -13.95441        -62.46761        44.13135             -200               0             -200               0
1.27063               -0.0698814       -14.07658        -62.09111        39.73577             -200               0             -200               0
1.27723              -0.07193956       -14.19998          -61.735        35.28357             -200               0             -200               0
1.28383              -0.07405423       -14.32465        -61.39873        30.78611             -200               0             -200               0
1.29043              -0.07622805       -14.45062        -61.08171        26.25356             -200               0             -200               0
1.29703              -0.07846731       -14.57793        -60.78336        21.69508             -200               0             -200               0
1.30363              -0.08077519        -14.7066        -60.50309        17.11902             -200               0             -200               0
1.31023              -0.08315731       -14.83667        -60.24035        12.53302             -200               0             -200               0
1.31683              -0.08561815       -14.96816        -59.99457        7.944172             -200               0             -200               0
1.32343              -0.08816327       -15.10109         -59.7652        3.359098             -200               0             -200               0
1.33003              -0.09079798       -15.23549        -59.55169       -1.215956             -200               0             -200               0
1.33663              -0.09352847       -15.37137        -59.35351        -5.77505             -200               0             -200               0
1.34323              -0.09636048       -15.50876         -59.1701       -10.31248             -200               0             -200               0
1.34984              -0.09929878       -15.64765        -59.00093       -14.82275             -200               0             -200               0
1.35644               -0.1023497       -15.78808        -58.84541       -19.30051             -200               0             -200               0
1.36304               -0.1055187       -15.93005        -58.70299       -23.74053             -200               0             -200               0
1.36964               -0.1088104       -16.07356        -58.57304       -28.13768             -200               0             -200               0
1.37624               -0.1122303       -16.21862        -58.45493       -32.48696             -200               0             -200               0
1.38284               -0.1157835       -16.36525        -58.34798       -36.78342             -200               0             -200               0
1.38944               -0.1194731       -16.51344        -58.25147       -41.02223             -200               0             -200               0
1.39604               -0.1233042       -16.66319        -58.16462        -45.1987             -200               0             -200               0
1.40264               -0.1272806       -16.81452        -58.08659       -49.30832             -200               0             -200               0
1.40924               -0.1314046       -16.96742        -58.01647       -53.34675             -200               0             -200               0
1.41584               -0.1356804       -17.12191        -57.95325       -57.30998             -200               0             -200               0
1.42244               -0.1401102       -17.27799        -57.89589       -61.19434             -200               0             -200               0
1.42904               -0.1446971       -17.43567        -57.84321       -64.99667             -200               0             -200               0
1.43564               -0.1494426       -17.59497        -57.79397       -68.71434             -200               0             -200               0
1.44224               -0.1543494        -17.7559        -57.74686       -72.34547             -200               0             -200               0
1.44884               -0.1594203       -17.91847        -57.70045       -75.88903             -200               0             -200               0
1.45545               -0.1646557       -18.08271         -57.6533       -79.34499             -200               0             -200               0
1.46205               -0.1700582       -18.24865        -57.60388       -82.71445             -200               0             -200               0
1.46865               -0.1756318        -18.4163        -57.55066       -85.99981             -200               0             -200               0
1.47525               -0.1813768       -18.58571        -57.49211        -89.2048             -200               0             -200               0
1.48185               -0.1872968       -18.75691        -57.42675       -92.33462             -200               0             -200               0
1.48845                -0.193395       -18.92994        -57.35319       -95.39593             -200               0             -200               0
1.49505               -0.1996748       -19.10482        -57.27016       -98.39676             -200               0             -200               0
1.50165                -0.206141       -19.28162        -57.17656       -101.3465             -200               0             -200               0
1.50825               -0.2127987       -19.46038        -57.07152       -104.2555             -200               0             -200               0
1.51485               -0.2196518       -19.64114        -56.95438       -107.1351             -200               0             -200               0
1.52145                -0.226708       -19.82394         -56.8248       -109.9971             -200               0             -200               0
1.52805               -0.2339728       -20.00885        -56.68268       -112.8536             -200               0             -200               0
1.53465               -0.2414548        -20.1959        -56.52823       -115.7163             -200               0             -200               0
1.54125               -0.2491605       -20.38515        -56.36193       -118.5966             -200               0             -200               0
1.54785                  -0.2571       -20.57663         -56.1845       -121.5049             -200               0             -200               0
1.55446               -0.2652825        -20.7704        -55.99689       -124.4507             -200               0             -200               0
1.56106               -0.2737182        -20.9665         -55.8002       -127.4419             -200               0             -200               0
1.56766               -0.2824175       -21.16497        -55.59569       -130.4852             -200               0             -200               0
1.57426               -0.2913906       -21.36585        -55.38469       -133.5858             -200               0             -200               0
1.58086               -0.3006504       -21.56916        -55.16857       -136.7472             -200               0             -200               0
1.58746               -0.3102076       -21.77495        -54.94873       -139.9717             -200               0             -200               0
1.59406               -0.3200742       -21.98322        -54.72651       -143.2601             -200               0             -200               0
1.60066               -0.3302625       -22.19402        -54.50322       -146.6122             -200               0             -200               0
1.60726                -0.340784       -22.40736         -54.2801       -150.0266             -200               0             -200               0
1.61386               -0.3516509       -22.62325        -54.05828       -153.5009             -200               0             -200               0
1.62046               -0.3628754       -22.84171         -53.8388        -157.032             -200               0             -200               0
1.62706               -0.3744676       -23.06275        -53.62261       -160.6162             -200               0             -200               0
1.63366               -0.3864409       -23.28638        -53.41055       -164.2494             -200               0             -200               0
1.64026               -0.3988046       -23.51261        -53.20333       -167.9267             -200               0             -200               0
1.64686               -0.4115688       -23.74145        -53.00158       -171.6433             -200               0             -200               0
1.65347                -0.424745       -23.97291        -52.80584       -175.3938             -200               0             -200               0
1.66007               -0.4383427       -24.20698        -52.61652       -179.1729             -200               0             -200               0
1.66667               -0.4523697        -24.4437        -52.43398        177.0249             -200               0             -200               0
1.67327               -0.4668349       -24.68307        -52.25845        173.2053             -200               0             -200               0
1.67987               -0.4817478        -24.9251         -52.0901         169.374             -200               0             -200               0
1.68647               -0.4971165       -25.16982        -51.92901        165.5367             -200               0             -200               0
1.69307               -0.5129492       -25.41726        -51.77519        161.6991             -200               0             -200               0
1.69967               -0.5292528       -25.66745        -51.62854        157.8669             -200               0             -200               0
1.70627                -0.546037       -25.92042        -51.48891        154.0458             -200               0             -200               0
1.71287               -0.5633085       -26.17623        -51.35604        150.2413             -200               0             -200               0
1.71947                -0.581078       -26.43493        -51.22962         146.459             -200               0             -200               0
1.72607               -0.5993524       -26.69656        -51.10923        142.7042             -200               0             -200               0
1.73267               -0.6181431       -26.96122        -50.99437        138.9822             -200               0             -200               0
1.73927               -0.6374608       -27.22895        -50.88443         135.298             -200               0             -200               0
1.74587               -0.6573175       -27.49985        -50.77874        131.6562             -200               0             -200               0
1.75248               -0.6777248       -27.77401         -50.6765        128.0613             -200               0             -200               0
1.75908               -0.6986988       -28.05151        -50.57683        124.5172             -200               0             -200               0
1.76568               -0.7202541       -28.33246        -50.47874        121.0274             -200               0             -200               0
1.77228               -0.7424091       -28.61695        -50.38116        117.5947             -200               0             -200               0
1.77888               -0.7651816        -28.9051        -50.28291         114.221             -200               0             -200               0
1.78548               -0.7885943       -29.19702        -50.18276        110.9074             -200               0             -200               0
1.79208               -0.8126695       -29.49281        -50.07939        107.6542             -200               0             -200               0
1.79868               -0.8374315       -29.79259        -49.97143        104.4602             -200               0             -200               0
1.80528               -0.8629078       -30.09648        -49.85752        101.3231             -200               0             -200               0
1.81188               -0.8891273       -30.40458        -49.73628        98.23944             -200               0             -200               0
1.81848               -0.9161206       -30.71701        -49.60638        95.20409             -200               0             -200               0
1.82508               -0.9439218       -31.03386        -49.46659         92.2107             -200               0             -200               0
1.83168               -0.9725645       -31.35525        -49.31578        89.25158             -200               0             -200               0
1.83828                -1.002086       -31.68127        -49.15298        86.31785             -200               0             -200               0
1.84488                -1.032525       -32.01201        -48.97744        83.39961             -200               0             -200               0
1.85149                -1.063922       -32.34756        -48.78861        80.48618             -200               0             -200               0
