! TOUCHSTONE file generated by CST MICROWAVE STUDIO
! Date and time: Tue Mar 18 00:02:20 2025
! Project name: oblique.cst
! Parameters = {Tilt=40; Fracture=1; B=10; D=160; F=15; Feed=2.85625; L=100; M=50; R=0.384908; S=2; Theta=270; length=57.125; wave=114.25}
! Header version: 2024
! Port assignment regex: !\s*Touchstone port\s*([0-9]+)\s*=\s*(CST MWS port|CST DES external port|CST DES block port)\s*(.+)\s* \(\"(.*)\"\)(\s*mode\s*([0-9]+))?.*
! Touchstone port assignment:
! Touchstone port 1 = CST MWS port 1 ("")
! Touchstone port 2 = CST MWS port 2 ("")
# GHz S DB R 50
1                    -0.02074794       -9.802824        -67.59321        161.9809             -200               0             -200               0
1.0066               -0.02150192       -9.890357        -67.54836        156.2696             -200               0             -200               0
1.0132               -0.02225897       -9.978416        -67.53446        150.6545             -200               0             -200               0
1.0198               -0.02301849       -10.06703        -67.55195        145.1427             -200               0             -200               0
1.0264               -0.02377821       -10.15623        -67.60145        139.7435             -200               0             -200               0
1.033                -0.02454104       -10.24604        -67.68373         134.468             -200               0             -200               0
1.0396                -0.0253057       -10.33651        -67.79969        129.3303             -200               0             -200               0
1.0462               -0.02607499       -10.42766        -67.95035        124.3477             -200               0             -200               0
1.05281              -0.02684974       -10.51952        -68.13681        119.5417             -200               0             -200               0
1.05941              -0.02763275       -10.61213        -68.36021        114.9387             -200               0             -200               0
1.06601              -0.02842855       -10.70552        -68.62161        110.5713             -200               0             -200               0
1.07261              -0.02923788        -10.7997        -68.92182        106.4801             -200               0             -200               0
1.07921              -0.03006759        -10.8947        -69.26113        102.7152             -200               0             -200               0
1.08581              -0.03092016       -10.99055         -69.6389         99.3385             -200               0             -200               0
1.09241              -0.03179991       -11.08725         -70.0528        96.42586             -200               0             -200               0
1.09901               -0.0327138       -11.18482        -70.49781        94.06834             -200               0             -200               0
1.10561              -0.03366427       -11.28326        -70.96457        92.37164             -200               0             -200               0
1.11221              -0.03465641       -11.38257        -71.43726        91.45037             -200               0             -200               0
1.11881              -0.03569443       -11.48276        -71.89107         91.4128             -200               0             -200               0
1.12541              -0.03678377       -11.58382        -72.29021        92.33034             -200               0             -200               0
1.13201              -0.03792667       -11.68575        -72.58858        94.18977             -200               0             -200               0
1.13861              -0.03912673       -11.78852        -72.73594        96.84005             -200               0             -200               0
1.14521              -0.04038634       -11.89213        -72.69089        99.96777             -200               0             -200               0
1.15182              -0.04170602       -11.99656        -72.43592        103.1412             -200               0             -200               0
1.15842              -0.04309054        -12.1018        -71.98499        105.9216             -200               0             -200               0
1.16502              -0.04453667       -12.20782        -71.37736         107.979             -200               0             -200               0
1.17162              -0.04604645       -12.31463        -70.66282        109.1446             -200               0             -200               0
1.17822              -0.04761823        -12.4222        -69.88818        109.3929             -200               0             -200               0
1.18482              -0.04924976       -12.53052        -69.09028         108.789             -200               0             -200               0
1.19142              -0.05094186       -12.63958        -68.29487        107.4395             -200               0             -200               0
1.19802               -0.0526883       -12.74939        -67.51842        105.4601             -200               0             -200               0
1.20462              -0.05448799       -12.85994        -66.77067        102.9586             -200               0             -200               0
1.21122              -0.05633752       -12.97123        -66.05679        100.0291             -200               0             -200               0
1.21782              -0.05823283       -13.08329         -65.3791        96.74996             -200               0             -200               0
1.22442              -0.06017109       -13.19613        -64.73812        93.18602             -200               0             -200               0
1.23102              -0.06214841       -13.30976        -64.13335        89.39011             -200               0             -200               0
1.23762              -0.06416087       -13.42423        -63.56371        85.40537             -200               0             -200               0
1.24422              -0.06620726       -13.53955        -63.02781        81.26717             -200               0             -200               0
1.25083               -0.0682827       -13.65578        -62.52419        77.00467             -200               0             -200               0
1.25743              -0.07038938       -13.77294        -62.05132        72.64211             -200               0             -200               0
1.26403               -0.0725219        -13.8911        -61.60775        68.19985             -200               0             -200               0
1.27063              -0.07468355       -14.01031        -61.19208        63.69514             -200               0             -200               0
1.27723              -0.07687265        -14.1306        -60.80303        59.14282             -200               0             -200               0
1.28383              -0.07909145       -14.25204        -60.43937        54.55576             -200               0             -200               0
1.29043              -0.08134289       -14.37469            -60.1        49.94536             -200               0             -200               0
1.29703               -0.0836303       -14.49859        -59.78388        45.32174             -200               0             -200               0
1.30363              -0.08595702       -14.62381        -59.49006        40.69414             -200               0             -200               0
1.31023               -0.0883314       -14.75038        -59.21764        36.07103             -200               0             -200               0
1.31683              -0.09075613       -14.87836        -58.96579        31.46036             -200               0             -200               0
1.32343              -0.09323993       -15.00778        -58.73372        26.86962             -200               0             -200               0
1.33003              -0.09578959        -15.1387        -58.52068        22.30607             -200               0             -200               0
1.33663              -0.09841293       -15.27114        -58.32594        17.77672             -200               0             -200               0
1.34323               -0.1011201       -15.40512        -58.14878        13.28853             -200               0             -200               0
1.34984               -0.1039176       -15.54066        -57.98847        8.848374             -200               0             -200               0
1.35644               -0.1068145       -15.67779         -57.8443        4.463172             -200               0             -200               0
1.36304               -0.1098188        -15.8165        -57.71548       0.1398859             -200               0             -200               0
1.36964               -0.1129386       -15.95681        -57.60121       -4.114435             -200               0             -200               0
1.37624               -0.1161824       -16.09871        -57.50062       -8.292659             -200               0             -200               0
1.38284                -0.119556       -16.24219        -57.41274       -12.38758             -200               0             -200               0
1.38944               -0.1230679       -16.38724        -57.33652       -16.39194             -200               0             -200               0
1.39604               -0.1267211       -16.53385        -57.27078       -20.29853             -200               0             -200               0
1.40264                -0.130521         -16.682        -57.21421       -24.10028             -200               0             -200               0
1.40924               -0.1344729       -16.83167        -57.16532       -27.79035             -200               0             -200               0
1.41584               -0.1385761       -16.98285        -57.12244        -31.3624             -200               0             -200               0
1.42244               -0.1428368       -17.13552        -57.08372       -34.81077             -200               0             -200               0
1.42904               -0.1472525       -17.28967        -57.04709        -38.1308             -200               0             -200               0
1.43564               -0.1518243       -17.44529        -57.01028       -41.31915             -200               0             -200               0
1.44224               -0.1565511       -17.60237        -56.97082       -44.37421             -200               0             -200               0
1.44884               -0.1614327       -17.76092        -56.92611        -47.2965             -200               0             -200               0
1.45545               -0.1664671       -17.92095         -56.8734       -50.08906             -200               0             -200               0
1.46205               -0.1716502       -18.08246         -56.8099       -52.75783             -200               0             -200               0
1.46865               -0.1769811       -18.24548        -56.73289       -55.31191             -200               0             -200               0
1.47525               -0.1824584       -18.41005        -56.63976       -57.76366             -200               0             -200               0
1.48185               -0.1880775        -18.5762        -56.52821       -60.12864             -200               0             -200               0
1.48845                -0.193839       -18.74398        -56.39631       -62.42531             -200               0             -200               0
1.49505               -0.1997411       -18.91343        -56.24262       -64.67444             -200               0             -200               0
1.50165               -0.2057828       -19.08463         -56.0663       -66.89837             -200               0             -200               0
1.50825               -0.2119656       -19.25764        -55.86714       -69.12012             -200               0             -200               0
1.51485                -0.218291       -19.43253        -55.64554       -71.36234             -200               0             -200               0
1.52145                -0.224762       -19.60938        -55.40255       -73.64642             -200               0             -200               0
1.52805               -0.2313828       -19.78827         -55.1397       -75.99163             -200               0             -200               0
1.53465               -0.2381592       -19.96927        -54.85898       -78.41451             -200               0             -200               0
1.54125                -0.245098       -20.15248        -54.56266       -80.92847             -200               0             -200               0
1.54785               -0.2522086       -20.33796         -54.2532       -83.54364             -200               0             -200               0
1.55446               -0.2595003        -20.5258        -53.93315       -86.26694             -200               0             -200               0
1.56106               -0.2669834       -20.71607        -53.60502       -89.10226             -200               0             -200               0
1.56766               -0.2746711       -20.90885        -53.27121       -92.05086             -200               0             -200               0
1.57426               -0.2825769       -21.10418        -52.93397       -95.11171             -200               0             -200               0
1.58086               -0.2907139       -21.30213        -52.59535       -98.28195             -200               0             -200               0
1.58746               -0.2990974       -21.50276        -52.25718       -101.5573             -200               0             -200               0
1.59406               -0.3077416       -21.70609        -51.92108       -104.9322             -200               0             -200               0
1.60066               -0.3166642       -21.91216        -51.58843       -108.4006             -200               0             -200               0
1.60726                -0.325878       -22.12099        -51.26042       -111.9558             -200               0             -200               0
1.61386               -0.3353995       -22.33261        -50.93804       -115.5908             -200               0             -200               0
1.62046                -0.345243       -22.54701        -50.62211       -119.2986             -200               0             -200               0
1.62706               -0.3554232       -22.76421        -50.31327       -123.0719             -200               0             -200               0
1.63366               -0.3659503       -22.98419        -50.01206       -126.9038             -200               0             -200               0
1.64026               -0.3768394       -23.20696        -49.71885       -130.7875             -200               0             -200               0
1.64686               -0.3881002        -23.4325        -49.43393       -134.7163             -200               0             -200               0
1.65347               -0.3997426       -23.66081        -49.15749       -138.6839             -200               0             -200               0
1.66007               -0.4117748       -23.89186        -48.88963       -142.6841             -200               0             -200               0
1.66667               -0.4242037       -24.12567        -48.63036        -146.711             -200               0             -200               0
1.67327                -0.437035       -24.36222        -48.37966       -150.7589             -200               0             -200               0
1.67987               -0.4502741       -24.60153        -48.13741       -154.8226             -200               0             -200               0
1.68647               -0.4639241       -24.84359        -47.90345       -158.8969             -200               0             -200               0
1.69307               -0.4779875       -25.08845        -47.67759       -162.9769             -200               0             -200               0
1.69967               -0.4924668       -25.33612        -47.45955       -167.0579             -200               0             -200               0
1.70627               -0.5073645       -25.58666        -47.24904       -171.1355             -200               0             -200               0
1.71287               -0.5226818       -25.84013        -47.04572       -175.2057             -200               0             -200               0
1.71947               -0.5384206        -26.0966        -46.84919       -179.2643             -200               0             -200               0
1.72607               -0.5545835       -26.35617        -46.65903        176.6922             -200               0             -200               0
1.73267               -0.5711747       -26.61893        -46.47477        172.6673             -200               0             -200               0
1.73927               -0.5881989       -26.88501         -46.2959        168.6642             -200               0             -200               0
1.74587               -0.6056622       -27.15454        -46.12186        164.6858             -200               0             -200               0
1.75248               -0.6235734       -27.42767        -45.95208        160.7346             -200               0             -200               0
1.75908               -0.6419433       -27.70455        -45.78592        156.8128             -200               0             -200               0
1.76568               -0.6607848       -27.98535        -45.62273        152.9224             -200               0             -200               0
1.77228               -0.6801141       -28.27026        -45.46182        149.0648             -200               0             -200               0
1.77888               -0.6999513       -28.55945        -45.30246         145.241             -200               0             -200               0
1.78548               -0.7203172       -28.85311        -45.14393        141.4516             -200               0             -200               0
1.79208               -0.7412385       -29.15143        -44.98546        137.6965             -200               0             -200               0
1.79868               -0.7627438        -29.4546        -44.82629        133.9754             -200               0             -200               0
1.80528               -0.7848636        -29.7628        -44.66565        130.2872             -200               0             -200               0
1.81188               -0.8076346       -30.07622        -44.50279        126.6303             -200               0             -200               0
1.81848               -0.8310946       -30.39503        -44.33698        123.0023             -200               0             -200               0
1.82508               -0.8552839       -30.71938        -44.16752        119.4006             -200               0             -200               0
1.83168               -0.8802472       -31.04945        -43.99377        115.8217             -200               0             -200               0
1.83828               -0.9060296       -31.38536        -43.81514        112.2618             -200               0             -200               0
1.84488               -0.9326799       -31.72725         -43.6311        108.7164             -200               0             -200               0
1.85149               -0.9602475       -32.07523        -43.44123        105.1809             -200               0             -200               0
