! TOUCHSTONE file generated by CST MICROWAVE STUDIO
! Date and time: Tue Mar 18 00:02:25 2025
! Project name: oblique.cst
! Parameters = {Tilt=40; Fracture=1; B=10; D=160; F=25; Feed=2.85625; L=100; M=50; R=0.384908; S=1; Theta=180; length=57.125; wave=114.25}
! Header version: 2024
! Port assignment regex: !\s*Touchstone port\s*([0-9]+)\s*=\s*(CST MWS port|CST DES external port|CST DES block port)\s*(.+)\s* \(\"(.*)\"\)(\s*mode\s*([0-9]+))?.*
! Touchstone port assignment:
! Touchstone port 1 = CST MWS port 1 ("")
! Touchstone port 2 = CST MWS port 2 ("")
# GHz S DB R 50
1                    -0.02007138       -9.780476         -68.2078        152.7398             -200               0             -200               0
1.00662              -0.02074951       -9.868335        -68.16581        146.9787             -200               0             -200               0
1.01325              -0.02143731       -9.956761        -68.15427        141.3232             -200               0             -200               0
1.01987              -0.02213496       -10.04577        -68.17355        135.7814             -200               0             -200               0
1.02649              -0.02284201       -10.13539        -68.22411        130.3634             -200               0             -200               0
1.03311              -0.02355961       -10.22564        -68.30655        125.0818             -200               0             -200               0
1.03974              -0.02428831       -10.31654        -68.42151        119.9519             -200               0             -200               0
1.04636              -0.02502921       -10.40811        -68.56969        114.9926             -200               0             -200               0
1.05298              -0.02578332       -10.50037        -68.75177        110.2272             -200               0             -200               0
1.0596               -0.02655181       -10.59334        -68.96829        105.6838             -200               0             -200               0
1.06623              -0.02733718       -10.68705        -69.21954         101.397             -200               0             -200               0
1.07285              -0.02814062       -10.78151        -69.50531        97.40883             -200               0             -200               0
1.07947              -0.02896531       -10.87673        -69.82455        93.77008             -200               0             -200               0
1.08609              -0.02981335       -10.97274         -70.1748        90.54167             -200               0             -200               0
1.09272              -0.03068707       -11.06955        -70.55148        87.79515             -200               0             -200               0
1.09934               -0.0315887       -11.16717        -70.94676        85.61172             -200               0             -200               0
1.10596              -0.03252212        -11.2656        -71.34817        84.07798             -200               0             -200               0
1.11258               -0.0334886       -11.36487        -71.73698        83.27583             -200               0             -200               0
1.11921              -0.03449214       -11.46497        -72.08696        83.26347             -200               0             -200               0
1.12583              -0.03553417       -11.56591        -72.36443         84.0463             -200               0             -200               0
1.13245              -0.03661657       -11.66769        -72.53141        85.54251             -200               0             -200               0
1.13907               -0.0377424       -11.77032        -72.55264        87.55913             -200               0             -200               0
1.1457               -0.03891163        -11.8738        -72.40534        89.80155             -200               0             -200               0
1.15232              -0.04012774       -11.97812        -72.08706        91.92783             -200               0             -200               0
1.15894               -0.0413902        -12.0833        -71.61655        93.62758             -200               0             -200               0
1.16556              -0.04270201       -12.18933        -71.02704        94.68428             -200               0             -200               0
1.17219              -0.04405997       -12.29621        -70.35646        94.99413             -200               0             -200               0
1.17881              -0.04546752       -12.40395        -69.63955        94.54736             -200               0             -200               0
1.18543              -0.04692337       -12.51255        -68.90395        93.39429             -200               0             -200               0
1.19205              -0.04842782       -12.62201        -68.16966        91.61433             -200               0             -200               0
1.19868              -0.04997938       -12.73235        -67.45011        89.29493             -200               0             -200               0
1.2053               -0.05157815       -12.84358        -66.75369         86.5198             -200               0             -200               0
1.21192              -0.05322348       -12.95571        -66.08533        83.36369             -200               0             -200               0
1.21854              -0.05491423       -13.06876        -65.44755        79.89086             -200               0             -200               0
1.22517              -0.05664885       -13.18274        -64.84135        76.15548             -200               0             -200               0
1.23179              -0.05842819       -13.29768        -64.26675        72.20275             -200               0             -200               0
1.23841              -0.06025096       -13.41361        -63.72322        68.07027             -200               0             -200               0
1.24503              -0.06211761       -13.53054        -63.20986        63.78936             -200               0             -200               0
1.25166              -0.06402733       -13.64852        -62.72562         59.3862             -200               0             -200               0
1.25828              -0.06598179       -13.76758        -62.26937        54.88279             -200               0             -200               0
1.2649               -0.06798051       -13.88775        -61.83995        50.29774             -200               0             -200               0
1.27152              -0.07002599       -14.00906        -61.43626        45.64699             -200               0             -200               0
1.27815              -0.07212023       -14.13156        -61.05722        40.94424             -200               0             -200               0
1.28477              -0.07426509       -14.25528        -60.70183        36.20143             -200               0             -200               0
1.29139              -0.07646399       -14.38026        -60.36914        31.42909             -200               0             -200               0
1.29801              -0.07872101       -14.50654        -60.05826        26.63659             -200               0             -200               0
1.30464              -0.08103884       -14.63415        -59.76837        21.83237             -200               0             -200               0
1.31126               -0.0834221       -14.76314        -59.49869        17.02415             -200               0             -200               0
1.31788              -0.08587815       -14.89353        -59.24851        12.21907             -200               0             -200               0
1.3245               -0.08841083       -15.02536        -59.01714        7.423808             -200               0             -200               0
1.33113              -0.09102602       -15.15865        -58.80392        2.644715             -200               0             -200               0
1.33775              -0.09373023       -15.29343        -58.60824       -2.112119             -200               0             -200               0
1.34437              -0.09652994       -15.42973         -58.4295       -6.840779             -200               0             -200               0
1.35099              -0.09943184       -15.56755         -58.2671       -11.53546             -200               0             -200               0
1.35762               -0.1024416       -15.70693        -58.12046       -16.19041             -200               0             -200               0
1.36424               -0.1055663       -15.84786        -57.98896       -20.79991             -200               0             -200               0
1.37086               -0.1088126       -15.99035        -57.87201       -25.35821             -200               0             -200               0
1.37748               -0.1121864       -16.13443        -57.76894       -29.85951             -200               0             -200               0
1.38411               -0.1156941       -16.28008        -57.67908       -34.29797             -200               0             -200               0
1.39073                 -0.11934       -16.42731        -57.60168       -38.66771             -200               0             -200               0
1.39735               -0.1231301       -16.57611        -57.53594       -42.96279             -200               0             -200               0
1.40397               -0.1270694       -16.72649        -57.48098       -47.17727             -200               0             -200               0
1.4106                -0.1311601       -16.87845        -57.43581       -51.30527             -200               0             -200               0
1.41722               -0.1354084       -17.03197        -57.39934       -55.34104             -200               0             -200               0
1.42384               -0.1398155       -17.18707        -57.37037       -59.27905             -200               0             -200               0
1.43046                -0.144386       -17.34374        -57.34754       -63.11413             -200               0             -200               0
1.43709               -0.1491191       -17.50198        -57.32936       -66.84168             -200               0             -200               0
1.44371               -0.1540197        -17.6618        -57.31418       -70.45779             -200               0             -200               0
1.45033               -0.1590882        -17.8232        -57.30022       -73.95955             -200               0             -200               0
1.45695               -0.1643249       -17.98619        -57.28552       -77.34529             -200               0             -200               0
1.46358                -0.169732        -18.1508        -57.26802       -80.61485             -200               0             -200               0
1.4702                -0.1753101       -18.31705        -57.24557       -83.76987             -200               0             -200               0
1.47682               -0.1810597       -18.48495        -57.21594       -86.81406             -200               0             -200               0
1.48344               -0.1869827       -18.65453        -57.17693        -89.7534             -200               0             -200               0
1.49007               -0.1930797       -18.82584         -57.1264       -92.59629             -200               0             -200               0
1.49669               -0.1993523        -18.9989        -57.06237       -95.35353             -200               0             -200               0
1.50331               -0.2058042       -19.17377        -56.98308       -98.03826             -200               0             -200               0
1.50993               -0.2124367       -19.35048        -56.88711       -100.6656             -200               0             -200               0
1.51656               -0.2192541       -19.52909        -56.77341       -103.2525             -200               0             -200               0
1.52318               -0.2262607       -19.70965        -56.64138       -105.8166             -200               0             -200               0
1.5298                -0.2334609       -19.89222         -56.4909       -108.3762             -200               0             -200               0
1.53642               -0.2408599       -20.07684        -56.32233       -110.9493             -200               0             -200               0
1.54305               -0.2484662       -20.26359        -56.13645       -113.5529             -200               0             -200               0
1.54967               -0.2562865       -20.45251        -55.93448       -116.2025             -200               0             -200               0
1.55629               -0.2643293       -20.64366        -55.71797       -118.9116             -200               0             -200               0
1.56291               -0.2726039       -20.83709         -55.4887       -121.6915             -200               0             -200               0
1.56954               -0.2811208       -21.03287        -55.24864       -124.5508             -200               0             -200               0
1.57616               -0.2898901       -21.23102        -54.99984        -127.496             -200               0             -200               0
1.58278               -0.2989241        -21.4316        -54.74436       -130.5308             -200               0             -200               0
1.5894                -0.3082341       -21.63466        -54.48422        -133.657             -200               0             -200               0
1.59603               -0.3178331       -21.84022        -54.22133       -136.8745             -200               0             -200               0
1.60265               -0.3277338       -22.04832        -53.95748       -140.1815             -200               0             -200               0
1.60927               -0.3379488       -22.25898        -53.69431       -143.5748             -200               0             -200               0
1.61589                -0.348491       -22.47224         -53.4333       -147.0502             -200               0             -200               0
1.62252               -0.3593735        -22.6881        -53.17575       -150.6025             -200               0             -200               0
1.62914               -0.3706082       -22.90658        -52.92279       -154.2261             -200               0             -200               0
1.63576               -0.3822072       -23.12769         -52.6754       -157.9149             -200               0             -200               0
1.64238                -0.394184       -23.35143        -52.43441       -161.6623             -200               0             -200               0
1.64901               -0.4065496       -23.57783         -52.2005       -165.4617             -200               0             -200               0
1.65563               -0.4193137       -23.80687        -51.97425       -169.3064             -200               0             -200               0
1.66225               -0.4324873       -24.03856        -51.75609       -173.1896             -200               0             -200               0
1.66887                -0.446079       -24.27291        -51.54635       -177.1047             -200               0             -200               0
1.6755                -0.4600983       -24.50992        -51.34527        178.9552             -200               0             -200               0
1.68212               -0.4745537       -24.74961          -51.153        174.9967             -200               0             -200               0
1.68874               -0.4894525       -24.99198        -50.96958        171.0261             -200               0             -200               0
1.69536               -0.5048028       -25.23706          -50.795        167.0501             -200               0             -200               0
1.70199               -0.5206088       -25.48488        -50.62915        163.0748             -200               0             -200               0
1.70861               -0.5368806       -25.73546        -50.47184        159.1065             -200               0             -200               0
1.71523               -0.5536231       -25.98885        -50.32284        155.1513             -200               0             -200               0
1.72185               -0.5708443        -26.2451        -50.18179        151.2151             -200               0             -200               0
1.72848               -0.5885499       -26.50425        -50.04829        147.3038             -200               0             -200               0
1.7351                -0.6067477       -26.76639        -49.92184         143.423             -200               0             -200               0
1.74172               -0.6254467       -27.03158        -49.80185        139.5782             -200               0             -200               0
1.74834                -0.644655       -27.29992        -49.68767        135.7746             -200               0             -200               0
1.75497               -0.6643841        -27.5715        -49.57852        132.0171             -200               0             -200               0
1.76159               -0.6846458       -27.84642        -49.47356        128.3102             -200               0             -200               0
1.76821               -0.7054536       -28.12479        -49.37181         124.658             -200               0             -200               0
1.77483               -0.7268221       -28.40673        -49.27224        121.0641             -200               0             -200               0
1.78146               -0.7487685       -28.69237        -49.17369        117.5313             -200               0             -200               0
1.78808               -0.7713122       -28.98182        -49.07492        114.0617             -200               0             -200               0
1.7947                -0.7944748       -29.27524        -48.97462        110.6565             -200               0             -200               0
1.80132               -0.8182796       -29.57275        -48.87139        107.3157             -200               0             -200               0
1.80795               -0.8427536       -29.87448        -48.76382        104.0383             -200               0             -200               0
1.81457               -0.8679243       -30.18057        -48.65045        100.8219             -200               0             -200               0
1.82119               -0.8938218       -30.49115        -48.52984        97.66274             -200               0             -200               0
1.82781               -0.9204811       -30.80637        -48.40059        94.55552             -200               0             -200               0
1.83444               -0.9479364       -31.12633         -48.2614        91.49365             -200               0             -200               0
1.84106               -0.9762247       -31.45116         -48.1111         88.4691             -200               0             -200               0
1.84768                -1.005388       -31.78098        -47.94866        85.47259             -200               0             -200               0
1.8543                 -1.035466        -32.1159        -47.77329        82.49381             -200               0             -200               0
