! TOUCHSTONE file generated by CST MICROWAVE STUDIO
! Date and time: Tue Mar 18 00:03:07 2025
! Project name: oblique.cst
! Parameters = {Tilt=40; Fracture=1; B=12.5; D=160; F=25; Feed=2.85625; L=100; M=30; R=0.384908; S=2; Theta=90; length=57.125; wave=114.25}
! Header version: 2024
! Port assignment regex: !\s*Touchstone port\s*([0-9]+)\s*=\s*(CST MWS port|CST DES external port|CST DES block port)\s*(.+)\s* \(\"(.*)\"\)(\s*mode\s*([0-9]+))?.*
! Touchstone port assignment:
! Touchstone port 1 = CST MWS port 1 ("")
! Touchstone port 2 = CST MWS port 2 ("")
# GHz S DB R 50
1                    -0.02153071       -9.790867        -66.63961        164.2326             -200               0             -200               0
1.00658              -0.02204334       -9.876781        -66.63441        158.6676             -200               0             -200               0
1.01316              -0.02252164       -9.963478        -66.66025        153.2136             -200               0             -200               0
1.01974              -0.02297264       -10.05103        -66.71769        147.8804             -200               0             -200               0
1.02632              -0.02340303        -10.1395        -66.80742        142.6803             -200               0             -200               0
1.03289              -0.02382114       -10.22894        -66.93023        137.6284             -200               0             -200               0
1.03947               -0.0242373        -10.3194        -67.08697        132.7434             -200               0             -200               0
1.04605              -0.02466229       -10.41092        -67.27852        128.0483             -200               0             -200               0
1.05263              -0.02510642       -10.50351        -67.50567         123.571             -200               0             -200               0
1.05921              -0.02558171       -10.59719        -67.76902        119.3463             -200               0             -200               0
1.06579              -0.02609954       -10.69196        -68.06876        115.4162             -200               0             -200               0
1.07237              -0.02667155       -10.78782        -68.40429        111.8327             -200               0             -200               0
1.07895              -0.02730819       -10.88474        -68.77378        108.6584             -200               0             -200               0
1.08553              -0.02801973       -10.98269        -69.17331        105.9681             -200               0             -200               0
1.09211              -0.02881458       -11.08163        -69.59581        103.8485             -200               0             -200               0
1.09868              -0.02969949       -11.18152        -70.02945        102.3953             -200               0             -200               0
1.10526              -0.03068175       -11.28229        -70.45581        101.7031             -200               0             -200               0
1.11184              -0.03176536       -11.38388        -70.84814        101.8473             -200               0             -200               0
1.11842              -0.03295233       -11.48624        -71.17081         102.852             -200               0             -200               0
1.125                 -0.0342436        -11.5893        -71.38204        104.6493             -200               0             -200               0
1.13158              -0.03563917         -11.693        -71.44129         107.046             -200               0             -200               0
1.13816              -0.03713379       -11.79727        -71.32072        109.7271             -200               0             -200               0
1.14474              -0.03872565       -11.90207        -71.01517        112.3129             -200               0             -200               0
1.15132              -0.04040705       -12.00735         -70.5442        114.4531             -200               0             -200               0
1.15789              -0.04217006       -12.11305        -69.94459         115.903             -200               0             -200               0
1.16447              -0.04400792       -12.21917        -69.25862        116.5481             -200               0             -200               0
1.17105              -0.04590946       -12.32567        -68.52475        116.3814             -200               0             -200               0
1.17763              -0.04786507       -12.43255        -67.77314         115.463             -200               0             -200               0
1.18421              -0.04986372       -12.53982        -67.02515        113.8835             -200               0             -200               0
1.19079              -0.05189648        -12.6475         -66.2948        111.7406             -200               0             -200               0
1.19737              -0.05395147       -12.75561        -65.59062        109.1263             -200               0             -200               0
1.20395              -0.05602033       -12.86421        -64.91742        106.1212             -200               0             -200               0
1.21053              -0.05809335       -12.97334        -64.27751        102.7942             -200               0             -200               0
1.21711              -0.06016407       -13.08308        -63.67166        99.20263             -200               0             -200               0
1.22368              -0.06222659        -13.1935        -63.09967        95.39401             -200               0             -200               0
1.23026              -0.06427589       -13.30468        -62.56081        91.40765             -200               0             -200               0
1.23684              -0.06631077       -13.41671        -62.05402        87.27618             -200               0             -200               0
1.24342              -0.06832877       -13.52968        -61.57812        83.02678             -200               0             -200               0
1.25                 -0.07033377       -13.64368        -61.13188        78.68233             -200               0             -200               0
1.25658              -0.07232682       -13.75881        -60.71407        74.26223             -200               0             -200               0
1.26316              -0.07431537       -13.87515        -60.32353        69.78312             -200               0             -200               0
1.26974              -0.07630593       -13.99279        -59.95915        65.25944             -200               0             -200               0
1.27632              -0.07830802        -14.1118        -59.61989        60.70389             -200               0             -200               0
1.28289              -0.08033078       -14.23226         -59.3048        56.12781             -200               0             -200               0
1.28947              -0.08238736       -14.35422        -59.01298        51.54147             -200               0             -200               0
1.29605              -0.08448982       -14.47773        -58.74362        46.95428             -200               0             -200               0
1.30263              -0.08665222       -14.60281        -58.49594        42.37505             -200               0             -200               0
1.30921              -0.08888812        -14.7295        -58.26923        37.81216             -200               0             -200               0
1.31579              -0.09121051        -14.8578        -58.06279        33.27365             -200               0             -200               0
1.32237              -0.09363395       -14.98771        -57.87598        28.76741             -200               0             -200               0
1.32895              -0.09617095        -15.1192        -57.70815        24.30125             -200               0             -200               0
1.33553              -0.09883243       -15.25224        -57.55866          19.883             -200               0             -200               0
1.34211               -0.1016297        -15.3868        -57.42687        15.52061             -200               0             -200               0
1.34868               -0.1045713       -15.52284        -57.31209        11.22219             -200               0             -200               0
1.35526               -0.1076634       -15.66028        -57.21359        6.996071             -200               0             -200               0
1.36184               -0.1109127       -15.79908        -57.13058        2.850861             -200               0             -200               0
1.36842               -0.1143214       -15.93917        -57.06216       -1.204563             -200               0             -200               0
1.375                 -0.1178905       -16.08049        -57.00734       -5.161053             -200               0             -200               0
1.38158               -0.1216197       -16.22298        -56.96496       -9.009235             -200               0             -200               0
1.38816               -0.1255048       -16.36659        -56.93369        -12.7396             -200               0             -200               0
1.39474               -0.1295409       -16.51126        -56.91197       -16.34263             -200               0             -200               0
1.40132               -0.1337221       -16.65697        -56.89802       -19.80901             -200               0             -200               0
1.40789               -0.1380394       -16.80367        -56.88977       -23.12994             -200               0             -200               0
1.41447               -0.1424823       -16.95136        -56.88482       -26.29747             -200               0             -200               0
1.42105               -0.1470424       -17.10003        -56.88047       -29.30504             -200               0             -200               0
1.42763               -0.1517066       -17.24971        -56.87367       -32.14801             -200               0             -200               0
1.43421                -0.156466       -17.40042        -56.86108       -34.82434             -200               0             -200               0
1.44079               -0.1613079       -17.55221        -56.83909       -37.33536             -200               0             -200               0
1.44737               -0.1662222       -17.70514        -56.80391       -39.68639             -200               0             -200               0
1.45395               -0.1711998       -17.85929        -56.75173        -41.8874             -200               0             -200               0
1.46053               -0.1762326       -18.01476        -56.67884       -43.95338             -200               0             -200               0
1.46711               -0.1813155       -18.17165        -56.58186       -45.90442             -200               0             -200               0
1.47368               -0.1864432       -18.33008        -56.45797       -47.76532             -200               0             -200               0
1.48026               -0.1916139       -18.49017        -56.30504       -49.56477             -200               0             -200               0
1.48684               -0.1968287       -18.65205        -56.12186       -51.33413             -200               0             -200               0
1.49342               -0.2020904       -18.81587         -55.9082        -53.1058             -200               0             -200               0
1.5                    -0.207405       -18.98175        -55.66479       -54.91153             -200               0             -200               0
1.50658               -0.2127812       -19.14984         -55.3933        -56.7808             -200               0             -200               0
1.51316               -0.2182304       -19.32027        -55.09618       -58.73943             -200               0             -200               0
1.51974               -0.2237662       -19.49316        -54.77644       -60.80871             -200               0             -200               0
1.52632               -0.2294054       -19.66862        -54.43747       -63.00484             -200               0             -200               0
1.53289               -0.2351636       -19.84676        -54.08283         -65.339             -200               0             -200               0
1.53947               -0.2410629       -20.02767        -53.71605       -67.81756             -200               0             -200               0
1.54605               -0.2471233       -20.21142        -53.34052       -70.44277             -200               0             -200               0
1.55263                -0.253367       -20.39806        -52.95939       -73.21332             -200               0             -200               0
1.55921               -0.2598168       -20.58765        -52.57546       -76.12518             -200               0             -200               0
1.56579                -0.266494       -20.78019        -52.19123       -79.17221             -200               0             -200               0
1.57237               -0.2734218        -20.9757        -51.80883       -82.34681             -200               0             -200               0
1.57895               -0.2806201       -21.17417        -51.43006       -85.64042             -200               0             -200               0
1.58553               -0.2881097       -21.37557        -51.05642       -89.04396             -200               0             -200               0
1.59211               -0.2959076       -21.57986        -50.68913       -92.54809             -200               0             -200               0
1.59868               -0.3040304       -21.78698        -50.32917       -96.14354             -200               0             -200               0
1.60526               -0.3124922        -21.9969        -49.97727       -99.82118             -200               0             -200               0
1.61184               -0.3213032       -22.20953        -49.63403       -103.5722             -200               0             -200               0
1.61842               -0.3304727       -22.42482        -49.29986       -107.3882             -200               0             -200               0
1.625                 -0.3400052       -22.64269        -48.97502       -111.2611             -200               0             -200               0
1.63158               -0.3499041       -22.86309        -48.65969       -115.1834             -200               0             -200               0
1.63816               -0.3601693       -23.08596        -48.35393       -119.1478             -200               0             -200               0
1.64474               -0.3707979       -23.31126        -48.05772       -123.1478             -200               0             -200               0
1.65132               -0.3817852       -23.53897        -47.77098       -127.1768             -200               0             -200               0
1.65789               -0.3931243       -23.76906        -47.49356       -131.2291             -200               0             -200               0
1.66447               -0.4048062       -24.00155        -47.22526        -135.299             -200               0             -200               0
1.67105                -0.416821       -24.23647        -46.96582       -139.3814             -200               0             -200               0
1.67763               -0.4291602       -24.47388        -46.71496       -143.4713             -200               0             -200               0
1.68421               -0.4418105       -24.71385        -46.47234       -147.5643             -200               0             -200               0
1.69079               -0.4547616       -24.95648        -46.23759        -151.656             -200               0             -200               0
1.69737                -0.468008       -25.20192        -46.01032       -155.7425             -200               0             -200               0
1.70395               -0.4815395       -25.45031        -45.79009       -159.8201             -200               0             -200               0
1.71053               -0.4953512       -25.70184        -45.57645       -163.8855             -200               0             -200               0
1.71711               -0.5094423        -25.9567        -45.36888       -167.9356             -200               0             -200               0
1.72368               -0.5238119       -26.21513        -45.16688       -171.9675             -200               0             -200               0
1.73026               -0.5384658       -26.47737         -44.9699       -175.9789             -200               0             -200               0
1.73684                -0.553412       -26.74366        -44.77736       -179.9675             -200               0             -200               0
1.74342               -0.5686646       -27.01428        -44.58867        176.0685             -200               0             -200               0
1.75                  -0.5842416       -27.28951        -44.40321        172.1305             -200               0             -200               0
1.75658               -0.6001658       -27.56961        -44.22034        168.2196             -200               0             -200               0
1.76316               -0.6164636       -27.85487        -44.03941        164.3365             -200               0             -200               0
1.76974               -0.6331676       -28.14556        -43.85977        160.4814             -200               0             -200               0
1.77632               -0.6503167       -28.44195        -43.68076        156.6543             -200               0             -200               0
1.78289               -0.6679506       -28.74428        -43.50171        152.8545             -200               0             -200               0
1.78947               -0.6861156       -29.05279        -43.32197        149.0808             -200               0             -200               0
1.79605               -0.7048598        -29.3677        -43.14092        145.3318             -200               0             -200               0
1.80263               -0.7242371       -29.68922        -42.95795        141.6055             -200               0             -200               0
1.80921               -0.7443005       -30.01752        -42.77248        137.8994             -200               0             -200               0
1.81579               -0.7651085       -30.35276          -42.584        134.2106             -200               0             -200               0
1.82237               -0.7867201       -30.69507        -42.39202        130.5359             -200               0             -200               0
1.82895               -0.8091935       -31.04455        -42.19614        126.8717             -200               0             -200               0
1.83553               -0.8325903        -31.4013        -41.99601         123.214             -200               0             -200               0
1.84211               -0.8569699       -31.76538        -41.79136        119.5587             -200               0             -200               0
1.84868               -0.8823925       -32.13685          -41.582        115.9015             -200               0             -200               0
