! TOUCHSTONE file generated by CST MICROWAVE STUDIO
! Date and time: Tue Mar 18 00:02:18 2025
! Project name: oblique.cst
! Parameters = {Tilt=40; Fracture=1; B=10; D=160; F=15; Feed=2.85625; L=100; M=30; R=0.384908; S=2; Theta=180; length=57.125; wave=114.25}
! Header version: 2024
! Port assignment regex: !\s*Touchstone port\s*([0-9]+)\s*=\s*(CST MWS port|CST DES external port|CST DES block port)\s*(.+)\s* \(\"(.*)\"\)(\s*mode\s*([0-9]+))?.*
! Touchstone port assignment:
! Touchstone port 1 = CST MWS port 1 ("")
! Touchstone port 2 = CST MWS port 2 ("")
# GHz S DB R 50
1                    -0.02148956       -9.784647        -66.01292        170.4574             -200               0             -200               0
1.00658              -0.02209922       -9.871189        -66.11155         164.708             -200               0             -200               0
1.01316              -0.02269748       -9.958398        -66.24981        159.0756             -200               0             -200               0
1.01974              -0.02328693       -10.04632        -66.42995        153.5736             -200               0             -200               0
1.02632              -0.02387128       -10.13499        -66.65465        148.2192             -200               0             -200               0
1.03289              -0.02445424       -10.22445         -66.9271         143.035             -200               0             -200               0
1.03947              -0.02504337       -10.31473        -67.25106        138.0508             -200               0             -200               0
1.04605              -0.02564053       -10.40585        -67.63088        133.3057             -200               0             -200               0
1.05263              -0.02625609       -10.49785        -68.07154         128.852             -200               0             -200               0
1.05921              -0.02689325       -10.59073        -68.57856        124.7603             -200               0             -200               0
1.06579              -0.02755852       -10.68451        -69.15772        121.1271             -200               0             -200               0
1.07237              -0.02826123       -10.77918        -69.81428        118.0859             -200               0             -200               0
1.07895              -0.02900447       -10.87475        -70.55119        115.8231             -200               0             -200               0
1.08553               -0.0297965       -10.97121        -71.36529        114.5972             -200               0             -200               0
1.09211               -0.0306417       -11.06855        -72.23935        114.7579             -200               0             -200               0
1.09868              -0.03154492       -11.16674        -73.12725        116.7382             -200               0             -200               0
1.10526              -0.03250891       -11.26576        -73.93183        120.9552             -200               0             -200               0
1.11184              -0.03354028       -11.36559        -74.49021        127.5089             -200               0             -200               0
1.11842              -0.03463926        -11.4662        -74.61274        135.7179             -200               0             -200               0
1.125                -0.03580691       -11.56757        -74.20237        144.0369             -200               0             -200               0
1.13158              -0.03704465       -11.66965        -73.33996        150.8672             -200               0             -200               0
1.13816              -0.03835082       -11.77243          -72.212        155.4322             -200               0             -200               0
1.14474              -0.03972477       -11.87588        -70.98696        157.7758             -200               0             -200               0
1.15132              -0.04116411       -11.97997        -69.76807        158.3015             -200               0             -200               0
1.15789              -0.04266487       -12.08469        -68.60523        157.4484             -200               0             -200               0
1.16447              -0.04422436       -12.19003        -67.51753        155.5762             -200               0             -200               0
1.17105               -0.0458367       -12.29597        -66.50887        152.9528             -200               0             -200               0
1.17763              -0.04749777       -12.40251        -65.57644        149.7718             -200               0             -200               0
1.18421              -0.04920223       -12.50967         -64.7149        146.1725             -200               0             -200               0
1.19079              -0.05094499       -12.61744        -63.91822        142.2559             -200               0             -200               0
1.19737              -0.05272019       -12.72586        -63.18058        138.0967             -200               0             -200               0
1.20395              -0.05452324       -12.83495        -62.49665        133.7504             -200               0             -200               0
1.21053              -0.05634933       -12.94473        -61.86172        129.2596             -200               0             -200               0
1.21711              -0.05819377       -13.05526        -61.27166        124.6572             -200               0             -200               0
1.22368              -0.06005512       -13.16656        -60.72288        119.9692             -200               0             -200               0
1.23026              -0.06193084       -13.27871        -60.21227        115.2164             -200               0             -200               0
1.23684               -0.0638168       -13.39174        -59.73713        110.4159             -200               0             -200               0
1.24342              -0.06571392       -13.50572        -59.29509        105.5819             -200               0             -200               0
1.25                 -0.06762419       -13.62071        -58.88412        100.7265             -200               0             -200               0
1.25658              -0.06954781       -13.73675        -58.50241         95.8602             -200               0             -200               0
1.26316              -0.07148713       -13.85391        -58.14839        90.99209             -200               0             -200               0
1.26974              -0.07344712       -13.97225        -57.82065        86.13052             -200               0             -200               0
1.27632               -0.0754323       -14.09182        -57.51796        81.28312             -200               0             -200               0
1.28289               -0.0774484       -14.21267        -57.23919          76.457             -200               0             -200               0
1.28947              -0.07950229       -14.33484        -56.98334          71.659             -200               0             -200               0
1.29605              -0.08160061       -14.45837         -56.7495        66.89573             -200               0             -200               0
1.30263              -0.08375118       -14.58329         -56.5368        62.17373             -200               0             -200               0
1.30921              -0.08596254       -14.70964        -56.34446        57.49955             -200               0             -200               0
1.31579              -0.08824152       -14.83742        -56.17169        52.87984             -200               0             -200               0
1.32237              -0.09059888       -14.96665        -56.01774         48.3214             -200               0             -200               0
1.32895              -0.09304029       -15.09734        -55.88186        43.83125             -200               0             -200               0
1.33553              -0.09557336       -15.22947        -55.76327        39.41668             -200               0             -200               0
1.34211              -0.09820532       -15.36306        -55.66113        35.08526             -200               0             -200               0
1.34868               -0.1009422       -15.49808        -55.57457        30.84491             -200               0             -200               0
1.35526               -0.1037889       -15.63451        -55.50259         26.7038             -200               0             -200               0
1.36184                -0.106749       -15.77234        -55.44409        22.67043             -200               0             -200               0
1.36842               -0.1098269       -15.91155        -55.39783        18.75347             -200               0             -200               0
1.375                 -0.1130246       -16.05211        -55.36236         14.9617             -200               0             -200               0
1.38158               -0.1163404       -16.19401        -55.33604        11.30384             -200               0             -200               0
1.38816               -0.1197774       -16.33722        -55.31698        7.788272             -200               0             -200               0
1.39474                -0.123331       -16.48173        -55.30301        4.422768             -200               0             -200               0
1.40132               -0.1269991       -16.62753        -55.29166        1.214066             -200               0             -200               0
1.40789               -0.1307809       -16.77463        -55.28015       -1.832631             -200               0             -200               0
1.41447               -0.1346682       -16.92301        -55.26542       -4.714237             -200               0             -200               0
1.42105               -0.1386594        -17.0727        -55.24412       -7.430433             -200               0             -200               0
1.42763               -0.1427481       -17.22372        -55.21271       -9.984337             -200               0             -200               0
1.43421               -0.1469276        -17.3761        -55.16751       -12.38312             -200               0             -200               0
1.44079               -0.1511958       -17.52987        -55.10491       -14.63848             -200               0             -200               0
1.44737               -0.1555446        -17.6851        -55.02148       -16.76692             -200               0             -200               0
1.45395               -0.1599707       -17.84184        -54.91417       -18.78958             -200               0             -200               0
1.46053                 -0.16447       -18.00016        -54.78052       -20.73181             -200               0             -200               0
1.46711               -0.1690384       -18.16014        -54.61884       -22.62217             -200               0             -200               0
1.47368               -0.1736781       -18.32187        -54.42829       -24.49116             -200               0             -200               0
1.48026                -0.178384       -18.48544        -54.20898       -26.36968             -200               0             -200               0
1.48684               -0.1831594       -18.65096        -53.96193       -28.28748             -200               0             -200               0
1.49342               -0.1880075       -18.81852          -53.689       -30.27166             -200               0             -200               0
1.5                   -0.1929322       -18.98825         -53.3927       -32.34559             -200               0             -200               0
1.50658               -0.1979393       -19.16023        -53.07606       -34.52813             -200               0             -200               0
1.51316               -0.2030375       -19.33459        -52.74236       -36.83333             -200               0             -200               0
1.51974               -0.2082348       -19.51142        -52.39503       -39.27051             -200               0             -200               0
1.52632               -0.2135437       -19.69084        -52.03742       -41.84462             -200               0             -200               0
1.53289               -0.2189758       -19.87293        -51.67274        -44.5568             -200               0             -200               0
1.53947               -0.2245461       -20.05779        -51.30391       -47.40505             -200               0             -200               0
1.54605                -0.230269       -20.24551        -50.93357       -50.38484             -200               0             -200               0
1.55263               -0.2361614       -20.43615        -50.56405       -53.48983             -200               0             -200               0
1.55921               -0.2422409       -20.62978        -50.19733       -56.71232             -200               0             -200               0
1.56579               -0.2485237       -20.82646        -49.83508       -60.04379             -200               0             -200               0
1.57237                -0.255029       -21.02624        -49.47871       -63.47522             -200               0             -200               0
1.57895               -0.2617737       -21.22916        -49.12934        -66.9974             -200               0             -200               0
1.58553               -0.2687755       -21.43524        -48.78788       -70.60112             -200               0             -200               0
1.59211               -0.2760513        -21.6445        -48.45502       -74.27733             -200               0             -200               0
1.59868               -0.2836187       -21.85695         -48.1313       -78.01723             -200               0             -200               0
1.60526               -0.2914916       -22.07261        -47.81708       -81.81238             -200               0             -200               0
1.61184               -0.2996856       -22.29146        -47.51261       -85.65465             -200               0             -200               0
1.61842               -0.3082136       -22.51351        -47.21801       -89.53632             -200               0             -200               0
1.625                 -0.3170888       -22.73876        -46.93333       -93.45003             -200               0             -200               0
1.63158               -0.3263205       -22.96719        -46.65851       -97.38879             -200               0             -200               0
1.63816               -0.3359185        -23.1988        -46.39343        -101.346             -200               0             -200               0
1.64474               -0.3458911        -23.4336        -46.13788       -105.3153             -200               0             -200               0
1.65132               -0.3562443       -23.67159         -45.8916       -109.2907             -200               0             -200               0
1.65789               -0.3669855       -23.91278         -45.6543       -113.2667             -200               0             -200               0
1.66447               -0.3781175        -24.1572        -45.42558       -117.2378             -200               0             -200               0
1.67105               -0.3896464       -24.40489        -45.20505        -121.199             -200               0             -200               0
1.67763                -0.401574       -24.65589        -44.99221       -125.1455             -200               0             -200               0
1.68421               -0.4139052       -24.91025        -44.78655       -129.0729             -200               0             -200               0
1.69079               -0.4266433       -25.16806         -44.5875       -132.9771             -200               0             -200               0
1.69737               -0.4397915       -25.42939        -44.39443       -136.8542             -200               0             -200               0
1.70395               -0.4533547       -25.69436        -44.20668       -140.7007             -200               0             -200               0
1.71053               -0.4673392       -25.96307        -44.02352       -144.5136             -200               0             -200               0
1.71711               -0.4817512       -26.23567        -43.84418       -148.2903             -200               0             -200               0
1.72368               -0.4966006       -26.51229        -43.66786       -152.0285             -200               0             -200               0
1.73026               -0.5118972       -26.79309        -43.49371       -155.7267             -200               0             -200               0
1.73684               -0.5276558       -27.07824        -43.32083       -159.3836             -200               0             -200               0
1.74342               -0.5438919       -27.36793        -43.14832       -162.9988             -200               0             -200               0
1.75                  -0.5606238       -27.66233        -42.97525       -166.5726             -200               0             -200               0
1.75658               -0.5778727       -27.96165        -42.80066       -170.1056             -200               0             -200               0
1.76316               -0.5956635       -28.26609        -42.62363       -173.5997             -200               0             -200               0
1.76974               -0.6140244       -28.57584        -42.44323       -177.0571             -200               0             -200               0
1.77632               -0.6329853        -28.8911         -42.2586         179.519             -200               0             -200               0
1.78289               -0.6525826       -29.21209         -42.0689        176.1247             -200               0             -200               0
1.78947               -0.6728533         -29.539        -41.87339        172.7555             -200               0             -200               0
1.79605               -0.6938375       -29.87203        -41.67139         169.406             -200               0             -200               0
1.80263                -0.715579       -30.21136        -41.46234        166.0704             -200               0             -200               0
1.80921               -0.7381261       -30.55717        -41.24581        162.7424             -200               0             -200               0
1.81579               -0.7615267       -30.90965        -41.02149        159.4155             -200               0             -200               0
1.82237               -0.7858344       -31.26895        -40.78919        156.0827             -200               0             -200               0
1.82895               -0.8111023       -31.63522        -40.54888        152.7373             -200               0             -200               0
1.83553               -0.8373886       -32.00862        -40.30066        149.3722             -200               0             -200               0
1.84211               -0.8647529       -32.38928        -40.04477        145.9811             -200               0             -200               0
1.84868               -0.8932549       -32.77731        -39.78156        142.5576             -200               0             -200               0
