! TOUCHSTONE file generated by CST MICROWAVE STUDIO
! Date and time: Tue Mar 18 00:01:43 2025
! Project name: oblique.cst
! Parameters = {Tilt=30; Fracture=1; B=12.5; D=160; F=25; Feed=2.85625; L=100; M=30; R=0.384908; S=1; Theta=270; length=57.125; wave=114.25}
! Header version: 2024
! Port assignment regex: !\s*Touchstone port\s*([0-9]+)\s*=\s*(CST MWS port|CST DES external port|CST DES block port)\s*(.+)\s* \(\"(.*)\"\)(\s*mode\s*([0-9]+))?.*
! Touchstone port assignment:
! Touchstone port 1 = CST MWS port 1 ("")
! Touchstone port 2 = CST MWS port 2 ("")
# GHz S DB R 50
1                    -0.02174708       -9.791052        -65.09461        163.9123             -200               0             -200               0
1.00662              -0.02228304        -9.87746        -65.16322        157.6981             -200               0             -200               0
1.01325              -0.02279056       -9.964621         -65.2694        151.5877             -200               0             -200               0
1.01987              -0.02327325        -10.0526         -65.4152        145.5893             -200               0             -200               0
1.02649              -0.02373798       -10.14144        -65.60314        139.7135             -200               0             -200               0
1.03311              -0.02419221       -10.23121         -65.8362         133.975             -200               0             -200               0
1.03974              -0.02464363       -10.32194        -66.11798         128.393             -200               0             -200               0
1.04636              -0.02510221       -10.41368        -66.45275        122.9933             -200               0             -200               0
1.05298              -0.02557767       -10.50643        -66.84565        117.8103             -200               0             -200               0
1.0596               -0.02607945       -10.60022        -67.30274        112.8909             -200               0             -200               0
1.06623              -0.02661777       -10.69505        -67.83115         108.299             -200               0             -200               0
1.07285              -0.02720212       -10.79092        -68.43909        104.1243             -200               0             -200               0
1.07947              -0.02784285       -10.88781        -69.13554         100.494             -200               0             -200               0
1.08609              -0.02854781       -10.98569        -69.92921        97.59199             -200               0             -200               0
1.09272              -0.02932432       -11.08454        -70.82577        95.68766             -200               0             -200               0
1.09934              -0.03018018       -11.18431         -71.8208        95.17498             -200               0             -200               0
1.10596              -0.03111887       -11.28497        -72.88365        96.60844             -200               0             -200               0
1.11258              -0.03214655       -11.38645        -73.92505        100.6671             -200               0             -200               0
1.11921              -0.03326277       -11.48871        -74.75296        107.8472             -200               0             -200               0
1.12583              -0.03446913       -11.59171        -75.08166        117.6719             -200               0             -200               0
1.13245              -0.03576625       -11.69538        -74.70879         128.092             -200               0             -200               0
1.13907              -0.03714995       -11.79968        -73.72321        136.6218             -200               0             -200               0
1.1457               -0.03861706       -11.90457        -72.40659        142.1063             -200               0             -200               0
1.15232              -0.04016248       -12.01002        -71.00003        144.7431             -200               0             -200               0
1.15894              -0.04178113       -12.11598        -69.63194        145.1973             -200               0             -200               0
1.16556              -0.04346221       -12.22244        -68.35291        144.0915             -200               0             -200               0
1.17219              -0.04520097        -12.3294        -67.17567        141.8867             -200               0             -200               0
1.17881              -0.04698911       -12.43685        -66.09746        138.9016             -200               0             -200               0
1.18543              -0.04881648       -12.54479        -65.11014        135.3538             -200               0             -200               0
1.19205              -0.05067393       -12.65326        -64.20443        131.3934             -200               0             -200               0
1.19868              -0.05255476       -12.76229         -63.3715         127.126             -200               0             -200               0
1.2053               -0.05445115       -12.87191        -62.60351        122.6271             -200               0             -200               0
1.21192               -0.0563565       -12.98219        -61.89369        117.9522             -200               0             -200               0
1.21854              -0.05826546       -13.09318        -61.23624        113.1427             -200               0             -200               0
1.22517              -0.06017307       -13.20494        -60.62626        108.2302             -200               0             -200               0
1.23179              -0.06207572       -13.31757        -60.05956        103.2396             -200               0             -200               0
1.23841              -0.06397429       -13.43113        -59.53257        98.19027             -200               0             -200               0
1.24503              -0.06586826        -13.5457        -59.04225        93.09818             -200               0             -200               0
1.25166              -0.06775967       -13.66137        -58.58596        87.97639             -200               0             -200               0
1.25828              -0.06965311       -13.77822        -58.16143        82.83589             -200               0             -200               0
1.2649                -0.0715538       -13.89633         -57.7667         77.6861             -200               0             -200               0
1.27152              -0.07346876       -14.01576        -57.40004        72.53528             -200               0             -200               0
1.27815              -0.07540777       -14.13658        -57.05996        67.39078             -200               0             -200               0
1.28477              -0.07737768       -14.25885        -56.74511        62.25931             -200               0             -200               0
1.29139              -0.07939315       -14.38262        -56.45432        57.14711             -200               0             -200               0
1.29801              -0.08146269       -14.50793        -56.18652        52.06007             -200               0             -200               0
1.30464              -0.08359968        -14.6348        -55.94077         47.0039             -200               0             -200               0
1.31126              -0.08581553       -14.76325        -55.71618        41.98418             -200               0             -200               0
1.31788              -0.08812188       -14.89328        -55.51197        37.00649             -200               0             -200               0
1.3245               -0.09053171       -15.02489        -55.32737        32.07643             -200               0             -200               0
1.33113               -0.0930553       -15.15807        -55.16166        27.19974             -200               0             -200               0
1.33775              -0.09570164       -15.29278        -55.01414        22.38233             -200               0             -200               0
1.34437              -0.09848084       -15.42899        -54.88412        17.63031             -200               0             -200               0
1.35099               -0.1013992       -15.56667        -54.77088        12.95005             -200               0             -200               0
1.35762               -0.1044627       -15.70577        -54.67367        8.348217             -200               0             -200               0
1.36424               -0.1076764       -15.84624         -54.5917        3.831746             -200               0             -200               0
1.37086               -0.1110394       -15.98804        -54.52409      -0.5921124             -200               0             -200               0
1.37748               -0.1145555       -16.13111        -54.46989        -4.91584             -200               0             -200               0
1.38411               -0.1182216       -16.27541        -54.42799       -9.131692             -200               0             -200               0
1.39073               -0.1220359       -16.42092        -54.39716       -13.23178             -200               0             -200               0
1.39735               -0.1259928       -16.56758        -54.37599        -17.2082             -200               0             -200               0
1.40397               -0.1300883       -16.71539        -54.36285       -21.05319             -200               0             -200               0
1.4106                -0.1343129       -16.86433        -54.35589       -24.75941             -200               0             -200               0
1.41722               -0.1386617       -17.01441        -54.35301       -28.32021             -200               0             -200               0
1.42384               -0.1431245       -17.16562        -54.35182       -31.73005             -200               0             -200               0
1.43046               -0.1476944       -17.31801        -54.34968       -34.98496             -200               0             -200               0
1.43709               -0.1523614       -17.47162        -54.34367       -38.08306             -200               0             -200               0
1.44371               -0.1571193       -17.62649        -54.33065       -41.02516             -200               0             -200               0
1.45033               -0.1619604       -17.78269        -54.30734        -43.8153             -200               0             -200               0
1.45695                 -0.16688        -17.9403        -54.27038       -46.46128             -200               0             -200               0
1.46358               -0.1718714       -18.09942        -54.21648       -48.97503             -200               0             -200               0
1.4702                -0.1769343       -18.26014        -54.14257       -51.37275             -200               0             -200               0
1.47682                -0.182066       -18.42257        -54.04595       -53.67473             -200               0             -200               0
1.48344               -0.1872692       -18.58683        -53.92449       -55.90486             -200               0             -200               0
1.49007               -0.1925487       -18.75303        -53.77674       -58.08975             -200               0             -200               0
1.49669               -0.1979063       -18.92129        -53.60205       -60.25755             -200               0             -200               0
1.50331                -0.203354       -19.09172        -53.40062       -62.43666             -200               0             -200               0
1.50993               -0.2089007       -19.26445        -53.17343       -64.65429             -200               0             -200               0
1.51656               -0.2145593       -19.43957        -52.92222       -66.93529             -200               0             -200               0
1.52318               -0.2203439       -19.61719        -52.64933       -69.30112             -200               0             -200               0
1.5298                -0.2262723        -19.7974        -52.35751       -71.76924             -200               0             -200               0
1.53642                -0.232361       -19.98027        -52.04981       -74.35284             -200               0             -200               0
1.54305               -0.2386283       -20.16586        -51.72938       -77.06083             -200               0             -200               0
1.54967                -0.245095       -20.35423        -51.39933       -79.89822             -200               0             -200               0
1.55629               -0.2517812       -20.54541        -51.06263       -82.86653             -200               0             -200               0
1.56291               -0.2587056       -20.73942        -50.72206       -85.96437             -200               0             -200               0
1.56954               -0.2658896       -20.93627         -50.3801       -89.18801             -200               0             -200               0
1.57616               -0.2733502       -21.13594        -50.03898       -92.53196             -200               0             -200               0
1.58278               -0.2811053       -21.33842        -49.70063       -95.98943             -200               0             -200               0
1.5894                -0.2891717       -21.54367        -49.36668       -99.55275             -200               0             -200               0
1.59603               -0.2975631       -21.75165        -49.03854       -103.2137             -200               0             -200               0
1.60265               -0.3062913       -21.96231        -48.71734       -106.9639             -200               0             -200               0
1.60927               -0.3153675       -22.17561        -48.40403       -110.7948             -200               0             -200               0
1.61589               -0.3247967       -22.39147        -48.09936        -114.698             -200               0             -200               0
1.62252               -0.3345861       -22.60986        -47.80391       -118.6651             -200               0             -200               0
1.62914               -0.3447371       -22.83073        -47.51812       -122.6881             -200               0             -200               0
1.63576               -0.3552497       -23.05403        -47.24233       -126.7593             -200               0             -200               0
1.64238               -0.3661223       -23.27973        -46.97675       -130.8714             -200               0             -200               0
1.64901               -0.3773496       -23.50782        -46.72151        -135.017             -200               0             -200               0
1.65563               -0.3889267       -23.73831        -46.47664       -139.1894             -200               0             -200               0
1.66225               -0.4008463        -23.9712        -46.24212        -143.382             -200               0             -200               0
1.66887                  -0.4131       -24.20653        -46.01788       -147.5885             -200               0             -200               0
1.6755                -0.4256793       -24.44438        -45.80375       -151.8029             -200               0             -200               0
1.68212               -0.4385762       -24.68482        -45.59954       -156.0192             -200               0             -200               0
1.68874               -0.4517815       -24.92797        -45.40499       -160.2319             -200               0             -200               0
1.69536               -0.4652905       -25.17395        -45.21982       -164.4356             -200               0             -200               0
1.70199               -0.4790979       -25.42292        -45.04365        -168.625             -200               0             -200               0
1.70861               -0.4932004       -25.67506         -44.8761        -172.795             -200               0             -200               0
1.71523               -0.5075986       -25.93057        -44.71669       -176.9407             -200               0             -200               0
1.72185                -0.522296       -26.18966        -44.56494        178.9424             -200               0             -200               0
1.72848                  -0.5373       -26.45256        -44.42027         174.859             -200               0             -200               0
1.7351                 -0.552621       -26.71953        -44.28205        170.8133             -200               0             -200               0
1.74172               -0.5682751        -26.9908         -44.1496        166.8092             -200               0             -200               0
1.74834               -0.5842812       -27.26665        -44.02216        162.8504             -200               0             -200               0
1.75497               -0.6006656       -27.54732        -43.89893        158.9403             -200               0             -200               0
1.76159               -0.6174565       -27.83308        -43.77901        155.0818             -200               0             -200               0
1.76821               -0.6346872       -28.12419        -43.66145        151.2772             -200               0             -200               0
1.77483               -0.6523964       -28.42088        -43.54525        147.5284             -200               0             -200               0
1.78146               -0.6706263       -28.72339        -43.42933        143.8366             -200               0             -200               0
1.78808               -0.6894217       -29.03193        -43.31258        140.2022             -200               0             -200               0
1.7947                -0.7088343        -29.3467        -43.19386        136.6249             -200               0             -200               0
1.80132               -0.7289154       -29.66787        -43.07197        133.1033             -200               0             -200               0
1.80795               -0.7497189        -29.9956        -42.94575        129.6351             -200               0             -200               0
1.81457               -0.7713014       -30.33001        -42.81403         126.217             -200               0             -200               0
1.82119               -0.7937231       -30.67123        -42.67571        122.8447             -200               0             -200               0
1.82781               -0.8170427       -31.01932        -42.52973        119.5127             -200               0             -200               0
1.83444               -0.8413176       -31.37437        -42.37516        116.2146             -200               0             -200               0
1.84106               -0.8666079        -31.7364        -42.21117        112.9432             -200               0             -200               0
1.84768               -0.8929717       -32.10545        -42.03709        109.6903             -200               0             -200               0
1.8543                -0.9204671       -32.48153        -41.85243        106.4473             -200               0             -200               0
