! TOUCHSTONE file generated by CST MICROWAVE STUDIO
! Date and time: Tue Mar 18 00:02:11 2025
! Project name: oblique.cst
! Parameters = {Tilt=40; Fracture=1; B=10; D=160; F=15; Feed=2.85625; L=100; M=10; R=0.384908; S=1; Theta=180; length=57.125; wave=114.25}
! Header version: 2024
! Port assignment regex: !\s*Touchstone port\s*([0-9]+)\s*=\s*(CST MWS port|CST DES external port|CST DES block port)\s*(.+)\s* \(\"(.*)\"\)(\s*mode\s*([0-9]+))?.*
! Touchstone port assignment:
! Touchstone port 1 = CST MWS port 1 ("")
! Touchstone port 2 = CST MWS port 2 ("")
# GHz S DB R 50
1                    -0.01846489       -9.796201        -69.38828         -139.85             -200               0             -200               0
1.00662              -0.01932219       -9.885732        -69.13364       -144.2703             -200               0             -200               0
1.01325              -0.02023016       -9.975572         -68.9133       -148.6395             -200               0             -200               0
1.01987              -0.02118093       -10.06569        -68.72621       -152.9434             -200               0             -200               0
1.02649              -0.02216581       -10.15608        -68.57143       -157.1672             -200               0             -200               0
1.03311              -0.02317627       -10.24674         -68.4481       -161.2955             -200               0             -200               0
1.03974              -0.02420358       -10.33766        -68.35536       -165.3111             -200               0             -200               0
1.04636              -0.02523864       -10.42887        -68.29231       -169.1956             -200               0             -200               0
1.05298              -0.02627195        -10.5204        -68.25791       -172.9286             -200               0             -200               0
1.0596               -0.02729585       -10.61229        -68.25091       -176.4872             -200               0             -200               0
1.06623              -0.02830286       -10.70459        -68.26967       -179.8464             -200               0             -200               0
1.07285              -0.02928722       -10.79735        -68.31206        177.0216             -200               0             -200               0
1.07947                -0.030243       -10.89065         -68.3752         174.147             -200               0             -200               0
1.08609              -0.03116763       -10.98455        -68.45523        171.5619             -200               0             -200               0
1.09272              -0.03205941       -11.07913        -68.54705        169.2996             -200               0             -200               0
1.09934              -0.03291817       -11.17448        -68.64396         167.392             -200               0             -200               0
1.10596               -0.0337456       -11.27066        -68.73744         165.867             -200               0             -200               0
1.11258              -0.03454612       -11.36776        -68.81694        164.7438             -200               0             -200               0
1.11921              -0.03532416       -11.46585           -68.87        164.0271             -200               0             -200               0
1.12583              -0.03608688       -11.56501        -68.88278        163.7004             -200               0             -200               0
1.13245              -0.03684268       -11.66528        -68.84108          163.72             -200               0             -200               0
1.13907              -0.03760069       -11.76674        -68.73201        164.0125             -200               0             -200               0
1.1457               -0.03837291       -11.86941        -68.54584        164.4767             -200               0             -200               0
1.15232              -0.03916865       -11.97333        -68.27772        164.9926             -200               0             -200               0
1.15894              -0.04000149       -12.07852         -67.9286        165.4357             -200               0             -200               0
1.16556              -0.04088145         -12.185        -67.50498        165.6921             -200               0             -200               0
1.17219              -0.04182197       -12.29276        -67.01762        165.6709             -200               0             -200               0
1.17881               -0.0428327       -12.40178         -66.4797        165.3104             -200               0             -200               0
1.18543              -0.04392472       -12.51204        -65.90497        164.5784             -200               0             -200               0
1.19205              -0.04510734       -12.62351        -65.30633        163.4677             -200               0             -200               0
1.19868              -0.04638863       -12.73613        -64.69502        161.9893             -200               0             -200               0
1.2053                -0.0477759       -12.84988        -64.08025        160.1666             -200               0             -200               0
1.21192              -0.04927199       -12.96468        -63.46924        158.0296             -200               0             -200               0
1.21854              -0.05088184       -13.08048        -62.86743         155.611             -200               0             -200               0
1.22517              -0.05260592       -13.19722        -62.27876        152.9437             -200               0             -200               0
1.23179              -0.05444302       -13.31485        -61.70601        150.0589             -200               0             -200               0
1.23841              -0.05639132        -13.4333          -61.151        146.9858             -200               0             -200               0
1.24503              -0.05844634       -13.55254        -60.61487        143.7506             -200               0             -200               0
1.25166              -0.06060257       -13.67251        -60.09823        140.3773             -200               0             -200               0
1.25828              -0.06285184       -13.79319        -59.60131        136.8868             -200               0             -200               0
1.2649               -0.06518693       -13.91456        -59.12406         133.298             -200               0             -200               0
1.27152              -0.06759779        -14.0366        -58.66624        129.6276             -200               0             -200               0
1.27815               -0.0700757       -14.15931        -58.22744        125.8906             -200               0             -200               0
1.28477              -0.07260943       -14.28272        -57.80718        122.1002             -200               0             -200               0
1.29139              -0.07518932       -14.40685        -57.40487        118.2683             -200               0             -200               0
1.29801              -0.07780612       -14.53175        -57.01991        114.4058             -200               0             -200               0
1.30464              -0.08045117       -14.65747        -56.65162        110.5222             -200               0             -200               0
1.31126              -0.08311673       -14.78407        -56.29932        106.6264             -200               0             -200               0
1.31788              -0.08579523       -14.91164         -55.9623        102.7266             -200               0             -200               0
1.3245               -0.08848439       -15.04026        -55.63982        98.83003             -200               0             -200               0
1.33113              -0.09118041       -15.17003        -55.33112        94.94357             -200               0             -200               0
1.33775              -0.09388145       -15.30104        -55.03542        91.07349             -200               0             -200               0
1.34437              -0.09659023        -15.4334        -54.75193        87.22559             -200               0             -200               0
1.35099              -0.09930985       -15.56721         -54.4798        83.40519             -200               0             -200               0
1.35762               -0.1020451       -15.70257        -54.21819        79.61721             -200               0             -200               0
1.36424               -0.1048037       -15.83958        -53.96621        75.86608             -200               0             -200               0
1.37086               -0.1075957       -15.97832        -53.72294        72.15582             -200               0             -200               0
1.37748               -0.1104319       -16.11889        -53.48742        68.48996             -200               0             -200               0
1.38411               -0.1133247       -16.26134        -53.25866        64.87153             -200               0             -200               0
1.39073                -0.116289       -16.40575        -53.03564        61.30305             -200               0             -200               0
1.39735               -0.1193379       -16.55215         -52.8173        57.78642             -200               0             -200               0
1.40397               -0.1224873       -16.70059        -52.60256        54.32292             -200               0             -200               0
1.4106                -0.1257522       -16.85108        -52.39033        50.91314             -200               0             -200               0
1.41722               -0.1291483       -17.00364        -52.17949        47.55695             -200               0             -200               0
1.42384               -0.1326893       -17.15825        -51.96894        44.25341             -200               0             -200               0
1.43046               -0.1363882        -17.3149        -51.75758         41.0008             -200               0             -200               0
1.43709               -0.1402584       -17.47356        -51.54435        37.79654             -200               0             -200               0
1.44371               -0.1443096       -17.63419        -51.32825        34.63725             -200               0             -200               0
1.45033               -0.1485513       -17.79675        -51.10832        31.51872             -200               0             -200               0
1.45695               -0.1529887       -17.96119        -50.88372        28.43597             -200               0             -200               0
1.46358               -0.1576276       -18.12745        -50.65371        25.38336             -200               0             -200               0
1.4702                -0.1624699       -18.29548        -50.41765        22.35468             -200               0             -200               0
1.47682               -0.1675154       -18.46524        -50.17506        19.34324             -200               0             -200               0
1.48344               -0.1727619       -18.63669        -49.92561        16.34205             -200               0             -200               0
1.49007               -0.1782064       -18.80978        -49.66911        13.34398             -200               0             -200               0
1.49669               -0.1838412       -18.98451        -49.40554        10.34192             -200               0             -200               0
1.50331               -0.1896595       -19.16085          -49.135        7.328927             -200               0             -200               0
1.50993               -0.1956533       -19.33881        -48.85778        4.298417             -200               0             -200               0
1.51656               -0.2018129       -19.51843        -48.57425        1.244259             -200               0             -200               0
1.52318               -0.2081272       -19.69973        -48.28493       -1.839089             -200               0             -200               0
1.5298                -0.2145873       -19.88278        -47.99039       -4.956495             -200               0             -200               0
1.53642                -0.221184       -20.06765        -47.69133       -8.112096             -200               0             -200               0
1.54305               -0.2279084       -20.25446        -47.38844       -11.30927             -200               0             -200               0
1.54967               -0.2347528        -20.4433        -47.08249       -14.55062             -200               0             -200               0
1.55629               -0.2417138       -20.63433        -46.77425       -17.83801             -200               0             -200               0
1.56291               -0.2487873       -20.82768        -46.46447       -21.17256             -200               0             -200               0
1.56954               -0.2559735       -21.02351        -46.15391       -24.55475             -200               0             -200               0
1.57616               -0.2632747         -21.222        -45.84329       -27.98446             -200               0             -200               0
1.58278               -0.2706988       -21.42334        -45.53327       -31.46098             -200               0             -200               0
1.5894                -0.2782536       -21.62769        -45.22451       -34.98317             -200               0             -200               0
1.59603               -0.2859522       -21.83525        -44.91758       -38.54948             -200               0             -200               0
1.60265               -0.2938117        -22.0462        -44.61302       -42.15799             -200               0             -200               0
1.60927               -0.3018523       -22.26072        -44.31128       -45.80654             -200               0             -200               0
1.61589               -0.3100975       -22.47898        -44.01281       -49.49271             -200               0             -200               0
1.62252               -0.3185721       -22.70114        -43.71795       -53.21395             -200               0             -200               0
1.62914               -0.3273069       -22.92732        -43.42701       -56.96756             -200               0             -200               0
1.63576               -0.3363332       -23.15768        -43.14025       -60.75075             -200               0             -200               0
1.64238               -0.3456834       -23.39229        -42.85787       -64.56072             -200               0             -200               0
1.64901               -0.3553935       -23.63127        -42.58002       -68.39462             -200               0             -200               0
1.65563               -0.3654993       -23.87465        -42.30681       -72.24962             -200               0             -200               0
1.66225               -0.3760371        -24.1225        -42.03831       -76.12293             -200               0             -200               0
1.66887               -0.3870429       -24.37482        -41.77453        -80.0118             -200               0             -200               0
1.6755                -0.3985524       -24.63163        -41.51547       -83.91357             -200               0             -200               0
1.68212               -0.4106007       -24.89289        -41.26107       -87.82565             -200               0             -200               0
1.68874               -0.4232194       -25.15856        -41.01124       -91.74557             -200               0             -200               0
1.69536               -0.4364408        -25.4286        -40.76587       -95.67095             -200               0             -200               0
1.70199               -0.4502922       -25.70295        -40.52481       -99.59955             -200               0             -200               0
1.70861               -0.4648007       -25.98152        -40.28788       -103.5293             -200               0             -200               0
1.71523               -0.4799877       -26.26424        -40.05487       -107.4581             -200               0             -200               0
1.72185               -0.4958745       -26.55102        -39.82557       -111.3844             -200               0             -200               0
1.72848               -0.5124759       -26.84179        -39.59971       -115.3063             -200               0             -200               0
1.7351                -0.5298077       -27.13648        -39.37703       -119.2226             -200               0             -200               0
1.74172               -0.5478817       -27.43503        -39.15724       -123.1319             -200               0             -200               0
1.74834               -0.5667044       -27.73739        -38.94003       -127.0331             -200               0             -200               0
1.75497               -0.5862849       -28.04353         -38.7251       -130.9254             -200               0             -200               0
1.76159               -0.6066271       -28.35346         -38.5121       -134.8083             -200               0             -200               0
1.76821               -0.6277352       -28.66718         -38.3007       -138.6811             -200               0             -200               0
1.77483               -0.6496129       -28.98475        -38.09056       -142.5439             -200               0             -200               0
1.78146               -0.6722655       -29.30623        -37.88135       -146.3966             -200               0             -200               0
1.78808               -0.6956973       -29.63173        -37.67271       -150.2395             -200               0             -200               0
1.7947                -0.7199149       -29.96139        -37.46432       -154.0732             -200               0             -200               0
1.80132               -0.7449282       -30.29536        -37.25585       -157.8984             -200               0             -200               0
1.80795                -0.770751       -30.63384        -37.04699       -161.7162             -200               0             -200               0
1.81457               -0.7973992       -30.97705        -36.83744       -165.5277             -200               0             -200               0
1.82119               -0.8248953       -31.32521        -36.62695       -169.3343             -200               0             -200               0
1.82781               -0.8532657        -31.6786        -36.41525       -173.1378             -200               0             -200               0
1.83444               -0.8825457       -32.03748        -36.20212       -176.9398             -200               0             -200               0
1.84106               -0.9127746       -32.40214        -35.98739        179.2576             -200               0             -200               0
1.84768               -0.9439997       -32.77288         -35.7709        175.4524             -200               0             -200               0
1.8543                -0.9762757          -33.15        -35.55251        171.6425             -200               0             -200               0
