! TOUCHSTONE file generated by CST MICROWAVE STUDIO
! Date and time: Tue Mar 18 00:02:33 2025
! Project name: oblique.cst
! Parameters = {Tilt=40; Fracture=1; B=12.5; D=160; F=5; Feed=2.85625; L=100; M=50; R=0.384908; S=1; Theta=90; length=57.125; wave=114.25}
! Header version: 2024
! Port assignment regex: !\s*Touchstone port\s*([0-9]+)\s*=\s*(CST MWS port|CST DES external port|CST DES block port)\s*(.+)\s* \(\"(.*)\"\)(\s*mode\s*([0-9]+))?.*
! Touchstone port assignment:
! Touchstone port 1 = CST MWS port 1 ("")
! Touchstone port 2 = CST MWS port 2 ("")
# GHz S DB R 50
1                    -0.02212777       -9.802606        -66.58981        165.4737             -200               0             -200               0
1.0066               -0.02279085       -9.889632        -66.58328        159.7424             -200               0             -200               0
1.0132               -0.02344918       -9.977345        -66.60878        154.1074             -200               0             -200               0
1.0198               -0.02410446       -10.06578        -66.66713        148.5765             -200               0             -200               0
1.0264                -0.0247636       -10.15498        -66.75932        143.1595             -200               0             -200               0
1.033                -0.02543105       -10.24497        -66.88653         137.869             -200               0             -200               0
1.0396               -0.02611244       -10.33578        -67.05016        132.7204             -200               0             -200               0
1.0462                -0.0268131       -10.42742        -67.25179        127.7333             -200               0             -200               0
1.05281              -0.02754098       -10.51991        -67.49318        122.9319             -200               0             -200               0
1.05941              -0.02830116       -10.61325        -67.77621         118.347             -200               0             -200               0
1.06601              -0.02910094       -10.70745        -68.10278        114.0173             -200               0             -200               0
1.07261              -0.02994685       -10.80251        -68.47466        109.9918             -200               0             -200               0
1.07921              -0.03084397       -10.89839        -68.89313        106.3328             -200               0             -200               0
1.08581              -0.03179805        -10.9951         -69.3584        103.1196             -200               0             -200               0
1.09241              -0.03281346       -11.09261        -69.86868        100.4527             -200               0             -200               0
1.09901              -0.03389372       -11.19089         -70.4185        98.45677             -200               0             -200               0
1.10561              -0.03504236       -11.28991        -70.99612        97.28177             -200               0             -200               0
1.11221              -0.03625988       -11.38964        -71.57974        97.09469             -200               0             -200               0
1.11881              -0.03754947       -11.49006        -72.13281        98.05296             -200               0             -200               0
1.12541               -0.0389081       -11.59111        -72.60055         100.246             -200               0             -200               0
1.13201              -0.04033678       -11.69279        -72.91268        103.6023             -200               0             -200               0
1.13861               -0.0418324       -11.79505        -72.99893        107.8005             -200               0             -200               0
1.14521              -0.04339114       -11.89787        -72.81621        112.2731             -200               0             -200               0
1.15182              -0.04501011       -12.00124        -72.37064        116.3652             -200               0             -200               0
1.15842              -0.04668416       -12.10514        -71.71407        119.5586             -200               0             -200               0
1.16502               -0.0484079       -12.20956        -70.91879        121.5955             -200               0             -200               0
1.17162              -0.05017582       -12.31449        -70.05213        122.4519             -200               0             -200               0
1.17822              -0.05198093       -12.41995        -69.16431        122.2411             -200               0             -200               0
1.18482              -0.05381822       -12.52595        -68.28784        121.1271             -200               0             -200               0
1.19142              -0.05568074       -12.63251        -67.44158        119.2753             -200               0             -200               0
1.19802              -0.05756344       -12.73966        -66.63529        116.8309             -200               0             -200               0
1.20462              -0.05946133       -12.84743        -65.87322        113.9139             -200               0             -200               0
1.21122              -0.06136943       -12.95587        -65.15634        110.6206             -200               0             -200               0
1.21782              -0.06328279       -13.06502         -64.4839        107.0273             -200               0             -200               0
1.22442              -0.06519956       -13.17493        -63.85424        103.1946             -200               0             -200               0
1.23102              -0.06711706       -13.28567        -63.26527        99.17072             -200               0             -200               0
1.23762              -0.06903522       -13.39729        -62.71479        94.99436             -200               0             -200               0
1.24422              -0.07095308       -13.50985        -62.20066        90.69682             -200               0             -200               0
1.25083              -0.07287208       -13.62342        -61.72081         86.3038             -200               0             -200               0
1.25743               -0.0747958       -13.73806        -61.27334        81.83659             -200               0             -200               0
1.26403              -0.07672627       -13.85383        -60.85651        77.31316             -200               0             -200               0
1.27063              -0.07866931       -13.97078        -60.46873        72.74883             -200               0             -200               0
1.27723              -0.08063011       -14.08897        -60.10855         68.1569             -200               0             -200               0
1.28383              -0.08261437       -14.20844        -59.77468         63.5491             -200               0             -200               0
1.29043              -0.08462973       -14.32923        -59.46592        58.93596             -200               0             -200               0
1.29703              -0.08668321       -14.45139        -59.18119        54.32709             -200               0             -200               0
1.30363              -0.08878291       -14.57495        -58.91948        49.73143             -200               0             -200               0
1.31023              -0.09093638       -14.69991        -58.67989        45.15741             -200               0             -200               0
1.31683              -0.09315186       -14.82631        -58.46153        40.61316             -200               0             -200               0
1.32343              -0.09543665       -14.95414        -58.26359        36.10657             -200               0             -200               0
1.33003              -0.09779886       -15.08342        -58.08527        31.64549             -200               0             -200               0
1.33663               -0.1002444       -15.21413        -57.92576        27.23775             -200               0             -200               0
1.34323                -0.102779       -15.34628        -57.78427        22.89127             -200               0             -200               0
1.34984                -0.105409       -15.47985        -57.65996        18.61411             -200               0             -200               0
1.35644               -0.1081368       -15.61482        -57.55197        14.41452             -200               0             -200               0
1.36304               -0.1109666       -15.75119        -57.45932        10.30093             -200               0             -200               0
1.36964               -0.1139008       -15.88893        -57.38097        6.281993             -200               0             -200               0
1.37624               -0.1169395       -16.02804        -57.31575        2.366513             -200               0             -200               0
1.38284                -0.120083       -16.16849        -57.26233       -1.436618             -200               0             -200               0
1.38944               -0.1233308       -16.31029        -57.21919       -5.118544             -200               0             -200               0
1.39604               -0.1266812       -16.45343        -57.18459       -8.670625             -200               0             -200               0
1.40264               -0.1301307        -16.5979        -57.15657       -12.08469             -200               0             -200               0
1.40924               -0.1336759       -16.74373        -57.13287       -15.35337             -200               0             -200               0
1.41584               -0.1373142       -16.89093        -57.11097       -18.47052             -200               0             -200               0
1.42244               -0.1410407       -17.03951        -57.08803       -21.43168             -200               0             -200               0
1.42904               -0.1448515       -17.18953        -57.06098       -24.23474             -200               0             -200               0
1.43564               -0.1487434       -17.34102        -57.02646       -26.88046             -200               0             -200               0
1.44224                -0.152712       -17.49403          -56.981       -29.37315             -200               0             -200               0
1.44884               -0.1567559       -17.64862        -56.92105       -31.72116             -200               0             -200               0
1.45545               -0.1608706       -17.80487        -56.84315       -33.93732             -200               0             -200               0
1.46205               -0.1650571       -17.96284         -56.7441       -36.03901             -200               0             -200               0
1.46865               -0.1693144       -18.12263        -56.62112       -38.04791             -200               0             -200               0
1.47525               -0.1736436       -18.28431        -56.47206       -39.98945             -200               0             -200               0
1.48185               -0.1780477       -18.44799        -56.29552       -41.89174             -200               0             -200               0
1.48845                -0.182531       -18.61375        -56.09096       -43.78435             -200               0             -200               0
1.49505               -0.1870984       -18.78168        -55.85874       -45.69673             -200               0             -200               0
1.50165               -0.1917584       -18.95189        -55.60006       -47.65686             -200               0             -200               0
1.50825               -0.1965181       -19.12447        -55.31688       -49.68988             -200               0             -200               0
1.51485               -0.2013884       -19.29951        -55.01176       -51.81717             -200               0             -200               0
1.52145               -0.2063805       -19.47709        -54.68764       -54.05572             -200               0             -200               0
1.52805               -0.2115079       -19.65729        -54.34776       -56.41797             -200               0             -200               0
1.53465               -0.2167825       -19.84019        -53.99536       -58.91191             -200               0             -200               0
1.54125               -0.2222211       -20.02585        -53.63365       -61.54151             -200               0             -200               0
1.54785               -0.2278374       -20.21433        -53.26565       -64.30724             -200               0             -200               0
1.55446               -0.2336468       -20.40568        -52.89413        -67.2067             -200               0             -200               0
1.56106               -0.2396654       -20.59994        -52.52156       -70.23524             -200               0             -200               0
1.56766               -0.2459092       -20.79714        -52.15012       -73.38655             -200               0             -200               0
1.57426               -0.2523939       -20.99731        -51.78165       -76.65313             -200               0             -200               0
1.58086               -0.2591324       -21.20046        -51.41774       -80.02677             -200               0             -200               0
1.58746               -0.2661408        -21.4066        -51.05969       -83.49882             -200               0             -200               0
1.59406               -0.2734325       -21.61573        -50.70856       -87.06046             -200               0             -200               0
1.60066               -0.2810185       -21.82787        -50.36518       -90.70294             -200               0             -200               0
1.60726               -0.2889098         -22.043        -50.03023       -94.41765             -200               0             -200               0
1.61386               -0.2971168       -22.26113        -49.70418       -98.19626             -200               0             -200               0
1.62046               -0.3056477       -22.48224         -49.3874       -102.0307             -200               0             -200               0
1.62706               -0.3145095       -22.70636        -49.08011       -105.9135             -200               0             -200               0
1.63366               -0.3237095       -22.93347        -48.78244       -109.8371             -200               0             -200               0
1.64026               -0.3332514        -23.1636        -48.49442       -113.7947             -200               0             -200               0
1.64686               -0.3431396       -23.39676        -48.21601       -117.7798             -200               0             -200               0
1.65347                -0.353378       -23.63299        -47.94711       -121.7861             -200               0             -200               0
1.66007               -0.3639677       -23.87233        -47.68753       -125.8076             -200               0             -200               0
1.66667               -0.3749128       -24.11483        -47.43706       -129.8389             -200               0             -200               0
1.67327               -0.3862134       -24.36056         -47.1954       -133.8747             -200               0             -200               0
1.67987               -0.3978742       -24.60961        -46.96224         -137.91             -200               0             -200               0
1.68647               -0.4098979       -24.86207         -46.7372         -141.94             -200               0             -200               0
1.69307               -0.4222882       -25.11805        -46.51987       -145.9604             -200               0             -200               0
1.69967               -0.4350509       -25.37767        -46.30981       -149.9671             -200               0             -200               0
1.70627               -0.4481925       -25.64108         -46.1065       -153.9561             -200               0             -200               0
1.71287               -0.4617222       -25.90843        -45.90941       -157.9239             -200               0             -200               0
1.71947               -0.4756505       -26.17988        -45.71797       -161.8672             -200               0             -200               0
1.72607                -0.489992        -26.4556        -45.53156       -165.7832             -200               0             -200               0
1.73267               -0.5047621       -26.73577        -45.34952       -169.6691             -200               0             -200               0
1.73927               -0.5199807       -27.02059        -45.17118       -173.5229             -200               0             -200               0
1.74587               -0.5356689       -27.31025        -44.99579       -177.3427             -200               0             -200               0
1.75248               -0.5518541       -27.60494         -44.8226        178.8728             -200               0             -200               0
1.75908               -0.5685642       -27.90486        -44.65085        175.1245             -200               0             -200               0
1.76568               -0.5858302        -28.2102        -44.47972        171.4127             -200               0             -200               0
1.77228               -0.6036874       -28.52116         -44.3084        167.7372             -200               0             -200               0
1.77888                -0.622175       -28.83792        -44.13608        164.0972             -200               0             -200               0
1.78548               -0.6413337       -29.16066        -43.96196        160.4912             -200               0             -200               0
1.79208               -0.6612077       -29.48955        -43.78524        156.9173             -200               0             -200               0
1.79868               -0.6818436       -29.82474        -43.60517        153.3728             -200               0             -200               0
1.80528               -0.7032906       -30.16638        -43.42103        149.8544             -200               0             -200               0
1.81188               -0.7255999       -30.51462        -43.23217        146.3582             -200               0             -200               0
1.81848               -0.7488252       -30.86955        -43.03802        142.8798             -200               0             -200               0
1.82508               -0.7730225       -31.23132        -42.83807        139.4145             -200               0             -200               0
1.83168               -0.7982467       -31.59999        -42.63192        135.9569             -200               0             -200               0
1.83828               -0.8245582       -31.97565        -42.41927        132.5015             -200               0             -200               0
1.84488               -0.8520149       -32.35839        -42.19993        129.0425             -200               0             -200               0
1.85149               -0.8806777       -32.74825        -41.97382        125.5742             -200               0             -200               0
