! TOUCHSTONE file generated by CST MICROWAVE STUDIO
! Date and time: Tue Mar 18 00:01:01 2025
! Project name: oblique.cst
! Parameters = {Tilt=30; Fracture=1; B=10; D=160; F=25; Feed=2.85625; L=100; M=10; R=0.384908; S=1; Theta=90; length=57.125; wave=114.25}
! Header version: 2024
! Port assignment regex: !\s*Touchstone port\s*([0-9]+)\s*=\s*(CST MWS port|CST DES external port|CST DES block port)\s*(.+)\s* \(\"(.*)\"\)(\s*mode\s*([0-9]+))?.*
! Touchstone port assignment:
! Touchstone port 1 = CST MWS port 1 ("")
! Touchstone port 2 = CST MWS port 2 ("")
# GHz S DB R 50
1                    -0.02098948       -9.783832         -68.1729       -165.7268             -200               0             -200               0
1.00662              -0.02153968       -9.870632        -68.23148       -169.7239             -200               0             -200               0
1.01325              -0.02207233       -9.958146        -68.31688       -173.4879             -200               0             -200               0
1.01987              -0.02259083       -10.04643        -68.42722       -176.9897             -200               0             -200               0
1.02649              -0.02310184       -10.13552        -68.55983        179.8039             -200               0             -200               0
1.03311              -0.02360846       -10.22546        -68.71092        176.9291             -200               0             -200               0
1.03974              -0.02411964       -10.31628        -68.87524        174.4246             -200               0             -200               0
1.04636              -0.02464145       -10.40802         -69.0456        172.3296             -200               0             -200               0
1.05298              -0.02518207        -10.5007        -69.21249        170.6795             -200               0             -200               0
1.0596               -0.02574847       -10.59433        -69.36376        169.5007             -200               0             -200               0
1.06623              -0.02634935        -10.6889        -69.48463        168.8026             -200               0             -200               0
1.07285              -0.02699248       -10.78443        -69.55824        168.5682             -200               0             -200               0
1.07947              -0.02768391        -10.8809         -69.5671        168.7457             -200               0             -200               0
1.08609              -0.02843194        -10.9783        -69.49528        169.2431             -200               0             -200               0
1.09272              -0.02924243        -11.0766        -69.33115        169.9326             -200               0             -200               0
1.09934              -0.03012037       -11.17577        -69.06969        170.6628             -200               0             -200               0
1.10596              -0.03106985       -11.27579        -68.71365        171.2797             -200               0             -200               0
1.11258               -0.0320946       -11.37662        -68.27283        171.6481             -200               0             -200               0
1.11921              -0.03319584       -11.47821        -67.76193        171.6669             -200               0             -200               0
1.12583              -0.03437525       -11.58054        -67.19791        171.2748             -200               0             -200               0
1.13245              -0.03563149       -11.68356        -66.59751        170.4473             -200               0             -200               0
1.13907              -0.03696414       -11.78725        -65.97565        169.1889             -200               0             -200               0
1.1457               -0.03836911       -11.89155        -65.34472        167.5231             -200               0             -200               0
1.15232              -0.03984364       -11.99646        -64.71438        165.4844             -200               0             -200               0
1.15894              -0.04138335       -12.10195        -64.09184        163.1124             -200               0             -200               0
1.16556              -0.04298142       -12.20801        -63.48226        160.4469             -200               0             -200               0
1.17219              -0.04463353       -12.31462        -62.88921        157.5261             -200               0             -200               0
1.17881              -0.04633189       -12.42179        -62.31498        154.3851             -200               0             -200               0
1.18543              -0.04807199       -12.52952        -61.76098        151.0554             -200               0             -200               0
1.19205              -0.04984451       -12.63784        -61.22795        147.5649             -200               0             -200               0
1.19868              -0.05164534       -12.74677        -60.71615        143.9381             -200               0             -200               0
1.2053               -0.05346764       -12.85635        -60.22551        140.1966             -200               0             -200               0
1.21192              -0.05530664       -12.96661        -59.75573        136.3592             -200               0             -200               0
1.21854              -0.05715765        -13.0776        -59.30636        132.4423             -200               0             -200               0
1.22517              -0.05901746       -13.18939        -58.87685        128.4605             -200               0             -200               0
1.23179              -0.06088287       -13.30202        -58.46659        124.4264             -200               0             -200               0
1.23841               -0.0627531       -13.41556         -58.0749        120.3515             -200               0             -200               0
1.24503              -0.06462915       -13.53009        -57.70112        116.2458             -200               0             -200               0
1.25166              -0.06651116       -13.64565        -57.34456        112.1183             -200               0             -200               0
1.25828              -0.06840278       -13.76232        -57.00451        107.9773             -200               0             -200               0
1.2649               -0.07030712       -13.88016        -56.68027        103.8301             -200               0             -200               0
1.27152              -0.07223002       -13.99923        -56.37117        99.68352             -200               0             -200               0
1.27815              -0.07417651       -14.11958        -56.07648        95.54376             -200               0             -200               0
1.28477              -0.07615584       -14.24128        -55.79552        91.41655             -200               0             -200               0
1.29139              -0.07817392       -14.36435        -55.52758        87.30719             -200               0             -200               0
1.29801              -0.08024056       -14.48884        -55.27196         83.2206             -200               0             -200               0
1.30464              -0.08236424       -14.61477        -55.02793        79.16135             -200               0             -200               0
1.31126              -0.08455384       -14.74216        -54.79476        75.13369             -200               0             -200               0
1.31788               -0.0868184       -14.87102         -54.5717        71.14154             -200               0             -200               0
1.3245               -0.08916692       -15.00137        -54.35798        67.18851             -200               0             -200               0
1.33113              -0.09160808       -15.13319        -54.15281        63.27789             -200               0             -200               0
1.33775              -0.09414833       -15.26647        -53.95537        59.41264             -200               0             -200               0
1.34437              -0.09679513       -15.40119        -53.76483        55.59534             -200               0             -200               0
1.35099              -0.09955387       -15.53735        -53.58031        51.82819             -200               0             -200               0
1.35762               -0.1024289        -15.6749        -53.40093        48.11298             -200               0             -200               0
1.36424                -0.105424       -15.81383        -53.22577        44.45102             -200               0             -200               0
1.37086               -0.1085401        -15.9541        -53.05389        40.84312             -200               0             -200               0
1.37748               -0.1117783       -16.09569        -52.88436        37.28955             -200               0             -200               0
1.38411               -0.1151373       -16.23857        -52.71622        33.78998             -200               0             -200               0
1.39073               -0.1186152       -16.38273        -52.54852         30.3435             -200               0             -200               0
1.39735               -0.1222092       -16.52815        -52.38033        26.94851             -200               0             -200               0
1.40397               -0.1259148       -16.67483        -52.21072        23.60277             -200               0             -200               0
1.4106                -0.1297262       -16.82276        -52.03884        20.30337             -200               0             -200               0
1.41722               -0.1336384       -16.97196        -51.86388        17.04676             -200               0             -200               0
1.42384               -0.1376445       -17.12244        -51.68507        13.82879             -200               0             -200               0
1.43046               -0.1417383       -17.27425        -51.50177        10.64474             -200               0             -200               0
1.43709               -0.1459139       -17.42742         -51.3134        7.489388             -200               0             -200               0
1.44371               -0.1501645       -17.58201        -51.11952        4.357157             -200               0             -200               0
1.45033               -0.1544847       -17.73808        -50.91978        1.242169             -200               0             -200               0
1.45695               -0.1588703       -17.89571        -50.71397       -1.861612             -200               0             -200               0
1.46358               -0.1633169       -18.05498        -50.50199       -4.960257             -200               0             -200               0
1.4702                -0.1678221         -18.216        -50.28389       -8.059742             -200               0             -200               0
1.47682                -0.172387       -18.37885        -50.05982       -11.16583             -200               0             -200               0
1.48344               -0.1770103       -18.54365        -49.83003       -14.28394             -200               0             -200               0
1.49007               -0.1816961       -18.71052         -49.5949       -17.41907             -200               0             -200               0
1.49669                -0.186448       -18.87956        -49.35487       -20.57573             -200               0             -200               0
1.50331                -0.191273       -19.05089        -49.11046        -23.7578             -200               0             -200               0
1.50993               -0.1961787       -19.22463        -48.86224        -26.9686             -200               0             -200               0
1.51656               -0.2011754       -19.40088        -48.61083       -30.21078             -200               0             -200               0
1.52318               -0.2062748       -19.57976        -48.35687       -33.48638             -200               0             -200               0
1.5298                -0.2114904       -19.76137        -48.10098       -36.79678             -200               0             -200               0
1.53642               -0.2168366        -19.9458        -47.84383       -40.14279             -200               0             -200               0
1.54305               -0.2223307       -20.13314        -47.58602       -43.52465             -200               0             -200               0
1.54967               -0.2279878       -20.32346        -47.32816       -46.94211             -200               0             -200               0
1.55629               -0.2338266       -20.51684        -47.07082       -50.39443             -200               0             -200               0
1.56291               -0.2398652       -20.71333        -46.81451       -53.88048             -200               0             -200               0
1.56954               -0.2461213       -20.91298        -46.55972       -57.39878             -200               0             -200               0
1.57616               -0.2526136       -21.11582        -46.30688       -60.94754             -200               0             -200               0
1.58278               -0.2593586       -21.32189        -46.05637       -64.52472             -200               0             -200               0
1.5894                -0.2663747       -21.53121        -45.80853       -68.12809             -200               0             -200               0
1.59603               -0.2736773       -21.74378        -45.56364       -71.75525             -200               0             -200               0
1.60265               -0.2812826       -21.95961        -45.32193       -75.40369             -200               0             -200               0
1.60927               -0.2892039       -22.17873        -45.08357       -79.07084             -200               0             -200               0
1.61589               -0.2974538       -22.40111         -44.8487       -82.75405             -200               0             -200               0
1.62252               -0.3060447       -22.62677        -44.61741       -86.45067             -200               0             -200               0
1.62914               -0.3149861        -22.8557        -44.38972       -90.15807             -200               0             -200               0
1.63576               -0.3242872       -23.08793        -44.16563       -93.87366             -200               0             -200               0
1.64238               -0.3339558       -23.32346        -43.94509       -97.59489             -200               0             -200               0
1.64901                -0.343998       -23.56231        -43.72801       -101.3193             -200               0             -200               0
1.65563               -0.3544203       -23.80453        -43.51426       -105.0446             -200               0             -200               0
1.66225               -0.3652276       -24.05015        -43.30367       -108.7686             -200               0             -200               0
1.66887                -0.376426       -24.29924        -43.09604       -112.4891             -200               0             -200               0
1.6755                -0.3880201       -24.55185        -42.89114       -116.2042             -200               0             -200               0
1.68212               -0.4000153       -24.80809        -42.68869       -119.9124             -200               0             -200               0
1.68874               -0.4124184       -25.06805        -42.48841       -123.6119             -200               0             -200               0
1.69536               -0.4252356       -25.33185        -42.28998       -127.3015             -200               0             -200               0
1.70199               -0.4384777       -25.59962        -42.09305       -130.9802             -200               0             -200               0
1.70861               -0.4521557        -25.8715        -41.89726       -134.6472             -200               0             -200               0
1.71523               -0.4662818       -26.14765        -41.70225       -138.3018             -200               0             -200               0
1.72185               -0.4808726       -26.42825        -41.50762       -141.9439             -200               0             -200               0
1.72848               -0.4959481       -26.71346        -41.31298       -145.5735             -200               0             -200               0
1.7351                -0.5115289       -27.00348        -41.11794       -149.1908             -200               0             -200               0
1.74172               -0.5276419        -27.2985        -40.92211       -152.7966             -200               0             -200               0
1.74834               -0.5443165       -27.59871         -40.7251       -156.3917             -200               0             -200               0
1.75497               -0.5615849        -27.9043        -40.52655       -159.9774             -200               0             -200               0
1.76159               -0.5794851       -28.21546        -40.32612       -163.5552             -200               0             -200               0
1.76821               -0.5980576       -28.53239        -40.12348       -167.1269             -200               0             -200               0
1.77483               -0.6173463       -28.85524        -39.91833       -170.6946             -200               0             -200               0
1.78146               -0.6373994       -29.18419        -39.71043       -174.2605             -200               0             -200               0
1.78808               -0.6582666       -29.51939        -39.49956       -177.8272             -200               0             -200               0
1.7947                -0.6800067       -29.86096        -39.28554        178.6028             -200               0             -200               0
1.80132               -0.7026725       -30.20904        -39.06825        175.0267             -200               0             -200               0
1.80795               -0.7263268       -30.56372        -38.84762        171.4415             -200               0             -200               0
1.81457               -0.7510314       -30.92508        -38.62361        167.8444             -200               0             -200               0
1.82119               -0.7768503       -31.29316        -38.39625        164.2325             -200               0             -200               0
1.82781                -0.803849       -31.66802         -38.1656         160.603             -200               0             -200               0
1.83444               -0.8320949       -32.04965         -37.9318         156.953             -200               0             -200               0
1.84106               -0.8616549       -32.43806        -37.69499        153.2799             -200               0             -200               0
1.84768               -0.8925985       -32.83322        -37.45537        149.5812             -200               0             -200               0
1.8543                 -0.924993       -33.23507         -37.2132        145.8545             -200               0             -200               0
