! TOUCHSTONE file generated by CST MICROWAVE STUDIO
! Date and time: Tue Mar 18 00:01:44 2025
! Project name: oblique.cst
! Parameters = {Tilt=30; Fracture=1; B=12.5; D=160; F=25; Feed=2.85625; L=100; M=50; R=0.384908; S=1; Theta=180; length=57.125; wave=114.25}
! Header version: 2024
! Port assignment regex: !\s*Touchstone port\s*([0-9]+)\s*=\s*(CST MWS port|CST DES external port|CST DES block port)\s*(.+)\s* \(\"(.*)\"\)(\s*mode\s*([0-9]+))?.*
! Touchstone port assignment:
! Touchstone port 1 = CST MWS port 1 ("")
! Touchstone port 2 = CST MWS port 2 ("")
# GHz S DB R 50
1                    -0.02025596       -9.830695         -69.3966        150.6934             -200               0             -200               0
1.0066                -0.0209135       -9.918876        -69.33741        145.3591             -200               0             -200               0
1.0132               -0.02158226       -10.00766        -69.30622        140.1357             -200               0             -200               0
1.0198               -0.02226195       -10.09705        -69.30289        135.0332             -200               0             -200               0
1.0264               -0.02295318       -10.18708        -69.32725        130.0633             -200               0             -200               0
1.033                -0.02365767       -10.27777        -69.37914        125.2403             -200               0             -200               0
1.0396               -0.02437706       -10.36913        -69.45832        120.5804             -200               0             -200               0
1.0462               -0.02511102       -10.46117        -69.56438        116.1031             -200               0             -200               0
1.05281              -0.02586334       -10.55392        -69.69667         111.831             -200               0             -200               0
1.05941              -0.02663363        -10.6474        -69.85412        107.7901             -200               0             -200               0
1.06601              -0.02742568       -10.74161        -70.03511        104.0105             -200               0             -200               0
1.07261              -0.02823976       -10.83656        -70.23717         100.526             -200               0             -200               0
1.07921              -0.02907963       -10.93229        -70.45671         97.3742             -200               0             -200               0
1.08581              -0.02994612       -11.02878        -70.68857        94.59532             -200               0             -200               0
1.09241               -0.0308421       -11.12605        -70.92565        92.23003             -200               0             -200               0
1.09901              -0.03176889       -11.22411        -71.15836         90.3158             -200               0             -200               0
1.10561              -0.03272896       -11.32297        -71.37435        88.88091             -200               0             -200               0
1.11221              -0.03372363       -11.42264        -71.55848        87.93624             -200               0             -200               0
1.11881              -0.03475537       -11.52311        -71.69336         87.4653             -200               0             -200               0
1.12541              -0.03582404       -11.62439        -71.76087         87.4148             -200               0             -200               0
1.13201               -0.0369331       -11.72649        -71.74449        87.68958             -200               0             -200               0
1.13861              -0.03808247       -11.82941         -71.6322        88.15609             -200               0             -200               0
1.14521              -0.03927298       -11.93316        -71.41901        88.65647             -200               0             -200               0
1.15182              -0.04050499       -12.03773        -71.10809        89.03058             -200               0             -200               0
1.15842               -0.0417793       -12.14315        -70.71001        89.13877             -200               0             -200               0
1.16502              -0.04309614        -12.2494        -70.24037        88.87793             -200               0             -200               0
1.17162              -0.04445576        -12.3565        -69.71694        88.18701             -200               0             -200               0
1.17822              -0.04585716       -12.46447        -69.15714        87.04332             -200               0             -200               0
1.18482               -0.0473015       -12.57331        -68.57636        85.45363             -200               0             -200               0
1.19142              -0.04878713       -12.68303        -67.98723        83.44406             -200               0             -200               0
1.19802               -0.0503145       -12.79365        -67.39955        81.05145             -200               0             -200               0
1.20462              -0.05188283       -12.90519         -66.8206        78.31695             -200               0             -200               0
1.21122              -0.05349186       -13.01767        -66.25554        75.28191             -200               0             -200               0
1.21782              -0.05514205       -13.13111         -65.7079        71.98543             -200               0             -200               0
1.22442              -0.05683304       -13.24554        -65.17999        68.46326             -200               0             -200               0
1.23102              -0.05856573       -13.36097        -64.67319        64.74735             -200               0             -200               0
1.23762              -0.06033988       -13.47745        -64.18824         60.8659             -200               0             -200               0
1.24422              -0.06215679       -13.59501         -63.7254         56.8436             -200               0             -200               0
1.25083              -0.06401761       -13.71366        -63.28465        52.70204             -200               0             -200               0
1.25743              -0.06592413       -13.83345        -62.86573        48.46005             -200               0             -200               0
1.26403              -0.06787841       -13.95441        -62.46824        44.13414             -200               0             -200               0
1.27063              -0.06988305       -14.07658        -62.09168        39.73878             -200               0             -200               0
1.27723              -0.07194115       -14.19998        -61.73553        35.28676             -200               0             -200               0
1.28383              -0.07405531       -14.32465        -61.39921        30.78946             -200               0             -200               0
1.29043              -0.07622963       -14.45062        -61.08213        26.25703             -200               0             -200               0
1.29703              -0.07846842       -14.57793        -60.78373        21.69865             -200               0             -200               0
1.30363              -0.08077671       -14.70661        -60.50342        17.12266             -200               0             -200               0
1.31023              -0.08315839       -14.83667        -60.24063        12.53671             -200               0             -200               0
1.31683               -0.0856193       -14.96816         -59.9948        7.947881             -200               0             -200               0
1.32343              -0.08816428        -15.1011        -59.76538        3.362809             -200               0             -200               0
1.33003              -0.09079963       -15.23549        -59.55183       -1.212263             -200               0             -200               0
1.33663              -0.09353063       -15.37137         -59.3536       -5.771395             -200               0             -200               0
1.34323              -0.09636214       -15.50876        -59.17015       -10.30889             -200               0             -200               0
1.34984              -0.09930094       -15.64766        -59.00093       -14.81923             -200               0             -200               0
1.35644               -0.1023519       -15.78808        -58.84538       -19.29709             -200               0             -200               0
1.36304                -0.105521       -15.93005        -58.70291       -23.73722             -200               0             -200               0
1.36964               -0.1088127       -16.07356        -58.57292       -28.13452             -200               0             -200               0
1.37624               -0.1122327       -16.21862        -58.45477       -32.48394             -200               0             -200               0
1.38284               -0.1157853       -16.36525        -58.34778       -36.78058             -200               0             -200               0
1.38944                -0.119475       -16.51343        -58.25124       -41.01959             -200               0             -200               0
1.39604               -0.1233062       -16.66319        -58.16436       -45.19628             -200               0             -200               0
1.40264               -0.1272821       -16.81451         -58.0863       -49.30613             -200               0             -200               0
1.40924               -0.1314061       -16.96741        -58.01614       -53.34481             -200               0             -200               0
1.41584               -0.1356819        -17.1219         -57.9529       -57.30832             -200               0             -200               0
1.42244               -0.1401118       -17.27798        -57.89551       -61.19298             -200               0             -200               0
1.42904               -0.1446988       -17.43566        -57.84281       -64.99561             -200               0             -200               0
1.43564               -0.1494443       -17.59496        -57.79356       -68.71361             -200               0             -200               0
1.44224               -0.1543511       -17.75588        -57.74643       -72.34508             -200               0             -200               0
1.44884                -0.159421       -17.91846        -57.70002       -75.88899             -200               0             -200               0
1.45545                -0.164657        -18.0827        -57.65287       -79.34532             -200               0             -200               0
1.46205               -0.1700595       -18.24863        -57.60345       -82.71514             -200               0             -200               0
1.46865               -0.1756316       -18.41629        -57.55024       -86.00086             -200               0             -200               0
1.47525               -0.1813769        -18.5857        -57.49171       -89.20621             -200               0             -200               0
1.48185               -0.1872964        -18.7569        -57.42638       -92.33637             -200               0             -200               0
1.48845               -0.1933946       -18.92992        -57.35285         -95.398             -200               0             -200               0
1.49505               -0.1996748       -19.10481        -57.26985       -98.39913             -200               0             -200               0
1.50165               -0.2061407       -19.28161         -57.1763       -101.3491             -200               0             -200               0
1.50825               -0.2127987       -19.46037        -57.07129       -104.2584             -200               0             -200               0
1.51485               -0.2196512       -19.64113        -56.95421       -107.1382             -200               0             -200               0
1.52145               -0.2267068       -19.82393        -56.82468       -110.0003             -200               0             -200               0
1.52805               -0.2339721       -20.00884        -56.68261       -112.8569             -200               0             -200               0
1.53465               -0.2414535       -20.19589        -56.52822       -115.7197             -200               0             -200               0
1.54125               -0.2491598       -20.38514        -56.36197          -118.6             -200               0             -200               0
1.54785               -0.2570992       -20.57663         -56.1846       -121.5083             -200               0             -200               0
1.55446               -0.2652816        -20.7704        -55.99703       -124.4539             -200               0             -200               0
1.56106               -0.2737173        -20.9665        -55.80039        -127.445             -200               0             -200               0
1.56766               -0.2824166       -21.16497        -55.59592       -130.4882             -200               0             -200               0
1.57426               -0.2913897       -21.36584        -55.38496       -133.5886             -200               0             -200               0
1.58086               -0.3006495       -21.56916        -55.16888       -136.7498             -200               0             -200               0
1.58746               -0.3102067       -21.77494        -54.94907        -139.974             -200               0             -200               0
1.59406               -0.3200738       -21.98322        -54.72687       -143.2622             -200               0             -200               0
1.60066               -0.3302615       -22.19402        -54.50361       -146.6141             -200               0             -200               0
1.60726               -0.3407836       -22.40735         -54.2805       -150.0281             -200               0             -200               0
1.61386               -0.3516499       -22.62325        -54.05869       -153.5021             -200               0             -200               0
1.62046                -0.362875       -22.84171        -53.83922        -157.033             -200               0             -200               0
1.62706               -0.3744679       -23.06275        -53.62303        -160.617             -200               0             -200               0
1.63366               -0.3864411       -23.28638        -53.41096       -164.2498             -200               0             -200               0
1.64026               -0.3988048       -23.51261        -53.20373       -167.9269             -200               0             -200               0
1.64686               -0.4115692       -23.74145        -53.00198       -171.6432             -200               0             -200               0
1.65347               -0.4247453        -23.9729        -52.80622       -175.3935             -200               0             -200               0
1.66007               -0.4383431       -24.20698        -52.61689       -179.1725             -200               0             -200               0
1.66667               -0.4523689       -24.44369        -52.43433        177.0256             -200               0             -200               0
1.67327               -0.4668349       -24.68306        -52.25878        173.2062             -200               0             -200               0
1.67987               -0.4817484       -24.92509        -52.09041        169.3751             -200               0             -200               0
1.68647               -0.4971165       -25.16981        -51.92929         165.538             -200               0             -200               0
1.69307               -0.5129487       -25.41725        -51.77544        161.7005             -200               0             -200               0
1.69967               -0.5292527       -25.66744        -51.62876        157.8685             -200               0             -200               0
1.70627               -0.5460365       -25.92041         -51.4891        154.0475             -200               0             -200               0
1.71287               -0.5633081       -26.17622         -51.3562        150.2431             -200               0             -200               0
1.71947               -0.5810774       -26.43492        -51.22975        146.4608             -200               0             -200               0
1.72607               -0.5993511       -26.69656        -51.10933        142.7061             -200               0             -200               0
1.73267               -0.6181425       -26.96121        -50.99443        138.9841             -200               0             -200               0
1.73927               -0.6374602       -27.22895        -50.88446        135.2999             -200               0             -200               0
1.74587               -0.6573167       -27.49985        -50.77873        131.6581             -200               0             -200               0
1.75248               -0.6777241         -27.774        -50.67645        128.0632             -200               0             -200               0
1.75908               -0.6986969        -28.0515        -50.57675        124.5191             -200               0             -200               0
1.76568               -0.7202522       -28.33245        -50.47862        121.0293             -200               0             -200               0
1.77228               -0.7424077       -28.61694        -50.38101        117.5964             -200               0             -200               0
1.77888               -0.7651801        -28.9051        -50.28273        114.2226             -200               0             -200               0
1.78548               -0.7885933       -29.19701        -50.18255        110.9089             -200               0             -200               0
1.79208               -0.8126685       -29.49281        -50.07915        107.6555             -200               0             -200               0
1.79868               -0.8374302       -29.79259        -49.97117        104.4614             -200               0             -200               0
1.80528               -0.8629071       -30.09648        -49.85723        101.3241             -200               0             -200               0
1.81188               -0.8891261       -30.40458        -49.73597        98.24024             -200               0             -200               0
1.81848               -0.9161194         -30.717        -49.60606        95.20467             -200               0             -200               0
1.82508               -0.9439205       -31.03386        -49.46626        92.21105             -200               0             -200               0
1.83168               -0.9725635       -31.35525        -49.31544        89.25171             -200               0             -200               0
1.83828                -1.002086       -31.68127        -49.15265        86.31775             -200               0             -200               0
1.84488                -1.032524       -32.01201        -48.97711        83.39928             -200               0             -200               0
1.85149                -1.063921       -32.34757        -48.78829        80.48563             -200               0             -200               0
