! TOUCHSTONE file generated by CST MICROWAVE STUDIO
! Date and time: Tue Mar 18 00:03:04 2025
! Project name: oblique.cst
! Parameters = {Tilt=40; Fracture=1; B=12.5; D=160; F=25; Feed=2.85625; L=100; M=50; R=0.384908; S=1; Theta=180; length=57.125; wave=114.25}
! Header version: 2024
! Port assignment regex: !\s*Touchstone port\s*([0-9]+)\s*=\s*(CST MWS port|CST DES external port|CST DES block port)\s*(.+)\s* \(\"(.*)\"\)(\s*mode\s*([0-9]+))?.*
! Touchstone port assignment:
! Touchstone port 1 = CST MWS port 1 ("")
! Touchstone port 2 = CST MWS port 2 ("")
# GHz S DB R 50
1                    -0.02026083        -9.83067        -69.39687        150.6844             -200               0             -200               0
1.0066               -0.02091835       -9.918852        -69.33778        145.3505             -200               0             -200               0
1.0132               -0.02158665       -10.00763        -69.30669        140.1274             -200               0             -200               0
1.0198               -0.02226681       -10.09703        -69.30345        135.0253             -200               0             -200               0
1.0264               -0.02295854       -10.18706        -69.32791        130.0559             -200               0             -200               0
1.033                  -0.023663       -10.27775        -69.37991        125.2334             -200               0             -200               0
1.0396               -0.02438189        -10.3691        -69.45919        120.5741             -200               0             -200               0
1.0462               -0.02511637       -10.46115        -69.56534        116.0975             -200               0             -200               0
1.05281              -0.02586811       -10.55391        -69.69772        111.8261             -200               0             -200               0
1.05941              -0.02663892       -10.64738        -69.85527        107.7861             -200               0             -200               0
1.06601              -0.02743041       -10.74159        -70.03634        104.0075             -200               0             -200               0
1.07261              -0.02824494       -10.83655        -70.23847        100.5241             -200               0             -200               0
1.07921              -0.02908428       -10.93227        -70.45807        97.37366             -200               0             -200               0
1.08581              -0.02995072       -11.02877        -70.68997        94.59623             -200               0             -200               0
1.09241              -0.03084663       -11.12604        -70.92705        92.23255             -200               0             -200               0
1.09901              -0.03177338       -11.22411        -71.15972        90.32006             -200               0             -200               0
1.10561              -0.03273283       -11.32297        -71.37562          88.887             -200               0             -200               0
1.11221              -0.03372791       -11.42263         -71.5596        87.94416             -200               0             -200               0
1.11881              -0.03475853       -11.52311        -71.69426        87.47493             -200               0             -200               0
1.12541              -0.03582813       -11.62439        -71.76149        87.42587             -200               0             -200               0
1.13201              -0.03693659        -11.7265        -71.74476        87.70165             -200               0             -200               0
1.13861              -0.03808528       -11.82942        -71.63209         88.1686             -200               0             -200               0
1.14521              -0.03927622       -11.93317        -71.41851         88.6688             -200               0             -200               0
1.15182              -0.04050809       -12.03775        -71.10724        89.04214             -200               0             -200               0
1.15842              -0.04178279       -12.14317        -70.70884        89.14908             -200               0             -200               0
1.16502              -0.04309949       -12.24943        -70.23896        88.88668             -200               0             -200               0
1.17162              -0.04445944       -12.35654        -69.71536        88.19404             -200               0             -200               0
1.17822              -0.04586073       -12.46451        -69.15546        87.04861             -200               0             -200               0
1.18482              -0.04730488       -12.57335        -68.57462        85.45723             -200               0             -200               0
1.19142              -0.04879039       -12.68307        -67.98547        83.44611             -200               0             -200               0
1.19802              -0.05031755        -12.7937        -67.39782         81.0521             -200               0             -200               0
1.20462              -0.05188622       -12.90525        -66.81891        78.31636             -200               0             -200               0
1.21122              -0.05349551       -13.01773        -66.25391        75.28023             -200               0             -200               0
1.21782              -0.05514607       -13.13118        -65.70635        71.98282             -200               0             -200               0
1.22442              -0.05683731       -13.24561        -65.17852        68.45984             -200               0             -200               0
1.23102               -0.0585692       -13.36106         -64.6718        64.74325             -200               0             -200               0
1.23762              -0.06034422       -13.47754        -64.18694        60.86121             -200               0             -200               0
1.24422              -0.06216088        -13.5951        -63.72419        56.83843             -200               0             -200               0
1.25083              -0.06402256       -13.71376        -63.28353        52.69646             -200               0             -200               0
1.25743              -0.06592883       -13.83356         -62.8647        48.45415             -200               0             -200               0
1.26403              -0.06788388       -13.95452        -62.46729        44.12797             -200               0             -200               0
1.27063              -0.06988876       -14.07669        -62.09082         39.7324             -200               0             -200               0
1.27723              -0.07194603        -14.2001        -61.73474        35.28023             -200               0             -200               0
1.28383               -0.0740609       -14.32478         -61.3985        30.78282             -200               0             -200               0
1.29043              -0.07623597       -14.45077        -61.08151        26.25033             -200               0             -200               0
1.29703              -0.07847432       -14.57808        -60.78318        21.69193             -200               0             -200               0
1.30363              -0.08078346       -14.70676        -60.50294        17.11596             -200               0             -200               0
1.31023              -0.08316533       -14.83684        -60.24022        12.53006             -200               0             -200               0
1.31683              -0.08562686       -14.96834        -59.99445        7.941329             -200               0             -200               0
1.32343              -0.08817259       -15.10128         -59.7651        3.356385             -200               0             -200               0
1.33003              -0.09080747       -15.23568        -59.55161       -1.218527             -200               0             -200               0
1.33663              -0.09353913       -15.37157        -59.35345       -5.777465             -200               0             -200               0
1.34323              -0.09637129       -15.50896        -59.17006       -10.31473             -200               0             -200               0
1.34984              -0.09931024       -15.64787        -59.00089       -14.82482             -200               0             -200               0
1.35644               -0.1023618       -15.78831        -58.84539       -19.30238             -200               0             -200               0
1.36304               -0.1055315       -15.93028        -58.70296       -23.74219             -200               0             -200               0
1.36964               -0.1088243       -16.07381        -58.57301       -28.13913             -200               0             -200               0
1.37624               -0.1122448       -16.21888         -58.4549       -32.48818             -200               0             -200               0
1.38284                -0.115798       -16.36551        -58.34795        -36.7844             -200               0             -200               0
1.38944               -0.1194882       -16.51371        -58.25144       -41.02296             -200               0             -200               0
1.39604                 -0.12332       -16.66347        -58.16457       -45.19918             -200               0             -200               0
1.40264               -0.1272968       -16.81481        -58.08653       -49.30853             -200               0             -200               0
1.40924               -0.1314219       -16.96772        -58.01638       -53.34669             -200               0             -200               0
1.41584               -0.1356982       -17.12222        -57.95314       -57.30965             -200               0             -200               0
1.42244               -0.1401286       -17.27831        -57.89574       -61.19375             -200               0             -200               0
1.42904                -0.144716       -17.43601        -57.84303       -64.99581             -200               0             -200               0
1.43564                -0.149462       -17.59531        -57.79375       -68.71323             -200               0             -200               0
1.44224               -0.1543703       -17.75625        -57.74658       -72.34413             -200               0             -200               0
1.44884               -0.1594411       -17.91884        -57.70012       -75.88747             -200               0             -200               0
1.45545               -0.1646774       -18.08309         -57.6529       -79.34324             -200               0             -200               0
1.46205               -0.1700807       -18.24904        -57.60341       -82.71255             -200               0             -200               0
1.46865               -0.1756536       -18.41671        -57.55012       -85.99778             -200               0             -200               0
1.47525               -0.1813999       -18.58614        -57.49149        -89.2027             -200               0             -200               0
1.48185               -0.1873202       -18.75735        -57.42606        -92.3325             -200               0             -200               0
1.48845               -0.1934197       -18.93039        -57.35241       -95.39383             -200               0             -200               0
1.49505               -0.1997006       -19.10529         -57.2693       -98.39476             -200               0             -200               0
1.50165               -0.2061674       -19.28211        -57.17561       -101.3446             -200               0             -200               0
1.50825               -0.2128256       -19.46089        -57.07048       -104.2539             -200               0             -200               0
1.51485               -0.2196799       -19.64166        -56.95327       -107.1337             -200               0             -200               0
1.52145               -0.2267366       -19.82448         -56.8236       -109.9961             -200               0             -200               0
1.52805               -0.2340028       -20.00941        -56.68141        -112.853             -200               0             -200               0
1.53465               -0.2414852       -20.19648         -56.5269       -115.7161             -200               0             -200               0
1.54125               -0.2491927       -20.38575        -56.36054       -118.5969             -200               0             -200               0
1.54785               -0.2571337       -20.57726        -56.18306       -121.5058             -200               0             -200               0
1.55446               -0.2653172       -20.77106        -55.99541       -124.4521             -200               0             -200               0
1.56106               -0.2737542       -20.96718        -55.79869       -127.4439             -200               0             -200               0
1.56766               -0.2824552       -21.16568        -55.59416       -130.4877             -200               0             -200               0
1.57426               -0.2914304       -21.36658        -55.38314       -133.5888             -200               0             -200               0
1.58086               -0.3006915       -21.56992        -55.16702       -136.7508             -200               0             -200               0
1.58746               -0.3102506       -21.77573        -54.94718       -139.9758             -200               0             -200               0
1.59406               -0.3201193       -21.98404        -54.72498       -143.2648             -200               0             -200               0
1.60066               -0.3303101       -22.19486        -54.50171       -146.6173             -200               0             -200               0
1.60726               -0.3408332       -22.40823        -54.27861       -150.0321             -200               0             -200               0
1.61386               -0.3517036       -22.62415        -54.05681       -153.5068             -200               0             -200               0
1.62046               -0.3629306       -22.84264        -53.83737       -157.0383             -200               0             -200               0
1.62706               -0.3745264       -23.06372        -53.62122       -160.6229             -200               0             -200               0
1.63366               -0.3865024       -23.28738        -53.40919       -164.2563             -200               0             -200               0
1.64026                -0.398869       -23.51364        -53.20201       -167.9339             -200               0             -200               0
1.64686               -0.4116365       -23.74252        -53.00031       -171.6506             -200               0             -200               0
1.65347                -0.424816       -23.97401        -52.80461       -175.4013             -200               0             -200               0
1.66007               -0.4384166       -24.20812        -52.61534       -179.1806             -200               0             -200               0
1.66667               -0.4524478       -24.44487        -52.43284        177.0172             -200               0             -200               0
1.67327               -0.4669177       -24.68427        -52.25736        173.1975             -200               0             -200               0
1.67987               -0.4818349       -24.92634        -52.08906        169.3662             -200               0             -200               0
1.68647               -0.4972074        -25.1711        -51.92801         165.529             -200               0             -200               0
1.69307               -0.5130443       -25.41857        -51.77423        161.6914             -200               0             -200               0
1.69967               -0.5293531        -25.6688        -51.62761        157.8594             -200               0             -200               0
1.70627               -0.5461416       -25.92182        -51.48802        154.0384             -200               0             -200               0
1.71287               -0.5634188       -26.17767        -51.35519        150.2341             -200               0             -200               0
1.71947               -0.5811924        -26.4364         -51.2288         146.452             -200               0             -200               0
1.72607               -0.5994722       -26.69809        -51.10843        142.6974             -200               0             -200               0
1.73267               -0.6182693       -26.96278        -50.99359        138.9757             -200               0             -200               0
1.73927               -0.6375922       -27.23056        -50.88366        135.2917             -200               0             -200               0
1.74587               -0.6574545       -27.50151        -50.77798        131.6503             -200               0             -200               0
1.75248               -0.6778683       -27.77571        -50.67574        128.0558             -200               0             -200               0
1.75908               -0.6988488       -28.05327        -50.57606        124.5121             -200               0             -200               0
1.76568               -0.7204101       -28.33426        -50.47796        121.0227             -200               0             -200               0
1.77228               -0.7425726       -28.61881        -50.38035        117.5904             -200               0             -200               0
1.77888               -0.7653529       -28.90702        -50.28207        114.2171             -200               0             -200               0
1.78548               -0.7887725       -29.19899        -50.18187         110.904             -200               0             -200               0
1.79208               -0.8128562       -29.49484        -50.07844        107.6512             -200               0             -200               0
1.79868               -0.8376265       -29.79468        -49.97042        104.4575             -200               0             -200               0
1.80528               -0.8631117       -30.09863        -49.85643        101.3209             -200               0             -200               0
1.81188                 -0.88934       -30.40679         -49.7351        98.23751             -200               0             -200               0
1.81848               -0.9163438       -30.71928        -49.60511        95.20243             -200               0             -200               0
1.82508               -0.9441548       -31.03621        -49.46521        92.20925             -200               0             -200               0
1.83168               -0.9728087       -31.35766        -49.31429        89.25028             -200               0             -200               0
1.83828                -1.002342       -31.68375        -49.15137        86.31662             -200               0             -200               0
1.84488                -1.032792       -32.01457        -48.97571        83.39837             -200               0             -200               0
1.85149                -1.064202        -32.3502        -48.78675        80.48483             -200               0             -200               0
