! TOUCHSTONE file generated by CST MICROWAVE STUDIO
! Date and time: Tue Mar 18 00:02:13 2025
! Project name: oblique.cst
! Parameters = {Tilt=40; Fracture=1; B=10; D=160; F=15; Feed=2.85625; L=100; M=30; R=0.384908; S=1; Theta=270; length=57.125; wave=114.25}
! Header version: 2024
! Port assignment regex: !\s*Touchstone port\s*([0-9]+)\s*=\s*(CST MWS port|CST DES external port|CST DES block port)\s*(.+)\s* \(\"(.*)\"\)(\s*mode\s*([0-9]+))?.*
! Touchstone port assignment:
! Touchstone port 1 = CST MWS port 1 ("")
! Touchstone port 2 = CST MWS port 2 ("")
# GHz S DB R 50
1                    -0.02220065       -9.786457        -65.04383        173.0236             -200               0             -200               0
1.0066               -0.02287206       -9.872469        -65.12636        166.6807             -200               0             -200               0
1.0132               -0.02351746       -9.959075        -65.24874        160.4118             -200               0             -200               0
1.0198               -0.02413753       -10.04633        -65.41356        154.2203             -200               0             -200               0
1.0264               -0.02473338        -10.1343        -65.62399         148.111             -200               0             -200               0
1.033                 -0.0253109       -10.22302        -65.88393        142.0911             -200               0             -200               0
1.0396               -0.02587133       -10.31257        -66.19817        136.1708             -200               0             -200               0
1.0462               -0.02642426       -10.40298        -66.57271        130.3643             -200               0             -200               0
1.05281              -0.02697334       -10.49429        -67.01507        124.6915             -200               0             -200               0
1.05941              -0.02752791       -10.58655        -67.53479        119.1804             -200               0             -200               0
1.06601              -0.02809507       -10.67977        -68.14418        113.8717             -200               0             -200               0
1.07261              -0.02868353       -10.77398        -68.85938        108.8251             -200               0             -200               0
1.07921              -0.02930134       -10.86919        -69.70195        104.1324             -200               0             -200               0
1.08581              -0.02995772        -10.9654        -70.70123        99.94037             -200               0             -200               0
1.09241              -0.03066073        -11.0626        -71.89789        96.49656             -200               0             -200               0
1.09901              -0.03141794       -11.16078        -73.34825        94.24802             -200               0             -200               0
1.10561              -0.03223781       -11.25993         -75.1258        94.06803             -200               0             -200               0
1.11221              -0.03312536          -11.36         -77.2937        97.80078             -200               0             -200               0
1.11881              -0.03408475       -11.46097        -79.70442        109.3074             -200               0             -200               0
1.12541              -0.03512389        -11.5628        -81.22336        132.8972             -200               0             -200               0
1.13201              -0.03624151       -11.66544        -80.08387        159.3285             -200               0             -200               0
1.13861              -0.03744265       -11.76886        -77.42183        174.3643             -200               0             -200               0
1.14521              -0.03872508       -11.87301        -74.81375       -179.9429             -200               0             -200               0
1.15182              -0.04008912       -11.97785        -72.59321       -179.0244             -200               0             -200               0
1.15842              -0.04153252       -12.08334        -70.72296        179.4557             -200               0             -200               0
1.16502              -0.04304856       -12.18944         -69.1265        176.5873             -200               0             -200               0
1.17162              -0.04463569       -12.29613        -67.74182        172.9151             -200               0             -200               0
1.17822              -0.04628744       -12.40338        -66.52379        168.7344             -200               0             -200               0
1.18482              -0.04799439       -12.51117        -65.43983        164.2175             -200               0             -200               0
1.19142              -0.04975156       -12.61951        -64.46614        159.4712             -200               0             -200               0
1.19802              -0.05155047        -12.7284        -63.58491        154.5652             -200               0             -200               0
1.20462              -0.05338392       -12.83784         -62.7826        149.5469             -200               0             -200               0
1.21122              -0.05524257       -12.94788        -62.04868          144.45             -200               0             -200               0
1.21782              -0.05711791       -13.05853        -61.37483        139.2989             -200               0             -200               0
1.22442              -0.05900622       -13.16984        -60.75439        134.1123             -200               0             -200               0
1.23102              -0.06089711       -13.28188        -60.18194        128.9045             -200               0             -200               0
1.23762              -0.06278826       -13.39469        -59.65304        123.6872             -200               0             -200               0
1.24422              -0.06467605       -13.50836        -59.16398        118.4699             -200               0             -200               0
1.25083              -0.06655417       -13.62294        -58.71166        113.2608             -200               0             -200               0
1.25743              -0.06842501       -13.73853        -58.29345         108.067             -200               0             -200               0
1.26403              -0.07028767       -13.85521        -57.90713        102.8948             -200               0             -200               0
1.27063              -0.07214469       -13.97305        -57.55076        97.75024             -200               0             -200               0
1.27723              -0.07399829       -14.09214        -57.22266        92.63892             -200               0             -200               0
1.28383              -0.07585499       -14.21256        -56.92139        87.56632             -200               0             -200               0
1.29043              -0.07772159       -14.33438        -56.64565        82.53788             -200               0             -200               0
1.29703              -0.07960532       -14.45768         -56.3943        77.55913             -200               0             -200               0
1.30363              -0.08151655       -14.58252        -56.16628         72.6357             -200               0             -200               0
1.31023              -0.08346729       -14.70895        -55.96064        67.77347             -200               0             -200               0
1.31683              -0.08546629       -14.83702        -55.77649        62.97862             -200               0             -200               0
1.32343              -0.08752695       -14.96675        -55.61295        58.25766             -200               0             -200               0
1.33003              -0.08966088       -15.09819        -55.46917         53.6175             -200               0             -200               0
1.33663              -0.09188022       -15.23133        -55.34429        49.06552             -200               0             -200               0
1.34323              -0.09419734       -15.36618        -55.23739        44.60957             -200               0             -200               0
1.34984               -0.0966243       -15.50274         -55.1475        40.25799             -200               0             -200               0
1.35644              -0.09917176       -15.64099        -55.07354         36.0196             -200               0             -200               0
1.36304               -0.1018477        -15.7809         -55.0143         31.9037             -200               0             -200               0
1.36964               -0.1046614       -15.92243        -54.96838        27.91996             -200               0             -200               0
1.37624               -0.1076215       -16.06556         -54.9342        24.07828             -200               0             -200               0
1.38284               -0.1107314       -16.21023        -54.90988         20.3886             -200               0             -200               0
1.38944               -0.1139941       -16.35641        -54.89326        16.86062             -200               0             -200               0
1.39604               -0.1174134       -16.50405        -54.88184        13.50335             -200               0             -200               0
1.40264               -0.1209885       -16.65311        -54.87271        10.32465             -200               0             -200               0
1.40924               -0.1247185       -16.80354        -54.86262        7.330477             -200               0             -200               0
1.41584               -0.1285993       -16.95532        -54.84791        4.524198             -200               0             -200               0
1.42244               -0.1326276       -17.10843        -54.82457        1.905647             -200               0             -200               0
1.42904               -0.1367951       -17.26284        -54.78835      -0.5297477             -200               0             -200               0
1.43564                -0.141098       -17.41856        -54.73488       -2.791785             -200               0             -200               0
1.44224               -0.1455255       -17.57559        -54.65989       -4.896094             -200               0             -200               0
1.44884               -0.1500714       -17.73395        -54.55939        -6.86436             -200               0             -200               0
1.45545               -0.1547267       -17.89368        -54.42999       -8.724028             -200               0             -200               0
1.46205               -0.1594831       -18.05483         -54.2691       -10.50742             -200               0             -200               0
1.46865               -0.1643323       -18.21747        -54.07519       -12.25026             -200               0             -200               0
1.47525               -0.1692708       -18.38167        -53.84789       -13.98974             -200               0             -200               0
1.48185               -0.1742895       -18.54753        -53.58798       -15.76244             -200               0             -200               0
1.48845               -0.1793857       -18.71515        -53.29738       -17.60222             -200               0             -200               0
1.49505               -0.1845573       -18.88463         -52.9789       -19.53862             -200               0             -200               0
1.50165               -0.1898033       -19.05611        -52.63603       -21.59565             -200               0             -200               0
1.50825               -0.1951271       -19.22971        -52.27269       -23.79128             -200               0             -200               0
1.51485               -0.2005325       -19.40557        -51.89295       -26.13746             -200               0             -200               0
1.52145               -0.2060261       -19.58382        -51.50083       -28.64058             -200               0             -200               0
1.52805               -0.2116187       -19.76459        -51.10016       -31.30222             -200               0             -200               0
1.53465               -0.2173211       -19.94802        -50.69441          -34.12             -200               0             -200               0
1.54125               -0.2231469       -20.13424         -50.2867       -37.08853             -200               0             -200               0
1.54785               -0.2291145       -20.32336        -49.87972       -40.20021             -200               0             -200               0
1.55446               -0.2352415       -20.51549        -49.47574       -43.44592             -200               0             -200               0
1.56106               -0.2415477       -20.71074        -49.07668       -46.81565             -200               0             -200               0
1.56766               -0.2480563       -20.90918        -48.68409       -50.29896             -200               0             -200               0
1.57426               -0.2547897       -21.11089        -48.29923       -53.88526             -200               0             -200               0
1.58086               -0.2617709       -21.31592        -47.92305       -57.56412             -200               0             -200               0
1.58746               -0.2690257       -21.52432        -47.55632        -61.3254             -200               0             -200               0
1.59406                -0.276577       -21.73609        -47.19958       -65.15938             -200               0             -200               0
1.60066               -0.2844506       -21.95127        -46.85322       -69.05679             -200               0             -200               0
1.60726               -0.2926666       -22.16983        -46.51747       -73.00886             -200               0             -200               0
1.61386                -0.301249       -22.39176        -46.19246       -77.00731             -200               0             -200               0
1.62046               -0.3102171       -22.61704        -45.87821       -81.04435             -200               0             -200               0
1.62706               -0.3195889       -22.84561        -45.57467       -85.11263             -200               0             -200               0
1.63366               -0.3293838       -23.07743        -45.28169       -89.20528             -200               0             -200               0
1.64026               -0.3396122       -23.31245        -44.99909       -93.31579             -200               0             -200               0
1.64686                 -0.35029       -23.55061        -44.72661       -97.43806             -200               0             -200               0
1.65347               -0.3614249       -23.79186        -44.46395       -101.5663             -200               0             -200               0
1.66007                -0.373023       -24.03615        -44.21075       -105.6952             -200               0             -200               0
1.66667               -0.3850909       -24.28345        -43.96663       -109.8195             -200               0             -200               0
1.67327               -0.3976326        -24.5337        -43.73115       -113.9346             -200               0             -200               0
1.67987               -0.4106456       -24.78691        -43.50383       -118.0357             -200               0             -200               0
1.68647               -0.4241327       -25.04306        -43.28416       -122.1188             -200               0             -200               0
1.69307               -0.4380891       -25.30216        -43.07156         -126.18             -200               0             -200               0
1.69967               -0.4525143       -25.56425        -42.86546       -130.2156             -200               0             -200               0
1.70627               -0.4674035       -25.82938         -42.6652       -134.2222             -200               0             -200               0
1.71287               -0.4827551       -26.09763         -42.4701       -138.1971             -200               0             -200               0
1.71947               -0.4985646        -26.3691        -42.27945       -142.1376             -200               0             -200               0
1.72607                -0.514833        -26.6439        -42.09249       -146.0415             -200               0             -200               0
1.73267               -0.5315587        -26.9222        -41.90842       -149.9071             -200               0             -200               0
1.73927               -0.5487457       -27.20413        -41.72642       -153.7333             -200               0             -200               0
1.74587               -0.5663985       -27.48991        -41.54564       -157.5194             -200               0             -200               0
1.75248               -0.5845266       -27.77972        -41.36521       -161.2651             -200               0             -200               0
1.75908               -0.6031413        -28.0738        -41.18424       -164.9711             -200               0             -200               0
1.76568               -0.6222585       -28.37236        -41.00187       -168.6384             -200               0             -200               0
1.77228               -0.6419001       -28.67568        -40.81721       -172.2689             -200               0             -200               0
1.77888               -0.6620903       -28.98398        -40.62943       -175.8651             -200               0             -200               0
1.78548               -0.6828576       -29.29753        -40.43772       -179.4301             -200               0             -200               0
1.79208               -0.7042392       -29.61658        -40.24134        177.0322             -200               0             -200               0
1.79868               -0.7262729       -29.94139         -40.0396        173.5173             -200               0             -200               0
1.80528                -0.749004        -30.2722        -39.83191        170.0203             -200               0             -200               0
1.81188               -0.7724801       -30.60924        -39.61777        166.5357             -200               0             -200               0
1.81848               -0.7967543       -30.95274         -39.3968        163.0575             -200               0             -200               0
1.82508               -0.8218852       -31.30289        -39.16873        159.5796             -200               0             -200               0
1.83168               -0.8479334        -31.6599        -38.93341        156.0956             -200               0             -200               0
1.83828               -0.8749639       -32.02392        -38.69081        152.5993             -200               0             -200               0
1.84488               -0.9030427        -32.3951        -38.44105        149.0843             -200               0             -200               0
1.85149               -0.9322421       -32.77357        -38.18434        145.5446             -200               0             -200               0
