! TOUCHSTONE file generated by CST MICROWAVE STUDIO
! Date and time: Tue Mar 18 00:00:50 2025
! Project name: oblique.cst
! Parameters = {Tilt=30; Fracture=1; B=10; D=160; F=5; Feed=2.85625; L=100; M=50; R=0.384908; S=2; Theta=90; length=57.125; wave=114.25}
! Header version: 2024
! Port assignment regex: !\s*Touchstone port\s*([0-9]+)\s*=\s*(CST MWS port|CST DES external port|CST DES block port)\s*(.+)\s* \(\"(.*)\"\)(\s*mode\s*([0-9]+))?.*
! Touchstone port assignment:
! Touchstone port 1 = CST MWS port 1 ("")
! Touchstone port 2 = CST MWS port 2 ("")
# GHz S DB R 50
1                    -0.02163076        -9.78394        -66.98225        171.1784             -200               0             -200               0
1.00658              -0.02235689       -9.870668        -66.93325        165.6771             -200               0             -200               0
1.01316              -0.02308374       -9.957984        -66.91461        160.2678             -200               0             -200               0
1.01974              -0.02380961       -10.04592        -66.92672        154.9584             -200               0             -200               0
1.02632               -0.0245389        -10.1345         -66.9701        149.7584             -200               0             -200               0
1.03289              -0.02527347       -10.22378        -67.04543        144.6799             -200               0             -200               0
1.03947              -0.02601584       -10.31376        -67.15346        139.7371             -200               0             -200               0
1.04605              -0.02677053       -10.40448        -67.29505        134.9479             -200               0             -200               0
1.05263              -0.02754016       -10.49596        -67.47111        130.3338             -200               0             -200               0
1.05921              -0.02833104       -10.58823        -67.68252         125.921             -200               0             -200               0
1.06579               -0.0291454       -10.68129           -67.93        121.7419             -200               0             -200               0
1.07237              -0.02999087       -10.77515        -68.21399        117.8358             -200               0             -200               0
1.07895              -0.03086989       -10.86983        -68.53432        114.2512             -200               0             -200               0
1.08553              -0.03178931       -10.96531        -68.88979        111.0468             -200               0             -200               0
1.09211              -0.03275187       -11.06161        -69.27748        108.2934             -200               0             -200               0
1.09868              -0.03376308        -11.1587        -69.69181        106.0742             -200               0             -200               0
1.10526               -0.0348264       -11.25659         -70.1231        104.4835             -200               0             -200               0
1.11184              -0.03594556       -11.35526        -70.55575        103.6199             -200               0             -200               0
1.11842              -0.03712217       -11.45468        -70.96634        103.5719             -200               0             -200               0
1.125                -0.03835997       -11.55484        -71.32234        104.3908             -200               0             -200               0
1.13158              -0.03965823       -11.65572        -71.58322        106.0517             -200               0             -200               0
1.13816              -0.04101916       -11.75729        -71.70598        108.4129             -200               0             -200               0
1.14474              -0.04244198       -11.85955        -71.65561        111.2001             -200               0             -200               0
1.15132              -0.04392633       -11.96246        -71.41686        114.0431             -200               0             -200               0
1.15789              -0.04546875         -12.066        -71.00019        116.5626             -200               0             -200               0
1.16447              -0.04706867       -12.17018        -70.43758        118.4619             -200               0             -200               0
1.17105              -0.04872236       -12.27497        -69.77127        119.5748             -200               0             -200               0
1.17763              -0.05042548       -12.38036        -69.04265        119.8577             -200               0             -200               0
1.18421              -0.05217547       -12.48636        -68.28576        119.3516             -200               0             -200               0
1.19079              -0.05396709       -12.59297        -67.52549        118.1409             -200               0             -200               0
1.19737              -0.05579638        -12.7002        -66.77854        116.3247             -200               0             -200               0
1.20395              -0.05765812       -12.80807        -66.05536        113.9994             -200               0             -200               0
1.21053                -0.059548       -12.91659        -65.36196        111.2517             -200               0             -200               0
1.21711              -0.06146229       -13.02579        -64.70143        108.1556             -200               0             -200               0
1.22368              -0.06339689       -13.13571        -64.07499        104.7736             -200               0             -200               0
1.23026              -0.06534765       -13.24638        -63.48271        101.1571             -200               0             -200               0
1.23684              -0.06731297       -13.35785        -62.92396        97.34873             -200               0             -200               0
1.24342              -0.06929003       -13.47016        -62.39773        93.38388             -200               0             -200               0
1.25                 -0.07127801       -13.58336        -61.90284        89.29189             -200               0             -200               0
1.25658              -0.07327574       -13.69751        -61.43801        85.09739             -200               0             -200               0
1.26316              -0.07528435       -13.81266        -61.00198         80.8212             -200               0             -200               0
1.26974              -0.07730516       -13.92886        -60.59351        76.48113             -200               0             -200               0
1.27632              -0.07934066       -14.04617        -60.21142        72.09257             -200               0             -200               0
1.28289              -0.08139382       -14.16464        -59.85461          67.669             -200               0             -200               0
1.28947              -0.08346818       -14.28431        -59.52205         63.2224             -200               0             -200               0
1.29605              -0.08556954       -14.40525        -59.21277        58.76355             -200               0             -200               0
1.30263               -0.0877026       -14.52749        -58.92586        54.30234             -200               0             -200               0
1.30921              -0.08987389       -14.65108        -58.66048        49.84791             -200               0             -200               0
1.31579              -0.09209009       -14.77604        -58.41582        45.40891             -200               0             -200               0
1.32237              -0.09435759       -14.90241         -58.1911         40.9936             -200               0             -200               0
1.32895              -0.09668329       -15.03021        -57.98559           36.61             -200               0             -200               0
1.33553              -0.09907513       -15.15946        -57.79853        32.26596             -200               0             -200               0
1.34211               -0.1015393       -15.29017        -57.62919         27.9693             -200               0             -200               0
1.34868                -0.104082       -15.42236         -57.4768        23.72785             -200               0             -200               0
1.35526               -0.1067097       -15.55602        -57.34056        19.54947             -200               0             -200               0
1.36184               -0.1094274       -15.69116        -57.21962        15.44216             -200               0             -200               0
1.36842               -0.1122416       -15.82777        -57.11305        11.41401             -200               0             -200               0
1.375                 -0.1151555       -15.96584        -57.01984        7.473213             -200               0             -200               0
1.38158               -0.1181719       -16.10538        -56.93884         3.62803             -200               0             -200               0
1.38816               -0.1212939       -16.24637        -56.86876      -0.1132931             -200               0             -200               0
1.39474               -0.1245237       -16.38881        -56.80815       -3.742644             -200               0             -200               0
1.40132               -0.1278617       -16.53269        -56.75537       -7.252208             -200               0             -200               0
1.40789               -0.1313079       -16.67801        -56.70855       -10.63471             -200               0             -200               0
1.41447               -0.1348611       -16.82478        -56.66559       -13.88368             -200               0             -200               0
1.42105               -0.1385203       -16.97299        -56.62413       -16.99387             -200               0             -200               0
1.42763               -0.1422848       -17.12268        -56.58159       -19.96164             -200               0             -200               0
1.43421                -0.146151       -17.27385        -56.53515       -22.78545             -200               0             -200               0
1.44079               -0.1501169       -17.42653         -56.4818       -25.46638             -200               0             -200               0
1.44737               -0.1541792       -17.58075        -56.41841       -28.00863             -200               0             -200               0
1.45395               -0.1583376       -17.73657        -56.34181       -30.41996             -200               0             -200               0
1.46053                -0.162587       -17.89403        -56.24894       -32.71191             -200               0             -200               0
1.46711               -0.1669285       -18.05318        -56.13693       -34.89997             -200               0             -200               0
1.47368               -0.1713602       -18.21409        -56.00333       -37.00332             -200               0             -200               0
1.48026               -0.1758817       -18.37683        -55.84618       -39.04434             -200               0             -200               0
1.48684               -0.1804946       -18.54148        -55.66417        -41.0478             -200               0             -200               0
1.49342               -0.1852003       -18.70813        -55.45673       -43.03978             -200               0             -200               0
1.5                   -0.1900018       -18.87684        -55.22404       -45.04651             -200               0             -200               0
1.50658               -0.1949048       -19.04772        -54.96703       -47.09311             -200               0             -200               0
1.51316               -0.1999152       -19.22086         -54.6873       -49.20251             -200               0             -200               0
1.51974               -0.2050387       -19.39633        -54.38697       -51.39461             -200               0             -200               0
1.52632               -0.2102862       -19.57424        -54.06859       -53.68565             -200               0             -200               0
1.53289               -0.2156668       -19.75467        -53.73494       -56.08799             -200               0             -200               0
1.53947                -0.221192        -19.9377        -53.38894       -58.61013             -200               0             -200               0
1.54605               -0.2268736        -20.1234        -53.03345       -61.25696             -200               0             -200               0
1.55263               -0.2327263       -20.31186        -52.67124       -64.03017             -200               0             -200               0
1.55921                -0.238764       -20.50313        -52.30489        -66.9287             -200               0             -200               0
1.56579               -0.2450012       -20.69728        -51.93673       -69.94934             -200               0             -200               0
1.57237               -0.2514535       -20.89434        -51.56884       -73.08717             -200               0             -200               0
1.57895               -0.2581389       -21.09438        -51.20306         -76.336             -200               0             -200               0
1.58553               -0.2650692       -21.29741        -50.84092        -79.6888             -200               0             -200               0
1.59211                -0.272264       -21.50347        -50.48375       -83.13799             -200               0             -200               0
1.59868               -0.2797359       -21.71259        -50.13265       -86.67571             -200               0             -200               0
1.60526               -0.2875008       -21.92476        -49.78848         -90.294             -200               0             -200               0
1.61184               -0.2955722       -22.14001        -49.45198       -93.98496             -200               0             -200               0
1.61842               -0.3039625       -22.35833        -49.12368       -97.74085             -200               0             -200               0
1.625                 -0.3126858       -22.57972        -48.80401       -101.5541             -200               0             -200               0
1.63158               -0.3217523        -22.8042        -48.49324       -105.4176             -200               0             -200               0
1.63816               -0.3311705       -23.03175        -48.19158       -109.3243             -200               0             -200               0
1.64474               -0.3409505       -23.26239        -47.89912       -113.2676             -200               0             -200               0
1.65132               -0.3510995       -23.49611        -47.61587       -117.2411             -200               0             -200               0
1.65789               -0.3616241       -23.73294        -47.34179       -121.2388             -200               0             -200               0
1.66447               -0.3725296       -23.97289        -47.07675       -125.2551             -200               0             -200               0
1.67105               -0.3838214       -24.21598         -46.8206       -129.2844             -200               0             -200               0
1.67763               -0.3955036       -24.46227        -46.57311       -133.3216             -200               0             -200               0
1.68421                 -0.40758       -24.71179        -46.33401       -137.3619             -200               0             -200               0
1.69079               -0.4200542       -24.96461        -46.10299       -141.4004             -200               0             -200               0
1.69737               -0.4329301       -25.22081        -45.87969        -145.433             -200               0             -200               0
1.70395               -0.4462129       -25.48048        -45.66371       -149.4553             -200               0             -200               0
1.71053               -0.4599065       -25.74371        -45.45462       -153.4636             -200               0             -200               0
1.71711               -0.4740203       -26.01064        -45.25194       -157.4541             -200               0             -200               0
1.72368                -0.488559       -26.28138        -45.05514       -161.4236             -200               0             -200               0
1.73026               -0.5035334       -26.55608        -44.86368       -165.3689             -200               0             -200               0
1.73684               -0.5189563        -26.8349        -44.67695       -169.2873             -200               0             -200               0
1.74342               -0.5348415       -27.11801        -44.49433       -173.1764             -200               0             -200               0
1.75                  -0.5512059       -27.40557        -44.31514       -177.0341             -200               0             -200               0
1.75658               -0.5680688       -27.69777        -44.13868        179.1412             -200               0             -200               0
1.76316               -0.5854528       -27.99481        -43.96423        175.3508             -200               0             -200               0
1.76974               -0.6033839       -28.29686        -43.79102        171.5954             -200               0             -200               0
1.77632               -0.6218917       -28.60413        -43.61829        167.8753             -200               0             -200               0
1.78289               -0.6410085       -28.91681        -43.44524        164.1903             -200               0             -200               0
1.78947               -0.6607701       -29.23507        -43.27109        160.5394             -200               0             -200               0
1.79605               -0.6812149       -29.55912        -43.09505        156.9212             -200               0             -200               0
1.80263               -0.7023856       -29.88913        -42.91638        153.3336             -200               0             -200               0
1.80921               -0.7243276       -30.22525        -42.73432        149.7741             -200               0             -200               0
1.81579               -0.7470878       -30.56766        -42.54821        146.2394             -200               0             -200               0
1.82237               -0.7707171       -30.91649         -42.3574        142.7257             -200               0             -200               0
1.82895               -0.7952685       -31.27189        -42.16133        139.2287             -200               0             -200               0
1.83553               -0.8207983       -31.63397        -41.95953        135.7436             -200               0             -200               0
1.84211                -0.847362       -32.00284        -41.75161        132.2652             -200               0             -200               0
1.84868               -0.8750199       -32.37859        -41.53728        128.7883             -200               0             -200               0
