! TOUCHSTONE file generated by CST MICROWAVE STUDIO
! Date and time: Tue Mar 18 00:01:23 2025
! Project name: oblique.cst
! Parameters = {Tilt=30; Fracture=1; B=12.5; D=160; F=5; Feed=2.85625; L=100; M=30; R=0.384908; S=1; Theta=90; length=57.125; wave=114.25}
! Header version: 2024
! Port assignment regex: !\s*Touchstone port\s*([0-9]+)\s*=\s*(CST MWS port|CST DES external port|CST DES block port)\s*(.+)\s* \(\"(.*)\"\)(\s*mode\s*([0-9]+))?.*
! Touchstone port assignment:
! Touchstone port 1 = CST MWS port 1 ("")
! Touchstone port 2 = CST MWS port 2 ("")
# GHz S DB R 50
1                    -0.02090992       -9.858112        -66.89063       -178.1659             -200               0             -200               0
1.00662              -0.02174785       -9.947405        -66.90494        176.6343             -200               0             -200               0
1.01325              -0.02261539       -10.03713        -66.95218        171.5477             -200               0             -200               0
1.01987              -0.02350797       -10.12728        -67.03308        166.5872             -200               0             -200               0
1.02649              -0.02442271       -10.21786        -67.14848        161.7685             -200               0             -200               0
1.03311              -0.02535531       -10.30889        -67.29933        157.1108             -200               0             -200               0
1.03974              -0.02630147       -10.40037        -67.48665        152.6377             -200               0             -200               0
1.04636              -0.02725764       -10.49233        -67.71142         148.378             -200               0             -200               0
1.05298              -0.02822019       -10.58479        -67.97449        144.3674             -200               0             -200               0
1.0596               -0.02918533       -10.67778        -68.27635        140.6497             -200               0             -200               0
1.06623              -0.03015112       -10.77134        -68.61679        137.2789             -200               0             -200               0
1.07285              -0.03111503       -10.86549        -68.99439        134.3213             -200               0             -200               0
1.07947              -0.03207603       -10.96029        -69.40572        131.8567             -200               0             -200               0
1.08609              -0.03303341       -11.05577        -69.84406        129.9794             -200               0             -200               0
1.09272               -0.0339886       -11.15198        -70.29775        128.7957             -200               0             -200               0
1.09934              -0.03494082       -11.24895        -70.74789        128.4146             -200               0             -200               0
1.10596              -0.03589502       -11.34674        -71.16617        128.9277             -200               0             -200               0
1.11258              -0.03685207       -11.44539        -71.51378        130.3738             -200               0             -200               0
1.11921              -0.03781604       -11.54492        -71.74403        132.6897             -200               0             -200               0
1.12583              -0.03879142       -11.64538        -71.81073        135.6677             -200               0             -200               0
1.13245              -0.03978354        -11.7468        -71.68197        138.9555             -200               0             -200               0
1.13907              -0.04079725       -11.84919        -71.35233         142.125             -200               0             -200               0
1.1457               -0.04183853        -11.9526        -70.84523        144.7861             -200               0             -200               0
1.15232              -0.04291313       -12.05701        -70.20329        146.6768             -200               0             -200               0
1.15894              -0.04402683       -12.16246        -69.47412        147.6868             -200               0             -200               0
1.16556              -0.04518574       -12.26894        -68.69967        147.8252             -200               0             -200               0
1.17219              -0.04639548       -12.37645        -67.91174        147.1705             -200               0             -200               0
1.17881              -0.04766034       -12.48498        -67.13208        145.8294             -200               0             -200               0
1.18543              -0.04898577       -12.59453        -66.37441        143.9114             -200               0             -200               0
1.19205              -0.05037472       -12.70507         -65.6467        141.5166             -200               0             -200               0
1.19868              -0.05183142        -12.8166        -64.95312        138.7313             -200               0             -200               0
1.2053                -0.0533568       -12.92909        -64.29539        135.6275             -200               0             -200               0
1.21192              -0.05495262       -13.04252        -63.67377        132.2649             -200               0             -200               0
1.21854              -0.05661987       -13.15687        -63.08763        128.6924             -200               0             -200               0
1.22517              -0.05835711       -13.27212        -62.53586        124.9501             -200               0             -200               0
1.23179              -0.06016417       -13.38826        -62.01711        121.0714             -200               0             -200               0
1.23841              -0.06203771       -13.50528        -61.52992        117.0837             -200               0             -200               0
1.24503              -0.06397434       -13.62316        -61.07284        113.0104             -200               0             -200               0
1.25166              -0.06597139        -13.7419        -60.64444        108.8712             -200               0             -200               0
1.25828              -0.06802383        -13.8615        -60.24336        104.6829             -200               0             -200               0
1.2649               -0.07012792       -13.98198        -59.86833        100.4603             -200               0             -200               0
1.27152              -0.07227725       -14.10334        -59.51812         96.2164             -200               0             -200               0
1.27815              -0.07446839       -14.22561         -59.1916         91.9629             -200               0             -200               0
1.28477              -0.07669632       -14.34883         -58.8877        87.71036             -200               0             -200               0
1.29139              -0.07895607       -14.47303        -58.60538        83.46852             -200               0             -200               0
1.29801                -0.081244       -14.59825        -58.34369        79.24651             -200               0             -200               0
1.30464              -0.08355666       -14.72455        -58.10165        75.05296             -200               0             -200               0
1.31126              -0.08589128       -14.85199        -57.87834        70.89615             -200               0             -200               0
1.31788               -0.0882461       -14.98062        -57.67281        66.78411             -200               0             -200               0
1.3245                -0.0906204       -15.11052        -57.48413        62.72467             -200               0             -200               0
1.33113               -0.0930147       -15.24174         -57.3113        58.72551             -200               0             -200               0
1.33775              -0.09543064       -15.37438        -57.15329        54.79424             -200               0             -200               0
1.34437              -0.09787148       -15.50848        -57.00901        50.93832             -200               0             -200               0
1.35099               -0.1003399       -15.64414        -56.87729        47.16509             -200               0             -200               0
1.35762               -0.1028424       -15.78141        -56.75682        43.48169             -200               0             -200               0
1.36424               -0.1053837       -15.92037        -56.64622        39.89498             -200               0             -200               0
1.37086               -0.1079722       -16.06107        -56.54394        36.41141             -200               0             -200               0
1.37748               -0.1106148       -16.20359        -56.44827        33.03684             -200               0             -200               0
1.38411               -0.1133208       -16.34796        -56.35737        29.77636             -200               0             -200               0
1.39073               -0.1160988       -16.49423         -56.2692        26.63397             -200               0             -200               0
1.39735               -0.1189595       -16.64245        -56.18157        23.61236             -200               0             -200               0
1.40397                -0.121911       -16.79265        -56.09216        20.71252             -200               0             -200               0
1.4106                -0.1249638       -16.94486        -55.99849        17.93348             -200               0             -200               0
1.41722               -0.1281272        -17.0991        -55.89805        15.27192             -200               0             -200               0
1.42384               -0.1314102       -17.25538        -55.78832        12.72195             -200               0             -200               0
1.43046               -0.1348218       -17.41372        -55.66681        10.27493             -200               0             -200               0
1.43709               -0.1383691       -17.57412        -55.53124        7.919385             -200               0             -200               0
1.44371               -0.1420602       -17.73658        -55.37956        5.641177             -200               0             -200               0
1.45033               -0.1459006       -17.90111        -55.21009        3.423757             -200               0             -200               0
1.45695               -0.1498961        -18.0677        -55.02157         1.24868             -200               0             -200               0
1.46358                 -0.15405       -18.23636        -54.81328      -0.9037468             -200               0             -200               0
1.4702                -0.1583666       -18.40709        -54.58503       -3.053702             -200               0             -200               0
1.47682               -0.1628484        -18.5799        -54.33715       -5.221041             -200               0             -200               0
1.48344               -0.1674956        -18.7548        -54.07052       -7.424504             -200               0             -200               0
1.49007                 -0.17231        -18.9318        -53.78645       -9.681052             -200               0             -200               0
1.49669                -0.177292       -19.11093        -53.48664       -12.00534             -200               0             -200               0
1.50331               -0.1824401       -19.29222        -53.17305       -14.40936             -200               0             -200               0
1.50993               -0.1877555       -19.47572         -52.8478       -16.90233             -200               0             -200               0
1.51656               -0.1932373       -19.66148        -52.51311       -19.49067             -200               0             -200               0
1.52318               -0.1988852       -19.84955        -52.17117        -22.1782             -200               0             -200               0
1.5298                -0.2046993       -20.04001        -51.82413       -24.96637             -200               0             -200               0
1.53642               -0.2106817       -20.23293        -51.47399        -27.8546             -200               0             -200               0
1.54305               -0.2168337       -20.42842        -51.12258       -30.84058             -200               0             -200               0
1.54967               -0.2231583       -20.62655        -50.77157       -33.92066             -200               0             -200               0
1.55629               -0.2296611       -20.82745        -50.42243       -37.09011             -200               0             -200               0
1.56291               -0.2363482       -21.03122        -50.07644       -40.34344             -200               0             -200               0
1.56954               -0.2432279       -21.23798        -49.73469       -43.67459             -200               0             -200               0
1.57616               -0.2503097       -21.44785         -49.3981       -47.07718             -200               0             -200               0
1.58278               -0.2576061       -21.66095        -49.06742       -50.54463             -200               0             -200               0
1.5894                -0.2651308        -21.8774        -48.74326       -54.07029             -200               0             -200               0
1.59603               -0.2728999       -22.09733        -48.42609       -57.64757             -200               0             -200               0
1.60265               -0.2809317       -22.32084        -48.11627       -61.26997             -200               0             -200               0
1.60927               -0.2892468       -22.54807        -47.81402       -64.93115             -200               0             -200               0
1.61589               -0.2978652       -22.77909        -47.51949       -68.62495             -200               0             -200               0
1.62252               -0.3068113       -23.01403        -47.23274       -72.34544             -200               0             -200               0
1.62914                 -0.31611       -23.25295        -46.95374       -76.08693             -200               0             -200               0
1.63576               -0.3257872       -23.49595         -46.6824       -79.84397             -200               0             -200               0
1.64238               -0.3358686       -23.74308        -46.41855       -83.61135             -200               0             -200               0
1.64901               -0.3463838       -23.99441        -46.16196       -87.38415             -200               0             -200               0
1.65563                -0.357359       -24.24997        -45.91236       -91.15768             -200               0             -200               0
1.66225               -0.3688236        -24.5098         -45.6694       -94.92755             -200               0             -200               0
1.66887               -0.3808044       -24.77391         -45.4327       -98.68964             -200               0             -200               0
1.6755                  -0.39333       -25.04232        -45.20183       -102.4401             -200               0             -200               0
1.68212                -0.406426       -25.31503        -44.97629       -106.1755             -200               0             -200               0
1.68874               -0.4201195       -25.59204        -44.75557       -109.8926             -200               0             -200               0
1.69536                -0.434435       -25.87333        -44.53909       -113.5885             -200               0             -200               0
1.70199               -0.4493966       -26.15888        -44.32625       -117.2609             -200               0             -200               0
1.70861                -0.465026       -26.44868         -44.1164       -120.9076             -200               0             -200               0
1.71523               -0.4813454       -26.74271        -43.90886       -124.5271             -200               0             -200               0
1.72185               -0.4983745       -27.04095        -43.70294       -128.1181             -200               0             -200               0
1.72848               -0.5161337        -27.3434        -43.49789       -131.6801             -200               0             -200               0
1.7351                -0.5346368       -27.65004          -43.293       -135.2129             -200               0             -200               0
1.74172               -0.5539043       -27.96087        -43.08751        -138.717             -200               0             -200               0
1.74834               -0.5739512       -28.27593        -42.88068       -142.1932             -200               0             -200               0
1.75497               -0.5947947       -28.59522        -42.67179       -145.6433             -200               0             -200               0
1.76159               -0.6164485       -28.91879        -42.46014       -149.0692             -200               0             -200               0
1.76821               -0.6389303        -29.2467        -42.24506       -152.4738             -200               0             -200               0
1.77483               -0.6622577       -29.57901        -42.02594       -155.8604             -200               0             -200               0
1.78146               -0.6864474       -29.91582        -41.80224       -159.2326             -200               0             -200               0
1.78808               -0.7115215       -30.25723        -41.57347       -162.5947             -200               0             -200               0
1.7947                   -0.7375       -30.60335        -41.33924       -165.9513             -200               0             -200               0
1.80132                -0.764409       -30.95433        -41.09924       -169.3073             -200               0             -200               0
1.80795               -0.7922772       -31.31031        -40.85326       -172.6679             -200               0             -200               0
1.81457               -0.8211347       -31.67146        -40.60121       -176.0381             -200               0             -200               0
1.82119               -0.8510166       -32.03794        -40.34307       -179.4233             -200               0             -200               0
1.82781               -0.8819638       -32.40994        -40.07895        177.1713             -200               0             -200               0
1.83444               -0.9140193       -32.78765        -39.80901        173.7408             -200               0             -200               0
1.84106               -0.9472343       -33.17124        -39.53355        170.2804             -200               0             -200               0
1.84768               -0.9816613       -33.56092        -39.25292        166.7858             -200               0             -200               0
1.8543                 -1.017361       -33.95687        -38.96754        163.2529             -200               0             -200               0
