! TOUCHSTONE file generated by CST MICROWAVE STUDIO
! Date and time: Tue Mar 18 00:02:55 2025
! Project name: oblique.cst
! Parameters = {Tilt=40; Fracture=1; B=12.5; D=160; F=15; Feed=2.85625; L=100; M=50; R=0.384908; S=1; Theta=90; length=57.125; wave=114.25}
! Header version: 2024
! Port assignment regex: !\s*Touchstone port\s*([0-9]+)\s*=\s*(CST MWS port|CST DES external port|CST DES block port)\s*(.+)\s* \(\"(.*)\"\)(\s*mode\s*([0-9]+))?.*
! Touchstone port assignment:
! Touchstone port 1 = CST MWS port 1 ("")
! Touchstone port 2 = CST MWS port 2 ("")
# GHz S DB R 50
1                    -0.02122126       -9.862589        -68.27612        156.2198             -200               0             -200               0
1.0066               -0.02197242       -9.951206        -68.28196        150.6252             -200               0             -200               0
1.0132               -0.02274023       -10.04039        -68.32113        145.1376             -200               0             -200               0
1.0198               -0.02352561       -10.13015        -68.39446        139.7674             -200               0             -200               0
1.0264               -0.02432775       -10.22051        -68.50299        134.5275             -200               0             -200               0
1.033                -0.02514687       -10.31147         -68.6479        129.4343             -200               0             -200               0
1.0396               -0.02598323       -10.40306        -68.83057        124.5078             -200               0             -200               0
1.0462               -0.02683864       -10.49529        -69.05248        119.7732             -200               0             -200               0
1.05281              -0.02771379       -10.58818        -69.31517         115.262             -200               0             -200               0
1.05941              -0.02861044       -10.68173        -69.62015        111.0135             -200               0             -200               0
1.06601              -0.02952727       -10.77597        -69.96861        107.0773             -200               0             -200               0
1.07261              -0.03046863       -10.87091        -70.36111        103.5157             -200               0             -200               0
1.07921              -0.03143369       -10.96655        -70.79694        100.4072             -200               0             -200               0
1.08581              -0.03242532       -11.06292        -71.27309        97.84897             -200               0             -200               0
1.09241               -0.0334459       -11.16003        -71.78261        95.95953             -200               0             -200               0
1.09901              -0.03449403       -11.25788        -72.31215        94.87649             -200               0             -200               0
1.10561              -0.03557369       -11.35648        -72.83858        94.74568             -200               0             -200               0
1.11221              -0.03668628       -11.45585        -73.32531        95.69222             -200               0             -200               0
1.11881              -0.03783363       -11.55598        -73.72049        97.76508             -200               0             -200               0
1.12541              -0.03901501       -11.65689        -73.96138         100.859             -200               0             -200               0
1.13201              -0.04023395       -11.75859        -73.98917        104.6525             -200               0             -200               0
1.13861              -0.04149137       -11.86107        -73.77134        108.6313             -200               0             -200               0
1.14521              -0.04278643       -11.96435        -73.31721        112.2292             -200               0             -200               0
1.15182              -0.04412167       -12.06842         -72.6732        115.0045             -200               0             -200               0
1.15842              -0.04549797        -12.1733        -71.90211        116.7334             -200               0             -200               0
1.16502               -0.0469139         -12.279        -71.06291        117.3877             -200               0             -200               0
1.17162                -0.048372        -12.3855        -70.20067        117.0586             -200               0             -200               0
1.17822              -0.04986974       -12.49284        -69.34551        115.8859             -200               0             -200               0
1.18482              -0.05141004       -12.60101        -68.51563        114.0148             -200               0             -200               0
1.19142               -0.0529897       -12.71002        -67.72097        111.5764             -200               0             -200               0
1.19802              -0.05461156       -12.81989        -66.96628        108.6809             -200               0             -200               0
1.20462              -0.05627174       -12.93064        -66.25311        105.4184             -200               0             -200               0
1.21122              -0.05797341       -13.04227        -65.58124        101.8612             -200               0             -200               0
1.21782              -0.05971366        -13.1548        -64.94943        98.06735             -200               0             -200               0
1.22442              -0.06149334       -13.26825        -64.35599        94.08361             -200               0             -200               0
1.23102              -0.06331145       -13.38265        -63.79899        89.94766             -200               0             -200               0
1.23762              -0.06516745       -13.49801        -63.27649        85.69025             -200               0             -200               0
1.24422               -0.0670629       -13.61437        -62.78661        81.33671             -200               0             -200               0
1.25083              -0.06899825       -13.73175        -62.32755        76.90816             -200               0             -200               0
1.25743              -0.07097211       -13.85017        -61.89766        72.42241             -200               0             -200               0
1.26403              -0.07298565       -13.96968        -61.49538        67.89469             -200               0             -200               0
1.27063              -0.07504033       -14.09029        -61.11931        63.33819             -200               0             -200               0
1.27723              -0.07713859       -14.21205        -60.76814        58.76453             -200               0             -200               0
1.28383              -0.07928162       -14.33498        -60.44066        54.18408             -200               0             -200               0
1.29043              -0.08146928       -14.45912        -60.13575        49.60625             -200               0             -200               0
1.29703              -0.08370788        -14.5845        -59.85238         45.0397             -200               0             -200               0
1.30363              -0.08599623       -14.71115        -59.58954        40.49251             -200               0             -200               0
1.31023              -0.08834112       -14.83911        -59.34631        35.97233             -200               0             -200               0
1.31683              -0.09074238       -14.96841        -59.12176        31.48653             -200               0             -200               0
1.32343               -0.0932061       -15.09909        -58.91502        27.04223             -200               0             -200               0
1.33003              -0.09573554       -15.23116        -58.72518         22.6464             -200               0             -200               0
1.33663              -0.09833394       -15.36465        -58.55136        18.30594             -200               0             -200               0
1.34323               -0.1010072       -15.49961         -58.3926        14.02766             -200               0             -200               0
1.34984               -0.1037593       -15.63604        -58.24795        9.818326             -200               0             -200               0
1.35644               -0.1065922       -15.77398        -58.11636        5.684658             -200               0             -200               0
1.36304               -0.1095134       -15.91345        -57.99671         1.63328             -200               0             -200               0
1.36964               -0.1125257       -16.05448         -57.8878       -2.329327             -200               0             -200               0
1.37624               -0.1156357       -16.19707         -57.7883        -6.19691             -200               0             -200               0
1.38284               -0.1188437       -16.34126        -57.69675       -9.963571             -200               0             -200               0
1.38944               -0.1221575       -16.48705        -57.61156       -13.62391             -200               0             -200               0
1.39604               -0.1255805       -16.63448        -57.53098       -17.17324             -200               0             -200               0
1.40264               -0.1291154       -16.78355        -57.45309       -20.60782             -200               0             -200               0
1.40924               -0.1327675        -16.9343        -57.37585        -23.9251             -200               0             -200               0
1.41584               -0.1365402       -17.08673        -57.29704       -27.12404             -200               0             -200               0
1.42244               -0.1404356       -17.24087        -57.21435       -30.20542             -200               0             -200               0
1.42904               -0.1444585       -17.39673        -57.12538       -33.17213             -200               0             -200               0
1.43564               -0.1486128       -17.55435        -57.02771       -36.02944             -200               0             -200               0
1.44224               -0.1528996       -17.71375        -56.91897       -38.78518             -200               0             -200               0
1.44884               -0.1573236       -17.87495        -56.79693       -41.44981             -200               0             -200               0
1.45545               -0.1618878       -18.03797        -56.65956       -44.03637             -200               0             -200               0
1.46205                -0.166595       -18.20287        -56.50516       -46.56024             -200               0             -200               0
1.46865               -0.1714491       -18.36965        -56.33241       -49.03874             -200               0             -200               0
1.47525               -0.1764542       -18.53837        -56.14045       -51.49054             -200               0             -200               0
1.48185               -0.1816122       -18.70905        -55.92894       -53.93505             -200               0             -200               0
1.48845               -0.1869292       -18.88175        -55.69803       -56.39159             -200               0             -200               0
1.49505                -0.192409        -19.0565        -55.44839        -58.8787             -200               0             -200               0
1.50165               -0.1980548       -19.23334        -55.18114       -61.41348             -200               0             -200               0
1.50825               -0.2038738       -19.41232        -54.89775       -64.01103             -200               0             -200               0
1.51485               -0.2098705        -19.5935        -54.60001       -66.68406             -200               0             -200               0
1.52145               -0.2160521       -19.77691        -54.28991       -69.44272             -200               0             -200               0
1.52805               -0.2224238       -19.96261        -53.96955        -72.2945             -200               0             -200               0
1.53465               -0.2289934       -20.15065        -53.64104        -75.2444             -200               0             -200               0
1.54125               -0.2357685       -20.34108        -53.30647       -78.29508             -200               0             -200               0
1.54785               -0.2427577       -20.53394        -52.96783       -81.44712             -200               0             -200               0
1.55446               -0.2499686        -20.7293        -52.62698        -84.6994             -200               0             -200               0
1.56106               -0.2574108        -20.9272        -52.28561       -88.04933             -200               0             -200               0
1.56766               -0.2650936       -21.12768        -51.94523       -91.49321             -200               0             -200               0
1.57426               -0.2730279       -21.33079        -51.60719       -95.02648             -200               0             -200               0
1.58086               -0.2812234       -21.53659        -51.27266       -98.64395             -200               0             -200               0
1.58746                -0.289689       -21.74511        -50.94264         -102.34             -200               0             -200               0
1.59406               -0.2984384        -21.9564        -50.61797       -106.1089             -200               0             -200               0
1.60066               -0.3074821        -22.1705        -50.29936       -109.9445             -200               0             -200               0
1.60726               -0.3168291       -22.38744        -49.98738        -113.841             -200               0             -200               0
1.61386               -0.3264932       -22.60728        -49.68248       -117.7925             -200               0             -200               0
1.62046               -0.3364844       -22.83004        -49.38503       -121.7931             -200               0             -200               0
1.62706               -0.3468156       -23.05577        -49.09527       -125.8372             -200               0             -200               0
1.63366               -0.3574965       -23.28451         -48.8134       -129.9195             -200               0             -200               0
1.64026               -0.3685407       -23.51629        -48.53953       -134.0346             -200               0             -200               0
1.64686               -0.3799575       -23.75115        -48.27369       -138.1777             -200               0             -200               0
1.65347               -0.3917608       -23.98914        -48.01589       -142.3437             -200               0             -200               0
1.66007               -0.4039608        -24.2303        -47.76605       -146.5283             -200               0             -200               0
1.66667               -0.4165699       -24.47467        -47.52407        -150.727             -200               0             -200               0
1.67327               -0.4295998        -24.7223         -47.2898       -154.9356             -200               0             -200               0
1.67987               -0.4430627       -24.97324        -47.06307       -159.1502             -200               0             -200               0
1.68647                -0.456971       -25.22755        -46.84364        -163.367             -200               0             -200               0
1.69307               -0.4713382       -25.48528        -46.63126       -167.5824             -200               0             -200               0
1.69967                -0.486176        -25.7465        -46.42564       -171.7931             -200               0             -200               0
1.70627               -0.5014997       -26.01128        -46.22647       -175.9959             -200               0             -200               0
1.71287               -0.5173226       -26.27967        -46.03339        179.8122             -200               0             -200               0
1.71947               -0.5336615       -26.55177        -45.84603        175.6339             -200               0             -200               0
1.72607               -0.5505318       -26.82765        -45.66399        171.4719             -200               0             -200               0
1.73267               -0.5679501       -27.10739        -45.48683        167.3284             -200               0             -200               0
1.73927                -0.585936       -27.39107         -45.3141        163.2056             -200               0             -200               0
1.74587               -0.6045079       -27.67881         -45.1453        159.1053             -200               0             -200               0
1.75248               -0.6236878       -27.97067        -44.97994        155.0291             -200               0             -200               0
1.75908               -0.6434976       -28.26676        -44.81749        150.9782             -200               0             -200               0
1.76568                -0.663961       -28.56718        -44.65739        146.9537             -200               0             -200               0
1.77228               -0.6851042       -28.87202         -44.4991        142.9563             -200               0             -200               0
1.77888               -0.7069532       -29.18138        -44.34202        138.9861             -200               0             -200               0
1.78548               -0.7295364       -29.49536        -44.18558        135.0432             -200               0             -200               0
1.79208               -0.7528847       -29.81406         -44.0292        131.1271             -200               0             -200               0
1.79868               -0.7770305       -30.13756        -43.87228         127.237             -200               0             -200               0
1.80528               -0.8020072       -30.46598        -43.71428        123.3717             -200               0             -200               0
1.81188               -0.8278491       -30.79938        -43.55462        119.5294             -200               0             -200               0
1.81848                -0.854595       -31.13787        -43.39278        115.7081             -200               0             -200               0
1.82508               -0.8822805       -31.48151        -43.22827        111.9055             -200               0             -200               0
1.83168                -0.910948        -31.8304        -43.06064        108.1186             -200               0             -200               0
1.83828               -0.9406365        -32.1846        -42.88947        104.3444             -200               0             -200               0
1.84488               -0.9713916       -32.54418        -42.71442        100.5794             -200               0             -200               0
1.85149                -1.003255       -32.90921        -42.53519        96.81992             -200               0             -200               0
