! TOUCHSTONE file generated by CST MICROWAVE STUDIO
! Date and time: Tue Mar 18 00:03:05 2025
! Project name: oblique.cst
! Parameters = {Tilt=40; Fracture=1; B=12.5; D=160; F=25; Feed=2.85625; L=100; M=10; R=0.384908; S=2; Theta=180; length=57.125; wave=114.25}
! Header version: 2024
! Port assignment regex: !\s*Touchstone port\s*([0-9]+)\s*=\s*(CST MWS port|CST DES external port|CST DES block port)\s*(.+)\s* \(\"(.*)\"\)(\s*mode\s*([0-9]+))?.*
! Touchstone port assignment:
! Touchstone port 1 = CST MWS port 1 ("")
! Touchstone port 2 = CST MWS port 2 ("")
# GHz S DB R 50
1                    -0.01955467       -9.795764        -68.15153       -169.4321             -200               0             -200               0
1.0066               -0.02028807       -9.884162        -68.11396       -173.3742             -200               0             -200               0
1.0132               -0.02104861       -9.973076        -68.09534       -177.1463             -200               0             -200               0
1.0198               -0.02183433       -10.06251        -68.09368        179.2671             -200               0             -200               0
1.0264               -0.02264367       -10.15247        -68.10658        175.8823             -200               0             -200               0
1.033                -0.02347655       -10.24296        -68.13111        172.7158             -200               0             -200               0
1.0396               -0.02432976       -10.33399        -68.16372        169.7839             -200               0             -200               0
1.0462               -0.02520255       -10.42559        -68.20011        167.1013             -200               0             -200               0
1.05281              -0.02609357       -10.51775        -68.23521        164.6801             -200               0             -200               0
1.05941              -0.02700193       -10.61051        -68.26313        162.5278             -200               0             -200               0
1.06601              -0.02792718       -10.70388        -68.27721        160.6455             -200               0             -200               0
1.07261              -0.02886829       -10.79789        -68.27024        159.0253             -200               0             -200               0
1.07921              -0.02982573       -10.89255        -68.23479        157.6487             -200               0             -200               0
1.08581              -0.03079887       -10.98789        -68.16369        156.4848             -200               0             -200               0
1.09241              -0.03178966       -11.08394        -68.05062        155.4906             -200               0             -200               0
1.09901              -0.03279905       -11.18072         -67.8908        154.6121             -200               0             -200               0
1.10561              -0.03382783       -11.27825         -67.6815        153.7878             -200               0             -200               0
1.11221               -0.0348786       -11.37656        -67.42235        152.9532             -200               0             -200               0
1.11881              -0.03595323       -11.47567        -67.11541        152.0461             -200               0             -200               0
1.12541              -0.03705481       -11.57559        -66.76486        151.0111             -200               0             -200               0
1.13201              -0.03818536       -11.67636        -66.37647        149.8037             -200               0             -200               0
1.13861              -0.03935012       -11.77798        -65.95696        148.3914             -200               0             -200               0
1.14521              -0.04054973       -11.88046        -65.51341        146.7541             -200               0             -200               0
1.15182              -0.04178853       -11.98382         -65.0527        144.8829             -200               0             -200               0
1.15842              -0.04307091       -12.08807        -64.58119        142.7781             -200               0             -200               0
1.16502              -0.04439824       -12.19321        -64.10447        140.4467             -200               0             -200               0
1.17162              -0.04577511       -12.29924        -63.62733         137.901             -200               0             -200               0
1.17822              -0.04720356       -12.40616        -63.15369        135.1559             -200               0             -200               0
1.18482              -0.04868619       -12.51397        -62.68672        132.2282             -200               0             -200               0
1.19142              -0.05022566       -12.62268        -62.22892        129.1351             -200               0             -200               0
1.19802              -0.05182419       -12.73227        -61.78219        125.8939             -200               0             -200               0
1.20462              -0.05348249       -12.84274        -61.34797        122.5212             -200               0             -200               0
1.21122              -0.05520111       -12.95408         -60.9273        119.0325             -200               0             -200               0
1.21782              -0.05698132       -13.06629        -60.52088        115.4425             -200               0             -200               0
1.22442              -0.05882367       -13.17936        -60.12919        111.7649             -200               0             -200               0
1.23102              -0.06072675        -13.2933         -59.7525        108.0121             -200               0             -200               0
1.23762              -0.06268984       -13.40809        -59.39092        104.1958             -200               0             -200               0
1.24422              -0.06471194       -13.52374        -59.04444        100.3265             -200               0             -200               0
1.25083              -0.06679177       -13.64025        -58.71295        96.41411             -200               0             -200               0
1.25743              -0.06892776       -13.75764        -58.39627        92.46759             -200               0             -200               0
1.26403              -0.07111705        -13.8759        -58.09417        88.49535             -200               0             -200               0
1.27063              -0.07335823       -13.99506        -57.80634         84.5052             -200               0             -200               0
1.27723              -0.07564909       -14.11512        -57.53246        80.50443             -200               0             -200               0
1.28383              -0.07798747       -14.23612        -57.27216        76.49989             -200               0             -200               0
1.29043              -0.08037126       -14.35808        -57.02505        72.49803             -200               0             -200               0
1.29703              -0.08279862       -14.48102         -56.7907        68.50498             -200               0             -200               0
1.30363              -0.08526803       -14.60497        -56.56864        64.52655             -200               0             -200               0
1.31023              -0.08777946       -14.72998        -56.35841        60.56832             -200               0             -200               0
1.31683              -0.09033091       -14.85608        -56.15946        56.63561             -200               0             -200               0
1.32343              -0.09292297       -14.98331        -55.97126        52.73352             -200               0             -200               0
1.33003              -0.09555584       -15.11171        -55.79322        48.86694             -200               0             -200               0
1.33663              -0.09823031       -15.24132        -55.62469        45.04056             -200               0             -200               0
1.34323               -0.1009477       -15.37219          -55.465        41.25881             -200               0             -200               0
1.34984               -0.1037101       -15.50437        -55.31343        37.52593             -200               0             -200               0
1.35644               -0.1065199       -15.63789         -55.1692        33.84586             -200               0             -200               0
1.36304               -0.1093803       -15.77279        -55.03148        30.22223             -200               0             -200               0
1.36964               -0.1122946       -15.90913        -54.89937        26.65831             -200               0             -200               0
1.37624               -0.1152664       -16.04694        -54.77192        23.15696             -200               0             -200               0
1.38284               -0.1182995       -16.18625        -54.64814        19.72055             -200               0             -200               0
1.38944               -0.1213986       -16.32711        -54.52696        16.35087             -200               0             -200               0
1.39604               -0.1245689       -16.46955        -54.40728        13.04909             -200               0             -200               0
1.40264               -0.1278134       -16.61359        -54.28793        9.815624             -200               0             -200               0
1.40924               -0.1311379       -16.75926        -54.16775        6.650095             -200               0             -200               0
1.41584                -0.134547        -16.9066        -54.04554        3.551231             -200               0             -200               0
1.42244               -0.1380436       -17.05563         -53.9201       0.5168161             -200               0             -200               0
1.42904               -0.1416317       -17.20637        -53.79028       -2.456357             -200               0             -200               0
1.43564               -0.1453164       -17.35884        -53.65495       -5.372492             -200               0             -200               0
1.44224               -0.1491001       -17.51307        -53.51307        -8.23678             -200               0             -200               0
1.44884               -0.1529852       -17.66908         -53.3637       -11.05534             -200               0             -200               0
1.45545               -0.1569755       -17.82689        -53.20603       -13.83514             -200               0             -200               0
1.46205               -0.1610716       -17.98653        -53.03939       -16.58384             -200               0             -200               0
1.46865               -0.1652754       -18.14803        -52.86329       -19.30963             -200               0             -200               0
1.47525                 -0.16959       -18.31142        -52.67741       -22.02108             -200               0             -200               0
1.48185               -0.1740141       -18.47674        -52.48163       -24.72687             -200               0             -200               0
1.48845               -0.1785503       -18.64403        -52.27602       -27.43557             -200               0             -200               0
1.49505               -0.1831983       -18.81333        -52.06083       -30.15549             -200               0             -200               0
1.50165               -0.1879593        -18.9847        -51.83648       -32.89442             -200               0             -200               0
1.50825               -0.1928339       -19.15819        -51.60353       -35.65949             -200               0             -200               0
1.51485               -0.1978235       -19.33387        -51.36268         -38.457             -200               0             -200               0
1.52145                 -0.20293        -19.5118        -51.11474       -41.29238             -200               0             -200               0
1.52805               -0.2081544       -19.69208        -50.86057       -44.17008             -200               0             -200               0
1.53465               -0.2135001       -19.87476        -50.60109       -47.09357             -200               0             -200               0
1.54125               -0.2189718       -20.05996        -50.33724       -50.06535             -200               0             -200               0
1.54785               -0.2245722       -20.24776        -50.06996       -53.08702             -200               0             -200               0
1.55446                -0.230308       -20.43825        -49.80017       -56.15929             -200               0             -200               0
1.56106               -0.2361862       -20.63155        -49.52874       -59.28209             -200               0             -200               0
1.56766                -0.242215       -20.82776         -49.2565       -62.45469             -200               0             -200               0
1.57426               -0.2484038       -21.02698        -48.98421       -65.67572             -200               0             -200               0
1.58086               -0.2547634       -21.22933        -48.71259       -68.94332             -200               0             -200               0
1.58746               -0.2613067       -21.43492        -48.44226        -72.2552             -200               0             -200               0
1.59406               -0.2680482       -21.64386        -48.17376       -75.60877             -200               0             -200               0
1.60066                -0.275002       -21.85624        -47.90759       -79.00113             -200               0             -200               0
1.60726               -0.2821863       -22.07218        -47.64415       -82.42922             -200               0             -200               0
1.61386               -0.2896177       -22.29177        -47.38377       -85.88986             -200               0             -200               0
1.62046               -0.2973169       -22.51511        -47.12673       -89.37977             -200               0             -200               0
1.62706               -0.3053041       -22.74229        -46.87322       -92.89566             -200               0             -200               0
1.63366                -0.313601        -22.9734        -46.62339       -96.43426             -200               0             -200               0
1.64026               -0.3222294       -23.20849        -46.37732       -99.99232             -200               0             -200               0
1.64686               -0.3312116       -23.44765        -46.13503       -103.5667             -200               0             -200               0
1.65347               -0.3405726       -23.69094         -45.8965       -107.1543             -200               0             -200               0
1.66007               -0.3503368        -23.9384        -45.66166       -110.7523             -200               0             -200               0
1.66667               -0.3605261       -24.19009        -45.43038       -114.3579             -200               0             -200               0
1.67327               -0.3711649       -24.44604        -45.20252       -117.9685             -200               0             -200               0
1.67987               -0.3822781       -24.70628        -44.97787       -121.5816             -200               0             -200               0
1.68647               -0.3938887       -24.97085        -44.75621       -125.1952             -200               0             -200               0
1.69307               -0.4060199       -25.23977        -44.53726       -128.8071             -200               0             -200               0
1.69967               -0.4186947       -25.51306        -44.32074       -132.4157             -200               0             -200               0
1.70627               -0.4319348       -25.79073        -44.10633       -136.0195             -200               0             -200               0
1.71287               -0.4457613       -26.07282         -43.8937       -139.6172             -200               0             -200               0
1.71947               -0.4601952       -26.35932        -43.68249       -143.2079             -200               0             -200               0
1.72607                -0.475257       -26.65027        -43.47233       -146.7909             -200               0             -200               0
1.73267               -0.4909657       -26.94569        -43.26285       -150.3658             -200               0             -200               0
1.73927               -0.5073409       -27.24561        -43.05367       -153.9326             -200               0             -200               0
1.74587               -0.5244027       -27.55007        -42.84442       -157.4914             -200               0             -200               0
1.75248               -0.5421673       -27.85911        -42.63471       -161.0429             -200               0             -200               0
1.75908               -0.5606558       -28.17278        -42.42419       -164.5878             -200               0             -200               0
1.76568               -0.5798869       -28.49116        -42.21251       -168.1272             -200               0             -200               0
1.77228               -0.5998809       -28.81432        -41.99935       -171.6625             -200               0             -200               0
1.77888               -0.6206582       -29.14234        -41.78442       -175.1953             -200               0             -200               0
1.78548               -0.6422399       -29.47532        -41.56744       -178.7275             -200               0             -200               0
1.79208               -0.6646494       -29.81339        -41.34818        177.7388             -200               0             -200               0
1.79868               -0.6879148       -30.15665        -41.12646        174.2014             -200               0             -200               0
1.80528               -0.7120614       -30.50526        -40.90212        170.6578             -200               0             -200               0
1.81188               -0.7371203       -30.85935        -40.67506        167.1057             -200               0             -200               0
1.81848               -0.7631251       -31.21909         -40.4452        163.5423             -200               0             -200               0
1.82508               -0.7901116       -31.58465        -40.21255        159.9652             -200               0             -200               0
1.83168               -0.8181225       -31.95621        -39.97712        156.3717             -200               0             -200               0
1.83828               -0.8471989       -32.33393        -39.73899        152.7593             -200               0             -200               0
1.84488                -0.877391       -32.71802        -39.49828        149.1255             -200               0             -200               0
1.85149               -0.9087519       -33.10865        -39.25513         145.468             -200               0             -200               0
