! TOUCHSTONE file generated by CST MICROWAVE STUDIO
! Date and time: Tue Mar 18 00:01:34 2025
! Project name: oblique.cst
! Parameters = {Tilt=30; Fracture=1; B=12.5; D=160; F=15; Feed=2.85625; L=100; M=30; R=0.384908; S=1; Theta=270; length=57.125; wave=114.25}
! Header version: 2024
! Port assignment regex: !\s*Touchstone port\s*([0-9]+)\s*=\s*(CST MWS port|CST DES external port|CST DES block port)\s*(.+)\s* \(\"(.*)\"\)(\s*mode\s*([0-9]+))?.*
! Touchstone port assignment:
! Touchstone port 1 = CST MWS port 1 ("")
! Touchstone port 2 = CST MWS port 2 ("")
# GHz S DB R 50
1                    -0.02228561       -9.780931        -65.58885        171.9675             -200               0             -200               0
1.0066               -0.02292482       -9.866774        -65.66098        165.8015             -200               0             -200               0
1.0132                 -0.023537        -9.95325        -65.77237        159.7211             -200               0             -200               0
1.0198               -0.02412281       -10.04042        -65.92534        153.7321             -200               0             -200               0
1.0264               -0.02468864       -10.12833        -66.12275        147.8422             -200               0             -200               0
1.033                -0.02523778       -10.21705        -66.36811        142.0626             -200               0             -200               0
1.0396               -0.02577524       -10.30662        -66.66569         136.408             -200               0             -200               0
1.0462               -0.02630972       -10.39708        -67.02076        130.8987             -200               0             -200               0
1.05281              -0.02684703       -10.48846        -67.43982        125.5621             -200               0             -200               0
1.05941              -0.02739527       -10.58081        -67.93092        120.4365             -200               0             -200               0
1.06601              -0.02796421       -10.67412        -68.50417        115.5757             -200               0             -200               0
1.07261              -0.02856139       -10.76843        -69.17223        111.0571             -200               0             -200               0
1.07921              -0.02919607       -10.86372        -69.95106        106.9961             -200               0             -200               0
1.08581              -0.02987677       -10.95999        -70.86044        103.5692             -200               0             -200               0
1.09241              -0.03061008       -11.05724        -71.92394        101.0577             -200               0             -200               0
1.09901              -0.03140611       -11.15542         -73.1658        99.92646             -200               0             -200               0
1.10561               -0.0322688       -11.25453        -74.59721        100.9644             -200               0             -200               0
1.11221              -0.03320438       -11.35452        -76.16874        105.4802             -200               0             -200               0
1.11881              -0.03421669       -11.45535        -77.63727        115.2362             -200               0             -200               0
1.12541              -0.03531022       -11.55698        -78.39049        130.7123             -200               0             -200               0
1.13201               -0.0364848       -11.65937        -77.82401         147.622             -200               0             -200               0
1.13861              -0.03774189       -11.76247        -76.22785        159.9922             -200               0             -200               0
1.14521              -0.03907877       -11.86623        -74.31833        166.6055             -200               0             -200               0
1.15182              -0.04049413       -11.97063         -72.4819        169.0696             -200               0             -200               0
1.15842              -0.04198404       -12.07562        -70.82603        168.9393             -200               0             -200               0
1.16502              -0.04354281       -12.18117        -69.35549        167.1991             -200               0             -200               0
1.17162              -0.04516501       -12.28726        -68.04853        164.4288             -200               0             -200               0
1.17822              -0.04684388       -12.39388        -66.88038        160.9754             -200               0             -200               0
1.18482              -0.04857133       -12.50101        -65.82936        157.0537             -200               0             -200               0
1.19142              -0.05033956       -12.60866        -64.87776        152.8025             -200               0             -200               0
1.19802              -0.05214074       -12.71685        -64.01139        148.3144             -200               0             -200               0
1.20462              -0.05396677       -12.82559        -63.21892         143.654             -200               0             -200               0
1.21122              -0.05580969       -12.93493        -62.49122        138.8672             -200               0             -200               0
1.21782              -0.05766218        -13.0449        -61.82092        133.9879             -200               0             -200               0
1.22442              -0.05951863       -13.15556        -61.20199        129.0419             -200               0             -200               0
1.23102              -0.06137205       -13.26697        -60.62943        124.0489             -200               0             -200               0
1.23762              -0.06322052       -13.37919         -60.0991        119.0249             -200               0             -200               0
1.24422              -0.06506108       -13.49231        -59.60752        113.9826             -200               0             -200               0
1.25083               -0.0668897       -13.60639        -59.15172        108.9329             -200               0             -200               0
1.25743              -0.06870935       -13.72153        -58.72919         103.885             -200               0             -200               0
1.26403              -0.07052049        -13.8378        -58.33777        98.84702             -200               0             -200               0
1.27063              -0.07232815       -13.95528        -57.97558         93.8262             -200               0             -200               0
1.27723              -0.07413632       -14.07406        -57.64098        88.82927             -200               0             -200               0
1.28383              -0.07595083        -14.1942        -57.33252        83.86257             -200               0             -200               0
1.29043              -0.07778273       -14.31577        -57.04892         78.9322             -200               0             -200               0
1.29703              -0.07963869       -14.43885        -56.78903        74.04415             -200               0             -200               0
1.30363              -0.08152929       -14.56347         -56.5518        69.20442             -200               0             -200               0
1.31023              -0.08346704       -14.68969        -56.33624        64.41907             -200               0             -200               0
1.31683               -0.0854618       -14.81753        -56.14145        59.69432             -200               0             -200               0
1.32343              -0.08752717       -14.94703        -55.96654        55.03662             -200               0             -200               0
1.33003              -0.08967426        -15.0782        -55.81064        50.45269             -200               0             -200               0
1.33663              -0.09191529       -15.21104        -55.67285        45.94954             -200               0             -200               0
1.34323              -0.09426045       -15.34553        -55.55226        41.53454             -200               0             -200               0
1.34984              -0.09672265       -15.48167         -55.4479         37.2154             -200               0             -200               0
1.35644              -0.09930821       -15.61942         -55.3587        33.00018             -200               0             -200               0
1.36304               -0.1020271       -15.75877        -55.28348        28.89723             -200               0             -200               0
1.36964               -0.1048855       -15.89966        -55.22089        24.91513             -200               0             -200               0
1.37624               -0.1078888       -16.04205        -55.16945        21.06259             -200               0             -200               0
1.38284               -0.1110396       -16.18591        -55.12741        17.34823             -200               0             -200               0
1.38944               -0.1143407       -16.33119        -55.09279        13.78035             -200               0             -200               0
1.39604               -0.1177923       -16.47785        -55.06336        10.36661             -200               0             -200               0
1.40264                -0.121391       -16.62585        -55.03653         7.11359             -200               0             -200               0
1.40924               -0.1251356       -16.77516        -55.00945        4.026273             -200               0             -200               0
1.41584               -0.1290214       -16.92576        -54.97894        1.107437             -200               0             -200               0
1.42244               -0.1330416       -17.07763        -54.94156       -1.643011             -200               0             -200               0
1.42904               -0.1371896       -17.23076        -54.89365       -4.228733             -200               0             -200               0
1.43564               -0.1414587       -17.38518         -54.8315       -6.657571             -200               0             -200               0
1.44224               -0.1458397       -17.54089        -54.75139       -8.942034             -200               0             -200               0
1.44884               -0.1503251       -17.69794        -54.64986       -11.09951             -200               0             -200               0
1.45545               -0.1549064       -17.85637        -54.52386       -13.15213             -200               0             -200               0
1.46205               -0.1595783       -18.01625        -54.37096       -15.12618             -200               0             -200               0
1.46865               -0.1643315       -18.17765        -54.18951        -17.0511             -200               0             -200               0
1.47525                -0.169162       -18.34066        -53.97877       -18.95813             -200               0             -200               0
1.48185               -0.1740647       -18.50538        -53.73896       -20.87871             -200               0             -200               0
1.48845               -0.1790409       -18.67193        -53.47123       -22.84286             -200               0             -200               0
1.49505               -0.1840866       -18.84042        -53.17756       -24.87776             -200               0             -200               0
1.50165               -0.1892069       -19.01097        -52.86057       -27.00661             -200               0             -200               0
1.50825               -0.1944043       -19.18371        -52.52337       -29.24795             -200               0             -200               0
1.51485               -0.1996859       -19.35879        -52.16933       -31.61541             -200               0             -200               0
1.52145               -0.2050617       -19.53631        -51.80189       -34.11782             -200               0             -200               0
1.52805               -0.2105432       -19.71641        -51.42445       -36.75968             -200               0             -200               0
1.53465               -0.2161446       -19.89922        -51.04018       -39.54166             -200               0             -200               0
1.54125                -0.221881       -20.08483          -50.652        -42.4614             -200               0             -200               0
1.54785               -0.2277719       -20.27338        -50.26253       -45.51409             -200               0             -200               0
1.55446               -0.2338354       -20.46493        -49.87404       -48.69315             -200               0             -200               0
1.56106               -0.2400932       -20.65957        -49.48848       -51.99077             -200               0             -200               0
1.56766               -0.2465673       -20.85738        -49.10748       -55.39838             -200               0             -200               0
1.57426               -0.2532818       -21.05839        -48.73239       -58.90697             -200               0             -200               0
1.58086               -0.2602597       -21.26266         -48.3643        -62.5074             -200               0             -200               0
1.58746                -0.267523       -21.47018        -48.00407       -66.19059             -200               0             -200               0
1.59406               -0.2750952       -21.68098        -47.65238       -69.94767             -200               0             -200               0
1.60066               -0.2829988       -21.89504        -47.30971       -73.77006             -200               0             -200               0
1.60726               -0.2912534       -22.11234        -46.97642       -77.64955             -200               0             -200               0
1.61386                -0.299879       -22.33285        -46.65273       -81.57831             -200               0             -200               0
1.62046               -0.3088925       -22.55653        -46.33875       -85.54892             -200               0             -200               0
1.62706               -0.3183103       -22.78333         -46.0345       -89.55435             -200               0             -200               0
1.63366               -0.3281449        -23.0132        -45.73994       -93.58798             -200               0             -200               0
1.64026               -0.3384076       -23.24608        -45.45493       -97.64354             -200               0             -200               0
1.64686               -0.3491074       -23.48192        -45.17928       -101.7151             -200               0             -200               0
1.65347               -0.3602507       -23.72066        -44.91276       -105.7972             -200               0             -200               0
1.66007               -0.3718415       -23.96228        -44.65507       -109.8846             -200               0             -200               0
1.66667               -0.3838813       -24.20673        -44.40588       -113.9723             -200               0             -200               0
1.67327               -0.3963707         -24.454         -44.1648       -118.0557             -200               0             -200               0
1.67987               -0.4093085       -24.70408        -43.93142       -122.1306             -200               0             -200               0
1.68647               -0.4226918       -24.95698        -43.70527       -126.1928             -200               0             -200               0
1.69307               -0.4365175       -25.21273        -43.48585       -130.2388             -200               0             -200               0
1.69967               -0.4507812       -25.47139        -43.27263       -134.2649             -200               0             -200               0
1.70627               -0.4654792       -25.73303        -43.06503       -138.2683             -200               0             -200               0
1.71287               -0.4806095       -25.99775        -42.86245        -142.246             -200               0             -200               0
1.71947                 -0.49617       -26.26565        -42.66425       -146.1958             -200               0             -200               0
1.72607               -0.5121583       -26.53689        -42.46974       -150.1154             -200               0             -200               0
1.73267               -0.5285777       -26.81162        -42.27822       -154.0035             -200               0             -200               0
1.73927               -0.5454332       -27.09003        -42.08898       -157.8586             -200               0             -200               0
1.74587               -0.5627314        -27.3723        -41.90125       -161.6802             -200               0             -200               0
1.75248               -0.5804832       -27.65865        -41.71427        -165.468             -200               0             -200               0
1.75908               -0.5987028       -27.94931        -41.52728       -169.2223             -200               0             -200               0
1.76568               -0.6174103       -28.24452        -41.33951       -172.9441             -200               0             -200               0
1.77228               -0.6366286        -28.5445        -41.15019       -176.6347             -200               0             -200               0
1.77888               -0.6563853       -28.84951        -40.95858        179.7039             -200               0             -200               0
1.78548               -0.6767123       -29.15978        -40.76399         176.069             -200               0             -200               0
1.79208                -0.697647       -29.47558        -40.56575        172.4576             -200               0             -200               0
1.79868               -0.7192304       -29.79711        -40.36326        168.8659             -200               0             -200               0
1.80528               -0.7415084       -30.12461        -40.15599        165.2898             -200               0             -200               0
1.81188                 -0.76453       -30.45829        -39.94347        161.7248             -200               0             -200               0
1.81848               -0.7883494       -30.79835        -39.72534        158.1659             -200               0             -200               0
1.82508               -0.8130236       -31.14495        -39.50133         154.608             -200               0             -200               0
1.83168               -0.8386119       -31.49826        -39.27126        151.0457             -200               0             -200               0
1.83828                -0.865178       -31.85841        -39.03507        147.4737             -200               0             -200               0
1.84488               -0.8927855       -32.22552        -38.79279        143.8865             -200               0             -200               0
1.85149               -0.9215025       -32.59968        -38.54455        140.2789             -200               0             -200               0
