! TOUCHSTONE file generated by CST MICROWAVE STUDIO
! Date and time: Tue Mar 18 00:00:46 2025
! Project name: oblique.cst
! Parameters = {Tilt=30; Fracture=1; B=10; D=160; F=5; Feed=2.85625; L=100; M=50; R=0.384908; S=1; Theta=270; length=57.125; wave=114.25}
! Header version: 2024
! Port assignment regex: !\s*Touchstone port\s*([0-9]+)\s*=\s*(CST MWS port|CST DES external port|CST DES block port)\s*(.+)\s* \(\"(.*)\"\)(\s*mode\s*([0-9]+))?.*
! Touchstone port assignment:
! Touchstone port 1 = CST MWS port 1 ("")
! Touchstone port 2 = CST MWS port 2 ("")
# GHz S DB R 50
1                    -0.02175245       -9.788209        -67.76617        172.8544             -200               0             -200               0
1.00658              -0.02245482       -9.875064        -67.69646        167.7712             -200               0             -200               0
1.01316              -0.02316023       -9.962535         -67.6545        162.7827             -200               0             -200               0
1.01974              -0.02387058       -10.05065        -67.64023        157.8984             -200               0             -200               0
1.02632              -0.02458846       -10.13945        -67.65359        153.1296             -200               0             -200               0
1.03289              -0.02531738       -10.22894        -67.69458        148.4891             -200               0             -200               0
1.03947              -0.02606054       -10.31916        -67.76315        143.9923             -200               0             -200               0
1.04605              -0.02682219       -10.41012        -67.85915        139.6569             -200               0             -200               0
1.05263              -0.02760613       -10.50183         -67.9823        135.5037             -200               0             -200               0
1.05921              -0.02841695       -10.59431        -68.13202        131.5569             -200               0             -200               0
1.06579              -0.02925908       -10.68757        -68.30733        127.8444             -200               0             -200               0
1.07237              -0.03013724        -10.7816        -68.50662        124.3985             -200               0             -200               0
1.07895              -0.03105524       -10.87641        -68.72741        121.2554             -200               0             -200               0
1.08553              -0.03201636         -10.972        -68.96597        118.4557             -200               0             -200               0
1.09211              -0.03302512       -11.06834         -69.2169        116.0427             -200               0             -200               0
1.09868              -0.03408453       -11.16544        -69.47265        114.0602             -200               0             -200               0
1.10526              -0.03519775       -11.26327        -69.72297        112.5487             -200               0             -200               0
1.11184              -0.03636582       -11.36183        -69.95454        111.5382             -200               0             -200               0
1.11842              -0.03759049       -11.46109          -70.151        111.0389             -200               0             -200               0
1.125                -0.03887336       -11.56103        -70.29364        111.0305             -200               0             -200               0
1.13158              -0.04021306       -11.66165        -70.36314        111.4514             -200               0             -200               0
1.13816              -0.04161024       -11.76291        -70.34231        112.1939             -200               0             -200               0
1.14474              -0.04306384       -11.86481        -70.21934        113.1099             -200               0             -200               0
1.15132              -0.04457083       -11.96733        -69.99045        114.0285             -200               0             -200               0
1.15789              -0.04612895       -12.07046        -69.66081         114.781             -200               0             -200               0
1.16447              -0.04773494        -12.1742        -69.24323        115.2257             -200               0             -200               0
1.17105              -0.04938675       -12.27854        -68.75531        115.2635             -200               0             -200               0
1.17763              -0.05107978       -12.38348        -68.21626        114.8413             -200               0             -200               0
1.18421              -0.05281015       -12.48904        -67.64425        113.9452             -200               0             -200               0
1.19079              -0.05457387       -12.59522         -67.0549        112.5907             -200               0             -200               0
1.19737               -0.0563672       -12.70204        -66.46073        110.8107             -200               0             -200               0
1.20395              -0.05818581       -12.80952        -65.87125        108.6474             -200               0             -200               0
1.21053              -0.06002711        -12.9177        -65.29332        106.1457             -200               0             -200               0
1.21711              -0.06188677        -13.0266        -64.73175        103.3496             -200               0             -200               0
1.22368              -0.06376357       -13.13626        -64.18972        100.2998             -200               0             -200               0
1.23026              -0.06565329       -13.24672        -63.66924         97.0332             -200               0             -200               0
1.23684              -0.06755601       -13.35803        -63.17145        93.58258             -200               0             -200               0
1.24342              -0.06947034       -13.47022        -62.69689        89.97668             -200               0             -200               0
1.25                 -0.07139704       -13.58335        -62.24569        86.24066             -200               0             -200               0
1.25658              -0.07333585       -13.69747        -61.81767        82.39654             -200               0             -200               0
1.26316              -0.07528892       -13.81262        -61.41249        78.46364             -200               0             -200               0
1.26974              -0.07725895       -13.92886        -61.02967        74.45895             -200               0             -200               0
1.27632              -0.07924818       -14.04622        -60.66864        70.39754             -200               0             -200               0
1.28289              -0.08126098       -14.16475        -60.32881        66.29287             -200               0             -200               0
1.28947              -0.08330068        -14.2845        -60.00956        62.15709             -200               0             -200               0
1.29605              -0.08537394       -14.40551        -59.71023        58.00123             -200               0             -200               0
1.30263              -0.08748381        -14.5278        -59.43019        53.83544             -200               0             -200               0
1.30921              -0.08963782        -14.6514         -59.1688        49.66917             -200               0             -200               0
1.31579              -0.09184125       -14.77635        -58.92538        45.51129             -200               0             -200               0
1.32237              -0.09409771       -14.90266        -58.69929        41.37022             -200               0             -200               0
1.32895              -0.09641597       -15.03036        -58.48985        37.25403             -200               0             -200               0
1.33553               -0.0988006       -15.15944        -58.29636        33.17053             -200               0             -200               0
1.34211               -0.1012558       -15.28994         -58.1181        29.12732             -200               0             -200               0
1.34868               -0.1037862       -15.42185        -57.95429        25.13187             -200               0             -200               0
1.35526               -0.1063976       -15.55516        -57.80413        21.19151             -200               0             -200               0
1.36184               -0.1090927        -15.6899        -57.66673        17.31345             -200               0             -200               0
1.36842               -0.1118754       -15.82605        -57.54112        13.50477             -200               0             -200               0
1.375                 -0.1147477       -15.96362        -57.42626        9.772417             -200               0             -200               0
1.38158                -0.117712       -16.10261        -57.32098        6.123084             -200               0             -200               0
1.38816               -0.1207677       -16.24302        -57.22399        2.563171             -200               0             -200               0
1.39474               -0.1239161       -16.38485        -57.13388      -0.9013692             -200               0             -200               0
1.40132                -0.127158       -16.52812        -57.04909        -4.26518             -200               0             -200               0
1.40789               -0.1304926       -16.67284        -56.96788       -7.523698             -200               0             -200               0
1.41447               -0.1339165       -16.81902         -56.8884       -10.67339             -200               0             -200               0
1.42105               -0.1374313       -16.96668        -56.80862       -13.71202             -200               0             -200               0
1.42763               -0.1410327       -17.11586         -56.7264       -16.63891             -200               0             -200               0
1.43421               -0.1447216       -17.26659         -56.6395       -19.45525             -200               0             -200               0
1.44079               -0.1484956        -17.4189        -56.54561       -22.16436             -200               0             -200               0
1.44737               -0.1523525       -17.57285        -56.44244        -24.7719             -200               0             -200               0
1.45395               -0.1562928       -17.72849        -56.32775       -27.28602             -200               0             -200               0
1.46053               -0.1603156       -17.88588        -56.19946       -29.71738             -200               0             -200               0
1.46711               -0.1644217       -18.04508        -56.05575       -32.07904             -200               0             -200               0
1.47368                -0.168611       -18.20617        -55.89508       -34.38616             -200               0             -200               0
1.48026               -0.1728868       -18.36921        -55.71633       -36.65563             -200               0             -200               0
1.48684               -0.1772524       -18.53429        -55.51882       -38.90542             -200               0             -200               0
1.49342               -0.1817113       -18.70148        -55.30238         -41.154             -200               0             -200               0
1.5                   -0.1862691       -18.87087        -55.06728       -43.41957             -200               0             -200               0
1.50658               -0.1909338       -19.04253        -54.81429       -45.71942             -200               0             -200               0
1.51316               -0.1957096       -19.21656        -54.54458       -48.06932             -200               0             -200               0
1.51974               -0.2006084       -19.39302        -54.25965       -50.48302             -200               0             -200               0
1.52632               -0.2056394       -19.57201        -53.96127       -52.97197             -200               0             -200               0
1.53289               -0.2108137       -19.75358        -53.65137       -55.54516             -200               0             -200               0
1.53947               -0.2161413       -19.93781        -53.33199       -58.20904             -200               0             -200               0
1.54605               -0.2216366       -20.12478        -53.00515       -60.96775             -200               0             -200               0
1.55263               -0.2273125       -20.31452        -52.67285       -63.82321             -200               0             -200               0
1.55921               -0.2331822       -20.50711        -52.33697       -66.77544             -200               0             -200               0
1.56579                 -0.23926       -20.70257        -51.99925       -69.82287             -200               0             -200               0
1.57237               -0.2455591       -20.90097         -51.6613       -72.96255             -200               0             -200               0
1.57895               -0.2520954       -21.10232        -51.32454       -76.19054             -200               0             -200               0
1.58553               -0.2588807       -21.30667        -50.99022       -79.50209             -200               0             -200               0
1.59211                -0.265929       -21.51403        -50.65943       -82.89185             -200               0             -200               0
1.59868               -0.2732549       -21.72443         -50.3331       -86.35413             -200               0             -200               0
1.60526               -0.2808679       -21.93788          -50.012       -89.88299             -200               0             -200               0
1.61184               -0.2887817        -22.1544        -49.69677       -93.47238             -200               0             -200               0
1.61842               -0.2970075       -22.37401         -49.3879       -97.11624             -200               0             -200               0
1.625                 -0.3055539       -22.59671         -49.0858       -100.8086             -200               0             -200               0
1.63158               -0.3144302       -22.82252        -48.79076       -104.5436             -200               0             -200               0
1.63816                -0.323647       -23.05146        -48.50297       -108.3154             -200               0             -200               0
1.64474               -0.3332094       -23.28356        -48.22254       -112.1187             -200               0             -200               0
1.65132               -0.3431243       -23.51883        -47.94952        -115.948             -200               0             -200               0
1.65789               -0.3533995       -23.75733        -47.68388       -119.7982             -200               0             -200               0
1.66447               -0.3640413       -23.99909        -47.42552       -123.6645             -200               0             -200               0
1.67105               -0.3750533       -24.24416        -47.17429       -127.5422             -200               0             -200               0
1.67763               -0.3864425       -24.49261        -46.93001       -131.4268             -200               0             -200               0
1.68421               -0.3982147       -24.74452        -46.69241       -135.3142             -200               0             -200               0
1.69079               -0.4103776       -24.99996        -46.46122       -139.2005             -200               0             -200               0
1.69737               -0.4229347       -25.25903        -46.23608       -143.0819             -200               0             -200               0
1.70395               -0.4358959       -25.52185        -46.01662        -146.955             -200               0             -200               0
1.71053               -0.4492706       -25.78852        -45.80243       -150.8166             -200               0             -200               0
1.71711               -0.4630701       -26.05919        -45.59305       -154.6639             -200               0             -200               0
1.72368               -0.4773047       -26.33399        -45.38799       -158.4942             -200               0             -200               0
1.73026               -0.4919903       -26.61308        -45.18673       -162.3054             -200               0             -200               0
1.73684                -0.507143        -26.8966        -44.98873       -166.0954             -200               0             -200               0
1.74342               -0.5227816       -27.18473        -44.79339       -169.8626             -200               0             -200               0
1.75                  -0.5389274       -27.47764        -44.60013        -173.606             -200               0             -200               0
1.75658               -0.5556043        -27.7755        -44.40831       -177.3246             -200               0             -200               0
1.76316               -0.5728402       -28.07849        -44.21732        178.9818             -200               0             -200               0
1.76974               -0.5906642       -28.38679        -44.02649        175.3132             -200               0             -200               0
1.77632                -0.609109       -28.70059        -43.83521         171.669             -200               0             -200               0
1.78289               -0.6282094       -29.02005        -43.64282        168.0483             -200               0             -200               0
1.78947               -0.6480056       -29.34534        -43.44871        164.4494             -200               0             -200               0
1.79605               -0.6685385       -29.67664         -43.2523        160.8705             -200               0             -200               0
1.80263               -0.6898515       -30.01411        -43.05302         157.309             -200               0             -200               0
1.80921               -0.7119922       -30.35789        -42.85036        153.7622             -200               0             -200               0
1.81579               -0.7350094       -30.70813        -42.64386        150.2266             -200               0             -200               0
1.82237               -0.7589547       -31.06497        -42.43312        146.6988             -200               0             -200               0
1.82895               -0.7838826       -31.42852        -42.21781        143.1747             -200               0             -200               0
1.83553               -0.8098481        -31.7989        -41.99767        139.6501             -200               0             -200               0
1.84211               -0.8369107       -32.17622        -41.77253        136.1207             -200               0             -200               0
1.84868               -0.8651277       -32.56055         -41.5423         132.582             -200               0             -200               0
