! TOUCHSTONE file generated by CST MICROWAVE STUDIO
! Date and time: Tue Mar 18 00:01:33 2025
! Project name: oblique.cst
! Parameters = {Tilt=30; Fracture=1; B=12.5; D=160; F=15; Feed=2.85625; L=100; M=30; R=0.384908; S=1; Theta=90; length=57.125; wave=114.25}
! Header version: 2024
! Port assignment regex: !\s*Touchstone port\s*([0-9]+)\s*=\s*(CST MWS port|CST DES external port|CST DES block port)\s*(.+)\s* \(\"(.*)\"\)(\s*mode\s*([0-9]+))?.*
! Touchstone port assignment:
! Touchstone port 1 = CST MWS port 1 ("")
! Touchstone port 2 = CST MWS port 2 ("")
# GHz S DB R 50
1                    -0.02228547       -9.780936        -65.58897          171.97             -200               0             -200               0
1.0066               -0.02292415       -9.866779        -65.66112         165.804             -200               0             -200               0
1.0132               -0.02353582       -9.953255        -65.77253        159.7237             -200               0             -200               0
1.0198               -0.02412269       -10.04042        -65.92551        153.7347             -200               0             -200               0
1.0264               -0.02468852       -10.12834        -66.12295         147.845             -200               0             -200               0
1.033                -0.02523713       -10.21706        -66.36832        142.0655             -200               0             -200               0
1.0396                -0.0257751       -10.30662        -66.66593         136.411             -200               0             -200               0
1.0462               -0.02630907       -10.39708        -67.02102        130.9018             -200               0             -200               0
1.05281              -0.02684638       -10.48847        -67.44009        125.5654             -200               0             -200               0
1.05941               -0.0273951       -10.58081        -67.93122          120.44             -200               0             -200               0
1.06601              -0.02796356       -10.67413         -68.5045        115.5794             -200               0             -200               0
1.07261              -0.02856127       -10.76843        -69.17259        111.0612             -200               0             -200               0
1.07921              -0.02919544       -10.86372        -69.95144        107.0006             -200               0             -200               0
1.08581              -0.02987612          -10.96        -70.86085        103.5742             -200               0             -200               0
1.09241              -0.03061047       -11.05724        -71.92438        101.0635             -200               0             -200               0
1.09901              -0.03140594       -11.15543        -73.16623         99.9334             -200               0             -200               0
1.10561              -0.03226863       -11.25453        -74.59759        100.9728             -200               0             -200               0
1.11221              -0.03320422       -11.35452        -76.16895        105.4906             -200               0             -200               0
1.11881              -0.03421707       -11.45535        -77.63704        115.2485             -200               0             -200               0
1.12541              -0.03531006       -11.55698        -78.38955        130.7243             -200               0             -200               0
1.13201              -0.03648467       -11.65937        -77.82258        147.6302             -200               0             -200               0
1.13861              -0.03774125       -11.76247        -76.22642        159.9964             -200               0             -200               0
1.14521              -0.03907861       -11.86624        -74.31712        166.6073             -200               0             -200               0
1.15182              -0.04049399       -11.97064        -72.48092        169.0702             -200               0             -200               0
1.15842              -0.04198391       -12.07563        -70.82523        168.9394             -200               0             -200               0
1.16502              -0.04354271       -12.18118        -69.35483        167.1989             -200               0             -200               0
1.17162              -0.04516487       -12.28727        -68.04796        164.4286             -200               0             -200               0
1.17822              -0.04684374       -12.39388         -66.8799        160.9751             -200               0             -200               0
1.18482              -0.04857071       -12.50101        -65.82895        157.0535             -200               0             -200               0
1.19142              -0.05033941       -12.60866         -64.8774        152.8022             -200               0             -200               0
1.19802              -0.05214063       -12.71685        -64.01107        148.3142             -200               0             -200               0
1.20462              -0.05396665       -12.82559        -63.21863        143.6538             -200               0             -200               0
1.21122              -0.05580954       -12.93493        -62.49096         138.867             -200               0             -200               0
1.21782              -0.05766206        -13.0449        -61.82069        133.9878             -200               0             -200               0
1.22442              -0.05951854       -13.15556        -61.20178        129.0417             -200               0             -200               0
1.23102              -0.06137252       -13.26697        -60.62924        124.0488             -200               0             -200               0
1.23762              -0.06322094       -13.37919        -60.09893        119.0248             -200               0             -200               0
1.24422              -0.06506045       -13.49231        -59.60736        113.9825             -200               0             -200               0
1.25083              -0.06688951        -13.6064        -59.15158        108.9329             -200               0             -200               0
1.25743              -0.06870916       -13.72154        -58.72907         103.885             -200               0             -200               0
1.26403               -0.0705203        -13.8378        -58.33766          98.847             -200               0             -200               0
1.27063              -0.07232793       -13.95529        -57.97547        93.82619             -200               0             -200               0
1.27723              -0.07413512       -14.07406        -57.64088        88.82927             -200               0             -200               0
1.28383              -0.07595114        -14.1942        -57.33243        83.86258             -200               0             -200               0
1.29043              -0.07778247       -14.31578        -57.04884        78.93222             -200               0             -200               0
1.29703               -0.0796384       -14.43885        -56.78895        74.04418             -200               0             -200               0
1.30363              -0.08152899       -14.56348        -56.55173        69.20445             -200               0             -200               0
1.31023              -0.08346671        -14.6897        -56.33618         64.4191             -200               0             -200               0
1.31683              -0.08546147       -14.81754        -56.14139        59.69436             -200               0             -200               0
1.32343              -0.08752727       -14.94704        -55.96649        55.03667             -200               0             -200               0
1.33003              -0.08967443       -15.07821        -55.81058        50.45273             -200               0             -200               0
1.33663              -0.09191545       -15.21104         -55.6728        45.94959             -200               0             -200               0
1.34323              -0.09426169       -15.34554        -55.55222        41.53459             -200               0             -200               0
1.34984              -0.09672281       -15.48168        -55.44786        37.21546             -200               0             -200               0
1.35644              -0.09930887       -15.61943        -55.35866        33.00023             -200               0             -200               0
1.36304               -0.1020282       -15.75878        -55.28344        28.89728             -200               0             -200               0
1.36964               -0.1048862       -15.89967        -55.22086        24.91519             -200               0             -200               0
1.37624               -0.1078894       -16.04206        -55.16941        21.06265             -200               0             -200               0
1.38284               -0.1110408       -16.18592        -55.12738        17.34828             -200               0             -200               0
1.38944               -0.1143424        -16.3312        -55.09277         13.7804             -200               0             -200               0
1.39604               -0.1177936       -16.47786        -55.06333        10.36666             -200               0             -200               0
1.40264               -0.1213934       -16.62586        -55.03651        7.113641             -200               0             -200               0
1.40924               -0.1251375       -16.77517        -55.00943        4.026321             -200               0             -200               0
1.41584               -0.1290238       -16.92577        -54.97892        1.107484             -200               0             -200               0
1.42244               -0.1330436       -17.07763        -54.94153        -1.64297             -200               0             -200               0
1.42904               -0.1371921       -17.23077        -54.89363       -4.228696             -200               0             -200               0
1.43564               -0.1414608       -17.38518        -54.83148        -6.65754             -200               0             -200               0
1.44224               -0.1458423       -17.54089        -54.75137       -8.942007             -200               0             -200               0
1.44884               -0.1503277       -17.69794        -54.64984       -11.09949             -200               0             -200               0
1.45545               -0.1549092       -17.85637        -54.52384       -13.15212             -200               0             -200               0
1.46205               -0.1595806       -18.01624        -54.37094       -15.12617             -200               0             -200               0
1.46865               -0.1643334       -18.17764        -54.18949        -17.0511             -200               0             -200               0
1.47525               -0.1691639       -18.34065        -53.97875       -18.95814             -200               0             -200               0
1.48185               -0.1740679       -18.50537        -53.73894       -20.87872             -200               0             -200               0
1.48845                -0.179043       -18.67192        -53.47122       -22.84288             -200               0             -200               0
1.49505               -0.1840893       -18.84041        -53.17755       -24.87778             -200               0             -200               0
1.50165               -0.1892091       -19.01096        -52.86056       -27.00664             -200               0             -200               0
1.50825               -0.1944065        -19.1837        -52.52336       -29.24799             -200               0             -200               0
1.51485               -0.1996884       -19.35877        -52.16932       -31.61545             -200               0             -200               0
1.52145               -0.2050641       -19.53629        -51.80189       -34.11787             -200               0             -200               0
1.52805               -0.2105447        -19.7164        -51.42444       -36.75972             -200               0             -200               0
1.53465               -0.2161455        -19.8992        -51.04017       -39.54171             -200               0             -200               0
1.54125               -0.2218812       -20.08482          -50.652       -42.46144             -200               0             -200               0
1.54785               -0.2277721       -20.27336        -50.26253       -45.51413             -200               0             -200               0
1.55446               -0.2338346       -20.46491        -49.87404       -48.69319             -200               0             -200               0
1.56106               -0.2400929       -20.65956        -49.48848       -51.99082             -200               0             -200               0
1.56766               -0.2465683       -20.85736        -49.10748       -55.39843             -200               0             -200               0
1.57426               -0.2532828       -21.05838        -48.73239       -58.90701             -200               0             -200               0
1.58086                -0.260259       -21.26264         -48.3643       -62.50744             -200               0             -200               0
1.58746               -0.2675234       -21.47016        -48.00407       -66.19063             -200               0             -200               0
1.59406               -0.2750956       -21.68096        -47.65238       -69.94771             -200               0             -200               0
1.60066               -0.2829984       -21.89502        -47.30972        -73.7701             -200               0             -200               0
1.60726                -0.291253       -22.11233        -46.97643       -77.64959             -200               0             -200               0
1.61386               -0.2998775       -22.33284        -46.65273       -81.57835             -200               0             -200               0
1.62046               -0.3088914       -22.55652        -46.33875       -85.54896             -200               0             -200               0
1.62706               -0.3183093       -22.78332        -46.03451       -89.55439             -200               0             -200               0
1.63366               -0.3281433       -23.01319        -45.73994       -93.58802             -200               0             -200               0
1.64026               -0.3384064       -23.24607        -45.45493       -97.64358             -200               0             -200               0
1.64686               -0.3491061       -23.48191        -45.17929       -101.7152             -200               0             -200               0
1.65347               -0.3602493       -23.72066        -44.91277       -105.7973             -200               0             -200               0
1.66007               -0.3718396       -23.96227        -44.65508       -109.8846             -200               0             -200               0
1.66667               -0.3838794       -24.20672        -44.40589       -113.9723             -200               0             -200               0
1.67327               -0.3963697         -24.454        -44.16481       -118.0557             -200               0             -200               0
1.67987                -0.409307       -24.70407        -43.93143       -122.1306             -200               0             -200               0
1.68647               -0.4226904       -24.95697        -43.70527       -126.1928             -200               0             -200               0
1.69307               -0.4365166       -25.21273        -43.48586       -130.2388             -200               0             -200               0
1.69967               -0.4507803       -25.47139        -43.27264        -134.265             -200               0             -200               0
1.70627               -0.4654781       -25.73303        -43.06504       -138.2683             -200               0             -200               0
1.71287               -0.4806084       -25.99775        -42.86246       -142.2461             -200               0             -200               0
1.71947               -0.4961684       -26.26565        -42.66425       -146.1958             -200               0             -200               0
1.72607               -0.5121571       -26.53689        -42.46974       -150.1155             -200               0             -200               0
1.73267               -0.5285773       -26.81162        -42.27823       -154.0035             -200               0             -200               0
1.73927               -0.5454325       -27.09003        -42.08898       -157.8586             -200               0             -200               0
1.74587               -0.5627304        -27.3723        -41.90125       -161.6802             -200               0             -200               0
1.75248               -0.5804821       -27.65865        -41.71428        -165.468             -200               0             -200               0
1.75908               -0.5987018       -27.94931        -41.52729       -169.2223             -200               0             -200               0
1.76568               -0.6174094       -28.24451        -41.33951       -172.9441             -200               0             -200               0
1.77228               -0.6366284       -28.54449        -41.15019       -176.6347             -200               0             -200               0
1.77888               -0.6563843        -28.8495        -40.95859        179.7039             -200               0             -200               0
1.78548               -0.6767112       -29.15978          -40.764         176.069             -200               0             -200               0
1.79208                -0.697646       -29.47557        -40.56576        172.4576             -200               0             -200               0
1.79868               -0.7192302       -29.79711        -40.36327        168.8659             -200               0             -200               0
1.80528               -0.7415068       -30.12461        -40.15599        165.2898             -200               0             -200               0
1.81188               -0.7645292       -30.45829        -39.94347        161.7248             -200               0             -200               0
1.81848               -0.7883483       -30.79834        -39.72534        158.1659             -200               0             -200               0
1.82508                -0.813022       -31.14494        -39.50133         154.608             -200               0             -200               0
1.83168               -0.8386106       -31.49826        -39.27126        151.0457             -200               0             -200               0
1.83828                -0.865176       -31.85841        -39.03507        147.4737             -200               0             -200               0
1.84488               -0.8927842       -32.22552        -38.79279        143.8865             -200               0             -200               0
1.85149               -0.9215009       -32.59968        -38.54456        140.2789             -200               0             -200               0
