! TOUCHSTONE file generated by CST MICROWAVE STUDIO
! Date and time: Tue Mar 18 00:01:48 2025
! Project name: oblique.cst
! Parameters = {Tilt=30; Fracture=1; B=12.5; D=160; F=25; Feed=2.85625; L=100; M=30; R=0.384908; S=2; Theta=270; length=57.125; wave=114.25}
! Header version: 2024
! Port assignment regex: !\s*Touchstone port\s*([0-9]+)\s*=\s*(CST MWS port|CST DES external port|CST DES block port)\s*(.+)\s* \(\"(.*)\"\)(\s*mode\s*([0-9]+))?.*
! Touchstone port assignment:
! Touchstone port 1 = CST MWS port 1 ("")
! Touchstone port 2 = CST MWS port 2 ("")
# GHz S DB R 50
1                    -0.02145224       -9.791954        -66.81896        164.7324             -200               0             -200               0
1.00658              -0.02197476       -9.877982        -66.80755        159.2531             -200               0             -200               0
1.01316              -0.02246634       -9.964783        -66.82663        153.8861             -200               0             -200               0
1.01974              -0.02293151       -10.05242        -66.87666        148.6414             -200               0             -200               0
1.02632              -0.02337813       -10.14096        -66.95816        143.5318             -200               0             -200               0
1.03289              -0.02381453       -10.23046        -67.07175        138.5727             -200               0             -200               0
1.03947              -0.02424998       -10.32095        -67.21805         133.783             -200               0             -200               0
1.04605              -0.02469391       -10.41247        -67.39766        129.1855             -200               0             -200               0
1.05263              -0.02515806       -10.50505        -67.61104        124.8083             -200               0             -200               0
1.05921              -0.02565183        -10.5987        -67.85836         120.685             -200               0             -200               0
1.06579              -0.02618713       -10.69343        -68.13929        116.8568             -200               0             -200               0
1.07237              -0.02677347       -10.78921        -68.45265        113.3731             -200               0             -200               0
1.07895              -0.02742331       -10.88605         -68.7959        110.2924             -200               0             -200               0
1.08553              -0.02814586       -10.98391        -69.16438        107.6835             -200               0             -200               0
1.09211              -0.02894842       -11.08274        -69.55034        105.6235             -200               0             -200               0
1.09868              -0.02983801       -11.18251        -69.94162        104.1938             -200               0             -200               0
1.10526              -0.03082251       -11.28317        -70.32019        103.4707             -200               0             -200               0
1.11184              -0.03190314       -11.38465        -70.66106        103.5073             -200               0             -200               0
1.11842              -0.03308542        -11.4869        -70.93247        104.3072             -200               0             -200               0
1.125                -0.03437025       -11.58985        -71.09873         105.793             -200               0             -200               0
1.13158               -0.0357544       -11.69346        -71.12659        107.7854             -200               0             -200               0
1.13816              -0.03723712       -11.79765         -70.9941        110.0102             -200               0             -200               0
1.14474              -0.03881287       -11.90239        -70.69781         112.147             -200               0             -200               0
1.15132              -0.04047768       -12.00761        -70.25396        113.8993             -200               0             -200               0
1.15789              -0.04222388        -12.1133        -69.69292        115.0541             -200               0             -200               0
1.16447              -0.04404167        -12.2194        -69.05025        115.5018             -200               0             -200               0
1.17105               -0.0459256       -12.32592        -68.35932        115.2234             -200               0             -200               0
1.17763              -0.04786283       -12.43284        -67.64729        114.2593             -200               0             -200               0
1.18421              -0.04984453       -12.54017        -66.93419        112.6814             -200               0             -200               0
1.19079              -0.05186123       -12.64792        -66.23376        110.5716             -200               0             -200               0
1.19737              -0.05390214       -12.75613        -65.55484        108.0102             -200               0             -200               0
1.20395              -0.05595859       -12.86483        -64.90274        105.0698             -200               0             -200               0
1.21053              -0.05802285       -12.97409        -64.28038        101.8138             -200               0             -200               0
1.21711              -0.06008763       -13.08396        -63.68907        98.29595             -200               0             -200               0
1.22368              -0.06214664       -13.19452         -63.1291        94.56148             -200               0             -200               0
1.23026              -0.06419646       -13.30583        -62.60013        90.64831             -200               0             -200               0
1.23684              -0.06623405         -13.418        -62.10146        86.58821             -200               0             -200               0
1.24342              -0.06825911        -13.5311        -61.63219        82.40792             -200               0             -200               0
1.25                 -0.07027297       -13.64523         -61.1913        78.13009             -200               0             -200               0
1.25658              -0.07227793       -13.76047        -60.77776        73.77406             -200               0             -200               0
1.26316              -0.07428155       -13.87691        -60.39054        69.35648             -200               0             -200               0
1.26974              -0.07628786       -13.99464        -60.02868        64.89187             -200               0             -200               0
1.27632              -0.07830789       -14.11372        -59.69122        60.39306             -200               0             -200               0
1.28289              -0.08035026       -14.23422        -59.37729         55.8715             -200               0             -200               0
1.28947              -0.08242686       -14.35621        -59.08606        51.33755             -200               0             -200               0
1.29605              -0.08454851       -14.47972        -58.81676        46.80078             -200               0             -200               0
1.30263              -0.08673039       -14.60479        -58.56866        42.27009             -200               0             -200               0
1.30921               -0.0889839       -14.73144        -58.34106        37.75394             -200               0             -200               0
1.31579              -0.09132411       -14.85969        -58.13331        33.26045             -200               0             -200               0
1.32237              -0.09376242       -14.98952        -57.94477        28.79756             -200               0             -200               0
1.32895              -0.09631114       -15.12092         -57.7748         24.3731             -200               0             -200               0
1.33553              -0.09898266       -15.25387        -57.62277        19.99491             -200               0             -200               0
1.34211               -0.1017865       -15.38833        -57.48804        15.67091             -200               0             -200               0
1.34868               -0.1047313       -15.52425        -57.36992        11.40913             -200               0             -200               0
1.35526               -0.1078245       -15.66159        -57.26768        7.217836             -200               0             -200               0
1.36184                -0.111071       -15.80028        -57.18051        3.105473             -200               0             -200               0
1.36842               -0.1144741       -15.94027        -57.10753       -0.919263             -200               0             -200               0
1.375                  -0.118035        -16.0815        -57.04772       -4.847463             -200               0             -200               0
1.38158               -0.1217528       -16.22391        -56.99993       -8.670045             -200               0             -200               0
1.38816               -0.1256249       -16.36745        -56.96283       -12.37785             -200               0             -200               0
1.39474               -0.1296461       -16.51207        -56.93487       -15.96177             -200               0             -200               0
1.40132               -0.1338103       -16.65775         -56.9143       -19.41298             -200               0             -200               0
1.40789               -0.1381103       -16.80444        -56.89906       -22.72318             -200               0             -200               0
1.41447               -0.1425355       -16.95214        -56.88684       -25.88501             -200               0             -200               0
1.42105               -0.1470772       -17.10085        -56.87498       -28.89246             -200               0             -200               0
1.42763               -0.1517249       -17.25058        -56.86056       -31.74145             -200               0             -200               0
1.43421               -0.1564673       -17.40136        -56.84036       -34.43043             -200               0             -200               0
1.44079                -0.161294       -17.55324        -56.81091       -36.96107             -200               0             -200               0
1.44737               -0.1661966       -17.70628        -56.76864       -39.33882             -200               0             -200               0
1.45395               -0.1711638       -17.86055        -56.70991       -41.57354             -200               0             -200               0
1.46053               -0.1761896       -18.01615        -56.63124       -43.67975             -200               0             -200               0
1.46711               -0.1812682       -18.17318        -56.52946       -45.67668             -200               0             -200               0
1.47368               -0.1863945       -18.33176         -56.4019       -47.58793             -200               0             -200               0
1.48026               -0.1915675         -18.492         -56.2466       -49.44067             -200               0             -200               0
1.48684               -0.1967873       -18.65403        -56.06239       -51.26453             -200               0             -200               0
1.49342               -0.2020578       -18.81798        -55.84903       -53.09009             -200               0             -200               0
1.5                   -0.2073835         -18.984        -55.60722       -54.94738             -200               0             -200               0
1.50658               -0.2127739       -19.15221        -55.33847       -56.86432             -200               0             -200               0
1.51316                -0.218239       -19.32274        -55.04505       -58.86557             -200               0             -200               0
1.51974               -0.2237932       -19.49572        -54.72978       -60.97155             -200               0             -200               0
1.52632               -0.2294509       -19.67125        -54.39583       -63.19804             -200               0             -200               0
1.53289                -0.235231       -19.84944        -54.04654       -65.55609             -200               0             -200               0
1.53947                -0.241151       -20.03038        -53.68527       -68.05229             -200               0             -200               0
1.54605                -0.247233       -20.21414        -53.31525       -70.68925             -200               0             -200               0
1.55263               -0.2534973       -20.40077        -52.93948       -73.46624             -200               0             -200               0
1.55921               -0.2599655       -20.59033        -52.56069       -76.37982             -200               0             -200               0
1.56579               -0.2666611       -20.78283        -52.18129        -79.4245             -200               0             -200               0
1.57237               -0.2736043       -20.97827        -51.80336       -82.59331             -200               0             -200               0
1.57895               -0.2808164       -21.17666        -51.42869       -85.87827             -200               0             -200               0
1.58553               -0.2883161       -21.37798        -51.05875       -89.27085             -200               0             -200               0
1.59211               -0.2961226       -21.58217        -50.69477       -92.76219             -200               0             -200               0
1.59868               -0.3042506        -21.7892        -50.33772       -96.34342             -200               0             -200               0
1.60526               -0.3127138       -21.99902        -49.98836       -100.0058             -200               0             -200               0
1.61184                -0.321524       -22.21155         -49.6473       -103.7408             -200               0             -200               0
1.61842               -0.3306894       -22.42675        -49.31495       -107.5403             -200               0             -200               0
1.625                 -0.3402147       -22.64455        -48.99162       -111.3965             -200               0             -200               0
1.63158               -0.3501046       -22.86488        -48.67749        -115.302             -200               0             -200               0
1.63816                -0.360358        -23.0877        -48.37266       -119.2497             -200               0             -200               0
1.64474               -0.3709731       -23.31297        -48.07711       -123.2332             -200               0             -200               0
1.65132               -0.3819454       -23.54065        -47.79078       -127.2461             -200               0             -200               0
1.65789               -0.3932692       -23.77075        -47.51354       -131.2826             -200               0             -200               0
1.66447               -0.4049348       -24.00327        -47.24521       -135.3373             -200               0             -200               0
1.67105               -0.4169347       -24.23824        -46.98555       -139.4051             -200               0             -200               0
1.67763               -0.4292579       -24.47571        -46.73427        -143.481             -200               0             -200               0
1.68421               -0.4418946       -24.71577        -46.49107       -147.5607             -200               0             -200               0
1.69079               -0.4548361       -24.95851         -46.2556       -151.6399             -200               0             -200               0
1.69737               -0.4680719       -25.20407        -46.02745       -155.7147             -200               0             -200               0
1.70395               -0.4815962        -25.4526        -45.80622       -159.7815             -200               0             -200               0
1.71053               -0.4954042       -25.70428        -45.59145       -163.8369             -200               0             -200               0
1.71711               -0.5094938        -25.9593        -45.38266       -167.8779             -200               0             -200               0
1.72368               -0.5238651       -26.21789        -45.17934       -171.9017             -200               0             -200               0
1.73026               -0.5385242       -26.48029        -44.98096       -175.9059             -200               0             -200               0
1.73684               -0.5534792       -26.74675        -44.78696       -179.8883             -200               0             -200               0
1.74342               -0.5687438       -27.01753        -44.59675        176.1528             -200               0             -200               0
1.75                  -0.5843355        -27.2929        -44.40973        172.2188             -200               0             -200               0
1.75658                -0.600277       -27.57314        -44.22527         168.311             -200               0             -200               0
1.76316               -0.6165956       -27.85853        -44.04275        164.4298             -200               0             -200               0
1.76974               -0.6333226       -28.14933        -43.86152        160.5757             -200               0             -200               0
1.77632               -0.6504953        -28.4458        -43.68094        156.7484             -200               0             -200               0
1.78289               -0.6681531        -28.7482        -43.50035        152.9474             -200               0             -200               0
1.78947               -0.6863437       -29.05676        -43.31913        149.1716             -200               0             -200               0
1.79605               -0.7051148       -29.37171        -43.13665        145.4195             -200               0             -200               0
1.80263               -0.7245166       -29.69324        -42.95234        141.6891             -200               0             -200               0
1.80921               -0.7446051       -30.02153        -42.76562        137.9782             -200               0             -200               0
1.81579                -0.765436       -30.35674        -42.57599        134.2839             -200               0             -200               0
1.82237               -0.7870688       -30.69899        -42.38299        130.6029             -200               0             -200               0
1.82895               -0.8095619       -31.04843         -42.1862        126.9319             -200               0             -200               0
1.83553               -0.8329754       -31.40511         -41.9853         123.267             -200               0             -200               0
1.84211               -0.8573696       -31.76912        -41.78002        119.6041             -200               0             -200               0
1.84868               -0.8828037       -32.14051        -41.57016         115.939             -200               0             -200               0
