! TOUCHSTONE file generated by CST MICROWAVE STUDIO
! Date and time: Tue Mar 18 00:02:24 2025
! Project name: oblique.cst
! Parameters = {Tilt=40; Fracture=1; B=10; D=160; F=25; Feed=2.85625; L=100; M=30; R=0.384908; S=1; Theta=270; length=57.125; wave=114.25}
! Header version: 2024
! Port assignment regex: !\s*Touchstone port\s*([0-9]+)\s*=\s*(CST MWS port|CST DES external port|CST DES block port)\s*(.+)\s* \(\"(.*)\"\)(\s*mode\s*([0-9]+))?.*
! Touchstone port assignment:
! Touchstone port 1 = CST MWS port 1 ("")
! Touchstone port 2 = CST MWS port 2 ("")
# GHz S DB R 50
1                    -0.02164442       -9.776706        -65.20999        165.3102             -200               0             -200               0
1.00658              -0.02216343         -9.8624        -65.29737        159.2446             -200               0             -200               0
1.01316              -0.02265448       -9.948842        -65.42321        153.2877             -200               0             -200               0
1.01974              -0.02312331       -10.03609        -65.58976        147.4494             -200               0             -200               0
1.02632               -0.0235747       -10.12421        -65.79973        141.7428             -200               0             -200               0
1.03289               -0.0240168       -10.21324        -66.05635        136.1854             -200               0             -200               0
1.03947               -0.0244584       -10.30322         -66.3635        130.8002             -200               0             -200               0
1.04605              -0.02490958       -10.39418        -66.72576        125.6182             -200               0             -200               0
1.05263              -0.02537749       -10.48614        -67.14857        120.6806             -200               0             -200               0
1.05921              -0.02587322       -10.57913        -67.63831        116.0437             -200               0             -200               0
1.06579              -0.02640552       -10.67313        -68.20232        111.7853             -200               0             -200               0
1.07237              -0.02698657       -10.76815        -68.84873        108.0141             -200               0             -200               0
1.07895              -0.02762305       -10.86416         -69.5857        104.8857             -200               0             -200               0
1.08553              -0.02832291       -10.96114        -70.41949        102.6246             -200               0             -200               0
1.09211              -0.02909502       -11.05906        -71.34961        101.5567             -200               0             -200               0
1.09868              -0.02994464       -11.15788        -72.35763        102.1441             -200               0             -200               0
1.10526              -0.03087844       -11.25755          -73.384         104.986             -200               0             -200               0
1.11184              -0.03189672       -11.35803        -74.29048          110.66             -200               0             -200               0
1.11842              -0.03300324       -11.45927        -74.83855        119.1855             -200               0             -200               0
1.125                -0.03419966       -11.56121        -74.77987        129.2666             -200               0             -200               0
1.13158              -0.03548234        -11.6638        -74.06806        138.5553             -200               0             -200               0
1.13816              -0.03685133         -11.767        -72.90842        145.2942             -200               0             -200               0
1.14474              -0.03830016       -11.87077        -71.56086        149.1424             -200               0             -200               0
1.15132              -0.03982541       -11.97508        -70.19665         150.578             -200               0             -200               0
1.15789              -0.04141922       -12.07988        -68.89623        150.2248             -200               0             -200               0
1.16447              -0.04307667       -12.18517        -67.68791        148.5943             -200               0             -200               0
1.17105              -0.04478816       -12.29093        -66.57614        146.0539             -200               0             -200               0
1.17763              -0.04654497       -12.39717        -65.55591        142.8585             -200               0             -200               0
1.18421              -0.04833942       -12.50389        -64.61912        139.1843             -200               0             -200               0
1.19079              -0.05016193       -12.61113        -63.75731        135.1547             -200               0             -200               0
1.19737              -0.05200574        -12.7189        -62.96259        130.8579             -200               0             -200               0
1.20395              -0.05386416       -12.82726        -62.22802        126.3581             -200               0             -200               0
1.21053              -0.05572788       -12.93626        -61.54759         121.703             -200               0             -200               0
1.21711              -0.05759439       -13.04596        -60.91615         116.929             -200               0             -200               0
1.22368              -0.05945742       -13.15642        -60.32931         112.064             -200               0             -200               0
1.23026              -0.06131485       -13.26773        -59.78332        107.1301             -200               0             -200               0
1.23684              -0.06316625       -13.37995        -59.27494         102.145             -200               0             -200               0
1.24342              -0.06501128       -13.49318        -58.80142        97.12334             -200               0             -200               0
1.25                  -0.0668524       -13.60748        -58.36035        92.07714             -200               0             -200               0
1.25658              -0.06869445       -13.72295        -57.94965         87.0167             -200               0             -200               0
1.26316              -0.07054285       -13.83965         -57.5675        81.95096             -200               0             -200               0
1.26974              -0.07240437       -13.95766        -57.21231         76.8878             -200               0             -200               0
1.27632              -0.07428912       -14.07703        -56.88268        71.83432             -200               0             -200               0
1.28289              -0.07620443       -14.19784        -56.57735        66.79706             -200               0             -200               0
1.28947              -0.07816294       -14.32012        -56.29519        61.78215             -200               0             -200               0
1.29605              -0.08017383       -14.44391        -56.03521        56.79543             -200               0             -200               0
1.30263              -0.08225207       -14.56923        -55.79648        51.84259             -200               0             -200               0
1.30921              -0.08440829       -14.69611        -55.57814        46.92924             -200               0             -200               0
1.31579              -0.08665566       -14.82454        -55.37941        42.06098             -200               0             -200               0
1.32237              -0.08900358       -14.95452        -55.19952        37.24346             -200               0             -200               0
1.32895              -0.09146345       -15.08602        -55.03774        32.48249             -200               0             -200               0
1.33553              -0.09404655       -15.21903        -54.89334        27.78401             -200               0             -200               0
1.34211              -0.09676048        -15.3535        -54.76557        23.15419             -200               0             -200               0
1.34868              -0.09961222        -15.4894        -54.65368        18.59939             -200               0             -200               0
1.35526               -0.1026085       -15.62667        -54.55685        14.12626             -200               0             -200               0
1.36184                -0.105751       -15.76527         -54.4742        9.741657             -200               0             -200               0
1.36842                -0.109043       -15.90514        -54.40478        5.452663             -200               0             -200               0
1.375                 -0.1124858       -16.04623        -54.34749        1.266539             -200               0             -200               0
1.38158               -0.1160761        -16.1885        -54.30115       -2.809361             -200               0             -200               0
1.38816               -0.1198111       -16.33192        -54.26437       -6.767702             -200               0             -200               0
1.39474               -0.1236851       -16.47642        -54.23561       -10.60133             -200               0             -200               0
1.40132               -0.1276931       -16.62201        -54.21312       -14.30348             -200               0             -200               0
1.40789               -0.1318258       -16.76866         -54.1949       -17.86806             -200               0             -200               0
1.41447               -0.1360776       -16.91637        -54.17873       -21.29001             -200               0             -200               0
1.42105               -0.1404368       -17.06515        -54.16215       -24.56568             -200               0             -200               0
1.42763               -0.1448946       -17.21503        -54.14246       -27.69329             -200               0             -200               0
1.43421               -0.1494428       -17.36604        -54.11676       -30.67348             -200               0             -200               0
1.44079               -0.1540715       -17.51824        -54.08202       -33.50975             -200               0             -200               0
1.44737               -0.1587727        -17.6717        -54.03514       -36.20893             -200               0             -200               0
1.45395               -0.1635402       -17.82649        -53.97308       -38.78152             -200               0             -200               0
1.46053               -0.1683663       -17.98272        -53.89295       -41.24181             -200               0             -200               0
1.46711               -0.1732507       -18.14048         -53.7922       -43.60783             -200               0             -200               0
1.47368               -0.1781885       -18.29988        -53.66876       -45.90089             -200               0             -200               0
1.48026               -0.1831806       -18.46105        -53.52114       -48.14493             -200               0             -200               0
1.48684               -0.1882307       -18.62411        -53.34853       -50.36552             -200               0             -200               0
1.49342               -0.1933423       -18.78918        -53.15089       -52.58877             -200               0             -200               0
1.5                   -0.1985239       -18.95639         -52.9289       -54.84011             -200               0             -200               0
1.50658               -0.2037859       -19.12587        -52.68394       -57.14313             -200               0             -200               0
1.51316               -0.2091392       -19.29772        -52.41796       -59.51872             -200               0             -200               0
1.51974                -0.214599       -19.47206        -52.13336       -61.98434             -200               0             -200               0
1.52632               -0.2201808       -19.64899        -51.83283        -64.5537             -200               0             -200               0
1.53289               -0.2259033        -19.8286        -51.51923       -67.23666             -200               0             -200               0
1.53947               -0.2317868       -20.01095        -51.19544       -70.03941             -200               0             -200               0
1.54605               -0.2378495       -20.19612        -50.86426       -72.96484             -200               0             -200               0
1.55263               -0.2441139       -20.38414        -50.52834       -76.01297             -200               0             -200               0
1.55921               -0.2506011       -20.57505        -50.19009       -79.18144             -200               0             -200               0
1.56579               -0.2573318       -20.76885        -49.85172       -82.46605             -200               0             -200               0
1.57237               -0.2643268       -20.96554        -49.51513       -85.86118             -200               0             -200               0
1.57895               -0.2716049       -21.16511          -49.182        -89.3602             -200               0             -200               0
1.58553               -0.2791851       -21.36752        -48.85375       -92.95583             -200               0             -200               0
1.59211               -0.2870829       -21.57274        -48.53158       -96.64036             -200               0             -200               0
1.59868               -0.2953117        -21.7807        -48.21649       -100.4059             -200               0             -200               0
1.60526               -0.3038866       -21.99136        -47.90928       -104.2447             -200               0             -200               0
1.61184                -0.312814       -22.20466         -47.6106       -108.1487             -200               0             -200               0
1.61842                -0.322101       -22.42052        -47.32095       -112.1105             -200               0             -200               0
1.625                  -0.331754        -22.6389        -47.04071       -116.1226             -200               0             -200               0
1.63158               -0.3417727       -22.85973        -46.77015       -120.1777             -200               0             -200               0
1.63816               -0.3521572       -23.08297        -46.50945       -124.2691             -200               0             -200               0
1.64474               -0.3629033       -23.30859         -46.2587       -128.3901             -200               0             -200               0
1.65132               -0.3740068       -23.53656        -46.01794       -132.5343             -200               0             -200               0
1.65789               -0.3854605       -23.76689        -45.78711       -136.6956             -200               0             -200               0
1.66447               -0.3972554       -23.99959        -45.56611        -140.868             -200               0             -200               0
1.67105               -0.4093828       -24.23471         -45.3548       -145.0459             -200               0             -200               0
1.67763                -0.421832        -24.4723        -45.15296       -149.2238             -200               0             -200               0
1.68421               -0.4345948       -24.71245        -44.96035       -153.3964             -200               0             -200               0
1.69079               -0.4476623       -24.95527        -44.77665       -157.5586             -200               0             -200               0
1.69737               -0.4610256        -25.2009        -44.60152       -161.7055             -200               0             -200               0
1.70395               -0.4746793        -25.4495        -44.43455       -165.8322             -200               0             -200               0
1.71053               -0.4886203       -25.70125         -44.2753       -169.9342             -200               0             -200               0
1.71711               -0.5028479       -25.95635        -44.12327       -174.0071             -200               0             -200               0
1.72368                -0.517364       -26.21503        -43.97789       -178.0467             -200               0             -200               0
1.73026               -0.5321761       -26.47753        -43.83855        177.9509             -200               0             -200               0
1.73684               -0.5472938       -26.74409        -43.70458        173.9896             -200               0             -200               0
1.74342               -0.5627331       -27.01498        -43.57525        170.0726             -200               0             -200               0
1.75                  -0.5785129       -27.29047        -43.44974         166.203             -200               0             -200               0
1.75658               -0.5946586       -27.57083        -43.32722        162.3835             -200               0             -200               0
1.76316               -0.6111977       -27.85632        -43.20675        158.6161             -200               0             -200               0
1.76974               -0.6281649       -28.14721        -43.08737        154.9025             -200               0             -200               0
1.77632               -0.6455993       -28.44375        -42.96805        151.2435             -200               0             -200               0
1.78289               -0.6635411       -28.74617        -42.84771        147.6394             -200               0             -200               0
1.78947               -0.6820392       -29.05473        -42.72527        144.0896             -200               0             -200               0
1.79605               -0.7011426        -29.3696        -42.59961        140.5926             -200               0             -200               0
1.80263               -0.7209047       -29.69098        -42.46962        137.1461             -200               0             -200               0
1.80921               -0.7413817       -30.01904        -42.33421        133.7467             -200               0             -200               0
1.81579               -0.7626306       -30.35393        -42.19233        130.3902             -200               0             -200               0
1.82237               -0.7847127       -30.69575        -42.04301        127.0711             -200               0             -200               0
1.82895               -0.8076876       -31.04461        -41.88539        123.7834             -200               0             -200               0
1.83553                -0.831616       -31.40057         -41.7187          120.52             -200               0             -200               0
1.84211               -0.8565606        -31.7637        -41.54234        117.2733             -200               0             -200               0
1.84868               -0.8825815       -32.13403        -41.35584        114.0349             -200               0             -200               0
