! TOUCHSTONE file generated by CST MICROWAVE STUDIO
! Date and time: Tue Mar 18 00:01:46 2025
! Project name: oblique.cst
! Parameters = {Tilt=30; Fracture=1; B=12.5; D=160; F=25; Feed=2.85625; L=100; M=10; R=0.384908; S=2; Theta=180; length=57.125; wave=114.25}
! Header version: 2024
! Port assignment regex: !\s*Touchstone port\s*([0-9]+)\s*=\s*(CST MWS port|CST DES external port|CST DES block port)\s*(.+)\s* \(\"(.*)\"\)(\s*mode\s*([0-9]+))?.*
! Touchstone port assignment:
! Touchstone port 1 = CST MWS port 1 ("")
! Touchstone port 2 = CST MWS port 2 ("")
# GHz S DB R 50
1                    -0.01953783       -9.796287        -68.26623        -168.652             -200               0             -200               0
1.0066               -0.02027395       -9.884716        -68.21544        -172.526             -200               0             -200               0
1.0132               -0.02103835       -9.973658        -68.18248       -176.2359             -200               0             -200               0
1.0198               -0.02182912       -10.06311         -68.1653       -179.7673             -200               0             -200               0
1.0264               -0.02264358       -10.15309        -68.16143        176.8945             -200               0             -200               0
1.033                -0.02348127       -10.24359        -68.16796        173.7644             -200               0             -200               0
1.0396               -0.02433995       -10.33464        -68.18137        170.8563             -200               0             -200               0
1.0462               -0.02521839       -10.42623        -68.19754        168.1828             -200               0             -200               0
1.05281              -0.02611522       -10.51839        -68.21163        165.7532             -200               0             -200               0
1.05941              -0.02702848       -10.61114        -68.21812        163.5726             -200               0             -200               0
1.06601              -0.02795885       -10.70449        -68.21092        161.6398             -200               0             -200               0
1.07261              -0.02890304       -10.79848        -68.18349        159.9458             -200               0             -200               0
1.07921              -0.02986479       -10.89311        -68.12924        158.4718             -200               0             -200               0
1.08581              -0.03084072       -10.98843        -68.04186        157.1886             -200               0             -200               0
1.09241              -0.03183231       -11.08445        -67.91589        156.0564             -200               0             -200               0
1.09901              -0.03284199       -11.18119        -67.74723        155.0267             -200               0             -200               0
1.10561              -0.03387116       -11.27869        -67.53358        154.0448             -200               0             -200               0
1.11221               -0.0349217       -11.37697        -67.27465        153.0534             -200               0             -200               0
1.11881              -0.03599448       -11.47605        -66.97223        151.9975             -200               0             -200               0
1.12541              -0.03709308       -11.57595        -66.62991        150.8277             -200               0             -200               0
1.13201              -0.03822055       -11.67669        -66.25269        149.5036             -200               0             -200               0
1.13861               -0.0393816       -11.77829        -65.84645        147.9952             -200               0             -200               0
1.14521              -0.04057682       -11.88076        -65.41742        146.2829             -200               0             -200               0
1.15182              -0.04181048       -11.98412        -64.97177         144.357             -200               0             -200               0
1.15842              -0.04308866       -12.08836        -64.51525         142.216             -200               0             -200               0
1.16502                -0.044411        -12.1935        -64.05301        139.8649             -200               0             -200               0
1.17162               -0.0457822       -12.29954        -63.58953        137.3132             -200               0             -200               0
1.17822              -0.04720637       -12.40647        -63.12854        134.5736             -200               0             -200               0
1.18482              -0.04868504       -12.51431        -62.67311        131.6607             -200               0             -200               0
1.19142              -0.05022094       -12.62304        -62.22568        128.5897             -200               0             -200               0
1.19802              -0.05181514       -12.73266        -61.78819        125.3762             -200               0             -200               0
1.20462              -0.05347112       -12.84316        -61.36209        122.0353             -200               0             -200               0
1.21122              -0.05518898       -12.95453        -60.94848        118.5816             -200               0             -200               0
1.21782              -0.05696884       -13.06678        -60.54815        115.0286             -200               0             -200               0
1.22442              -0.05881032       -13.17989        -60.16163        111.3894             -200               0             -200               0
1.23102              -0.06071455       -13.29386        -59.78927        107.6757             -200               0             -200               0
1.23762              -0.06267999       -13.40869        -59.43124        103.8988             -200               0             -200               0
1.24422              -0.06470501       -13.52437        -59.08759        100.0687             -200               0             -200               0
1.25083              -0.06678832       -13.64092        -58.75828        96.19513             -200               0             -200               0
1.25743              -0.06892808       -13.75833        -58.44317        92.28675             -200               0             -200               0
1.26403              -0.07112168       -13.87661        -58.14208        88.35178             -200               0             -200               0
1.27063                -0.073368       -13.99578        -57.85475        84.39787             -200               0             -200               0
1.27723              -0.07566477       -14.11586        -57.58089        80.43217             -200               0             -200               0
1.28383               -0.0780083       -14.23686        -57.32017        76.46141             -200               0             -200               0
1.29043              -0.08039788       -14.35881        -57.07223        72.49194             -200               0             -200               0
1.29703              -0.08283076       -14.48174        -56.83666         68.5298             -200               0             -200               0
1.30363              -0.08530538       -14.60568        -56.61303        64.58072             -200               0             -200               0
1.31023              -0.08782113       -14.73067        -56.40088        60.65018             -200               0             -200               0
1.31683              -0.09037681       -14.85674        -56.19972         56.7434             -200               0             -200               0
1.32343               -0.0929724       -14.98394          -56.009        52.86541             -200               0             -200               0
1.33003                -0.095607       -15.11231        -55.82817        49.02099             -200               0             -200               0
1.33663              -0.09828374       -15.24189        -55.65661        45.21473             -200               0             -200               0
1.34323               -0.1010009       -15.37273        -55.49366        41.45099             -200               0             -200               0
1.34984               -0.1037636       -15.50487        -55.33863        37.73386             -200               0             -200               0
1.35644               -0.1065721       -15.63835        -55.19075        34.06719             -200               0             -200               0
1.36304               -0.1094316       -15.77322        -55.04923        30.45449             -200               0             -200               0
1.36964               -0.1123422       -15.90953        -54.91321        26.89895             -200               0             -200               0
1.37624               -0.1153098       -16.04731        -54.78176        23.40331             -200               0             -200               0
1.38284               -0.1183389        -16.1866        -54.65392        19.96986             -200               0             -200               0
1.38944               -0.1214343       -16.32744        -54.52868        16.60033             -200               0             -200               0
1.39604               -0.1245987       -16.46986        -54.40496        13.29584             -200               0             -200               0
1.40264               -0.1278384        -16.6139        -54.28166         10.0568             -200               0             -200               0
1.40924               -0.1311563       -16.75957        -54.15766        6.882856             -200               0             -200               0
1.41584               -0.1345591       -16.90691        -54.03181        3.772805             -200               0             -200               0
1.42244               -0.1380501       -17.05595        -53.90297       0.7245579             -200               0             -200               0
1.42904               -0.1416341        -17.2067        -53.77003       -2.264912             -200               0             -200               0
1.43564               -0.1453133        -17.3592        -53.63191       -5.199571             -200               0             -200               0
1.44224               -0.1490934       -17.51345        -53.48764       -8.084316             -200               0             -200               0
1.44884               -0.1529748       -17.66949         -53.3363       -10.92492             -200               0             -200               0
1.45545               -0.1569621       -17.82733         -53.1771       -13.72794             -200               0             -200               0
1.46205               -0.1610564       -17.98701        -53.00941       -16.50061             -200               0             -200               0
1.46865               -0.1652596       -18.14855        -52.83274       -19.25068             -200               0             -200               0
1.47525               -0.1695735       -18.31197        -52.64677       -21.98624             -200               0             -200               0
1.48185               -0.1739977       -18.47733        -52.45136       -24.71552             -200               0             -200               0
1.48845               -0.1785353       -18.64465        -52.24656       -27.44669             -200               0             -200               0
1.49505               -0.1831865       -18.81398        -52.03257       -30.18767             -200               0             -200               0
1.50165                 -0.18795       -18.98538        -51.80978        -32.9459             -200               0             -200               0
1.50825               -0.1928275       -19.15889         -51.5787       -35.72826             -200               0             -200               0
1.51485               -0.1978224       -19.33459        -51.33998       -38.54087             -200               0             -200               0
1.52145               -0.2029329       -19.51254        -51.09435       -41.38902             -200               0             -200               0
1.52805               -0.2081609       -19.69283        -50.84262        -44.2771             -200               0             -200               0
1.53465               -0.2135129       -19.87552        -50.58567       -47.20857             -200               0             -200               0
1.54125                -0.218988       -20.06072        -50.32438       -50.18602             -200               0             -200               0
1.54785               -0.2245937       -20.24851        -50.05964       -53.21111             -200               0             -200               0
1.55446               -0.2303333       -20.43899        -49.79232       -56.28472             -200               0             -200               0
1.56106               -0.2362158       -20.63228        -49.52328       -59.40693             -200               0             -200               0
1.56766               -0.2422471       -20.82847         -49.2533       -62.57718             -200               0             -200               0
1.57426               -0.2484393       -21.02767        -48.98313       -65.79431             -200               0             -200               0
1.58086               -0.2548006          -21.23        -48.71346       -69.05665             -200               0             -200               0
1.58746               -0.2613457       -21.43556        -48.44489       -72.36212             -200               0             -200               0
1.59406               -0.2680875       -21.64446        -48.17798        -75.7083             -200               0             -200               0
1.60066               -0.2750416       -21.85682         -47.9132       -79.09249             -200               0             -200               0
1.60726                -0.282225       -22.07273        -47.65094       -82.51182             -200               0             -200               0
1.61386               -0.2896555        -22.2923        -47.39156       -85.96324             -200               0             -200               0
1.62046               -0.2973534       -22.51562        -47.13532       -89.44365             -200               0             -200               0
1.62706               -0.3053383       -22.74278        -46.88242        -92.9499             -200               0             -200               0
1.63366               -0.3136321       -22.97387        -46.63302       -96.47883             -200               0             -200               0
1.64026               -0.3222576       -23.20895        -46.38721       -100.0273             -200               0             -200               0
1.64686               -0.3312378        -23.4481        -46.14501       -103.5924             -200               0             -200               0
1.65347               -0.3405957       -23.69138        -45.90642        -107.171             -200               0             -200               0
1.66007               -0.3503568       -23.93884        -45.67137       -110.7603             -200               0             -200               0
1.66667               -0.3605432       -24.19053        -45.43976       -114.3577             -200               0             -200               0
1.67327               -0.3711804       -24.44648        -45.21144       -117.9606             -200               0             -200               0
1.67987               -0.3822912       -24.70673        -44.98622       -121.5667             -200               0             -200               0
1.68647               -0.3939008       -24.97132        -44.76389       -125.1739             -200               0             -200               0
1.69307               -0.4060313       -25.24024        -44.54419       -128.7802             -200               0             -200               0
1.69967               -0.4187054       -25.51354        -44.32684       -132.3838             -200               0             -200               0
1.70627               -0.4319445       -25.79123        -44.11155       -135.9834             -200               0             -200               0
1.71287               -0.4457726       -26.07332          -43.898       -139.5777             -200               0             -200               0
1.71947                -0.460208       -26.35983        -43.68583       -143.1657             -200               0             -200               0
1.72607               -0.4752711       -26.65078        -43.47469       -146.7469             -200               0             -200               0
1.73267               -0.4909827        -26.9462        -43.26423       -150.3208             -200               0             -200               0
1.73927               -0.5073614       -27.24612        -43.05407       -153.8874             -200               0             -200               0
1.74587               -0.5244251       -27.55057        -42.84386       -157.4467             -200               0             -200               0
1.75248               -0.5421946       -27.85959        -42.63323       -160.9994             -200               0             -200               0
1.75908               -0.5606863       -28.17325        -42.42183       -164.5462             -200               0             -200               0
1.76568               -0.5799211        -28.4916        -42.20932       -168.0882             -200               0             -200               0
1.77228               -0.5999181       -28.81472         -41.9954       -171.6266             -200               0             -200               0
1.77888                -0.620698        -29.1427        -41.77978       -175.1631             -200               0             -200               0
1.78548               -0.6422821       -29.47564        -41.56219       -178.6994             -200               0             -200               0
1.79208               -0.6646942       -29.81366        -41.34242        177.7624             -200               0             -200               0
1.79868               -0.6879587       -30.15686        -41.12026        174.2201             -200               0             -200               0
1.80528               -0.7121062       -30.50541        -40.89559        170.6716             -200               0             -200               0
1.81188               -0.7371636       -30.85944        -40.66828        167.1142             -200               0             -200               0
1.81848               -0.7631663       -31.21912        -40.43829        163.5456             -200               0             -200               0
1.82508               -0.7901499       -31.58461        -40.20558        159.9632             -200               0             -200               0
1.83168               -0.8181551       -31.95609         -39.9702        156.3645             -200               0             -200               0
1.83828               -0.8472269       -32.33376         -39.7322         152.747             -200               0             -200               0
1.84488               -0.8774124       -32.71778         -39.4917        149.1084             -200               0             -200               0
1.85149               -0.9087652       -33.10835        -39.24884        145.4463             -200               0             -200               0
