! TOUCHSTONE file generated by CST MICROWAVE STUDIO
! Date and time: Tue Mar 18 00:01:38 2025
! Project name: oblique.cst
! Parameters = {Tilt=30; Fracture=1; B=12.5; D=160; F=15; Feed=2.85625; L=100; M=30; R=0.384908; S=2; Theta=180; length=57.125; wave=114.25}
! Header version: 2024
! Port assignment regex: !\s*Touchstone port\s*([0-9]+)\s*=\s*(CST MWS port|CST DES external port|CST DES block port)\s*(.+)\s* \(\"(.*)\"\)(\s*mode\s*([0-9]+))?.*
! Touchstone port assignment:
! Touchstone port 1 = CST MWS port 1 ("")
! Touchstone port 2 = CST MWS port 2 ("")
# GHz S DB R 50
1                    -0.02155512       -9.771857        -66.35381        171.6857             -200               0             -200               0
1.00658              -0.02216892       -9.857933        -66.41212        166.0496             -200               0             -200               0
1.01316              -0.02276655       -9.944666        -66.50716        160.5307             -200               0             -200               0
1.01974              -0.02335047       -10.03211        -66.64053        155.1416             -200               0             -200               0
1.02632              -0.02392477        -10.1203        -66.81409        149.8984             -200               0             -200               0
1.03289              -0.02449629       -10.20928        -67.03005        144.8219             -200               0             -200               0
1.03947              -0.02506765       -10.29909        -67.29092        139.9386             -200               0             -200               0
1.04605              -0.02564593       -10.38976        -67.59951        135.2826             -200               0             -200               0
1.05263              -0.02623814       -10.48131        -67.95889         130.898             -200               0             -200               0
1.05921              -0.02684962       -10.57377        -68.37217        126.8426             -200               0             -200               0
1.06579              -0.02749049       -10.66714        -68.84223         123.192             -200               0             -200               0
1.07237              -0.02816625       -10.76143        -69.37101        120.0459             -200               0             -200               0
1.07895              -0.02888326       -10.85663         -69.9582        117.5359             -200               0             -200               0
1.08553              -0.02964914       -10.95275        -70.59891        115.8336             -200               0             -200               0
1.09211              -0.03046998       -11.04976        -71.27938        115.1554             -200               0             -200               0
1.09868              -0.03135118       -11.14764        -71.97018        115.7544             -200               0             -200               0
1.10526              -0.03229662       -11.24637        -72.61695        117.8748             -200               0             -200               0
1.11184              -0.03331295       -11.34591         -73.1333        121.6375             -200               0             -200               0
1.11842              -0.03440017       -11.44625        -73.40882        126.8501             -200               0             -200               0
1.125                -0.03556093       -11.54733        -73.34724        132.8613             -200               0             -200               0
1.13158              -0.03679578       -11.64913        -72.92112        138.6917             -200               0             -200               0
1.13816               -0.0381049       -11.75162        -72.19057        143.4532             -200               0             -200               0
1.14474              -0.03948617       -11.85476        -71.26381        146.6814             -200               0             -200               0
1.15132              -0.04093695       -11.95852        -70.24419        148.3336             -200               0             -200               0
1.15789              -0.04245442       -12.06288         -69.2049        148.5993             -200               0             -200               0
1.16447              -0.04403307       -12.16783        -68.18903        147.7362             -200               0             -200               0
1.17105              -0.04566859       -12.27334        -67.21854         145.986             -200               0             -200               0
1.17763              -0.04735669       -12.37942         -66.3028        143.5484             -200               0             -200               0
1.18421              -0.04908888       -12.48606        -65.44424         140.579             -200               0             -200               0
1.19079              -0.05086081       -12.59328        -64.64183        137.1971             -200               0             -200               0
1.19737              -0.05266605       -12.70109        -63.89289        133.4933             -200               0             -200               0
1.20395              -0.05449752       -12.80952        -63.19409        129.5373             -200               0             -200               0
1.21053              -0.05635209        -12.9186        -62.54203        125.3825             -200               0             -200               0
1.21711              -0.05822237       -13.02837        -61.93339         121.071             -200               0             -200               0
1.22368              -0.06010627       -13.13889        -61.36514        116.6358             -200               0             -200               0
1.23026              -0.06199919       -13.25019        -60.83451        112.1036             -200               0             -200               0
1.23684               -0.0639005       -13.36234        -60.33902         107.496             -200               0             -200               0
1.24342              -0.06580626       -13.47541        -59.87647        102.8309             -200               0             -200               0
1.25                 -0.06771885       -13.58945         -59.4449        98.12328             -200               0             -200               0
1.25658              -0.06963994       -13.70452        -59.04257        93.38604             -200               0             -200               0
1.26316              -0.07157046        -13.8207         -58.6679        88.63026             -200               0             -200               0
1.26974              -0.07351573       -13.93804        -58.31954        83.86574             -200               0             -200               0
1.27632              -0.07547916        -14.0566        -57.99624        79.10131             -200               0             -200               0
1.28289               -0.0774688       -14.17644        -57.69687        74.34503             -200               0             -200               0
1.28947              -0.07949036       -14.29761        -57.42044        69.60442             -200               0             -200               0
1.29605              -0.08155178       -14.42015        -57.16603        64.88662             -200               0             -200               0
1.30263              -0.08366182       -14.54409        -56.93277        60.19849             -200               0             -200               0
1.30921              -0.08582949       -14.66947        -56.71988        55.54677             -200               0             -200               0
1.31579              -0.08806364       -14.79631        -56.52659        50.93814             -200               0             -200               0
1.32237              -0.09037226       -14.92462        -56.35219        46.37932             -200               0             -200               0
1.32895              -0.09276694        -15.0544        -56.19594        41.87715             -200               0             -200               0
1.33553              -0.09525317       -15.18565        -56.05713        37.43859             -200               0             -200               0
1.34211              -0.09784042       -15.31836        -55.93499        33.07084             -200               0             -200               0
1.34868               -0.1005348       -15.45252        -55.82873        28.78133             -200               0             -200               0
1.35526               -0.1033431        -15.5881        -55.73748        24.57773             -200               0             -200               0
1.36184               -0.1062702       -15.72509        -55.66029        20.46797             -200               0             -200               0
1.36842               -0.1093185       -15.86345        -55.59611         16.4602             -200               0             -200               0
1.375                 -0.1124919       -16.00316        -55.54372        12.56271             -200               0             -200               0
1.38158               -0.1157914       -16.14418        -55.50175        8.783841             -200               0             -200               0
1.38816               -0.1192156       -16.28649        -55.46863        5.131832             -200               0             -200               0
1.39474               -0.1227645       -16.43008        -55.44257        1.614597             -200               0             -200               0
1.40132               -0.1264337       -16.57491        -55.42152       -1.760555             -200               0             -200               0
1.40789               -0.1302212       -16.72099        -55.40316        -4.98729             -200               0             -200               0
1.41447               -0.1341202       -16.86831        -55.38489       -8.060698             -200               0             -200               0
1.42105               -0.1381281       -17.01687        -55.36384        -10.9778             -200               0             -200               0
1.42763               -0.1422367       -17.16669        -55.33691       -13.73815             -200               0             -200               0
1.43421               -0.1464402        -17.3178        -55.30077       -16.34439             -200               0             -200               0
1.44079               -0.1507342       -17.47023        -55.25204       -18.80283             -200               0             -200               0
1.44737               -0.1551099       -17.62403         -55.1873       -21.12388             -200               0             -200               0
1.45395               -0.1595626       -17.77926        -55.10334        -23.3223             -200               0             -200               0
1.46053                -0.164088       -17.93599        -54.99725       -25.41711             -200               0             -200               0
1.46711               -0.1686819       -18.09431        -54.86664       -27.43125             -200               0             -200               0
1.47368               -0.1733429       -18.25428        -54.70977       -29.39077             -200               0             -200               0
1.48026                -0.178068       -18.41602        -54.52569       -31.32372             -200               0             -200               0
1.48684               -0.1828572       -18.57963        -54.31429       -33.25888             -200               0             -200               0
1.49342               -0.1877152       -18.74521         -54.0763       -35.22427             -200               0             -200               0
1.5                    -0.192644       -18.91288        -53.81323       -37.24591             -200               0             -200               0
1.50658               -0.1976494       -19.08274        -53.52726       -39.34664             -200               0             -200               0
1.51316               -0.2027406       -19.25491        -53.22105       -41.54538             -200               0             -200               0
1.51974               -0.2079258        -19.4295         -52.8976       -43.85675             -200               0             -200               0
1.52632               -0.2132179       -19.60661        -52.56005         -46.291             -200               0             -200               0
1.53289               -0.2186282       -19.78635        -52.21158       -48.85426             -200               0             -200               0
1.53947               -0.2241729        -19.9688        -51.85522       -51.54896             -200               0             -200               0
1.54605                -0.229867       -20.15405        -51.49381       -54.37441             -200               0             -200               0
1.55263               -0.2357283       -20.34217        -51.12995       -57.32736             -200               0             -200               0
1.55921               -0.2417749       -20.53323        -50.76593       -60.40262             -200               0             -200               0
1.56579               -0.2480241       -20.72728        -50.40374       -63.59357             -200               0             -200               0
1.57237               -0.2544939       -20.92436        -50.04511       -66.89259             -200               0             -200               0
1.57895               -0.2612054        -21.1245        -49.69146       -70.29145             -200               0             -200               0
1.58553               -0.2681749       -21.32771        -49.34399       -73.78158             -200               0             -200               0
1.59211               -0.2754222       -21.53402        -49.00364       -77.35436             -200               0             -200               0
1.59868               -0.2829606       -21.74341        -48.67118       -81.00118             -200               0             -200               0
1.60526                -0.290809       -21.95589        -48.34719       -84.71365             -200               0             -200               0
1.61184               -0.2989799       -22.17143        -48.03209       -88.48361             -200               0             -200               0
1.61842               -0.3074868       -22.39001         -47.7262       -92.30324             -200               0             -200               0
1.625                 -0.3163408       -22.61163        -47.42968       -96.16504             -200               0             -200               0
1.63158                -0.325552       -22.83626        -47.14263       -100.0618             -200               0             -200               0
1.63816               -0.3351269       -23.06387        -46.86503       -103.9868             -200               0             -200               0
1.64474               -0.3450733       -23.29445        -46.59681       -107.9336             -200               0             -200               0
1.65132               -0.3553949       -23.52801        -46.33781       -111.8958             -200               0             -200               0
1.65789               -0.3660957       -23.76453        -46.08783       -115.8679             -200               0             -200               0
1.66447               -0.3771775       -24.00403        -45.84658       -119.8441             -200               0             -200               0
1.67105               -0.3886406       -24.24653        -45.61376       -123.8193             -200               0             -200               0
1.67763               -0.4004864       -24.49208        -45.38897       -127.7885             -200               0             -200               0
1.68421               -0.4127144       -24.74072        -45.17181       -131.7471             -200               0             -200               0
1.69079               -0.4253245       -24.99252        -44.96179       -135.6908             -200               0             -200               0
1.69737               -0.4383159       -25.24757        -44.75841       -139.6153             -200               0             -200               0
1.70395               -0.4516924       -25.50598        -44.56109       -143.5171             -200               0             -200               0
1.71053                -0.465453       -25.76787        -44.36922       -147.3926             -200               0             -200               0
1.71711               -0.4796037       -26.03336        -44.18216       -151.2388             -200               0             -200               0
1.72368               -0.4941491       -26.30263        -43.99919        -155.053             -200               0             -200               0
1.73026               -0.5090968       -26.57583        -43.81959       -158.8329             -200               0             -200               0
1.73684               -0.5244574       -26.85315        -43.64257       -162.5768             -200               0             -200               0
1.74342               -0.5402438       -27.13478        -43.46732       -166.2833             -200               0             -200               0
1.75                  -0.5564734       -27.42093        -43.29301       -169.9517             -200               0             -200               0
1.75658               -0.5731638        -27.7118        -43.11877       -173.5818             -200               0             -200               0
1.76316               -0.5903401       -28.00761        -42.94373       -177.1741             -200               0             -200               0
1.76974               -0.6080283       -28.30857        -42.76703        179.2703             -200               0             -200               0
1.77632                -0.626259       -28.61491         -42.5878        175.7496             -200               0             -200               0
1.78289               -0.6450652       -28.92684         -42.4052        172.2614             -200               0             -200               0
1.78947               -0.6644848       -29.24456        -42.21846        168.8023             -200               0             -200               0
1.79605               -0.6845571       -29.56829        -42.02682        165.3687             -200               0             -200               0
1.80263               -0.7053284       -29.89821        -41.82962        161.9559             -200               0             -200               0
1.80921               -0.7268443       -30.23452        -41.62629         158.559             -200               0             -200               0
1.81579                -0.749155       -30.57738        -41.41634        155.1725             -200               0             -200               0
1.82237               -0.7723124       -30.92697        -41.19941        151.7904             -200               0             -200               0
1.82895               -0.7963701       -31.28341        -40.97525        148.4066             -200               0             -200               0
1.83553               -0.8213865       -31.64686        -40.74373        145.0148             -200               0             -200               0
1.84211               -0.8474183       -32.01743        -40.50484        141.6086             -200               0             -200               0
1.84868               -0.8745262       -32.39523        -40.25872        138.1819             -200               0             -200               0
