! TOUCHSTONE file generated by CST MICROWAVE STUDIO
! Date and time: Tue Mar 18 00:00:58 2025
! Project name: oblique.cst
! Parameters = {Tilt=30; Fracture=1; B=10; D=160; F=15; Feed=2.85625; L=100; M=30; R=0.384908; S=2; Theta=180; length=57.125; wave=114.25}
! Header version: 2024
! Port assignment regex: !\s*Touchstone port\s*([0-9]+)\s*=\s*(CST MWS port|CST DES external port|CST DES block port)\s*(.+)\s* \(\"(.*)\"\)(\s*mode\s*([0-9]+))?.*
! Touchstone port assignment:
! Touchstone port 1 = CST MWS port 1 ("")
! Touchstone port 2 = CST MWS port 2 ("")
# GHz S DB R 50
1                    -0.02174617       -9.783272        -65.36405        168.3544             -200               0             -200               0
1.0066                  -0.02233        -9.86981        -65.47785        162.2753             -200               0             -200               0
1.0132               -0.02289603       -9.957057        -65.63277        156.2968             -200               0             -200               0
1.0198               -0.02344728       -10.04506        -65.83157        150.4285             -200               0             -200               0
1.0264               -0.02398878       -10.13386        -66.07758        144.6831             -200               0             -200               0
1.033                -0.02452618       -10.22351        -66.37487        139.0778             -200               0             -200               0
1.0396               -0.02506638       -10.31405        -66.72838        133.6359             -200               0             -200               0
1.0462               -0.02561643       -10.40549        -67.14412        128.3888             -200               0             -200               0
1.05281              -0.02618298       -10.49786        -67.62945        123.3797             -200               0             -200               0
1.05941              -0.02677551       -10.59117        -68.19339        118.6689             -200               0             -200               0
1.06601              -0.02740061       -10.68544        -68.84688        114.3426             -200               0             -200               0
1.07261              -0.02806617       -10.78066        -69.60306        110.5265             -200               0             -200               0
1.07921              -0.02878067       -10.87683        -70.47704        107.4095             -200               0             -200               0
1.08581               -0.0295493       -10.97392         -71.4842        105.2829             -200               0             -200               0
1.09241              -0.03038159       -11.07191        -72.63435        104.6053             -200               0             -200               0
1.09901              -0.03127884       -11.17078        -73.91407        106.0958             -200               0             -200               0
1.10561              -0.03224885       -11.27049         -75.2404        110.7963             -200               0             -200               0
1.11221              -0.03329217       -11.37102        -76.36851        119.7698             -200               0             -200               0
1.11881              -0.03441263       -11.47231         -76.8449        132.7019             -200               0             -200               0
1.12541              -0.03561089       -11.57434        -76.32341        146.3137             -200               0             -200               0
1.13201              -0.03688564       -11.67707        -75.00979        156.6772             -200               0             -200               0
1.13861               -0.0382375       -11.78045        -73.38097        162.6677             -200               0             -200               0
1.14521               -0.0396619       -11.88447         -71.7477        165.1496             -200               0             -200               0
1.15182              -0.04115559       -11.98908        -70.22932        165.2368             -200               0             -200               0
1.15842              -0.04271525       -12.09427        -68.85287        163.7441             -200               0             -200               0
1.16502              -0.04433362       -12.20002        -67.61257        161.1975             -200               0             -200               0
1.17162              -0.04600583       -12.30632        -66.49353        157.9306             -200               0             -200               0
1.17822              -0.04772517       -12.41318        -65.48012        154.1587             -200               0             -200               0
1.18482              -0.04948517        -12.5206        -64.55833        150.0247             -200               0             -200               0
1.19142              -0.05127799       -12.62859        -63.71638        145.6262             -200               0             -200               0
1.19802               -0.0530996       -12.73719        -62.94447         141.032             -200               0             -200               0
1.20462              -0.05494105       -12.84642        -62.23458        136.2918             -200               0             -200               0
1.21122              -0.05679871       -12.95633        -61.58004        131.4423             -200               0             -200               0
1.21782               -0.0586673       -13.06697        -60.97535        126.5117             -200               0             -200               0
1.22442              -0.06054305       -13.17839        -60.41591        121.5217             -200               0             -200               0
1.23102              -0.06242382       -13.29065        -59.89787        116.4895             -200               0             -200               0
1.23762              -0.06430815       -13.40382        -59.41798        111.4294             -200               0             -200               0
1.24422              -0.06619459       -13.51796        -58.97345         106.353             -200               0             -200               0
1.25083              -0.06808668       -13.63315        -58.56192        101.2703             -200               0             -200               0
1.25743              -0.06998444       -13.74943        -58.18135        96.18992             -200               0             -200               0
1.26403              -0.07189445        -13.8669        -57.82998        91.11972             -200               0             -200               0
1.27063              -0.07381895        -13.9856        -57.50627        86.06672             -200               0             -200               0
1.27723              -0.07576635       -14.10559        -57.20887        81.03754             -200               0             -200               0
1.28383              -0.07774329       -14.22693        -56.93659         76.0385             -200               0             -200               0
1.29043              -0.07975767       -14.34966        -56.68837        71.07573             -200               0             -200               0
1.29703               -0.0818186       -14.47383        -56.46326        66.15535             -200               0             -200               0
1.30363               -0.0839356       -14.59945        -56.26039        61.28351             -200               0             -200               0
1.31023              -0.08611729       -14.72656        -56.07894        56.46654             -200               0             -200               0
1.31683              -0.08837391       -14.85517        -55.91816        51.71094             -200               0             -200               0
1.32343              -0.09071474       -14.98528         -55.7773        47.02355             -200               0             -200               0
1.33003                -0.093148       -15.11689        -55.65563        42.41154             -200               0             -200               0
1.33663              -0.09568314       -15.24999        -55.55238        37.88249             -200               0             -200               0
1.34323              -0.09832617       -15.38456        -55.46676        33.44445             -200               0             -200               0
1.34984               -0.1010842       -15.52058        -55.39789        29.10592             -200               0             -200               0
1.35644               -0.1039624       -15.65803        -55.34481        24.87591             -200               0             -200               0
1.36304               -0.1069644       -15.79687         -55.3064        20.76387             -200               0             -200               0
1.36964               -0.1100928       -15.93707        -55.28141        16.77969             -200               0             -200               0
1.37624               -0.1133488        -16.0786        -55.26834        12.93351             -200               0             -200               0
1.38284               -0.1167319       -16.22144        -55.26547        9.235636             -200               0             -200               0
1.38944                -0.120241       -16.36556        -55.27075        5.696182             -200               0             -200               0
1.39604               -0.1238725       -16.51094        -55.28182        2.324769             -200               0             -200               0
1.40264               -0.1276238       -16.65757        -55.29594      -0.8699994             -200               0             -200               0
1.40924               -0.1314878       -16.80543        -55.30993       -3.881159             -200               0             -200               0
1.41584               -0.1354601       -16.95454        -55.32028       -6.704145             -200               0             -200               0
1.42244               -0.1395336       -17.10492        -55.32304       -9.337661             -200               0             -200               0
1.42904               -0.1437019       -17.25657          -55.314       -11.78461             -200               0             -200               0
1.43564               -0.1479588       -17.40956        -55.28878       -14.05297             -200               0             -200               0
1.44224               -0.1522962       -17.56391          -55.243       -16.15649             -200               0             -200               0
1.44884               -0.1567093       -17.71969        -55.17249       -18.11512             -200               0             -200               0
1.45545               -0.1611921       -17.87697        -55.07362       -19.95483             -200               0             -200               0
1.46205                 -0.16574       -18.03584        -54.94349       -21.70692             -200               0             -200               0
1.46865               -0.1703505       -18.19638        -54.78022       -23.40673             -200               0             -200               0
1.47525               -0.1750211       -18.35869        -54.58306       -25.09172             -200               0             -200               0
1.48185               -0.1797517       -18.52289         -54.3525       -26.79938             -200               0             -200               0
1.48845               -0.1845442       -18.68907        -54.09017       -28.56504             -200               0             -200               0
1.49505               -0.1894016       -18.85736        -53.79869       -30.42005             -200               0             -200               0
1.50165               -0.1943303       -19.02788        -53.48146       -32.39038             -200               0             -200               0
1.50825               -0.1993367       -19.20073        -53.14239       -34.49595             -200               0             -200               0
1.51485               -0.2044307       -19.37605         -52.7856       -36.75043             -200               0             -200               0
1.52145               -0.2096235       -19.55393        -52.41523       -39.16167             -200               0             -200               0
1.52805               -0.2149283       -19.73448        -52.03523       -41.73238             -200               0             -200               0
1.53465               -0.2203588       -19.91781        -51.64926       -44.46097             -200               0             -200               0
1.54125               -0.2259318       -20.10401        -51.26058       -47.34254             -200               0             -200               0
1.54785               -0.2316641       -20.29315        -50.87204       -50.36973             -200               0             -200               0
1.55446               -0.2375739       -20.48532        -50.48607       -53.53346             -200               0             -200               0
1.56106               -0.2436796       -20.68056        -50.10471       -56.82359             -200               0             -200               0
1.56766               -0.2500003       -20.87893        -49.72963       -60.22943             -200               0             -200               0
1.57426               -0.2565562       -21.08047        -49.36216       -63.74006             -200               0             -200               0
1.58086               -0.2633647       -21.28521        -49.00336       -67.34468             -200               0             -200               0
1.58746               -0.2704446       -21.49316        -48.65405       -71.03274             -200               0             -200               0
1.59406                -0.277814       -21.70433        -48.31481       -74.79407             -200               0             -200               0
1.60066               -0.2854892       -21.91872        -47.98607       -78.61897             -200               0             -200               0
1.60726               -0.2934857       -22.13634        -47.66811       -82.49821             -200               0             -200               0
1.61386               -0.3018178       -22.35715        -47.36107       -86.42306             -200               0             -200               0
1.62046               -0.3104975       -22.58116        -47.06497       -90.38528             -200               0             -200               0
1.62706               -0.3195374       -22.80836        -46.77978       -94.37709             -200               0             -200               0
1.63366               -0.3289447       -23.03872        -46.50534       -98.39114             -200               0             -200               0
1.64026               -0.3387306       -23.27223        -46.24146       -102.4205             -200               0             -200               0
1.64686               -0.3488984       -23.50891        -45.98786       -106.4587             -200               0             -200               0
1.65347               -0.3594546       -23.74874        -45.74422       -110.4994             -200               0             -200               0
1.66007               -0.3704048       -23.99175        -45.51016       -114.5369             -200               0             -200               0
1.66667               -0.3817506       -24.23796        -45.28524       -118.5655             -200               0             -200               0
1.67327               -0.3934937       -24.48741        -45.06898       -122.5802             -200               0             -200               0
1.67987               -0.4056375       -24.74015        -44.86085        -126.576             -200               0             -200               0
1.68647               -0.4181835       -24.99624        -44.66025       -130.5482             -200               0             -200               0
1.69307               -0.4311356       -25.25579        -44.46657       -134.4927             -200               0             -200               0
1.69967                -0.444495       -25.51888        -44.27911       -138.4055             -200               0             -200               0
1.70627               -0.4582669       -25.78562        -44.09714       -142.2831             -200               0             -200               0
1.71287               -0.4724568       -26.05616        -43.91986       -146.1223             -200               0             -200               0
1.71947               -0.4870707       -26.33063        -43.74645       -149.9205             -200               0             -200               0
1.72607               -0.5021197        -26.6092        -43.57601       -153.6755             -200               0             -200               0
1.73267               -0.5176149       -26.89204        -43.40762       -157.3856             -200               0             -200               0
1.73927               -0.5335712       -27.17934        -43.24031       -161.0498             -200               0             -200               0
1.74587               -0.5500044       -27.47128         -43.0731       -164.6678             -200               0             -200               0
1.75248               -0.5669364       -27.76808        -42.90496       -168.2401             -200               0             -200               0
1.75908               -0.5843909       -28.06993        -42.73488       -171.7677             -200               0             -200               0
1.76568               -0.6023956       -28.37705        -42.56185       -175.2526             -200               0             -200               0
1.77228               -0.6209797       -28.68965        -42.38487       -178.6977             -200               0             -200               0
1.77888               -0.6401776       -29.00793        -42.20302        177.8934             -200               0             -200               0
1.78548               -0.6600275       -29.33209        -42.01542        174.5161             -200               0             -200               0
1.79208                -0.680568       -29.66236        -41.82126        171.1654             -200               0             -200               0
1.79868               -0.7018448       -29.99891        -41.61986        167.8352             -200               0             -200               0
1.80528               -0.7239051       -30.34193        -41.41067        164.5189             -200               0             -200               0
1.81188                -0.746798        -30.6916        -41.19323        161.2096             -200               0             -200               0
1.81848               -0.7705748       -31.04809        -40.96728           157.9             -200               0             -200               0
1.82508               -0.7952923       -31.41155        -40.73267        154.5825             -200               0             -200               0
1.83168               -0.8210062       -31.78212        -40.48943        151.2496             -200               0             -200               0
1.83828               -0.8477771       -32.15995        -40.23773        147.8941             -200               0             -200               0
1.84488               -0.8756641       -32.54514        -39.97789        144.5089             -200               0             -200               0
1.85149               -0.9047319       -32.93782        -39.71035        141.0876             -200               0             -200               0
