! TOUCHSTONE file generated by CST MICROWAVE STUDIO
! Date and time: Tue Mar 18 00:02:21 2025
! Project name: oblique.cst
! Parameters = {Tilt=40; Fracture=1; B=10; D=160; F=25; Feed=2.85625; L=100; M=10; R=0.384908; S=1; Theta=90; length=57.125; wave=114.25}
! Header version: 2024
! Port assignment regex: !\s*Touchstone port\s*([0-9]+)\s*=\s*(CST MWS port|CST DES external port|CST DES block port)\s*(.+)\s* \(\"(.*)\"\)(\s*mode\s*([0-9]+))?.*
! Touchstone port assignment:
! Touchstone port 1 = CST MWS port 1 ("")
! Touchstone port 2 = CST MWS port 2 ("")
# GHz S DB R 50
1                    -0.02063872       -9.785122        -68.81625       -159.4928             -200               0             -200               0
1.00658              -0.02122112       -9.871725        -68.77362       -163.0477             -200               0             -200               0
1.01316              -0.02179595       -9.958987        -68.74853       -166.4155             -200               0             -200               0
1.01974              -0.02236432       -10.04695        -68.73839       -169.5785             -200               0             -200               0
1.02632              -0.02293108       -10.13565        -68.74006       -172.5191             -200               0             -200               0
1.03289              -0.02349902       -10.22512        -68.74972         -175.22             -200               0             -200               0
1.03947              -0.02407314       -10.31539        -68.76278       -177.6655             -200               0             -200               0
1.04605              -0.02465842       -10.40649        -68.77377        -179.843             -200               0             -200               0
1.05263              -0.02526066       -10.49843        -68.77638         178.255             -200               0             -200               0
1.05921              -0.02588567       -10.59124        -68.76351        176.6287             -200               0             -200               0
1.06579              -0.02653937       -10.68492        -68.72748        175.2686             -200               0             -200               0
1.07237              -0.02722749       -10.77948        -68.66045        174.1533             -200               0             -200               0
1.07895              -0.02795578       -10.87491        -68.55498        173.2484             -200               0             -200               0
1.08553              -0.02873015       -10.97122        -68.40466        172.5061             -200               0             -200               0
1.09211              -0.02955508       -11.06838        -68.20485         171.868             -200               0             -200               0
1.09868              -0.03043527       -11.16639        -67.95319        171.2684             -200               0             -200               0
1.10526              -0.03137493       -11.26522         -67.6499        170.6395             -200               0             -200               0
1.11184              -0.03237685       -11.36486        -67.29773        169.9176             -200               0             -200               0
1.11842              -0.03344342       -11.46527        -66.90156        169.0475             -200               0             -200               0
1.125                -0.03457642       -11.56644        -66.46779        167.9858             -200               0             -200               0
1.13158              -0.03577571       -11.66834        -66.00364        166.7026             -200               0             -200               0
1.13816              -0.03704109       -11.77093        -65.51648        165.1809             -200               0             -200               0
1.14474              -0.03837222       -11.87422        -65.01336        163.4148             -200               0             -200               0
1.15132              -0.03976622       -11.97816        -64.50066        161.4073             -200               0             -200               0
1.15789              -0.04122052       -12.08274         -63.9839        159.1683             -200               0             -200               0
1.16447              -0.04273244       -12.18796         -63.4677        156.7117             -200               0             -200               0
1.17105              -0.04429706        -12.2938        -62.95583        154.0542             -200               0             -200               0
1.17763              -0.04591135       -12.40027        -62.45125        151.2135             -200               0             -200               0
1.18421              -0.04756941       -12.50737        -61.95625        148.2078             -200               0             -200               0
1.19079              -0.04926781        -12.6151        -61.47256        145.0547             -200               0             -200               0
1.19737               -0.0510012        -12.7235        -61.00141         141.771             -200               0             -200               0
1.20395              -0.05276517       -12.83257        -60.54369        138.3724             -200               0             -200               0
1.21053              -0.05455544       -12.94236        -60.09994        134.8734             -200               0             -200               0
1.21711              -0.05636882       -13.05289        -59.67051        131.2875             -200               0             -200               0
1.22368              -0.05820253       -13.16421        -59.25552        127.6269             -200               0             -200               0
1.23026              -0.06005403       -13.27635        -58.85497        123.9029             -200               0             -200               0
1.23684               -0.0619219       -13.38938        -58.46873        120.1256             -200               0             -200               0
1.24342              -0.06380579       -13.50334        -58.09659        116.3044             -200               0             -200               0
1.25                 -0.06570623       -13.61828        -57.73827        112.4477             -200               0             -200               0
1.25658              -0.06762413       -13.73426        -57.39344        108.5633             -200               0             -200               0
1.26316              -0.06956266       -13.85132        -57.06172        104.6585             -200               0             -200               0
1.26974              -0.07152431       -13.96953        -56.74268        100.7397             -200               0             -200               0
1.27632              -0.07351443       -14.08892         -56.4359        96.81305             -200               0             -200               0
1.28289              -0.07553668       -14.20955         -56.1409        92.88409             -200               0             -200               0
1.28947              -0.07759764       -14.33146         -55.8572          88.958             -200               0             -200               0
1.29605              -0.07970399       -14.45468        -55.58428        85.03956             -200               0             -200               0
1.30263                -0.081861       -14.57924        -55.32161         81.1332             -200               0             -200               0
1.30921              -0.08407785       -14.70516        -55.06865        77.24302             -200               0             -200               0
1.31579              -0.08635973       -14.83248        -54.82483        73.37279             -200               0             -200               0
1.32237              -0.08871522        -14.9612        -54.58956        69.52598             -200               0             -200               0
1.32895              -0.09115002       -15.09132        -54.36223        65.70574             -200               0             -200               0
1.33553              -0.09367154       -15.22285        -54.14222        61.91493             -200               0             -200               0
1.34211              -0.09628533       -15.35579        -53.92887        58.15607             -200               0             -200               0
1.34868              -0.09899611       -15.49012        -53.72154        54.43136             -200               0             -200               0
1.35526               -0.1018097       -15.62584        -53.51953        50.74267             -200               0             -200               0
1.36184               -0.1047289       -15.76294        -53.32214        47.09148             -200               0             -200               0
1.36842               -0.1077566       -15.90139        -53.12868        43.47891             -200               0             -200               0
1.375                  -0.110894       -16.04119        -52.93841        39.90568             -200               0             -200               0
1.38158               -0.1141425       -16.18232        -52.75061        36.37208             -200               0             -200               0
1.38816                -0.117501       -16.32476        -52.56457        32.87795             -200               0             -200               0
1.39474               -0.1209689       -16.46852        -52.37956         29.4227             -200               0             -200               0
1.40132               -0.1245426       -16.61358        -52.19489        26.00526             -200               0             -200               0
1.40789               -0.1282211       -16.75996        -52.00987        22.62411             -200               0             -200               0
1.41447               -0.1319997       -16.90765        -51.82386        19.27726             -200               0             -200               0
1.42105               -0.1358747       -17.05669        -51.63624        15.96229             -200               0             -200               0
1.42763               -0.1398405       -17.20708        -51.44646        12.67635             -200               0             -200               0
1.43421               -0.1438946       -17.35887        -51.25403        9.416235             -200               0             -200               0
1.44079               -0.1480307        -17.5121        -51.05849        6.178384             -200               0             -200               0
1.44737               -0.1522462       -17.66682        -50.85948         2.95898             -200               0             -200               0
1.45395               -0.1565367        -17.8231        -50.65673      -0.2460106             -200               0             -200               0
1.46053               -0.1608992         -17.981        -50.45002       -3.440749             -200               0             -200               0
1.46711               -0.1653317       -18.14059        -50.23923       -6.629459             -200               0             -200               0
1.47368               -0.1698334       -18.30197        -50.02433       -9.816342             -200               0             -200               0
1.48026               -0.1744048       -18.46522        -49.80535        -13.0055             -200               0             -200               0
1.48684               -0.1790469       -18.63044        -49.58242       -16.20087             -200               0             -200               0
1.49342               -0.1837629       -18.79773        -49.35573       -19.40614             -200               0             -200               0
1.5                   -0.1885587       -18.96719        -49.12552       -22.62472             -200               0             -200               0
1.50658               -0.1934385       -19.13892        -48.89212       -25.85965             -200               0             -200               0
1.51316               -0.1984115       -19.31303        -48.65588       -29.11361             -200               0             -200               0
1.51974               -0.2034857       -19.48961        -48.41718       -32.38886             -200               0             -200               0
1.52632               -0.2086735       -19.66876        -48.17645       -35.68726             -200               0             -200               0
1.53289               -0.2139844       -19.85057        -47.93413       -39.01021             -200               0             -200               0
1.53947               -0.2194333       -20.03514        -47.69065       -42.35871             -200               0             -200               0
1.54605               -0.2250344       -20.22253        -47.44646       -45.73336             -200               0             -200               0
1.55263               -0.2308019       -20.41283          -47.202       -49.13436             -200               0             -200               0
1.55921                -0.236752        -20.6061        -46.95767       -52.56155             -200               0             -200               0
1.56579               -0.2429012        -20.8024        -46.71389       -56.01445             -200               0             -200               0
1.57237               -0.2492648       -21.00178        -46.47102       -59.49227             -200               0             -200               0
1.57895               -0.2558595       -21.20428        -46.22941       -62.99396             -200               0             -200               0
1.58553               -0.2627014       -21.40993        -45.98936       -66.51825             -200               0             -200               0
1.59211               -0.2698069       -21.61877        -45.75115       -70.06365             -200               0             -200               0
1.59868               -0.2771899       -21.83081        -45.51502       -73.62854             -200               0             -200               0
1.60526               -0.2848656       -22.04608        -45.28116       -77.21113             -200               0             -200               0
1.61184               -0.2928469       -22.26458        -45.04975       -80.80956             -200               0             -200               0
1.61842               -0.3011468       -22.48635         -44.8209       -84.42188             -200               0             -200               0
1.625                 -0.3097762       -22.71138         -44.5947       -88.04611             -200               0             -200               0
1.63158               -0.3187458       -22.93971         -44.3712       -91.68024             -200               0             -200               0
1.63816               -0.3280656       -23.17133        -44.15041       -95.32227             -200               0             -200               0
1.64474               -0.3377439       -23.40629         -43.9323       -98.97022             -200               0             -200               0
1.65132               -0.3477891       -23.64462        -43.71682       -102.6222             -200               0             -200               0
1.65789               -0.3582083       -23.88635        -43.50386       -106.2763             -200               0             -200               0
1.66447               -0.3690085       -24.13153        -43.29332       -109.9308             -200               0             -200               0
1.67105               -0.3801966       -24.38023        -43.08501       -113.5841             -200               0             -200               0
1.67763               -0.3917785       -24.63252        -42.87878       -117.2346             -200               0             -200               0
1.68421               -0.4037637       -24.88849        -42.67439        -120.881             -200               0             -200               0
1.69079               -0.4161604       -25.14823        -42.47162        -124.522             -200               0             -200               0
1.69737               -0.4289762       -25.41185        -42.27021       -128.1567             -200               0             -200               0
1.70395               -0.4422239       -25.67948        -42.06988       -131.7842             -200               0             -200               0
1.71053               -0.4559154       -25.95126        -41.87034       -135.4038             -200               0             -200               0
1.71711               -0.4700647       -26.22733        -41.67129       -139.0154             -200               0             -200               0
1.72368               -0.4846891       -26.50784         -41.4724       -142.6185             -200               0             -200               0
1.73026               -0.4998085       -26.79297        -41.27336       -146.2135             -200               0             -200               0
1.73684                -0.515446       -27.08288        -41.07385       -149.8005             -200               0             -200               0
1.74342               -0.5316267       -27.37774        -40.87355       -153.3802             -200               0             -200               0
1.75                  -0.5483797       -27.67775        -40.67214       -156.9534             -200               0             -200               0
1.75658               -0.5657378       -27.98308        -40.46934       -160.5213             -200               0             -200               0
1.76316               -0.5837367       -28.29389        -40.26486       -164.0851             -200               0             -200               0
1.76974               -0.6024157       -28.61037        -40.05844       -167.6464             -200               0             -200               0
1.77632               -0.6218179       -28.93267        -39.84985        -171.207             -200               0             -200               0
1.78289               -0.6419874       -29.26095        -39.63887       -174.7688             -200               0             -200               0
1.78947               -0.6629759       -29.59535        -39.42535        -178.334             -200               0             -200               0
1.79605                -0.684835         -29.936        -39.20914        178.0953             -200               0             -200               0
1.80263               -0.7076187       -30.28302        -38.99014        174.5167             -200               0             -200               0
1.80921               -0.7313848       -30.63649        -38.76831        170.9276             -200               0             -200               0
1.81579               -0.7561942       -30.99651        -38.54361        167.3257             -200               0             -200               0
1.82237               -0.7821076       -31.36312        -38.31608        163.7086             -200               0             -200               0
1.82895               -0.8091891       -31.73637        -38.08579        160.0736             -200               0             -200               0
1.83553               -0.8375019       -32.11627        -37.85282        156.4186             -200               0             -200               0
1.84211               -0.8671136       -32.50283        -37.61733        152.7411             -200               0             -200               0
1.84868               -0.8980893       -32.89603        -37.37948        149.0391             -200               0             -200               0
