! TOUCHSTONE file generated by CST MICROWAVE STUDIO
! Date and time: Tue Mar 18 00:02:06 2025
! Project name: oblique.cst
! Parameters = {Tilt=40; Fracture=1; B=10; D=160; F=5; Feed=2.85625; L=100; M=50; R=0.384908; S=1; Theta=270; length=57.125; wave=114.25}
! Header version: 2024
! Port assignment regex: !\s*Touchstone port\s*([0-9]+)\s*=\s*(CST MWS port|CST DES external port|CST DES block port)\s*(.+)\s* \(\"(.*)\"\)(\s*mode\s*([0-9]+))?.*
! Touchstone port assignment:
! Touchstone port 1 = CST MWS port 1 ("")
! Touchstone port 2 = CST MWS port 2 ("")
# GHz S DB R 50
1                      -0.021845       -9.789201        -67.39995        171.2039             -200               0             -200               0
1.00658              -0.02253708       -9.875979         -67.3535        165.9458             -200               0             -200               0
1.01316              -0.02323026       -9.963389        -67.33616        160.7862             -200               0             -200               0
1.01974              -0.02392641       -10.05146         -67.3481        155.7346             -200               0             -200               0
1.02632              -0.02462908       -10.14023        -67.38959        150.8022             -200               0             -200               0
1.03289              -0.02534073       -10.22971         -67.4609        146.0025             -200               0             -200               0
1.03947              -0.02606712       -10.31993        -67.56237        141.3516             -200               0             -200               0
1.04605              -0.02681144       -10.41092        -67.69429        136.8687             -200               0             -200               0
1.05263              -0.02757912       -10.50268        -67.85681        132.5767             -200               0             -200               0
1.05921              -0.02837516       -10.59523         -68.0499        128.5028             -200               0             -200               0
1.06579              -0.02920201       -10.68857        -68.27312        124.6796             -200               0             -200               0
1.07237              -0.03006757        -10.7827        -68.52543        121.1455             -200               0             -200               0
1.07895               -0.0309751       -10.87762        -68.80482        117.9453             -200               0             -200               0
1.08553               -0.0319286       -10.97333        -69.10788        115.1309             -200               0             -200               0
1.09211              -0.03293259        -11.0698        -69.42915        112.7605             -200               0             -200               0
1.09868              -0.03399074       -11.16703        -69.76032        110.8961             -200               0             -200               0
1.10526              -0.03510417         -11.265        -70.08931         109.599             -200               0             -200               0
1.11184              -0.03627561       -11.36369         -70.3994        108.9204             -200               0             -200               0
1.11842              -0.03750793       -11.46308        -70.66892        108.8863             -200               0             -200               0
1.125                -0.03879977       -11.56315        -70.87194        109.4792             -200               0             -200               0
1.13158              -0.04015131       -11.66387        -70.98098         110.618             -200               0             -200               0
1.13816              -0.04156123       -11.76524        -70.97175        112.1489             -200               0             -200               0
1.14474              -0.04303076       -11.86722        -70.82893        113.8547             -200               0             -200               0
1.15132              -0.04455463        -11.9698        -70.55048        115.4894             -200               0             -200               0
1.15789              -0.04612972       -12.07298        -70.14829        116.8242             -200               0             -200               0
1.16447              -0.04775429       -12.17675        -69.64463        117.6864             -200               0             -200               0
1.17105              -0.04942484        -12.2811        -69.06647        117.9759             -200               0             -200               0
1.17763              -0.05113507       -12.38603        -68.44029        117.6603             -200               0             -200               0
1.18421              -0.05288168       -12.49156        -67.78887        116.7566             -200               0             -200               0
1.19079              -0.05465898        -12.5977        -67.13005        115.3114             -200               0             -200               0
1.19737              -0.05646593       -12.70446        -66.47684        113.3851             -200               0             -200               0
1.20395              -0.05829477       -12.81188        -65.83825        111.0411             -200               0             -200               0
1.21053              -0.06014351       -12.91998        -65.22017          108.34             -200               0             -200               0
1.21711              -0.06200988        -13.0288        -64.62626        105.3364             -200               0             -200               0
1.22368              -0.06388808       -13.13837        -64.05854        102.0784             -200               0             -200               0
1.23026              -0.06577668       -13.24875          -63.518        98.60755             -200               0             -200               0
1.23684               -0.0676764       -13.35997        -63.00487        94.95942             -200               0             -200               0
1.24342              -0.06958499       -13.47209        -62.51895        91.16438             -200               0             -200               0
1.25                 -0.07150241       -13.58515        -62.05972        87.24841             -200               0             -200               0
1.25658              -0.07343096       -13.69922        -61.62649        83.23381             -200               0             -200               0
1.26316              -0.07537099       -13.81433         -61.2185        79.13985             -200               0             -200               0
1.26974              -0.07732581       -13.93054        -60.83492        74.98332             -200               0             -200               0
1.27632              -0.07930015        -14.0479         -60.4749        70.77896             -200               0             -200               0
1.28289              -0.08129563       -14.16645        -60.13762        66.53988             -200               0             -200               0
1.28947              -0.08332004       -14.28624        -59.82228        62.27784             -200               0             -200               0
1.29605              -0.08537595        -14.4073        -59.52807        58.00354             -200               0             -200               0
1.30263              -0.08747101       -14.52966        -59.25424        53.72683             -200               0             -200               0
1.30921              -0.08961153       -14.65336        -59.00004        49.45689             -200               0             -200               0
1.31579              -0.09180185       -14.77842        -58.76473        45.20239             -200               0             -200               0
1.32237              -0.09404919       -14.90486        -58.54758        40.97162             -200               0             -200               0
1.32895              -0.09635847       -15.03269        -58.34787        36.77258             -200               0             -200               0
1.33553              -0.09873734       -15.16192        -58.16485        32.61306             -200               0             -200               0
1.34211               -0.1011902       -15.29257        -57.99776        28.50075             -200               0             -200               0
1.34868               -0.1037224       -15.42463        -57.84579        24.44324             -200               0             -200               0
1.35526               -0.1063371       -15.55811        -57.70808        20.44807             -200               0             -200               0
1.36184               -0.1090392       -15.69299        -57.58371        16.52272             -200               0             -200               0
1.36842               -0.1118311       -15.82929        -57.47167        12.67465             -200               0             -200               0
1.375                 -0.1147164         -15.967        -57.37085        8.911201             -200               0             -200               0
1.38158               -0.1176942       -16.10611        -57.28001        5.239539             -200               0             -200               0
1.38816               -0.1207661       -16.24663        -57.19779        1.666573             -200               0             -200               0
1.39474                -0.123932       -16.38856        -57.12265       -1.801211             -200               0             -200               0
1.40132                -0.127193       -16.53191        -57.05291       -5.157932             -200               0             -200               0
1.40789               -0.1305455       -16.67669        -56.98668       -8.398548             -200               0             -200               0
1.41447               -0.1339904       -16.82291        -56.92191       -11.51914             -200               0             -200               0
1.42105                -0.137523        -16.9706        -56.85637       -14.51721             -200               0             -200               0
1.42763               -0.1411426       -17.11978        -56.78768       -17.39207             -200               0             -200               0
1.43421               -0.1448494        -17.2705        -56.71333       -20.14515             -200               0             -200               0
1.44079                -0.148638       -17.42279        -56.63073       -22.78035             -200               0             -200               0
1.44737               -0.1525087        -17.5767        -56.53731       -25.30431             -200               0             -200               0
1.45395               -0.1564591        -17.7323        -56.43059       -27.72659             -200               0             -200               0
1.46053                 -0.16049       -17.88964        -56.30825       -30.05967             -200               0             -200               0
1.46711               -0.1646008       -18.04878        -56.16828        -32.3188             -200               0             -200               0
1.47368               -0.1687929       -18.20981        -56.00906       -34.52168             -200               0             -200               0
1.48026               -0.1730677        -18.3728        -55.82942       -36.68781             -200               0             -200               0
1.48684               -0.1774293       -18.53783        -55.62878       -38.83788             -200               0             -200               0
1.49342               -0.1818839       -18.70499        -55.40709       -40.99284             -200               0             -200               0
1.5                   -0.1864332       -18.87435        -55.16489       -43.17311             -200               0             -200               0
1.50658               -0.1910858       -19.04602        -54.90322       -45.39773             -200               0             -200               0
1.51316                -0.195852       -19.22005        -54.62359       -47.68374             -200               0             -200               0
1.51974               -0.2007367       -19.39655        -54.32785       -50.04562             -200               0             -200               0
1.52632               -0.2057534       -19.57558        -54.01813       -52.49501             -200               0             -200               0
1.53289                -0.210914       -19.75723        -53.69669       -55.04062             -200               0             -200               0
1.53947                -0.216228       -19.94155        -53.36584       -57.68833             -200               0             -200               0
1.54605               -0.2217105       -20.12863        -53.02786       -60.44131             -200               0             -200               0
1.55263               -0.2273742       -20.31851        -52.68492       -63.30042             -200               0             -200               0
1.55921               -0.2332335       -20.51125        -52.33908       -66.26452             -200               0             -200               0
1.56579               -0.2393034       -20.70689        -51.99218       -69.33079             -200               0             -200               0
1.57237               -0.2455976       -20.90547        -51.64589       -72.49515             -200               0             -200               0
1.57895               -0.2521304       -21.10703        -51.30167        -75.7525             -200               0             -200               0
1.58553               -0.2589167       -21.31158         -50.9608       -79.09708             -200               0             -200               0
1.59211               -0.2659692       -21.51916        -50.62434       -82.52264             -200               0             -200               0
1.59868               -0.2733001       -21.72978        -50.29321       -86.02265             -200               0             -200               0
1.60526               -0.2809247       -21.94345        -49.96813       -89.59046             -200               0             -200               0
1.61184               -0.2888524       -22.16019         -49.6497       -93.21942             -200               0             -200               0
1.61842                -0.297093          -22.38        -49.33839       -96.90294             -200               0             -200               0
1.625                 -0.3056581        -22.6029        -49.03454       -100.6346             -200               0             -200               0
1.63158                -0.314557        -22.8289        -48.73839       -104.4081             -200               0             -200               0
1.63816               -0.3237965       -23.05802         -48.4501       -108.2175             -200               0             -200               0
1.64474               -0.3333838       -23.29027        -48.16971        -112.057             -200               0             -200               0
1.65132               -0.3433258        -23.5257        -47.89724       -115.9209             -200               0             -200               0
1.65789               -0.3536286       -23.76432         -47.6326       -119.8041             -200               0             -200               0
1.66447               -0.3642965       -24.00619        -47.37567       -123.7014             -200               0             -200               0
1.67105               -0.3753362       -24.25136        -47.12625       -127.6082             -200               0             -200               0
1.67763               -0.3867522       -24.49989        -46.88411       -131.5197             -200               0             -200               0
1.68421               -0.3985494       -24.75186        -46.64895       -135.4319             -200               0             -200               0
1.69079               -0.4107349       -25.00736        -46.42046       -139.3405             -200               0             -200               0
1.69737               -0.4233145       -25.26648        -46.19826        -143.242             -200               0             -200               0
1.70395               -0.4362966       -25.52934        -45.98193       -147.1327             -200               0             -200               0
1.71053               -0.4496888       -25.79605        -45.77103       -151.0096             -200               0             -200               0
1.71711               -0.4635021       -26.06675        -45.56506       -154.8695             -200               0             -200               0
1.72368               -0.4777501        -26.3416        -45.36351       -158.7101             -200               0             -200               0
1.73026               -0.4924464       -26.62073        -45.16581       -162.5289             -200               0             -200               0
1.73684               -0.5076061       -26.90431        -44.97139        -166.324             -200               0             -200               0
1.74342               -0.5232503       -27.19252        -44.77962        -170.094             -200               0             -200               0
1.75                  -0.5394004       -27.48551        -44.58987       -173.8376             -200               0             -200               0
1.75658               -0.5560811       -27.78349        -44.40149       -177.5541             -200               0             -200               0
1.76316               -0.5733184       -28.08661        -44.21381        178.7568             -200               0             -200               0
1.76974               -0.5911429       -28.39507        -44.02615        175.0948             -200               0             -200               0
1.77632               -0.6095896       -28.70905        -43.83785        171.4593             -200               0             -200               0
1.78289               -0.6286931       -29.02872        -43.64822        167.8492             -200               0             -200               0
1.78947                -0.648493       -29.35425        -43.45663        164.2626             -200               0             -200               0
1.79605               -0.6690311       -29.68582        -43.26247        160.6975             -200               0             -200               0
1.80263               -0.6903523       -30.02357        -43.06514        157.1512             -200               0             -200               0
1.80921               -0.7125032       -30.36767        -42.86412        153.6206             -200               0             -200               0
1.81579               -0.7355347       -30.71824        -42.65894         150.102             -200               0             -200               0
1.82237               -0.7594979       -31.07544        -42.44918        146.5916             -200               0             -200               0
1.82895               -0.7844469       -31.43936        -42.23452        143.0853             -200               0             -200               0
1.83553               -0.8104395       -31.81014         -42.0147        139.5784             -200               0             -200               0
1.84211               -0.8375335       -32.18786        -41.78956        136.0664             -200               0             -200               0
1.84868               -0.8657879        -32.5726        -41.55901        132.5446             -200               0             -200               0
