! TOUCHSTONE file generated by CST MICROWAVE STUDIO
! Date and time: Tue Mar 18 00:01:03 2025
! Project name: oblique.cst
! Parameters = {Tilt=30; Fracture=1; B=10; D=160; F=25; Feed=2.85625; L=100; M=30; R=0.384908; S=1; Theta=270; length=57.125; wave=114.25}
! Header version: 2024
! Port assignment regex: !\s*Touchstone port\s*([0-9]+)\s*=\s*(CST MWS port|CST DES external port|CST DES block port)\s*(.+)\s* \(\"(.*)\"\)(\s*mode\s*([0-9]+))?.*
! Touchstone port assignment:
! Touchstone port 1 = CST MWS port 1 ("")
! Touchstone port 2 = CST MWS port 2 ("")
# GHz S DB R 50
1                    -0.02175536       -9.775886        -65.04009        164.9672             -200               0             -200               0
1.0066               -0.02226783       -9.861757        -65.12961        158.8077             -200               0             -200               0
1.0132               -0.02274919       -9.948392        -65.25797        152.7536             -200               0             -200               0
1.0198               -0.02320613       -10.03586        -65.42752        146.8139             -200               0             -200               0
1.0264               -0.02364444        -10.1242        -65.64111        141.0005             -200               0             -200               0
1.033                -0.02407216       -10.21349        -65.90215        135.3299             -200               0             -200               0
1.0396                -0.0244991       -10.30375        -66.21473        129.8237             -200               0             -200               0
1.0462                -0.0249332       -10.39502        -66.58379        124.5109             -200               0             -200               0
1.05281              -0.02538629       -10.48732        -67.01524         119.431             -200               0             -200               0
1.05941              -0.02586839       -10.58066        -67.51613        114.6378             -200               0             -200               0
1.06601              -0.02638937       -10.67505        -68.09482        110.2064             -200               0             -200               0
1.07261              -0.02695931       -10.77047        -68.76095        106.2433             -200               0             -200               0
1.07921              -0.02758757       -10.86691          -69.525        102.9027             -200               0             -200               0
1.08581              -0.02828328       -10.96433        -70.39685        100.4124             -200               0             -200               0
1.09241              -0.02905422       -11.06271        -71.38141        99.11269             -200               0             -200               0
1.09901              -0.02990588       -11.16199        -72.46771        99.50794             -200               0             -200               0
1.10561              -0.03084384       -11.26214        -73.60327        102.2998             -200               0             -200               0
1.11221              -0.03187183        -11.3631         -74.6455        108.2616             -200               0             -200               0
1.11881              -0.03299154       -11.46481        -75.31666        117.6205             -200               0             -200               0
1.12541              -0.03420319       -11.56722         -75.2965        128.9605             -200               0             -200               0
1.13201               -0.0355053       -11.67028        -74.51462        139.3732             -200               0             -200               0
1.13861              -0.03689486       -11.77393        -73.23398        146.7254             -200               0             -200               0
1.14521              -0.03836763       -11.87814        -71.77214        150.7522             -200               0             -200               0
1.15182              -0.03991818       -11.98287        -70.31967        152.1344             -200               0             -200               0
1.15842              -0.04153921       -12.08808        -68.95552        151.6328             -200               0             -200               0
1.16502              -0.04322308       -12.19377        -67.70182        149.8257             -200               0             -200               0
1.17162              -0.04496092       -12.29991         -66.5575         147.109             -200               0             -200               0
1.17822              -0.04674381        -12.4065        -65.51362        143.7481             -200               0             -200               0
1.18482              -0.04856307       -12.51358         -64.5594        139.9221             -200               0             -200               0
1.19142              -0.05041005       -12.62115         -63.6846        135.7544             -200               0             -200               0
1.19802              -0.05227526       -12.72925        -62.88013        131.3321             -200               0             -200               0
1.20462              -0.05415134       -12.83793        -62.13822        126.7179             -200               0             -200               0
1.21122              -0.05603108       -12.94725        -61.45228         121.958             -200               0             -200               0
1.21782              -0.05790906       -13.05727        -60.81677        117.0874             -200               0             -200               0
1.22442              -0.05978148       -13.16806        -60.22699         112.133             -200               0             -200               0
1.23102              -0.06164558       -13.27971        -59.67897        107.1159             -200               0             -200               0
1.23762              -0.06350019       -13.39229        -59.16933        102.0531             -200               0             -200               0
1.24422              -0.06534581       -13.50589        -58.69518        96.95848             -200               0             -200               0
1.25083              -0.06718555       -13.62059        -58.25403        91.84354             -200               0             -200               0
1.25743              -0.06902384       -13.73648        -57.84373        86.71814             -200               0             -200               0
1.26403              -0.07086742       -13.85363        -57.46241        81.59081             -200               0             -200               0
1.27063              -0.07272333       -13.97213        -57.10844        76.46914             -200               0             -200               0
1.27723              -0.07460132       -14.09202        -56.78037        71.35998             -200               0             -200               0
1.28383              -0.07651146       -14.21338        -56.47693        66.26967             -200               0             -200               0
1.29043              -0.07846572       -14.33625        -56.19698        61.20417             -200               0             -200               0
1.29703              -0.08047555       -14.46066         -55.9395        56.16922             -200               0             -200               0
1.30363              -0.08255429       -14.58663        -55.70355        51.17042             -200               0             -200               0
1.31023              -0.08471415       -14.71419        -55.48829        46.21332             -200               0             -200               0
1.31683              -0.08696805       -14.84333        -55.29289        41.30351             -200               0             -200               0
1.32343              -0.08932746       -14.97404        -55.11662        36.44669             -200               0             -200               0
1.33003              -0.09180456       -15.10629        -54.95871        31.64867             -200               0             -200               0
1.33663              -0.09440768       -15.24006        -54.81845        26.91551             -200               0             -200               0
1.34323              -0.09714697       -15.37531        -54.69509        22.25347             -200               0             -200               0
1.34984               -0.1000289       -15.51199        -54.58786        17.66907             -200               0             -200               0
1.35644               -0.1030595       -15.65004        -54.49593        13.16913             -200               0             -200               0
1.36304               -0.1062408       -15.78942        -54.41842        8.760734             -200               0             -200               0
1.36964               -0.1095764       -15.93006        -54.35434        4.451202             -200               0             -200               0
1.37624               -0.1130647       -16.07193        -54.30261       0.2480779             -200               0             -200               0
1.38284               -0.1167038       -16.21495        -54.26197       -3.840979             -200               0             -200               0
1.38944               -0.1204902        -16.3591        -54.23102       -7.808308             -200               0             -200               0
1.39604               -0.1244175       -16.50434        -54.20816       -11.64642             -200               0             -200               0
1.40264               -0.1284794       -16.65065        -54.19154       -15.34823             -200               0             -200               0
1.40924               -0.1326666         -16.798        -54.17911       -18.90735             -200               0             -200               0
1.41584               -0.1369707        -16.9464        -54.16853       -22.31849             -200               0             -200               0
1.42244               -0.1413822       -17.09586        -54.15721       -25.57784             -200               0             -200               0
1.42904               -0.1458911       -17.24642        -54.14232       -28.68367             -200               0             -200               0
1.43564               -0.1504857        -17.3981        -54.12081       -31.63677             -200               0             -200               0
1.44224               -0.1551605       -17.55098        -54.08947       -34.44108             -200               0             -200               0
1.44884               -0.1599033       -17.70513        -54.04506       -37.10411             -200               0             -200               0
1.45545               -0.1647094       -17.86063        -53.98438       -39.63734             -200               0             -200               0
1.46205               -0.1695726       -18.01758        -53.90443       -42.05629             -200               0             -200               0
1.46865               -0.1744894       -18.17609         -53.8026       -44.38048             -200               0             -200               0
1.47525               -0.1794579       -18.33628        -53.67677       -46.63283             -200               0             -200               0
1.48185               -0.1844782       -18.49828         -53.5255       -48.83894             -200               0             -200               0
1.48845               -0.1895552        -18.6622        -53.34808         -51.026             -200               0             -200               0
1.49505                -0.194693       -18.82819        -53.14463       -53.22148             -200               0             -200               0
1.50165               -0.1999011       -18.99637        -52.91604       -55.45188             -200               0             -200               0
1.50825               -0.2051895       -19.16687        -52.66391       -57.74151             -200               0             -200               0
1.51485               -0.2105712        -19.3398        -52.39043       -60.11155             -200               0             -200               0
1.52145               -0.2160628       -19.51528        -52.09822       -62.57939             -200               0             -200               0
1.52805               -0.2216799        -19.6934         -51.7902       -65.15836             -200               0             -200               0
1.53465               -0.2274437       -19.87426        -51.46939       -67.85769             -200               0             -200               0
1.54125               -0.2333727       -20.05792        -51.13882       -70.68277             -200               0             -200               0
1.54785               -0.2394891       -20.24444         -50.8014       -73.63562             -200               0             -200               0
1.55446               -0.2458141       -20.43386        -50.45983       -76.71534             -200               0             -200               0
1.56106               -0.2523709       -20.62621        -50.11658       -79.91874             -200               0             -200               0
1.56766               -0.2591797       -20.82148        -49.77385       -83.24077             -200               0             -200               0
1.57426               -0.2662603       -21.01968        -49.43356       -86.67511             -200               0             -200               0
1.58086               -0.2736356       -21.22077        -49.09735       -90.21449             -200               0             -200               0
1.58746               -0.2813211       -21.42472        -48.76663       -93.85107             -200               0             -200               0
1.59406               -0.2893334       -21.63149        -48.44255       -97.57671             -200               0             -200               0
1.60066               -0.2976865       -21.84102        -48.12608       -101.3831             -200               0             -200               0
1.60726               -0.3063915       -22.05323        -47.81797       -105.2622             -200               0             -200               0
1.61386               -0.3154575       -22.26808        -47.51885       -109.2057             -200               0             -200               0
1.62046               -0.3248895       -22.48548        -47.22916       -113.2059             -200               0             -200               0
1.62706               -0.3346929       -22.70539        -46.94926       -117.2552             -200               0             -200               0
1.63366               -0.3448685       -22.92774        -46.67939       -121.3462             -200               0             -200               0
1.64026               -0.3554113       -23.15249        -46.41968        -125.472             -200               0             -200               0
1.64686               -0.3663179       -23.37961        -46.17021       -129.6259             -200               0             -200               0
1.65347               -0.3775838       -23.60907        -45.93096       -133.8012             -200               0             -200               0
1.66007               -0.3892002        -23.8409        -45.70186       -137.9919             -200               0             -200               0
1.66667                -0.401158        -24.0751         -45.4828       -142.1921             -200               0             -200               0
1.67327                -0.413446       -24.31172        -45.27358       -146.3958             -200               0             -200               0
1.67987               -0.4260545       -24.55084        -45.07399       -150.5976             -200               0             -200               0
1.68647               -0.4389745       -24.79256        -44.88373       -154.7922             -200               0             -200               0
1.69307               -0.4521948       -25.03699        -44.70249       -158.9744             -200               0             -200               0
1.69967               -0.4657104       -25.28428        -44.52988       -163.1391             -200               0             -200               0
1.70627               -0.4795134       -25.53461        -44.36549       -167.2817             -200               0             -200               0
1.71287               -0.4936029       -25.78817        -44.20882       -171.3974             -200               0             -200               0
1.71947               -0.5079764       -26.04517        -44.05935       -175.4819             -200               0             -200               0
1.72607               -0.5226408       -26.30585        -43.91649       -179.5309             -200               0             -200               0
1.73267               -0.5376028       -26.57046         -43.7796        176.4596             -200               0             -200               0
1.73927               -0.5528744       -26.83925        -43.64796        172.4932             -200               0             -200               0
1.74587               -0.5684729       -27.11251         -43.5208        168.5734             -200               0             -200               0
1.75248               -0.5844204        -27.3905        -43.39729         164.703             -200               0             -200               0
1.75908               -0.6007424        -27.6735        -43.27653        160.8847             -200               0             -200               0
1.76568                -0.617471       -27.96178        -43.15756        157.1204             -200               0             -200               0
1.77228               -0.6346421        -28.2556        -43.03935        153.4116             -200               0             -200               0
1.77888                -0.652297       -28.55522        -42.92086         149.759             -200               0             -200               0
1.78548               -0.6704799       -28.86087        -42.80096        146.1625             -200               0             -200               0
1.79208               -0.6892408       -29.17279        -42.67852        142.6213             -200               0             -200               0
1.79868               -0.7086303       -29.49116         -42.5524        139.1336             -200               0             -200               0
1.80528               -0.7287052       -29.81618        -42.42147        135.6966             -200               0             -200               0
1.81188               -0.7495238       -30.14799        -42.28461        132.3065             -200               0             -200               0
1.81848               -0.7711443       -30.48673        -42.14078        128.9586             -200               0             -200               0
1.82508               -0.7936281       -30.83251        -41.98902         125.647             -200               0             -200               0
1.83168               -0.8170376       -31.18542        -41.82846        122.3652             -200               0             -200               0
1.83828               -0.8414349       -31.54551        -41.65838        119.1055             -200               0             -200               0
1.84488               -0.8668823       -31.91284        -41.47822        115.8599             -200               0             -200               0
1.85149               -0.8934409       -32.28742        -41.28758        112.6198             -200               0             -200               0
