! TOUCHSTONE file generated by CST MICROWAVE STUDIO
! Date and time: Tue Mar 18 00:00:42 2025
! Project name: oblique.cst
! Parameters = {Tilt=30; Fracture=1; B=10; D=160; F=5; Feed=2.85625; L=100; M=10; R=0.384908; S=1; Theta=180; length=57.125; wave=114.25}
! Header version: 2024
! Port assignment regex: !\s*Touchstone port\s*([0-9]+)\s*=\s*(CST MWS port|CST DES external port|CST DES block port)\s*(.+)\s* \(\"(.*)\"\)(\s*mode\s*([0-9]+))?.*
! Touchstone port assignment:
! Touchstone port 1 = CST MWS port 1 ("")
! Touchstone port 2 = CST MWS port 2 ("")
# GHz S DB R 50
1                    -0.01782771       -9.787434        -70.01354       -119.5674             -200               0             -200               0
1.0066               -0.01860399       -9.877749        -69.38987       -124.7759             -200               0             -200               0
1.0132               -0.01946072       -9.968444        -68.83014       -130.0229             -200               0             -200               0
1.0198               -0.02039264       -10.05946        -68.32822       -135.2916             -200               0             -200               0
1.0264                -0.0213931       -10.15073        -67.87923       -140.5688             -200               0             -200               0
1.033                -0.02245167       -10.24222        -67.47924       -145.8431             -200               0             -200               0
1.0396               -0.02355757        -10.3339        -67.12513       -151.1049             -200               0             -200               0
1.0462               -0.02470239       -10.42575        -66.81439       -156.3453             -200               0             -200               0
1.05281              -0.02587033       -10.51775        -66.54505       -161.5563             -200               0             -200               0
1.05941              -0.02705173       -10.60991        -66.31555       -166.7295             -200               0             -200               0
1.06601              -0.02823197       -10.70227        -66.12474       -171.8569             -200               0             -200               0
1.07261              -0.02939988       -10.79485        -65.97177       -176.9298             -200               0             -200               0
1.07921              -0.03054427        -10.8877        -65.85611         178.061             -200               0             -200               0
1.08581              -0.03165403        -10.9809        -65.77748        173.1259             -200               0             -200               0
1.09241              -0.03272292       -11.07451        -65.73584        168.2765             -200               0             -200               0
1.09901              -0.03374113       -11.16863        -65.73139        163.5259             -200               0             -200               0
1.10561               -0.0347043       -11.26334        -65.76449        158.8897             -200               0             -200               0
1.11221              -0.03560993       -11.35876         -65.8357        154.3861             -200               0             -200               0
1.11881              -0.03645796       -11.45497        -65.94571        150.0367             -200               0             -200               0
1.12541              -0.03724807        -11.5521        -66.09528        145.8676             -200               0             -200               0
1.13201              -0.03798698       -11.65024        -66.28514        141.9104             -200               0             -200               0
1.13861              -0.03867753       -11.74949        -66.51586        138.2035             -200               0             -200               0
1.14521              -0.03933174       -11.84996        -66.78763        134.7937             -200               0             -200               0
1.15182              -0.03995702       -11.95171        -67.09984        131.7386             -200               0             -200               0
1.15842              -0.04056742       -12.05484        -67.45055         129.108             -200               0             -200               0
1.16502              -0.04117577        -12.1594        -67.83556        126.9856             -200               0             -200               0
1.17162              -0.04179732       -12.26544        -68.24708        125.4691             -200               0             -200               0
1.17822              -0.04244732       -12.37301        -68.67192        124.6668             -200               0             -200               0
1.18482              -0.04314146        -12.4821         -69.0892         124.686             -200               0             -200               0
1.19142               -0.0438955       -12.59274        -69.46827        125.6101             -200               0             -200               0
1.19802              -0.04472672        -12.7049        -69.76824        127.4598             -200               0             -200               0
1.20462              -0.04564656       -12.81857        -69.94172         130.143             -200               0             -200               0
1.21122              -0.04667192        -12.9337        -69.94461        133.4191             -200               0             -200               0
1.21782              -0.04781143       -13.05024        -69.75016        136.9131             -200               0             -200               0
1.22442              -0.04907915       -13.16812        -69.35952        140.1982             -200               0             -200               0
1.23102              -0.05048041       -13.28728        -68.80123        142.9092             -200               0             -200               0
1.23762              -0.05202247       -13.40763        -68.11987        144.8195             -200               0             -200               0
1.24422              -0.05370752        -13.5291        -67.36221        145.8496             -200               0             -200               0
1.25083              -0.05554005        -13.6516        -66.56788         146.028             -200               0             -200               0
1.25743              -0.05751578       -13.77506        -65.76621        145.4422             -200               0             -200               0
1.26403              -0.05963065        -13.8994         -64.9769        144.2012             -200               0             -200               0
1.27063              -0.06188301       -14.02456        -64.21211        142.4133             -200               0             -200               0
1.27723              -0.06425958       -14.15046        -63.47877        140.1757             -200               0             -200               0
1.28383              -0.06675473       -14.27708        -62.78035        137.5722             -200               0             -200               0
1.29043              -0.06935663       -14.40437         -62.1181        134.6723             -200               0             -200               0
1.29703              -0.07205139       -14.53232        -61.49194        131.5338             -200               0             -200               0
1.30363              -0.07482744       -14.66093        -60.90103         128.204             -200               0             -200               0
1.31023              -0.07767297       -14.79021        -60.34406        124.7221             -200               0             -200               0
1.31683              -0.08057206       -14.92021        -59.81953        121.1208             -200               0             -200               0
1.32343              -0.08351355       -15.05097        -59.32582        117.4272             -200               0             -200               0
1.33003              -0.08648545       -15.18255        -58.86133        113.6644             -200               0             -200               0
1.33663              -0.08947804       -15.31505        -58.42445        109.8521             -200               0             -200               0
1.34323              -0.09248223       -15.44855        -58.01364        106.0074             -200               0             -200               0
1.34984              -0.09549358       -15.58318         -57.6274        102.1453             -200               0             -200               0
1.35644              -0.09850641       -15.71904        -57.26427        98.27898             -200               0             -200               0
1.36304               -0.1015214       -15.85627        -56.92284        94.42031             -200               0             -200               0
1.36964               -0.1045369       -15.99499        -56.60173        90.58008             -200               0             -200               0
1.37624               -0.1075594       -16.13533        -56.29958        86.76809             -200               0             -200               0
1.38284               -0.1105951       -16.27742          -56.015        82.99337             -200               0             -200               0
1.38944               -0.1136527       -16.42139        -55.74664        79.26425             -200               0             -200               0
1.39604               -0.1167463       -16.56735        -55.49308        75.58843             -200               0             -200               0
1.40264               -0.1198912       -16.71541        -55.25288        71.97295             -200               0             -200               0
1.40924               -0.1231004       -16.86566        -55.02454        68.42423             -200               0             -200               0
1.41584               -0.1263959       -17.01818        -54.80652        64.94799             -200               0             -200               0
1.42244               -0.1297965       -17.17304        -54.59717         61.5492             -200               0             -200               0
1.42904               -0.1333213       -17.33027        -54.39481        58.23195             -200               0             -200               0
1.43564               -0.1369918       -17.48991        -54.19765        54.99931             -200               0             -200               0
1.44224               -0.1408305       -17.65196        -54.00387        51.85324             -200               0             -200               0
1.44884               -0.1448556       -17.81641        -53.81155        48.79438             -200               0             -200               0
1.45545               -0.1490879       -17.98323        -53.61878        45.82191             -200               0             -200               0
1.46205               -0.1535451       -18.15239        -53.42363        42.93345             -200               0             -200               0
1.46865               -0.1582424       -18.32382        -53.22419        40.12492             -200               0             -200               0
1.47525               -0.1631945       -18.49746        -53.01864        37.39047             -200               0             -200               0
1.48185                -0.168413       -18.67323        -52.80528        34.72253             -200               0             -200               0
1.48845               -0.1739062       -18.85104        -52.58257        32.11186             -200               0             -200               0
1.49505               -0.1796795       -19.03081        -52.34922        29.54778             -200               0             -200               0
1.50165               -0.1857361       -19.21244        -52.10418        27.01834             -200               0             -200               0
1.50825               -0.1920759       -19.39587        -51.84673        24.51075             -200               0             -200               0
1.51485               -0.1986954       -19.58101        -51.57647        22.01173             -200               0             -200               0
1.52145               -0.2055892       -19.76779        -51.29332        19.50792             -200               0             -200               0
1.52805               -0.2127503       -19.95617        -50.99754        16.98637             -200               0             -200               0
1.53465                -0.220168       -20.14611         -50.6897        14.43488             -200               0             -200               0
1.54125               -0.2278296        -20.3376        -50.37063        11.84237             -200               0             -200               0
1.54785               -0.2357247       -20.53064        -50.04138        9.199154             -200               0             -200               0
1.55446               -0.2438355       -20.72526        -49.70317        6.497096             -200               0             -200               0
1.56106               -0.2521531       -20.92151        -49.35734        3.729723             -200               0             -200               0
1.56766                -0.260659       -21.11947        -49.00529       0.8922259             -200               0             -200               0
1.57426                -0.269346       -21.31924        -48.64844       -2.018604             -200               0             -200               0
1.58086               -0.2781989       -21.52093        -48.28819       -5.004483             -200               0             -200               0
1.58746                -0.287213       -21.72469        -47.92589       -8.065792             -200               0             -200               0
1.59406               -0.2963796       -21.93069        -47.56278       -11.20175             -200               0             -200               0
1.60066               -0.3056978        -22.1391        -47.20004       -14.41057             -200               0             -200               0
1.60726               -0.3151671       -22.35012        -46.83873        -17.6897             -200               0             -200               0
1.61386                -0.324793       -22.56395        -46.47978        -21.0359             -200               0             -200               0
1.62046               -0.3345839        -22.7808        -46.12401       -24.44546             -200               0             -200               0
1.62706               -0.3445529        -23.0009        -45.77213       -27.91433             -200               0             -200               0
1.63366               -0.3547167       -23.22443        -45.42475        -31.4382             -200               0             -200               0
1.64026               -0.3650973       -23.45163        -45.08237       -35.01262             -200               0             -200               0
1.64686               -0.3757206       -23.68267        -44.74537       -38.63307             -200               0             -200               0
1.65347               -0.3866152       -23.91775        -44.41406       -42.29507             -200               0             -200               0
1.66007                -0.397814       -24.15703        -44.08869       -45.99415             -200               0             -200               0
1.66667               -0.4093533       -24.40066        -43.76939       -49.72595             -200               0             -200               0
1.67327               -0.4212719       -24.64876        -43.45626       -53.48626             -200               0             -200               0
1.67987               -0.4336093       -24.90144         -43.1493       -57.27101             -200               0             -200               0
1.68647               -0.4464077       -25.15876         -42.8485       -61.07629             -200               0             -200               0
1.69307               -0.4597086       -25.42077        -42.55375       -64.89842             -200               0             -200               0
1.69967               -0.4735561       -25.68749        -42.26494       -68.73388             -200               0             -200               0
1.70627               -0.4879921       -25.95892        -41.98187       -72.57938             -200               0             -200               0
1.71287               -0.5030565       -26.23502        -41.70435       -76.43188             -200               0             -200               0
1.71947               -0.5187885       -26.51574        -41.43211       -80.28851             -200               0             -200               0
1.72607               -0.5352255       -26.80101        -41.16489        -84.1467             -200               0             -200               0
1.73267               -0.5524004       -27.09073        -40.90237        -88.0041             -200               0             -200               0
1.73927               -0.5703441       -27.38481        -40.64423       -91.85859             -200               0             -200               0
1.74587               -0.5890829       -27.68312         -40.3901       -95.70835             -200               0             -200               0
1.75248               -0.6086413       -27.98556        -40.13961        -99.5518             -200               0             -200               0
1.75908               -0.6290388       -28.29201        -39.89239       -103.3876             -200               0             -200               0
1.76568               -0.6502911       -28.60236        -39.64801       -107.2149             -200               0             -200               0
1.77228               -0.6724098       -28.91652        -39.40609       -111.0328             -200               0             -200               0
1.77888               -0.6954054       -29.23439        -39.16619       -114.8409             -200               0             -200               0
1.78548               -0.7192825       -29.55592        -38.92792       -118.6391             -200               0             -200               0
1.79208               -0.7440449       -29.88107        -38.69085       -122.4275             -200               0             -200               0
1.79868               -0.7696953       -30.20983        -38.45459       -126.2065             -200               0             -200               0
1.80528               -0.7962334       -30.54223        -38.21875        -129.977             -200               0             -200               0
1.81188                -0.823661       -30.87832        -37.98295       -133.7399             -200               0             -200               0
1.81848               -0.8519778       -31.21819        -37.74685       -137.4965             -200               0             -200               0
1.82508               -0.8811876       -31.56197        -37.51012       -141.2483             -200               0             -200               0
1.83168               -0.9112948       -31.90985        -37.27246       -144.9971             -200               0             -200               0
1.83828               -0.9423081       -32.26201        -37.03361       -148.7448             -200               0             -200               0
1.84488               -0.9742409        -32.6187        -36.79336       -152.4935             -200               0             -200               0
1.85149                -1.007111       -32.98019        -36.55151       -156.2456             -200               0             -200               0
