! TOUCHSTONE file generated by CST MICROWAVE STUDIO
! Date and time: Tue Mar 18 00:02:27 2025
! Project name: oblique.cst
! Parameters = {Tilt=40; Fracture=1; B=10; D=160; F=25; Feed=2.85625; L=100; M=30; R=0.384908; S=2; Theta=180; length=57.125; wave=114.25}
! Header version: 2024
! Port assignment regex: !\s*Touchstone port\s*([0-9]+)\s*=\s*(CST MWS port|CST DES external port|CST DES block port)\s*(.+)\s* \(\"(.*)\"\)(\s*mode\s*([0-9]+))?.*
! Touchstone port assignment:
! Touchstone port 1 = CST MWS port 1 ("")
! Touchstone port 2 = CST MWS port 2 ("")
# GHz S DB R 50
1                    -0.02172438       -9.782534        -66.05524        164.3287             -200               0             -200               0
1.0066               -0.02220951       -9.868466         -66.0794        158.5835             -200               0             -200               0
1.0132               -0.02265816       -9.955222         -66.1367        152.9498             -200               0             -200               0
1.0198                -0.0230763       -10.04287        -66.22812        147.4378             -200               0             -200               0
1.0264               -0.02347308       -10.13149        -66.35488        142.0601             -200               0             -200               0
1.033                 -0.0238585       -10.22112        -66.51837        136.8327             -200               0             -200               0
1.0396               -0.02424267       -10.31181        -66.72014        131.7759             -200               0             -200               0
1.0462               -0.02463815       -10.40359        -66.96193        126.9151             -200               0             -200               0
1.05281              -0.02505628       -10.49649        -67.24556        122.2822             -200               0             -200               0
1.05941              -0.02551025       -10.59052         -67.5728        117.9178             -200               0             -200               0
1.06601              -0.02601211       -10.68567        -67.94521        113.8731             -200               0             -200               0
1.07261              -0.02657417       -10.78193        -68.36372        110.2135             -200               0             -200               0
1.07921              -0.02720762       -10.87926        -68.82798        107.0215             -200               0             -200               0
1.08581              -0.02792239       -10.97764        -69.33529        104.4011             -200               0             -200               0
1.09241              -0.02872778         -11.077        -69.87875        102.4804             -200               0             -200               0
1.09901              -0.02963003       -11.17729        -70.44453        101.4098             -200               0             -200               0
1.10561              -0.03063637       -11.27846        -71.00789        101.3513             -200               0             -200               0
1.11221              -0.03175043       -11.38043        -71.52888        102.4451             -200               0             -200               0
1.11881              -0.03297388       -11.48313        -71.95001        104.7452             -200               0             -200               0
1.12541              -0.03430636        -11.5865        -72.20153        108.1271             -200               0             -200               0
1.13201              -0.03574542       -11.69046        -72.21953        112.2168             -200               0             -200               0
1.13861              -0.03728744       -11.79495        -71.97232        116.4291             -200               0             -200               0
1.14521              -0.03892662       -11.89992        -71.47682        120.1444             -200               0             -200               0
1.15182              -0.04065633       -12.00532         -70.7895        122.9111             -200               0             -200               0
1.15842              -0.04246649        -12.1111        -69.98067        124.5307             -200               0             -200               0
1.16502              -0.04434779       -12.21725        -69.11262         125.012             -200               0             -200               0
1.17162              -0.04628988       -12.32374        -68.23062        124.4775             -200               0             -200               0
1.17822              -0.04828046       -12.43057        -67.36358        123.0877             -200               0             -200               0
1.18482              -0.05031047       -12.53776         -66.5281        120.9995             -200               0             -200               0
1.19142              -0.05236649       -12.64532        -65.73272        118.3497             -200               0             -200               0
1.19802              -0.05443792       -12.75331        -64.98102        115.2506             -200               0             -200               0
1.20462              -0.05651571       -12.86177        -64.27374        111.7925             -200               0             -200               0
1.21122              -0.05859082       -12.97077        -63.61003        108.0473             -200               0             -200               0
1.21782              -0.06065441       -13.08038        -62.98825        104.0721             -200               0             -200               0
1.22442               -0.0627045       -13.19068         -62.4064        99.91243             -200               0             -200               0
1.23102              -0.06473419       -13.30176        -61.86239        95.60491             -200               0             -200               0
1.23762              -0.06674193       -13.41373        -61.35414        91.17934             -200               0             -200               0
1.24422              -0.06873049       -13.52667        -60.87972        86.66018             -200               0             -200               0
1.25083               -0.0706997       -13.64068        -60.43733        82.06775             -200               0             -200               0
1.25743               -0.0726552       -13.75587         -60.0253        77.41921             -200               0             -200               0
1.26403              -0.07460452       -13.87231        -59.64214        72.72923             -200               0             -200               0
1.27063              -0.07655513        -13.9901         -59.2865        68.01053             -200               0             -200               0
1.27723              -0.07851707        -14.1093        -58.95716        63.27436             -200               0             -200               0
1.28383              -0.08050421       -14.22999        -58.65303        58.53082             -200               0             -200               0
1.29043              -0.08252737       -14.35223         -58.3731        53.78912             -200               0             -200               0
1.29703              -0.08460033       -14.47603        -58.11646        49.05787             -200               0             -200               0
1.30363              -0.08673793       -14.60145        -57.88231        44.34519             -200               0             -200               0
1.31023              -0.08895577       -14.72848        -57.66987        39.65891             -200               0             -200               0
1.31683              -0.09126487       -14.85714        -57.47843        35.00673             -200               0             -200               0
1.32343              -0.09368132       -14.98739        -57.30732        30.39629             -200               0             -200               0
1.33003              -0.09621811       -15.11922        -57.15589        25.83529             -200               0             -200               0
1.33663              -0.09888364       -15.25259        -57.02347         21.3316             -200               0             -200               0
1.34323               -0.1016914       -15.38745        -56.90941        16.89331             -200               0             -200               0
1.34984               -0.1046465       -15.52374        -56.81302        12.52884             -200               0             -200               0
1.35644                -0.107755       -15.66139        -56.73354         8.24693             -200               0             -200               0
1.36304               -0.1110214       -15.80036        -56.67014        4.056744             -200               0             -200               0
1.36964               -0.1144485       -15.94056         -56.6219     -0.03215347             -200               0             -200               0
1.37624               -0.1180324       -16.08193        -56.58773       -4.009802             -200               0             -200               0
1.38284                -0.121774       -16.22442        -56.56638       -7.865902             -200               0             -200               0
1.38944               -0.1256654       -16.36796         -56.5564       -11.58992             -200               0             -200               0
1.39604               -0.1296997       -16.51252        -56.55605       -15.17127             -200               0             -200               0
1.40264               -0.1338705       -16.65806        -56.56332       -18.59955             -200               0             -200               0
1.40924               -0.1381654       -16.80457        -56.57585       -21.86497             -200               0             -200               0
1.41584               -0.1425743       -16.95202        -56.59088       -24.95878             -200               0             -200               0
1.42244               -0.1470861       -17.10044        -56.60529       -27.87391             -200               0             -200               0
1.42904               -0.1516873       -17.24986        -56.61553       -30.60577             -200               0             -200               0
1.43564               -0.1563674       -17.40032        -56.61771       -33.15303             -200               0             -200               0
1.44224               -0.1611141       -17.55188        -56.60763       -35.51863             -200               0             -200               0
1.44884               -0.1659158       -17.70462        -56.58094       -37.71055             -200               0             -200               0
1.45545               -0.1707653       -17.85863        -56.53329       -39.74256             -200               0             -200               0
1.46205               -0.1756554       -18.01402        -56.46058       -41.63453             -200               0             -200               0
1.46865               -0.1805778       -18.17091        -56.35922       -43.41233             -200               0             -200               0
1.47525               -0.1855335       -18.32944        -56.22636       -45.10711             -200               0             -200               0
1.48185               -0.1905183       -18.48974        -56.06017       -46.75389             -200               0             -200               0
1.48845                -0.195537       -18.65195        -55.85994        -48.3898             -200               0             -200               0
1.49505               -0.2005942       -18.81623        -55.62618       -50.05194             -200               0             -200               0
1.50165               -0.2056976        -18.9827        -55.36052       -51.77522             -200               0             -200               0
1.50825               -0.2108588       -19.15152        -55.06558       -53.59059             -200               0             -200               0
1.51485               -0.2160896       -19.32282        -54.74473       -55.52368             -200               0             -200               0
1.52145               -0.2214077       -19.49672        -54.40185       -57.59413             -200               0             -200               0
1.52805               -0.2268314       -19.67334        -54.04102       -59.81544             -200               0             -200               0
1.53465               -0.2323786       -19.85278        -53.66632       -62.19532             -200               0             -200               0
1.54125               -0.2380731       -20.03511        -53.28168       -64.73647             -200               0             -200               0
1.54785               -0.2439361       -20.22041         -52.8907       -67.43734             -200               0             -200               0
1.55446               -0.2499929       -20.40871         -52.4966       -70.29313             -200               0             -200               0
1.56106               -0.2562643       -20.60006        -52.10221       -73.29661             -200               0             -200               0
1.56766               -0.2627754       -20.79446        -51.70991       -76.43888             -200               0             -200               0
1.57426               -0.2695477       -20.99191        -51.32171       -79.71003             -200               0             -200               0
1.58086               -0.2766031       -21.19239        -50.93927       -83.09956             -200               0             -200               0
1.58746               -0.2839601       -21.39586         -50.5639       -86.59685             -200               0             -200               0
1.59406               -0.2916367       -21.60227        -50.19664       -90.19135             -200               0             -200               0
1.60066               -0.2996474       -21.81156        -49.83829        -93.8728             -200               0             -200               0
1.60726               -0.3080053       -22.02367        -49.48943       -97.63134             -200               0             -200               0
1.61386               -0.3167201       -22.23854        -49.15048       -101.4576             -200               0             -200               0
1.62046               -0.3257978       -22.45608        -48.82171       -105.3427             -200               0             -200               0
1.62706               -0.3352434       -22.67624        -48.50325       -109.2784             -200               0             -200               0
1.63366               -0.3450571       -22.89896        -48.19516       -113.2567             -200               0             -200               0
1.64026               -0.3552372       -23.12418        -47.89737       -117.2703             -200               0             -200               0
1.64686               -0.3657791       -23.35189        -47.60976       -121.3123             -200               0             -200               0
1.65347               -0.3766777       -23.58205        -47.33215       -125.3764             -200               0             -200               0
1.66007               -0.3879242       -23.81467        -47.06429       -129.4565             -200               0             -200               0
1.66667               -0.3995077       -24.04976        -46.80588       -133.5469             -200               0             -200               0
1.67327               -0.4114204       -24.28739        -46.55659       -137.6423             -200               0             -200               0
1.67987               -0.4236501       -24.52762        -46.31604        -141.738             -200               0             -200               0
1.68647               -0.4361871       -24.77056         -46.0838       -145.8291             -200               0             -200               0
1.69307               -0.4490226       -25.01631        -45.85942       -149.9116             -200               0             -200               0
1.69967               -0.4621472       -25.26505        -45.64242       -153.9813             -200               0             -200               0
1.70627               -0.4755552       -25.51693        -45.43225       -158.0347             -200               0             -200               0
1.71287               -0.4892463       -25.77216        -45.22838       -162.0684             -200               0             -200               0
1.71947                -0.503217       -26.03097        -45.03019       -166.0795             -200               0             -200               0
1.72607               -0.5174738       -26.29359        -44.83708       -170.0652             -200               0             -200               0
1.73267                -0.532025       -26.56027        -44.64838       -174.0233             -200               0             -200               0
1.73927               -0.5468799       -26.83128        -44.46342       -177.9519             -200               0             -200               0
1.74587               -0.5620582       -27.10689         -44.2815        178.1505             -200               0             -200               0
1.75248               -0.5775811        -27.3874        -44.10188         174.285             -200               0             -200               0
1.75908               -0.5934761       -27.67307        -43.92382        170.4522             -200               0             -200               0
1.76568               -0.6097722       -27.96417        -43.74657         166.652             -200               0             -200               0
1.77228               -0.6265086         -28.261        -43.56938        162.8843             -200               0             -200               0
1.77888               -0.6437247       -28.56379         -43.3915        159.1479             -200               0             -200               0
1.78548               -0.6614658       -28.87279        -43.21218        155.4413             -200               0             -200               0
1.79208                 -0.67978       -29.18823        -43.03071        151.7626             -200               0             -200               0
1.79868               -0.6987202       -29.51032        -42.84642         148.109             -200               0             -200               0
1.80528               -0.7183406       -29.83925        -42.65868        144.4775             -200               0             -200               0
1.81188               -0.7386994       -30.17518        -42.46692        140.8645             -200               0             -200               0
1.81848               -0.7598544       -30.51825        -42.27062         137.266             -200               0             -200               0
1.82508               -0.7818656       -30.86858        -42.06937        133.6773             -200               0             -200               0
1.83168               -0.8047953       -31.22628        -41.86282        130.0939             -200               0             -200               0
1.83828                -0.828705       -31.59142        -41.65073        126.5107             -200               0             -200               0
1.84488               -0.8536539       -31.96406        -41.43294        122.9226             -200               0             -200               0
1.85149               -0.8797043       -32.34426        -41.20939        119.3244             -200               0             -200               0
