! TOUCHSTONE file generated by CST MICROWAVE STUDIO
! Date and time: Tue Mar 18 00:02:29 2025
! Project name: oblique.cst
! Parameters = {Tilt=40; Fracture=1; B=10; D=160; F=25; Feed=2.85625; L=100; M=50; R=0.384908; S=2; Theta=270; length=57.125; wave=114.25}
! Header version: 2024
! Port assignment regex: !\s*Touchstone port\s*([0-9]+)\s*=\s*(CST MWS port|CST DES external port|CST DES block port)\s*(.+)\s* \(\"(.*)\"\)(\s*mode\s*([0-9]+))?.*
! Touchstone port assignment:
! Touchstone port 1 = CST MWS port 1 ("")
! Touchstone port 2 = CST MWS port 2 ("")
# GHz S DB R 50
1                    -0.01979918       -9.820853        -69.34923        137.7113             -200               0             -200               0
1.0076               -0.02090003       -9.921768        -69.33128        132.3656             -200               0             -200               0
1.01521              -0.02199522       -10.02312        -69.33264         127.104             -200               0             -200               0
1.02281              -0.02307771       -10.12496        -69.35358        121.9325             -200               0             -200               0
1.03042               -0.0241418       -10.22735        -69.39438        116.8587             -200               0             -200               0
1.03802              -0.02517934       -10.33035        -69.45533        111.8912             -200               0             -200               0
1.04563              -0.02618828       -10.43404        -69.53674        107.0401             -200               0             -200               0
1.05323              -0.02716628       -10.53851        -69.63885        102.3175             -200               0             -200               0
1.06084              -0.02810925       -10.64383        -69.76185        97.73745             -200               0             -200               0
1.06844              -0.02901968        -10.7501        -69.90579        93.31619             -200               0             -200               0
1.07605              -0.02989805       -10.85739        -70.07057        89.07283             -200               0             -200               0
1.08365              -0.03074987        -10.9658        -70.25577        85.02947             -200               0             -200               0
1.09125              -0.03158175       -11.07541        -70.46058        81.21164             -200               0             -200               0
1.09886              -0.03239776       -11.18629         -70.6836        77.64853             -200               0             -200               0
1.10646              -0.03320834       -11.29853        -70.92261        74.37307             -200               0             -200               0
1.11407              -0.03402301       -11.41218        -71.17427        71.42162             -200               0             -200               0
1.12167              -0.03485262       -11.52731        -71.43376        68.83302             -200               0             -200               0
1.12928              -0.03570981       -11.64395        -71.69432        66.64657             -200               0             -200               0
1.13688              -0.03660486       -11.76215        -71.94687        64.89851             -200               0             -200               0
1.14449              -0.03755313       -11.88192        -72.17966        63.61646             -200               0             -200               0
1.15209               -0.0385672       -12.00329        -72.37825        62.81162             -200               0             -200               0
1.1597               -0.03965879       -12.12626        -72.52601        62.46949             -200               0             -200               0
1.1673               -0.04084064       -12.25082         -72.6055        62.54081             -200               0             -200               0
1.1749               -0.04212429       -12.37695        -72.60064        62.93641             -200               0             -200               0
1.18251              -0.04351991       -12.50463        -72.49941        63.52984             -200               0             -200               0
1.19011              -0.04503973       -12.63382        -72.29636        64.16985             -200               0             -200               0
1.19772              -0.04668815       -12.76448        -71.99379        64.70076             -200               0             -200               0
1.20532              -0.04847532       -12.89655         -71.6012        64.98432             -200               0             -200               0
1.21293              -0.05040455       -13.03001        -71.13325         64.9158             -200               0             -200               0
1.22053              -0.05247824       -13.16478        -70.60701        64.43055             -200               0             -200               0
1.22814              -0.05470162       -13.30081        -70.03951        63.50145             -200               0             -200               0
1.23574              -0.05707226       -13.43807          -69.446        62.13097             -200               0             -200               0
1.24335              -0.05958781       -13.57649        -68.83919        60.34159             -200               0             -200               0
1.25095              -0.06224754       -13.71605        -68.22903        58.16736             -200               0             -200               0
1.25856              -0.06504474        -13.8567        -67.62301        55.64738             -200               0             -200               0
1.26616              -0.06797492       -13.99843        -67.02648        52.82155             -200               0             -200               0
1.27376              -0.07103201       -14.14121        -66.44317          49.728             -200               0             -200               0
1.28137              -0.07420623       -14.28504        -65.87553        46.40178             -200               0             -200               0
1.28897              -0.07749109       -14.42994        -65.32506        42.87435             -200               0             -200               0
1.29658              -0.08087707       -14.57592        -64.79259        39.17351             -200               0             -200               0
1.30418              -0.08435641       -14.72303        -64.27848        35.32362             -200               0             -200               0
1.31179              -0.08792114       -14.87129        -63.78272        31.34592             -200               0             -200               0
1.31939              -0.09156449       -15.02078        -63.30508         27.2589             -200               0             -200               0
1.327                -0.09528092       -15.17157        -62.84519        23.07864             -200               0             -200               0
1.3346               -0.09906377       -15.32374        -62.40255        18.81918             -200               0             -200               0
1.34221               -0.1029101       -15.47738        -61.97661         14.4928             -200               0             -200               0
1.34981               -0.1068195        -15.6326        -61.56679        10.11026             -200               0             -200               0
1.35741               -0.1107906       -15.78949        -61.17249         5.68108             -200               0             -200               0
1.36502               -0.1148259       -15.94817        -60.79308        1.213662             -200               0             -200               0
1.37262               -0.1189303       -16.10876        -60.42797       -3.284494             -200               0             -200               0
1.38023               -0.1231099       -16.27136        -60.07655       -7.806682             -200               0             -200               0
1.38783               -0.1273735       -16.43611        -59.73824       -12.34686             -200               0             -200               0
1.39544               -0.1317315       -16.60309        -59.41246       -16.89957             -200               0             -200               0
1.40304               -0.1361977       -16.77242        -59.09863       -21.45984             -200               0             -200               0
1.41065               -0.1407864       -16.94419        -58.79621       -26.02312             -200               0             -200               0
1.41825               -0.1455139       -17.11849        -58.50464       -30.58525             -200               0             -200               0
1.42586               -0.1503976        -17.2954        -58.22338       -35.14237             -200               0             -200               0
1.43346               -0.1554572       -17.47498         -57.9519       -39.69095             -200               0             -200               0
1.44106               -0.1607114       -17.65728        -57.68965       -44.22768             -200               0             -200               0
1.44867               -0.1661832       -17.84233        -57.43611        -48.7495             -200               0             -200               0
1.45627               -0.1718912       -18.03017        -57.19074       -53.25359             -200               0             -200               0
1.46388               -0.1778575       -18.22079          -56.953       -57.73732             -200               0             -200               0
1.47148               -0.1841008        -18.4142        -56.72233       -62.19828             -200               0             -200               0
1.47909               -0.1906404       -18.61038        -56.49819       -66.63426             -200               0             -200               0
1.48669               -0.1974945       -18.80929        -56.28001       -71.04325             -200               0             -200               0
1.4943                -0.2046815        -19.0109        -56.06722       -75.42347             -200               0             -200               0
1.5019                -0.2122164       -19.21516        -55.85922       -79.77335             -200               0             -200               0
1.50951               -0.2201111       -19.42201        -55.65542       -84.09156             -200               0             -200               0
1.51711               -0.2283771        -19.6314        -55.45521       -88.37704             -200               0             -200               0
1.52471               -0.2370247       -19.84325        -55.25796       -92.62898             -200               0             -200               0
1.53232               -0.2460611        -20.0575        -55.06304       -96.84689             -200               0             -200               0
1.53992               -0.2554906        -20.2741        -54.86982       -101.0306             -200               0             -200               0
1.54753               -0.2653168       -20.49299        -54.67764       -105.1801             -200               0             -200               0
1.55513               -0.2755396       -20.71412        -54.48587       -109.2961             -200               0             -200               0
1.56274               -0.2861586       -20.93745        -54.29387       -113.3794             -200               0             -200               0
1.57034               -0.2971699       -21.16295          -54.101       -117.4311             -200               0             -200               0
1.57795               -0.3085704       -21.39061        -53.90665        -121.453             -200               0             -200               0
1.58555               -0.3203552       -21.62043        -53.71023        -125.447             -200               0             -200               0
1.59316                -0.332517       -21.85244        -53.51117       -129.4155             -200               0             -200               0
1.60076                -0.345051       -22.08666        -53.30895       -133.3614             -200               0             -200               0
1.60837               -0.3579505       -22.32317        -53.10309       -137.2877             -200               0             -200               0
1.61597               -0.3712096       -22.56201        -52.89316       -141.1979             -200               0             -200               0
1.62357               -0.3848246       -22.80331        -52.67878       -145.0957             -200               0             -200               0
1.63118               -0.3987905       -23.04716        -52.45966        -148.985             -200               0             -200               0
1.63878               -0.4131069       -23.29369        -52.23554       -152.8702             -200               0             -200               0
1.64639               -0.4277735       -23.54306        -52.00626       -156.7553             -200               0             -200               0
1.65399               -0.4427937       -23.79543        -51.77173       -160.6447             -200               0             -200               0
1.6616                -0.4581732       -24.05096        -51.53193       -164.5427             -200               0             -200               0
1.6692                -0.4739207       -24.30984         -51.2869       -168.4536             -200               0             -200               0
1.67681               -0.4900475       -24.57226        -51.03676       -172.3815             -200               0             -200               0
1.68441               -0.5065707       -24.83842        -50.78171       -176.3304             -200               0             -200               0
1.69202               -0.5235084       -25.10852        -50.52198         179.696             -200               0             -200               0
1.69962               -0.5408834       -25.38276        -50.25787        175.6944             -200               0             -200               0
1.70722               -0.5587202       -25.66132        -49.98973        171.6615             -200               0             -200               0
1.71483               -0.5770509       -25.94441        -49.71792        167.5946             -200               0             -200               0
1.72243               -0.5959077       -26.23221        -49.44288        163.4912             -200               0             -200               0
1.73004                -0.615324       -26.52487        -49.16501        159.3492             -200               0             -200               0
1.73764               -0.6353404       -26.82257        -48.88478        155.1669             -200               0             -200               0
1.74525               -0.6559975       -27.12544        -48.60263        150.9429             -200               0             -200               0
1.75285               -0.6773371       -27.43362        -48.31902        146.6762             -200               0             -200               0
1.76046               -0.6994051       -27.74721         -48.0344        142.3658             -200               0             -200               0
1.76806                -0.722245       -28.06631        -47.74922        138.0115             -200               0             -200               0
1.77567               -0.7459056         -28.391         -47.4639         133.613             -200               0             -200               0
1.78327               -0.7704324       -28.72133        -47.17885        129.1703             -200               0             -200               0
1.79087               -0.7958734       -29.05736        -46.89448        124.6837             -200               0             -200               0
1.79848                -0.822275       -29.39913        -46.61115        120.1536             -200               0             -200               0
1.80608               -0.8496835       -29.74664        -46.32922        115.5807             -200               0             -200               0
1.81369                -0.878144       -30.09993          -46.049        110.9657             -200               0             -200               0
1.82129                -0.907702         -30.459        -45.77082        106.3094             -200               0             -200               0
1.8289                -0.9383998       -30.82384        -45.49495        101.6128             -200               0             -200               0
1.8365                -0.9702799       -31.19447        -45.22166        96.87691             -200               0             -200               0
1.84411                -1.003383       -31.57091        -44.95117        92.10287             -200               0             -200               0
1.85171                 -1.03775       -31.95316        -44.68372        87.29178             -200               0             -200               0
1.85932                -1.073418       -32.34125        -44.41949        82.44481             -200               0             -200               0
1.86692                -1.110429       -32.73524        -44.15866        77.56313             -200               0             -200               0
1.87452                -1.148819       -33.13517        -43.90141        72.64795             -200               0             -200               0
1.88213                 -1.18863       -33.54114        -43.64786        67.70043             -200               0             -200               0
1.88973                -1.229902       -33.95324        -43.39815        62.72178             -200               0             -200               0
1.89734                -1.272676       -34.37162         -43.1524        57.71315             -200               0             -200               0
1.90494                -1.316998       -34.79643         -42.9107        52.67569             -200               0             -200               0
1.91255                -1.362919       -35.22787        -42.67315        47.61052             -200               0             -200               0
1.92015                -1.410488       -35.66615        -42.43982        42.51875             -200               0             -200               0
1.92776                -1.459767       -36.11153        -42.21078        37.40145             -200               0             -200               0
1.93536                 -1.51082       -36.56427        -41.98609        32.25966             -200               0             -200               0
1.94297                -1.563719        -37.0247         -41.7658        27.09439             -200               0             -200               0
1.95057                -1.618544       -37.49315        -41.54996        21.90661             -200               0             -200               0
1.95817                -1.675387       -37.96996        -41.33859        16.69727             -200               0             -200               0
1.96578                -1.734349       -38.45552        -41.13174        11.46728             -200               0             -200               0
1.97338                -1.795541       -38.95019        -40.92942        6.217524             -200               0             -200               0
1.98099                -1.859089        -39.4544        -40.73166       0.9488389             -200               0             -200               0
