! TOUCHSTONE file generated by CST MICROWAVE STUDIO
! Date and time: Tue Mar 18 00:01:47 2025
! Project name: oblique.cst
! Parameters = {Tilt=30; Fracture=1; B=12.5; D=160; F=25; Feed=2.85625; L=100; M=30; R=0.384908; S=2; Theta=90; length=57.125; wave=114.25}
! Header version: 2024
! Port assignment regex: !\s*Touchstone port\s*([0-9]+)\s*=\s*(CST MWS port|CST DES external port|CST DES block port)\s*(.+)\s* \(\"(.*)\"\)(\s*mode\s*([0-9]+))?.*
! Touchstone port assignment:
! Touchstone port 1 = CST MWS port 1 ("")
! Touchstone port 2 = CST MWS port 2 ("")
# GHz S DB R 50
1                    -0.02145235        -9.79195        -66.81895        164.7324             -200               0             -200               0
1.00658              -0.02197487       -9.877977        -66.80754        159.2532             -200               0             -200               0
1.01316              -0.02246543       -9.964778        -66.82663        153.8862             -200               0             -200               0
1.01974              -0.02293167       -10.05242        -66.87666        148.6416             -200               0             -200               0
1.02632              -0.02337876       -10.14096        -66.95818        143.5321             -200               0             -200               0
1.03289              -0.02381522       -10.23045        -67.07177        138.5731             -200               0             -200               0
1.03947              -0.02425063       -10.32095        -67.21808        133.7834             -200               0             -200               0
1.04605              -0.02469349       -10.41247         -67.3977         129.186             -200               0             -200               0
1.05263              -0.02515711       -10.50505        -67.61108        124.8088             -200               0             -200               0
1.05921              -0.02565088        -10.5987        -67.85841        120.6857             -200               0             -200               0
1.06579              -0.02618562       -10.69342        -68.13935        116.8576             -200               0             -200               0
1.07237              -0.02677301       -10.78921        -68.45272         113.374             -200               0             -200               0
1.07895              -0.02742285       -10.88605        -68.79596        110.2935             -200               0             -200               0
1.08553              -0.02814482       -10.98391        -69.16445        107.6848             -200               0             -200               0
1.09211              -0.02894631       -11.08274        -69.55041        105.6249             -200               0             -200               0
1.09868              -0.02983694       -11.18251        -69.94168        104.1955             -200               0             -200               0
1.10526              -0.03082037       -11.28317        -70.32023        103.4726             -200               0             -200               0
1.11184              -0.03190253       -11.38465        -70.66108        103.5094             -200               0             -200               0
1.11842              -0.03308478        -11.4869        -70.93246        104.3095             -200               0             -200               0
1.125                -0.03436905       -11.58986        -71.09867        105.7955             -200               0             -200               0
1.13158              -0.03575314       -11.69346        -71.12648        107.7878             -200               0             -200               0
1.13816              -0.03723532       -11.79766        -70.99394        110.0126             -200               0             -200               0
1.14474              -0.03881263       -11.90239        -70.69759        112.1492             -200               0             -200               0
1.15132              -0.04047688       -12.00762        -70.25371        113.9014             -200               0             -200               0
1.15789              -0.04222257        -12.1133        -69.69264        115.0558             -200               0             -200               0
1.16447              -0.04404193       -12.21941        -69.04996        115.5033             -200               0             -200               0
1.17105              -0.04592476       -12.32593        -68.35903        115.2246             -200               0             -200               0
1.17763              -0.04786201       -12.43285          -67.647        114.2603             -200               0             -200               0
1.18421              -0.04984419       -12.54018        -66.93391        112.6822             -200               0             -200               0
1.19079              -0.05186092       -12.64793        -66.23349        110.5722             -200               0             -200               0
1.19737              -0.05390135       -12.75614        -65.55458        108.0106             -200               0             -200               0
1.20395              -0.05595824       -12.86484         -64.9025        105.0702             -200               0             -200               0
1.21053               -0.0580231        -12.9741        -64.28016        101.8141             -200               0             -200               0
1.21711              -0.06008737       -13.08397        -63.68886        98.29612             -200               0             -200               0
1.22368              -0.06214691       -13.19452         -63.1289        94.56157             -200               0             -200               0
1.23026              -0.06419682       -13.30584        -62.59994        90.64834             -200               0             -200               0
1.23684              -0.06623438       -13.41801        -62.10129        86.58818             -200               0             -200               0
1.24342              -0.06825901        -13.5311        -61.63203        82.40785             -200               0             -200               0
1.25                 -0.07027285       -13.64523        -61.19115        78.12997             -200               0             -200               0
1.25658              -0.07227838       -13.76047        -60.77762         73.7739             -200               0             -200               0
1.26316              -0.07428095       -13.87691        -60.39042        69.35628             -200               0             -200               0
1.26974              -0.07628834       -13.99464        -60.02856        64.89164             -200               0             -200               0
1.27632              -0.07830789       -14.11372        -59.69111         60.3928             -200               0             -200               0
1.28289              -0.08034985       -14.23422        -59.37719        55.87121             -200               0             -200               0
1.28947              -0.08242584       -14.35621        -59.08598        51.33724             -200               0             -200               0
1.29605              -0.08454807       -14.47971        -58.81669        46.80044             -200               0             -200               0
1.30263              -0.08672945       -14.60479        -58.56859        42.26973             -200               0             -200               0
1.30921              -0.08898346       -14.73144          -58.341        37.75355             -200               0             -200               0
1.31579              -0.09132316       -14.85968        -58.13326        33.26004             -200               0             -200               0
1.32237              -0.09376039       -14.98952        -57.94472        28.79713             -200               0             -200               0
1.32895              -0.09631013       -15.12092        -57.77477        24.37265             -200               0             -200               0
1.33553              -0.09898057       -15.25387        -57.62275        19.99445             -200               0             -200               0
1.34211               -0.1017844       -15.38833        -57.48803        15.67042             -200               0             -200               0
1.34868               -0.1047296       -15.52425        -57.36991        11.40864             -200               0             -200               0
1.35526               -0.1078228       -15.66159        -57.26768        7.217327             -200               0             -200               0
1.36184               -0.1110687       -15.80028        -57.18053        3.104953             -200               0             -200               0
1.36842               -0.1144723       -15.94027        -57.10755      -0.9197924             -200               0             -200               0
1.375                 -0.1180327        -16.0815        -57.04775       -4.847997             -200               0             -200               0
1.38158                -0.121751       -16.22391        -56.99997       -8.670582             -200               0             -200               0
1.38816               -0.1256228       -16.36746        -56.96288       -12.37838             -200               0             -200               0
1.39474               -0.1296435       -16.51208        -56.93494        -15.9623             -200               0             -200               0
1.40132               -0.1338083       -16.65775        -56.91437        -19.4135             -200               0             -200               0
1.40789               -0.1381076       -16.80445        -56.89915       -22.72369             -200               0             -200               0
1.41447               -0.1425333       -16.95215        -56.88693       -25.88549             -200               0             -200               0
1.42105                -0.147075       -17.10086        -56.87509       -28.89291             -200               0             -200               0
1.42763               -0.1517232       -17.25059        -56.86068       -31.74187             -200               0             -200               0
1.43421               -0.1564654       -17.40137        -56.84048       -34.43081             -200               0             -200               0
1.44079               -0.1612927       -17.55325        -56.81105       -36.96139             -200               0             -200               0
1.44737               -0.1661947       -17.70629        -56.76878       -39.33909             -200               0             -200               0
1.45395               -0.1711629       -17.86057        -56.71005       -41.57375             -200               0             -200               0
1.46053               -0.1761891       -18.01617        -56.63139       -43.67989             -200               0             -200               0
1.46711               -0.1812677       -18.17321        -56.52961       -45.67674             -200               0             -200               0
1.47368                -0.186394       -18.33178        -56.40206       -47.58791             -200               0             -200               0
1.48026               -0.1915675       -18.49202        -56.24676       -49.44058             -200               0             -200               0
1.48684               -0.1967875       -18.65405        -56.06254       -51.26436             -200               0             -200               0
1.49342                -0.202058         -18.818        -55.84919       -53.08985             -200               0             -200               0
1.5                   -0.2073838       -18.98402        -55.60736       -54.94707             -200               0             -200               0
1.50658               -0.2127746       -19.15223        -55.33861       -56.86396             -200               0             -200               0
1.51316               -0.2182403       -19.32276        -55.04519       -58.86515             -200               0             -200               0
1.51974                -0.223794       -19.49574        -54.72991       -60.97109             -200               0             -200               0
1.52632               -0.2294517       -19.67127        -54.39595       -63.19755             -200               0             -200               0
1.53289               -0.2352315       -19.84946        -54.04665       -65.55557             -200               0             -200               0
1.53947               -0.2411529        -20.0304        -53.68537       -68.05176             -200               0             -200               0
1.54605               -0.2472336       -20.21415        -53.31534       -70.68872             -200               0             -200               0
1.55263               -0.2534984       -20.40079        -52.93957       -73.46571             -200               0             -200               0
1.55921               -0.2599672       -20.59034        -52.56077       -76.37929             -200               0             -200               0
1.56579               -0.2666628       -20.78284        -52.18136       -79.42398             -200               0             -200               0
1.57237               -0.2736055       -20.97828        -51.80343        -82.5928             -200               0             -200               0
1.57895               -0.2808177       -21.17667        -51.42875       -85.87779             -200               0             -200               0
1.58553               -0.2883181       -21.37798        -51.05881       -89.27038             -200               0             -200               0
1.59211                -0.296124       -21.58217        -50.69482       -92.76174             -200               0             -200               0
1.59868               -0.3042521       -21.78921        -50.33776         -96.343             -200               0             -200               0
1.60526               -0.3127153       -21.99902         -49.9884       -100.0054             -200               0             -200               0
1.61184               -0.3215255       -22.21156        -49.64733       -103.7405             -200               0             -200               0
1.61842               -0.3306905       -22.42675        -49.31498         -107.54             -200               0             -200               0
1.625                 -0.3402164       -22.64455        -48.99165       -111.3962             -200               0             -200               0
1.63158               -0.3501057       -22.86488        -48.67752       -115.3017             -200               0             -200               0
1.63816               -0.3603592        -23.0877        -48.37268       -119.2494             -200               0             -200               0
1.64474               -0.3709743       -23.31297        -48.07713       -123.2329             -200               0             -200               0
1.65132               -0.3819465       -23.54065         -47.7908       -127.2458             -200               0             -200               0
1.65789               -0.3932705       -23.77075        -47.51356       -131.2824             -200               0             -200               0
1.66447               -0.4049366       -24.00327        -47.24523       -135.3371             -200               0             -200               0
1.67105               -0.4169365       -24.23824        -46.98556       -139.4049             -200               0             -200               0
1.67763               -0.4292597       -24.47571        -46.73429       -143.4809             -200               0             -200               0
1.68421               -0.4418957       -24.71577        -46.49109       -147.5606             -200               0             -200               0
1.69079               -0.4548361       -24.95851        -46.25561       -151.6398             -200               0             -200               0
1.69737               -0.4680729       -25.20407        -46.02747       -155.7146             -200               0             -200               0
1.70395               -0.4815972        -25.4526        -45.80623       -159.7814             -200               0             -200               0
1.71053               -0.4954052       -25.70428        -45.59146       -163.8368             -200               0             -200               0
1.71711               -0.5094942        -25.9593        -45.38267       -167.8778             -200               0             -200               0
1.72368               -0.5238662        -26.2179        -45.17936       -171.9016             -200               0             -200               0
1.73026               -0.5385253       -26.48029        -44.98098       -175.9058             -200               0             -200               0
1.73684               -0.5534806       -26.74675        -44.78697       -179.8883             -200               0             -200               0
1.74342               -0.5687448       -27.01753        -44.59676        176.1528             -200               0             -200               0
1.75                  -0.5843369        -27.2929        -44.40974        172.2189             -200               0             -200               0
1.75658                -0.600278       -27.57315        -44.22529         168.311             -200               0             -200               0
1.76316               -0.6165961       -27.85853        -44.04277        164.4298             -200               0             -200               0
1.76974               -0.6333236       -28.14933        -43.86154        160.5757             -200               0             -200               0
1.77632               -0.6504963        -28.4458        -43.68096        156.7484             -200               0             -200               0
1.78289               -0.6681547        -28.7482        -43.50037        152.9474             -200               0             -200               0
1.78947               -0.6863453       -29.05676        -43.31915        149.1716             -200               0             -200               0
1.79605               -0.7051159       -29.37171        -43.13667        145.4195             -200               0             -200               0
1.80263               -0.7245179       -29.69324        -42.95236        141.6892             -200               0             -200               0
1.80921               -0.7446062       -30.02153        -42.76564        137.9782             -200               0             -200               0
1.81579               -0.7654376       -30.35674        -42.57601        134.2839             -200               0             -200               0
1.82237               -0.7870704         -30.699        -42.38301        130.6029             -200               0             -200               0
1.82895               -0.8095638       -31.04843        -42.18622        126.9319             -200               0             -200               0
1.83553               -0.8329772       -31.40511        -41.98532         123.267             -200               0             -200               0
1.84211               -0.8573715       -31.76912        -41.78004        119.6041             -200               0             -200               0
1.84868               -0.8828056       -32.14051        -41.57017        115.9391             -200               0             -200               0
