! TOUCHSTONE file generated by CST MICROWAVE STUDIO
! Date and time: Tue Mar 18 00:00:49 2025
! Project name: oblique.cst
! Parameters = {Tilt=30; Fracture=1; B=10; D=160; F=5; Feed=2.85625; L=100; M=30; R=0.384908; S=2; Theta=180; length=57.125; wave=114.25}
! Header version: 2024
! Port assignment regex: !\s*Touchstone port\s*([0-9]+)\s*=\s*(CST MWS port|CST DES external port|CST DES block port)\s*(.+)\s* \(\"(.*)\"\)(\s*mode\s*([0-9]+))?.*
! Touchstone port assignment:
! Touchstone port 1 = CST MWS port 1 ("")
! Touchstone port 2 = CST MWS port 2 ("")
# GHz S DB R 50
1                    -0.02003134       -9.784788        -68.32565        -165.393             -200               0             -200               0
1.00658              -0.02091676       -9.872858        -68.18921       -169.8591             -200               0             -200               0
1.01316              -0.02183887       -9.961254        -68.07884       -174.2516             -200               0             -200               0
1.01974              -0.02279363       -10.04996        -67.99405       -178.5594             -200               0             -200               0
1.02632              -0.02377461       -10.13898        -67.93437        177.2295             -200               0             -200               0
1.03289              -0.02477467       -10.22832        -67.89926        173.1286             -200               0             -200               0
1.03947              -0.02578644       -10.31798        -67.88812        169.1525             -200               0             -200               0
1.04605              -0.02680485       -10.40799        -67.90018        165.3176             -200               0             -200               0
1.05263              -0.02782096       -10.49838        -67.93448        161.6419             -200               0             -200               0
1.05921              -0.02883185       -10.58918        -67.98973        158.1455             -200               0             -200               0
1.06579              -0.02983129       -10.68045        -68.06422          154.85             -200               0             -200               0
1.07237              -0.03081538       -10.77222        -68.15569        151.7793             -200               0             -200               0
1.07895              -0.03178269       -10.86455        -68.26112        148.9582             -200               0             -200               0
1.08553              -0.03272954        -10.9575        -68.37659        146.4124             -200               0             -200               0
1.09211              -0.03365735       -11.05113        -68.49703        144.1668             -200               0             -200               0
1.09868              -0.03456603        -11.1455        -68.61606        142.2436             -200               0             -200               0
1.10526              -0.03545838       -11.24068        -68.72588        140.6597             -200               0             -200               0
1.11184               -0.0363379       -11.33671        -68.81725        139.4225             -200               0             -200               0
1.11842              -0.03720823       -11.43365        -68.87978        138.5258             -200               0             -200               0
1.125                -0.03807655       -11.53156        -68.90244        137.9459             -200               0             -200               0
1.13158              -0.03894831       -11.63047        -68.87451        137.6378             -200               0             -200               0
1.13816               -0.0398327       -11.73043        -68.78676        137.5356             -200               0             -200               0
1.14474              -0.04073706       -11.83146        -68.63271        137.5547             -200               0             -200               0
1.15132              -0.04167002       -11.93357        -68.40962           137.6             -200               0             -200               0
1.15789              -0.04263949        -12.0368        -68.11896        137.5749             -200               0             -200               0
1.16447              -0.04365514       -12.14112        -67.76613        137.3915             -200               0             -200               0
1.17105              -0.04472483       -12.24656        -67.35955         136.979             -200               0             -200               0
1.17763              -0.04585622       -12.35307        -66.90943        136.2874             -200               0             -200               0
1.18421               -0.0470566       -12.46066        -66.42657         135.288             -200               0             -200               0
1.19079              -0.04833161       -12.56929         -65.9213        133.9711             -200               0             -200               0
1.19737               -0.0496868       -12.67893         -65.4029        132.3415             -200               0             -200               0
1.20395              -0.05112596       -12.78955        -64.87926        130.4144             -200               0             -200               0
1.21053              -0.05265089       -12.90109        -64.35677        128.2113             -200               0             -200               0
1.21711              -0.05426443       -13.01353        -63.84049        125.7572             -200               0             -200               0
1.22368              -0.05596417       -13.12683        -63.33426        123.0781             -200               0             -200               0
1.23026              -0.05774942       -13.24095        -62.84091        120.1999             -200               0             -200               0
1.23684               -0.0596174       -13.35586        -62.36249         117.147             -200               0             -200               0
1.24342              -0.06156397       -13.47152         -61.9004        113.9424             -200               0             -200               0
1.25                 -0.06358353       -13.58792        -61.45555        110.6071             -200               0             -200               0
1.25658              -0.06567013       -13.70504        -61.02846        107.1602             -200               0             -200               0
1.26316              -0.06781664       -13.82288        -60.61939         103.619             -200               0             -200               0
1.26974              -0.07001575       -13.94145        -60.22836        99.99942             -200               0             -200               0
1.27632               -0.0722606       -14.06075        -59.85525        96.31555             -200               0             -200               0
1.28289              -0.07454217       -14.18082        -59.49979        92.58036             -200               0             -200               0
1.28947              -0.07685462       -14.30169        -59.16167        88.80566             -200               0             -200               0
1.29605              -0.07918979        -14.4234        -58.84045        85.00226             -200               0             -200               0
1.30263              -0.08154155       -14.54601        -58.53568        81.18012             -200               0             -200               0
1.30921              -0.08390547       -14.66959        -58.24684        77.34848             -200               0             -200               0
1.31579              -0.08627788        -14.7942        -57.97338        73.51595             -200               0             -200               0
1.32237              -0.08865527       -14.91992         -57.7147        69.69063             -200               0             -200               0
1.32895              -0.09103603       -15.04684        -57.47018        65.88013             -200               0             -200               0
1.33553              -0.09342154       -15.17504        -57.23915        62.09167             -200               0             -200               0
1.34211              -0.09581342       -15.30461         -57.0209        58.33209             -200               0             -200               0
1.34868              -0.09821501       -15.43563        -56.81467        54.60792             -200               0             -200               0
1.35526               -0.1006332       -15.56819        -56.61965        50.92532             -200               0             -200               0
1.36184               -0.1030715       -15.70236        -56.43497        47.29015             -200               0             -200               0
1.36842               -0.1055405       -15.83824        -56.25971         43.7079             -200               0             -200               0
1.375                 -0.1080494       -15.97588        -56.09286        40.18368             -200               0             -200               0
1.38158               -0.1106075       -16.11535        -55.93335        36.72214             -200               0             -200               0
1.38816                -0.113227        -16.2567        -55.78003         33.3274             -200               0             -200               0
1.39474               -0.1159194       -16.39998        -55.63168        30.00301             -200               0             -200               0
1.40132               -0.1186969       -16.54522        -55.48699        26.75176             -200               0             -200               0
1.40789               -0.1215714       -16.69244        -55.34459        23.57566             -200               0             -200               0
1.41447               -0.1245554       -16.84166        -55.20305        20.47574             -200               0             -200               0
1.42105               -0.1276604       -16.99289        -55.06089        17.45198             -200               0             -200               0
1.42763               -0.1308971       -17.14612        -54.91661        14.50318             -200               0             -200               0
1.43421               -0.1342748       -17.30134        -54.76868        11.62687             -200               0             -200               0
1.44079                -0.137803       -17.45855        -54.61564        8.819209             -200               0             -200               0
1.44737               -0.1414893       -17.61771        -54.45607        6.075004             -200               0             -200               0
1.45395               -0.1453381        -17.7788        -54.28866        3.387703             -200               0             -200               0
1.46053               -0.1493558       -17.94181        -54.11222       0.7494841             -200               0             -200               0
1.46711               -0.1535447       -18.10671        -53.92577       -1.848606             -200               0             -200               0
1.47368               -0.1579066       -18.27347        -53.72852       -4.416449             -200               0             -200               0
1.48026               -0.1624413        -18.4421        -53.51992       -6.964599             -200               0             -200               0
1.48684               -0.1671474       -18.61257        -53.29968       -9.503982             -200               0             -200               0
1.49342                -0.172024       -18.78488        -53.06777       -12.04558             -200               0             -200               0
1.5                   -0.1770663       -18.95906        -52.82441       -14.60011             -200               0             -200               0
1.50658               -0.1822718       -19.13511        -52.57008       -17.17772             -200               0             -200               0
1.51316               -0.1876358       -19.31308        -52.30546       -19.78769             -200               0             -200               0
1.51974               -0.1931538         -19.493        -52.03141       -22.43828             -200               0             -200               0
1.52632               -0.1988221       -19.67494        -51.74894       -25.13651             -200               0             -200               0
1.53289               -0.2046372       -19.85898        -51.45919       -27.88811             -200               0             -200               0
1.53947               -0.2105969       -20.04518        -51.16332       -30.69745             -200               0             -200               0
1.54605               -0.2166992       -20.23366        -50.86256       -33.56761             -200               0             -200               0
1.55263               -0.2229449       -20.42452        -50.55812       -36.50038             -200               0             -200               0
1.55921                -0.229335       -20.61787        -50.25116       -39.49641             -200               0             -200               0
1.56579               -0.2358737       -20.81385        -49.94281       -42.55533             -200               0             -200               0
1.57237               -0.2425676       -21.01258        -49.63412       -45.67583             -200               0             -200               0
1.57895               -0.2494256        -21.2142        -49.32606       -48.85585             -200               0             -200               0
1.58553               -0.2564573       -21.41885        -49.01948        -52.0927             -200               0             -200               0
1.59211               -0.2636766       -21.62666        -48.71518       -55.38315             -200               0             -200               0
1.59868               -0.2710991       -21.83777        -48.41381       -58.72358             -200               0             -200               0
1.60526               -0.2787435        -22.0523        -48.11596       -62.11009             -200               0             -200               0
1.61184               -0.2866298       -22.27039        -47.82212       -65.53854             -200               0             -200               0
1.61842               -0.2947793       -22.49213        -47.53266       -69.00469             -200               0             -200               0
1.625                 -0.3032185       -22.71764        -47.24789       -72.50419             -200               0             -200               0
1.63158               -0.3119725         -22.947        -46.96805       -76.03272             -200               0             -200               0
1.63816               -0.3210669        -23.1803        -46.69326       -79.58595             -200               0             -200               0
1.64474               -0.3305304       -23.41759         -46.4236       -83.15966             -200               0             -200               0
1.65132               -0.3403906       -23.65892        -46.15907       -86.74972             -200               0             -200               0
1.65789               -0.3506762       -23.90432        -45.89962       -90.35213             -200               0             -200               0
1.66447               -0.3614173       -24.15382        -45.64511       -93.96306             -200               0             -200               0
1.67105               -0.3726401       -24.40741        -45.39538       -97.57886             -200               0             -200               0
1.67763               -0.3843716        -24.6651        -45.15019       -101.1961             -200               0             -200               0
1.68421               -0.3966375       -24.92687        -44.90926       -104.8116             -200               0             -200               0
1.69079               -0.4094625       -25.19268        -44.67226       -108.4223             -200               0             -200               0
1.69737               -0.4228692       -25.46252        -44.43882       -112.0256             -200               0             -200               0
1.70395               -0.4368781       -25.73634        -44.20853       -115.6191             -200               0             -200               0
1.71053               -0.4515095        -26.0141        -43.98094       -119.2008             -200               0             -200               0
1.71711               -0.4667792       -26.29578        -43.75557       -122.7688             -200               0             -200               0
1.72368               -0.4827033       -26.58133        -43.53192        -126.322             -200               0             -200               0
1.73026               -0.4992971       -26.87074        -43.30946       -129.8592             -200               0             -200               0
1.73684               -0.5165717       -27.16399        -43.08764         -133.38             -200               0             -200               0
1.74342               -0.5345372       -27.46108        -42.86591       -136.8841             -200               0             -200               0
1.75                  -0.5532046       -27.76202        -42.64371        -140.372             -200               0             -200               0
1.75658               -0.5725848       -28.06683        -42.42049       -143.8444             -200               0             -200               0
1.76316               -0.5926855       -28.37556         -42.1957       -147.3025             -200               0             -200               0
1.76974               -0.6135172       -28.68827        -41.96883       -150.7478             -200               0             -200               0
1.77632               -0.6350896       -29.00506        -41.73939       -154.1826             -200               0             -200               0
1.78289               -0.6574164       -29.32601        -41.50694       -157.6092             -200               0             -200               0
1.78947               -0.6805108       -29.65127        -41.27106       -161.0305             -200               0             -200               0
1.79605               -0.7043894       -29.98097        -41.03141       -164.4497             -200               0             -200               0
1.80263                -0.729071       -30.31527         -40.7877       -167.8702             -200               0             -200               0
1.80921               -0.7545789       -30.65435        -40.53971       -171.2957             -200               0             -200               0
1.81579               -0.7809384       -30.99841         -40.2873       -174.7301             -200               0             -200               0
1.82237               -0.8081838       -31.34764        -40.03039       -178.1772             -200               0             -200               0
1.82895               -0.8363478       -31.70226        -39.76896         178.359             -200               0             -200               0
1.83553               -0.8654739       -32.06248         -39.5031        174.8745             -200               0             -200               0
1.84211               -0.8956069       -32.42853        -39.23295        171.3657             -200               0             -200               0
1.84868               -0.9267996       -32.80062         -38.9587        167.8288             -200               0             -200               0
