! TOUCHSTONE file generated by CST MICROWAVE STUDIO
! Date and time: Tue Mar 18 00:02:59 2025
! Project name: oblique.cst
! Parameters = {Tilt=40; Fracture=1; B=12.5; D=160; F=15; Feed=2.85625; L=100; M=50; R=0.384908; S=2; Theta=90; length=57.125; wave=114.25}
! Header version: 2024
! Port assignment regex: !\s*Touchstone port\s*([0-9]+)\s*=\s*(CST MWS port|CST DES external port|CST DES block port)\s*(.+)\s* \(\"(.*)\"\)(\s*mode\s*([0-9]+))?.*
! Touchstone port assignment:
! Touchstone port 1 = CST MWS port 1 ("")
! Touchstone port 2 = CST MWS port 2 ("")
# GHz S DB R 50
1                    -0.02021294       -9.801153        -68.90117        160.9043             -200               0             -200               0
1.00658              -0.02098725       -9.889001        -68.82896        155.6756             -200               0             -200               0
1.01316              -0.02177795       -9.977344        -68.78489        150.5451             -200               0             -200               0
1.01974              -0.02257897        -10.0662        -68.76887        145.5219             -200               0             -200               0
1.02632              -0.02339262       -10.15559        -68.78087        140.6168             -200               0             -200               0
1.03289              -0.02421419       -10.24553        -68.82085        135.8426             -200               0             -200               0
1.03947               -0.0250437       -10.33606        -68.88877        131.2145             -200               0             -200               0
1.04605              -0.02588263       -10.42719         -68.9845        126.7501             -200               0             -200               0
1.05263              -0.02672822       -10.51896        -69.10777        122.4701             -200               0             -200               0
1.05921              -0.02758394        -10.6114        -69.25803        118.3989             -200               0             -200               0
1.06579              -0.02844749       -10.70452        -69.43432        114.5645             -200               0             -200               0
1.07237              -0.02932169       -10.79837        -69.63506        110.9994             -200               0             -200               0
1.07895              -0.03021065       -10.89297        -69.85781        107.7407             -200               0             -200               0
1.08553              -0.03111456       -10.98835        -70.09884        104.8295             -200               0             -200               0
1.09211              -0.03203742       -11.08453        -70.35276        102.3102             -200               0             -200               0
1.09868              -0.03298028       -11.18153        -70.61194         100.228             -200               0             -200               0
1.10526              -0.03394983       -11.27937          -70.866        98.62491             -200               0             -200               0
1.11184              -0.03494928       -11.37807        -71.10137        97.53249             -200               0             -200               0
1.11842              -0.03598076       -11.47763         -71.3013        96.96245             -200               0             -200               0
1.125                -0.03704923       -11.57808        -71.44653        96.89481             -200               0             -200               0
1.13158               -0.0381598       -11.67941        -71.51712        97.26696             -200               0             -200               0
1.13816              -0.03931437       -11.78163        -71.49526        97.96841             -200               0             -200               0
1.14474              -0.04051706       -11.88474        -71.36875        98.84637             -200               0             -200               0
1.15132               -0.0417706       -11.98873        -71.13377        99.72416             -200               0             -200               0
1.15789              -0.04307988       -12.09359        -70.79579         100.428             -200               0             -200               0
1.16447              -0.04444348       -12.19933        -70.36818        100.8128             -200               0             -200               0
1.17105              -0.04586735       -12.30594        -69.86924         100.778             -200               0             -200               0
1.17763              -0.04734919       -12.41339        -69.31874        100.2707             -200               0             -200               0
1.18421              -0.04889123        -12.5217        -68.73531        99.27872             -200               0             -200               0
1.19079               -0.0504944       -12.63084        -68.13484        97.81921             -200               0             -200               0
1.19737              -0.05215656       -12.74082        -67.52997        95.92723             -200               0             -200               0
1.20395              -0.05387841       -12.85162        -66.93021        93.64651             -200               0             -200               0
1.21053               -0.0556563       -12.96325        -66.34243        91.02319             -200               0             -200               0
1.21711              -0.05749051       -13.07572        -65.77133        88.10206             -200               0             -200               0
1.22368              -0.05937874       -13.18901        -65.22004        84.92451             -200               0             -200               0
1.23026              -0.06131894       -13.30316        -64.69046        81.52777             -200               0             -200               0
1.23684              -0.06330723       -13.41816        -64.18367        77.94469             -200               0             -200               0
1.24342              -0.06534121       -13.53405        -63.70013        74.20403             -200               0             -200               0
1.25                 -0.06742053       -13.65084        -63.23991        70.33084             -200               0             -200               0
1.25658              -0.06954225       -13.76857        -62.80279        66.34695             -200               0             -200               0
1.26316              -0.07170438       -13.88726        -62.38837        62.27139             -200               0             -200               0
1.26974              -0.07390707       -14.00696        -61.99614        58.12083             -200               0             -200               0
1.27632              -0.07614671        -14.1277         -61.6255        53.90998             -200               0             -200               0
1.28289              -0.07842625       -14.24954        -61.27584        49.65186             -200               0             -200               0
1.28947              -0.08074632       -14.37251        -60.94651        45.35816             -200               0             -200               0
1.29605              -0.08310563       -14.49666        -60.63688         41.0394             -200               0             -200               0
1.30263               -0.0855105       -14.62205        -60.34629        36.70519             -200               0             -200               0
1.30921               -0.0879612       -14.74872        -60.07411        32.36437             -200               0             -200               0
1.31579              -0.09046171       -14.87672         -59.8197        28.02517             -200               0             -200               0
1.32237               -0.0930189       -15.00609        -59.58244        23.69533             -200               0             -200               0
1.32895              -0.09563571       -15.13689         -59.3617         19.3822             -200               0             -200               0
1.33553               -0.0983196       -15.26914        -59.15683        15.09281             -200               0             -200               0
1.34211               -0.1010775       -15.40289         -58.9672        10.83397             -200               0             -200               0
1.34868               -0.1039162       -15.53818        -58.79212        6.612309             -200               0             -200               0
1.35526               -0.1068417       -15.67502        -58.63092        2.434302             -200               0             -200               0
1.36184                -0.109865       -15.81345        -58.48284       -1.693682             -200               0             -200               0
1.36842               -0.1129905       -15.95347        -58.34711       -5.765383             -200               0             -200               0
1.375                 -0.1162272       -16.09512        -58.22288       -9.774645             -200               0             -200               0
1.38158               -0.1195833       -16.23838        -58.10924       -13.71545             -200               0             -200               0
1.38816                -0.123065       -16.38327        -58.00518       -17.58193             -200               0             -200               0
1.39474               -0.1266805       -16.52978        -57.90963       -21.36849             -200               0             -200               0
1.40132               -0.1304358       -16.67792        -57.82138       -25.06982             -200               0             -200               0
1.40789               -0.1343343       -16.82768        -57.73911       -28.68108             -200               0             -200               0
1.41447               -0.1383841       -16.97904        -57.66139       -32.19798             -200               0             -200               0
1.42105               -0.1425878         -17.132        -57.58667       -35.61699             -200               0             -200               0
1.42763               -0.1469492       -17.28655        -57.51326       -38.93552             -200               0             -200               0
1.43421               -0.1514724       -17.44268        -57.43937       -42.15213             -200               0             -200               0
1.44079               -0.1561574       -17.60039        -57.36311       -45.26677             -200               0             -200               0
1.44737               -0.1610049       -17.75967         -57.2825       -48.28096             -200               0             -200               0
1.45395                -0.166018       -17.92052        -57.19557       -51.19804             -200               0             -200               0
1.46053               -0.1711963       -18.08295        -57.10032       -54.02328             -200               0             -200               0
1.46711                -0.176537       -18.24697        -56.99484       -56.76403             -200               0             -200               0
1.47368                -0.182043       -18.41259        -56.87736       -59.42966             -200               0             -200               0
1.48026               -0.1877112       -18.57983        -56.74629        -62.0315             -200               0             -200               0
1.48684               -0.1935432       -18.74873        -56.60032       -64.58263             -200               0             -200               0
1.49342               -0.1995352       -18.91931        -56.43846        -67.0975             -200               0             -200               0
1.5                   -0.2056894       -19.09163        -56.26009       -69.59151             -200               0             -200               0
1.50658               -0.2120063       -19.26573        -56.06498       -72.08053             -200               0             -200               0
1.51316               -0.2184852       -19.44166         -55.8533       -74.58029             -200               0             -200               0
1.51974               -0.2251296       -19.61948         -55.6256        -77.1059             -200               0             -200               0
1.52632               -0.2319415       -19.79926        -55.38281       -79.67132             -200               0             -200               0
1.53289               -0.2389239       -19.98106        -55.12611       -82.28897             -200               0             -200               0
1.53947               -0.2460824       -20.16495        -54.85696       -84.96946             -200               0             -200               0
1.54605               -0.2534227       -20.35102        -54.57696        -87.7214             -200               0             -200               0
1.55263               -0.2609524       -20.53932        -54.28783       -90.55134             -200               0             -200               0
1.55921               -0.2686792       -20.72992        -53.99133       -93.46382             -200               0             -200               0
1.56579               -0.2766129       -20.92291        -53.68918        -96.4615             -200               0             -200               0
1.57237               -0.2847643       -21.11834        -53.38307       -99.54533             -200               0             -200               0
1.57895               -0.2931441       -21.31628        -53.07459       -102.7148             -200               0             -200               0
1.58553               -0.3017651       -21.51679        -52.76519       -105.9681             -200               0             -200               0
1.59211               -0.3106406       -21.71992        -52.45622       -109.3024             -200               0             -200               0
1.59868               -0.3197837       -21.92571        -52.14888        -112.714             -200               0             -200               0
1.60526               -0.3292095       -22.13421        -51.84421       -116.1987             -200               0             -200               0
1.61184               -0.3389304       -22.34546        -51.54314       -119.7519             -200               0             -200               0
1.61842               -0.3489626       -22.55947        -51.24644       -123.3683             -200               0             -200               0
1.625                 -0.3593199       -22.77628        -50.95478       -127.0429             -200               0             -200               0
1.63158               -0.3700153        -22.9959         -50.6687       -130.7703             -200               0             -200               0
1.63816               -0.3810631       -23.21834        -50.38864       -134.5451             -200               0             -200               0
1.64474               -0.3924761       -23.44361        -50.11493       -138.3621             -200               0             -200               0
1.65132               -0.4042652       -23.67171        -49.84783        -142.216             -200               0             -200               0
1.65789               -0.4164419       -23.90265         -49.5875       -146.1018             -200               0             -200               0
1.66447               -0.4290172       -24.13643        -49.33405       -150.0145             -200               0             -200               0
1.67105                -0.441999       -24.37305        -49.08751       -153.9494             -200               0             -200               0
1.67763               -0.4553971       -24.61253        -48.84784       -157.9017             -200               0             -200               0
1.68421                -0.469219       -24.85487        -48.61497       -161.8671             -200               0             -200               0
1.69079               -0.4834703       -25.10009        -48.38876       -165.8413             -200               0             -200               0
1.69737               -0.4981582       -25.34821        -48.16902       -169.8203             -200               0             -200               0
1.70395               -0.5132858       -25.59927        -47.95553       -173.8002             -200               0             -200               0
1.71053               -0.5288616       -25.85332          -47.748       -177.7774             -200               0             -200               0
1.71711               -0.5448886       -26.11039        -47.54613        178.2515             -200               0             -200               0
1.72368               -0.5613731       -26.37057        -47.34957        174.2897             -200               0             -200               0
1.73026               -0.5783194       -26.63391        -47.15792        170.3402             -200               0             -200               0
1.73684               -0.5957357       -26.90053        -46.97075        166.4057             -200               0             -200               0
1.74342               -0.6136279       -27.17051        -46.78761        162.4885             -200               0             -200               0
1.75                  -0.6320053       -27.44396        -46.60801        158.5908             -200               0             -200               0
1.75658               -0.6508777       -27.72102        -46.43141        154.7145             -200               0             -200               0
1.76316               -0.6702584       -28.00182        -46.25728         150.861             -200               0             -200               0
1.76974               -0.6901609        -28.2865        -46.08504        147.0314             -200               0             -200               0
1.77632               -0.7106012       -28.57521        -45.91409        143.2266             -200               0             -200               0
1.78289               -0.7315996       -28.86812        -45.74384        139.4468             -200               0             -200               0
1.78947               -0.7531758       -29.16537        -45.57366         135.692             -200               0             -200               0
1.79605               -0.7753573       -29.46716        -45.40294        131.9617             -200               0             -200               0
1.80263               -0.7981687       -29.77363        -45.23108        128.2548             -200               0             -200               0
1.80921               -0.8216405       -30.08495        -45.05747          124.57             -200               0             -200               0
1.81579                -0.845808        -30.4013        -44.88153        120.9054             -200               0             -200               0
1.82237               -0.8707041       -30.72282        -44.70273        117.2587             -200               0             -200               0
1.82895               -0.8963696       -31.04968        -44.52057         113.627             -200               0             -200               0
1.83553               -0.9228445       -31.38201        -44.33457        110.0073             -200               0             -200               0
1.84211               -0.9501719       -31.71996        -44.14436         106.396             -200               0             -200               0
1.84868               -0.9783974       -32.06365        -43.94959        102.7893             -200               0             -200               0
