! TOUCHSTONE file generated by CST MICROWAVE STUDIO
! Date and time: Tue Mar 18 00:02:07 2025
! Project name: oblique.cst
! Parameters = {Tilt=40; Fracture=1; B=10; D=160; F=5; Feed=2.85625; L=100; M=10; R=0.384908; S=2; Theta=270; length=57.125; wave=114.25}
! Header version: 2024
! Port assignment regex: !\s*Touchstone port\s*([0-9]+)\s*=\s*(CST MWS port|CST DES external port|CST DES block port)\s*(.+)\s* \(\"(.*)\"\)(\s*mode\s*([0-9]+))?.*
! Touchstone port assignment:
! Touchstone port 1 = CST MWS port 1 ("")
! Touchstone port 2 = CST MWS port 2 ("")
# GHz S DB R 50
1                    -0.01891707       -9.783504        -70.99901       -124.5572             -200               0             -200               0
1.00658              -0.01962368       -9.872138        -70.39382        -128.816             -200               0             -200               0
1.01316              -0.02038139       -9.961235          -69.845       -133.1925             -200               0             -200               0
1.01974               -0.0211866       -10.05076        -69.34803       -137.6534             -200               0             -200               0
1.02632              -0.02203607       -10.14069        -68.89909       -142.1722             -200               0             -200               0
1.03289              -0.02292318       -10.23101        -68.49501       -146.7272             -200               0             -200               0
1.03947              -0.02384497        -10.3217         -68.1331       -151.2998             -200               0             -200               0
1.04605              -0.02479232       -10.41277        -67.81113       -155.8738             -200               0             -200               0
1.05263              -0.02575924        -10.5042        -67.52723       -160.4346             -200               0             -200               0
1.05921              -0.02674035       -10.59601        -67.27983       -164.9686             -200               0             -200               0
1.06579              -0.02772962       -10.68822        -67.06761       -169.4627             -200               0             -200               0
1.07237              -0.02871804       -10.78087         -66.8895       -173.9038             -200               0             -200               0
1.07895              -0.02970221       -10.87397        -66.74457       -178.2785             -200               0             -200               0
1.08553              -0.03067418       -10.96758        -66.63202         177.427             -200               0             -200               0
1.09211              -0.03163269       -11.06175        -66.55116        173.2277             -200               0             -200               0
1.09868              -0.03257246       -11.15652        -66.50133          169.14             -200               0             -200               0
1.10526              -0.03349134       -11.25196        -66.48185        165.1817             -200               0             -200               0
1.11184              -0.03438949       -11.34813        -66.49196        161.3728             -200               0             -200               0
1.11842              -0.03526599        -11.4451        -66.53072        157.7359             -200               0             -200               0
1.125                -0.03612248       -11.54292        -66.59689        154.2959             -200               0             -200               0
1.13158              -0.03696318       -11.64167        -66.68879        151.0812             -200               0             -200               0
1.13816               -0.0377908        -11.7414        -66.80407         148.123             -200               0             -200               0
1.14474              -0.03861167       -11.84217        -66.93949        145.4557             -200               0             -200               0
1.15132              -0.03943073       -11.94404         -67.0906        143.1157             -200               0             -200               0
1.15789              -0.04025743       -12.04705        -67.25134        141.1406             -200               0             -200               0
1.16447              -0.04110059       -12.15124        -67.41373        139.5657             -200               0             -200               0
1.17105               -0.0419663       -12.25665         -67.5675        138.4203             -200               0             -200               0
1.17763              -0.04286659       -12.36329        -67.69997        137.7215             -200               0             -200               0
1.18421               -0.0438103       -12.47119        -67.79636        137.4664             -200               0             -200               0
1.19079              -0.04480521       -12.58034        -67.84064        137.6239             -200               0             -200               0
1.19737               -0.0458632       -12.69075        -67.81714        138.1288             -200               0             -200               0
1.20395              -0.04699127        -12.8024        -67.71278        138.8807             -200               0             -200               0
1.21053              -0.04819914       -12.91528         -67.5194        139.7513             -200               0             -200               0
1.21711              -0.04949231       -13.02936        -67.23537         140.599             -200               0             -200               0
1.22368              -0.05087776       -13.14461        -66.86589        141.2879             -200               0             -200               0
1.23026              -0.05236079         -13.261        -66.42188        141.7051             -200               0             -200               0
1.23684              -0.05394471       -13.37848        -65.91778         141.771             -200               0             -200               0
1.24342              -0.05563179       -13.49702        -65.36925        141.4412             -200               0             -200               0
1.25                 -0.05742283       -13.61657        -64.79126        140.7026             -200               0             -200               0
1.25658              -0.05931955        -13.7371         -64.1969        139.5651             -200               0             -200               0
1.26316              -0.06131783       -13.85858        -63.59689        138.0543             -200               0             -200               0
1.26974              -0.06341398       -13.98096        -62.99958        136.2038             -200               0             -200               0
1.27632               -0.0656062       -14.10423        -62.41117        134.0509             -200               0             -200               0
1.28289              -0.06788925       -14.22837        -61.83611        131.6329             -200               0             -200               0
1.28947              -0.07025536       -14.35337        -61.27743        128.9853             -200               0             -200               0
1.29605              -0.07270019       -14.47922         -60.7371        126.1407             -200               0             -200               0
1.30263              -0.07521416       -14.60595        -60.21627        123.1287             -200               0             -200               0
1.30921              -0.07779272       -14.73356         -59.7155        119.9756             -200               0             -200               0
1.31579                -0.080428       -14.86208        -59.23495        116.7047             -200               0             -200               0
1.32237              -0.08311447       -14.99157        -58.77443        113.3366             -200               0             -200               0
1.32895                -0.085845       -15.12206        -58.33355        109.8896             -200               0             -200               0
1.33553              -0.08861573       -15.25363        -57.91178        106.3796             -200               0             -200               0
1.34211              -0.09142312       -15.38632        -57.50844         102.821             -200               0             -200               0
1.34868              -0.09426183       -15.52022        -57.12281        99.22644             -200               0             -200               0
1.35526              -0.09713343       -15.65541        -56.75408        95.60724             -200               0             -200               0
1.36184               -0.1000371       -15.79198        -56.40143        91.97353             -200               0             -200               0
1.36842               -0.1029764       -15.92999        -56.06398        88.33442             -200               0             -200               0
1.375                 -0.1059518       -16.06956        -55.74084        84.69812             -200               0             -200               0
1.38158               -0.1089716       -16.21075        -55.43107        81.07202             -200               0             -200               0
1.38816               -0.1120417       -16.35366        -55.13374        77.46274             -200               0             -200               0
1.39474               -0.1151704       -16.49836        -54.84787        73.87625             -200               0             -200               0
1.40132               -0.1183677       -16.64492        -54.57246        70.31783             -200               0             -200               0
1.40789               -0.1216447       -16.79341        -54.30649        66.79216             -200               0             -200               0
1.41447               -0.1250129       -16.94389        -54.04892        63.30325             -200               0             -200               0
1.42105               -0.1284873       -17.09641        -53.79868        59.85448             -200               0             -200               0
1.42763               -0.1320778         -17.251        -53.55467        56.44856             -200               0             -200               0
1.43421               -0.1358014       -17.40769         -53.3158        53.08751             -200               0             -200               0
1.44079               -0.1396711       -17.56649        -53.08094        49.77265             -200               0             -200               0
1.44737               -0.1436978       -17.72742        -52.84898        46.50453             -200               0             -200               0
1.45395               -0.1478973       -17.89046         -52.6188        43.28294             -200               0             -200               0
1.46053               -0.1522811       -18.05562         -52.3893        40.10687             -200               0             -200               0
1.46711               -0.1568587       -18.22285        -52.15943        36.97451             -200               0             -200               0
1.47368                -0.161642       -18.39215        -51.92817        33.88324             -200               0             -200               0
1.48026               -0.1666377       -18.56348        -51.69457        30.82969             -200               0             -200               0
1.48684                -0.171852        -18.7368        -51.45776        27.80974             -200               0             -200               0
1.49342                -0.177292       -18.91207        -51.21697        24.81863             -200               0             -200               0
1.5                   -0.1829603       -19.08927        -50.97153        21.85099             -200               0             -200               0
1.50658               -0.1888583       -19.26836        -50.72091        18.90103             -200               0             -200               0
1.51316               -0.1949862       -19.44931         -50.4647         15.9626             -200               0             -200               0
1.51974               -0.2013434        -19.6321        -50.20264        13.02937             -200               0             -200               0
1.52632               -0.2079268       -19.81673        -49.93459        10.09495             -200               0             -200               0
1.53289               -0.2147331       -20.00318        -49.66058        7.153055             -200               0             -200               0
1.53947               -0.2217572       -20.19147        -49.38076        4.197638             -200               0             -200               0
1.54605                -0.228995       -20.38162        -49.09538        1.223007             -200               0             -200               0
1.55263                 -0.23644       -20.57367        -48.80482        -1.77605             -200               0             -200               0
1.55921               -0.2440869       -20.76767        -48.50957        -4.80419             -200               0             -200               0
1.56579                -0.251932       -20.96369        -48.21014        -7.86544             -200               0             -200               0
1.57237               -0.2599704       -21.16181        -47.90715       -10.96317             -200               0             -200               0
1.57895               -0.2681995       -21.36211        -47.60124       -14.10008             -200               0             -200               0
1.58553               -0.2766164       -21.56472        -47.29306       -17.27816             -200               0             -200               0
1.59211                -0.285223       -21.76974        -46.98328       -20.49879             -200               0             -200               0
1.59868               -0.2940204       -21.97732        -46.67255       -23.76272             -200               0             -200               0
1.60526               -0.3030134       -22.18758        -46.36153        -27.0701             -200               0             -200               0
1.61184               -0.3122097       -22.40067        -46.05081       -30.42061             -200               0             -200               0
1.61842               -0.3216176       -22.61674        -45.74098       -33.81345             -200               0             -200               0
1.625                  -0.331251       -22.83594        -45.43256       -37.24743             -200               0             -200               0
1.63158               -0.3411232       -23.05842        -45.12603       -40.72104             -200               0             -200               0
1.63816               -0.3512536       -23.28433        -44.82183       -44.23246             -200               0             -200               0
1.64474               -0.3616613       -23.51381        -44.52034       -47.77969             -200               0             -200               0
1.65132               -0.3723711       -23.74699         -44.2219       -51.36051             -200               0             -200               0
1.65789               -0.3834063       -23.98399        -43.92678       -54.97261             -200               0             -200               0
1.66447               -0.3947953       -24.22493        -43.63522       -58.61359             -200               0             -200               0
1.67105               -0.4065662        -24.4699         -43.3474       -62.28099             -200               0             -200               0
1.67763               -0.4187507         -24.719        -43.06347       -65.97233             -200               0             -200               0
1.68421               -0.4313789       -24.97228        -42.78352       -69.68516             -200               0             -200               0
1.69079               -0.4444835       -25.22979         -42.5076       -73.41705             -200               0             -200               0
1.69737               -0.4580971       -25.49158        -42.23574       -77.16562             -200               0             -200               0
1.70395               -0.4722509       -25.75767        -41.96791        -80.9286             -200               0             -200               0
1.71053               -0.4869783       -26.02805        -41.70406       -84.70378             -200               0             -200               0
1.71711               -0.5023105       -26.30273        -41.44411       -88.48908             -200               0             -200               0
1.72368               -0.5182767       -26.58167        -41.18795       -92.28252             -200               0             -200               0
1.73026               -0.5349044       -26.86486        -40.93544       -96.08227             -200               0             -200               0
1.73684                -0.552223       -27.15225        -40.68643       -99.88665             -200               0             -200               0
1.74342               -0.5702553       -27.44379        -40.44072       -103.6941             -200               0             -200               0
1.75                  -0.5890263       -27.73946        -40.19811       -107.5033             -200               0             -200               0
1.75658               -0.6085559       -28.03919         -39.9584       -111.3129             -200               0             -200               0
1.76316               -0.6288634       -28.34296        -39.72135       -115.1221             -200               0             -200               0
1.76974               -0.6499677       -28.65071        -39.48671       -118.9298             -200               0             -200               0
1.77632               -0.6718842       -28.96243        -39.25423       -122.7356             -200               0             -200               0
1.78289                -0.694627       -29.27811        -39.02366       -126.5388             -200               0             -200               0
1.78947               -0.7182112       -29.59774        -38.79474       -130.3392             -200               0             -200               0
1.79605               -0.7426486       -29.92134         -38.5672       -134.1367             -200               0             -200               0
1.80263               -0.7679514       -30.24895        -38.34079       -137.9314             -200               0             -200               0
1.80921               -0.7941343       -30.58063        -38.11525       -141.7237             -200               0             -200               0
1.81579               -0.8212112       -30.91646        -37.89034       -145.5139             -200               0             -200               0
1.82237               -0.8491974       -31.25654        -37.66582       -149.3028             -200               0             -200               0
1.82895               -0.8781099       -31.60098        -37.44148       -153.0911             -200               0             -200               0
1.83553                -0.907971       -31.94993         -37.2171       -156.8799             -200               0             -200               0
1.84211               -0.9388023       -32.30356        -36.99251       -160.6702             -200               0             -200               0
1.84868               -0.9706324       -32.66205        -36.76754       -164.4633             -200               0             -200               0
