! TOUCHSTONE file generated by CST MICROWAVE STUDIO
! Date and time: Tue Mar 18 00:02:30 2025
! Project name: oblique.cst
! Parameters = {Tilt=40; Fracture=1; B=12.5; D=160; F=5; Feed=2.85625; L=100; M=10; R=0.384908; S=1; Theta=90; length=57.125; wave=114.25}
! Header version: 2024
! Port assignment regex: !\s*Touchstone port\s*([0-9]+)\s*=\s*(CST MWS port|CST DES external port|CST DES block port)\s*(.+)\s* \(\"(.*)\"\)(\s*mode\s*([0-9]+))?.*
! Touchstone port assignment:
! Touchstone port 1 = CST MWS port 1 ("")
! Touchstone port 2 = CST MWS port 2 ("")
# GHz S DB R 50
1                    -0.01841491       -9.767677        -70.80597       -122.2106             -200               0             -200               0
1.00658              -0.01917569       -9.856686        -70.15027       -127.0507             -200               0             -200               0
1.01316              -0.02000209       -9.946084        -69.56041       -131.9707             -200               0             -200               0
1.01974              -0.02088877       -10.03582        -69.02986       -136.9448             -200               0             -200               0
1.02632              -0.02182932       -10.12587        -68.55339       -141.9528             -200               0             -200               0
1.03289              -0.02281653       -10.21618        -68.12678       -146.9783             -200               0             -200               0
1.03947              -0.02384016       -10.30675         -67.7466       -152.0076             -200               0             -200               0
1.04605              -0.02489309       -10.39756        -67.41008       -157.0286             -200               0             -200               0
1.05263              -0.02596455       -10.48861        -67.11498       -162.0307             -200               0             -200               0
1.05921              -0.02704452       -10.57993         -66.8595       -167.0036             -200               0             -200               0
1.06579              -0.02812373       -10.67152        -66.64223       -171.9376             -200               0             -200               0
1.07237              -0.02919349       -10.76343        -66.46207       -176.8227             -200               0             -200               0
1.07895              -0.03024271       -10.85571         -66.3182        178.3514             -200               0             -200               0
1.08553              -0.03126672        -10.9484        -66.21003        173.5958             -200               0             -200               0
1.09211              -0.03225804       -11.04159         -66.1372        168.9225             -200               0             -200               0
1.09868               -0.0332114       -11.13534        -66.09952         164.345             -200               0             -200               0
1.10526              -0.03412441       -11.22973        -66.09692        159.8786             -200               0             -200               0
1.11184              -0.03499517       -11.32485        -66.12947        155.5408             -200               0             -200               0
1.11842               -0.0358241       -11.42078        -66.19727        151.3521             -200               0             -200               0
1.125                -0.03661326       -11.51761         -66.3004        147.3364             -200               0             -200               0
1.13158              -0.03736721       -11.61543        -66.43883        143.5219             -200               0             -200               0
1.13816              -0.03809162       -11.71431        -66.61226        139.9421             -200               0             -200               0
1.14474              -0.03879344       -11.81432        -66.81989        136.6364             -200               0             -200               0
1.15132              -0.03948231       -11.91554        -67.06013        133.6515             -200               0             -200               0
1.15789              -0.04016869       -12.01803        -67.33012         131.042             -200               0             -200               0
1.16447              -0.04086379       -12.12183        -67.62513        128.8704             -200               0             -200               0
1.17105               -0.0415798       -12.22698        -67.93765        127.2056             -200               0             -200               0
1.17763               -0.0423302       -12.33351        -68.25635        126.1195             -200               0             -200               0
1.18421              -0.04312682       -12.44143        -68.56498        125.6782             -200               0             -200               0
1.19079              -0.04398247       -12.55073        -68.84148        125.9277             -200               0             -200               0
1.19737              -0.04491085       -12.66141        -69.05818        126.8726             -200               0             -200               0
1.20395               -0.0459213       -12.77344        -69.18402        128.4513             -200               0             -200               0
1.21053               -0.0470268       -12.88679        -69.18948         130.518             -200               0             -200               0
1.21711              -0.04823426       -13.00141        -69.05344        132.8459             -200               0             -200               0
1.22368              -0.04955314       -13.11727        -68.76944        135.1606             -200               0             -200               0
1.23026              -0.05098885       -13.23429        -68.34766        137.1951             -200               0             -200               0
1.23684              -0.05254591       -13.35242        -67.81165        138.7412             -200               0             -200               0
1.24342              -0.05422597       -13.47159        -67.19153        139.6755             -200               0             -200               0
1.25                 -0.05603104       -13.59176        -66.51747        139.9556             -200               0             -200               0
1.25658              -0.05795679       -13.71284        -65.81539        139.5994             -200               0             -200               0
1.26316              -0.06000212        -13.8348        -65.10543        138.6601             -200               0             -200               0
1.26974              -0.06216129       -13.95758        -64.40203         137.207             -200               0             -200               0
1.27632               -0.0644273       -14.08114        -63.71496        135.3123             -200               0             -200               0
1.28289              -0.06679276       -14.20546        -63.05042        133.0445             -200               0             -200               0
1.28947              -0.06924817       -14.33051        -62.41205        130.4648             -200               0             -200               0
1.29605              -0.07178411        -14.4563        -61.80175        127.6266             -200               0             -200               0
1.30263              -0.07438963       -14.58283        -61.22021        124.5756             -200               0             -200               0
1.30921              -0.07705579       -14.71012         -60.6674        121.3506             -200               0             -200               0
1.31579              -0.07977131       -14.83821        -60.14274        117.9848             -200               0             -200               0
1.32237              -0.08252759       -14.96716        -59.64541        114.5061             -200               0             -200               0
1.32895              -0.08531554       -15.09701        -59.17435        110.9386             -200               0             -200               0
1.33553              -0.08812742       -15.22786        -58.72845        107.3031             -200               0             -200               0
1.34211              -0.09095884       -15.35978        -58.30653        103.6173             -200               0             -200               0
1.34868              -0.09380485       -15.49288        -57.90737        99.89707             -200               0             -200               0
1.35526              -0.09666484       -15.62725        -57.52977        96.15613             -200               0             -200               0
1.36184              -0.09953706       -15.76299        -57.17252        92.40679             -200               0             -200               0
1.36842               -0.1024251       -15.90023        -56.83441        88.66008             -200               0             -200               0
1.375                 -0.1053329       -16.03906        -56.51426        84.92594             -200               0             -200               0
1.38158               -0.1082685        -16.1796        -56.21084        81.21339             -200               0             -200               0
1.38816               -0.1112403       -16.32194        -55.92292        77.53064             -200               0             -200               0
1.39474               -0.1142586       -16.46618        -55.64929        73.88518             -200               0             -200               0
1.40132               -0.1173378       -16.61241        -55.38865        70.28381             -200               0             -200               0
1.40789               -0.1204903        -16.7607         -55.1397        66.73265             -200               0             -200               0
1.41447               -0.1237339       -16.91112        -54.90111        63.23713             -200               0             -200               0
1.42105               -0.1270838       -17.06372        -54.67147        59.80199             -200               0             -200               0
1.42763               -0.1305577       -17.21853        -54.44936        56.43118             -200               0             -200               0
1.43421               -0.1341729       -17.37557        -54.23327        53.12781             -200               0             -200               0
1.44079               -0.1379474       -17.53486        -54.02167        49.89408             -200               0             -200               0
1.44737               -0.1418964       -17.69637        -53.81301        46.73116             -200               0             -200               0
1.45395               -0.1460366        -17.8601        -53.60569        43.63909             -200               0             -200               0
1.46053               -0.1503823       -18.02602        -53.39811        40.61675             -200               0             -200               0
1.46711               -0.1549467       -18.19406        -53.18872        37.66171             -200               0             -200               0
1.47368               -0.1597405        -18.3642        -52.97597        34.77026             -200               0             -200               0
1.48026               -0.1647735       -18.53636        -52.75843        31.93735             -200               0             -200               0
1.48684               -0.1700524       -18.71048        -52.53477        29.15664             -200               0             -200               0
1.49342               -0.1755816       -18.88652        -52.30378        26.42065             -200               0             -200               0
1.5                   -0.1813642       -19.06439        -52.06447        23.72081             -200               0             -200               0
1.50658               -0.1873989       -19.24405        -51.81604        21.04772             -200               0             -200               0
1.51316               -0.1936852       -19.42544        -51.55791        18.39139             -200               0             -200               0
1.51974                -0.200218       -19.60853        -51.28976         15.7415             -200               0             -200               0
1.52632               -0.2069916       -19.79328         -51.0115        13.08769             -200               0             -200               0
1.53289               -0.2139983       -19.97968        -50.72331        10.41988             -200               0             -200               0
1.53947               -0.2212307       -20.16774        -50.42557         7.72852             -200               0             -200               0
1.54605               -0.2286793       -20.35746        -50.11886        5.004833             -200               0             -200               0
1.55263               -0.2363336       -20.54889        -49.80395        2.241015             -200               0             -200               0
1.55921               -0.2441846       -20.74208        -49.48173      -0.5696306             -200               0             -200               0
1.56579               -0.2522237       -20.93711        -49.15321       -3.432611             -200               0             -200               0
1.57237               -0.2604434       -21.13407        -48.81943       -6.352213             -200               0             -200               0
1.57895               -0.2688373       -21.33306         -48.4815       -9.331524             -200               0             -200               0
1.58553               -0.2774006       -21.53422         -48.1405       -12.37249             -200               0             -200               0
1.59211               -0.2861311       -21.73769        -47.79751       -15.47599             -200               0             -200               0
1.59868               -0.2950296       -21.94361        -47.45353       -18.64199             -200               0             -200               0
1.60526               -0.3040997       -22.15216        -47.10953        -21.8696             -200               0             -200               0
1.61184               -0.3133483       -22.36351        -46.76639       -25.15723             -200               0             -200               0
1.61842               -0.3227847       -22.57783        -46.42492       -28.50271             -200               0             -200               0
1.625                 -0.3324231       -22.79529        -46.08582       -31.90342             -200               0             -200               0
1.63158               -0.3422799       -23.01607        -45.74974       -35.35634             -200               0             -200               0
1.63816               -0.3523749       -23.24034        -45.41721       -38.85821             -200               0             -200               0
1.64474               -0.3627327       -23.46825         -45.0887       -42.40555             -200               0             -200               0
1.65132               -0.3733786       -23.69994        -44.76459        -45.9948             -200               0             -200               0
1.65789               -0.3843417       -23.93557        -44.44518       -49.62231             -200               0             -200               0
1.66447               -0.3956524       -24.17524        -44.13073       -53.28444             -200               0             -200               0
1.67105                -0.407346       -24.41904        -43.82139       -56.97757             -200               0             -200               0
1.67763               -0.4194547       -24.66707        -43.51728       -60.69817             -200               0             -200               0
1.68421               -0.4320153       -24.91936        -43.21846       -64.44279             -200               0             -200               0
1.69079               -0.4450638       -25.17596        -42.92493       -68.20811             -200               0             -200               0
1.69737               -0.4586328       -25.43689        -42.63665       -71.99093             -200               0             -200               0
1.70395               -0.4727623       -25.70213        -42.35353       -75.78824             -200               0             -200               0
1.71053                -0.487483       -25.97168        -42.07546       -79.59718             -200               0             -200               0
1.71711               -0.5028288       -26.24548        -41.80228       -83.41505             -200               0             -200               0
1.72368               -0.5188284       -26.52348        -41.53378       -87.23938             -200               0             -200               0
1.73026               -0.5355118       -26.80563        -41.26976       -91.06787             -200               0             -200               0
1.73684               -0.5529034       -27.09184        -41.00997       -94.89844             -200               0             -200               0
1.74342               -0.5710279       -27.38203        -40.75414       -98.72923             -200               0             -200               0
1.75                  -0.5899036       -27.67613        -40.50197       -102.5586             -200               0             -200               0
1.75658               -0.6095486       -27.97406        -40.25317       -106.3851             -200               0             -200               0
1.76316               -0.6299776       -28.27575        -40.00741       -110.2076             -200               0             -200               0
1.76974               -0.6512023       -28.58114        -39.76436        -114.025             -200               0             -200               0
1.77632                -0.673232       -28.89019        -39.52369       -117.8369             -200               0             -200               0
1.78289               -0.6960744       -29.20287        -39.28504       -121.6426             -200               0             -200               0
1.78947               -0.7197362       -29.51917        -39.04808       -125.4419             -200               0             -200               0
1.79605               -0.7442229       -29.83911        -38.81246        -129.235             -200               0             -200               0
1.80263               -0.7695386       -30.16275        -38.57785       -133.0221             -200               0             -200               0
1.80921               -0.7956896       -30.49014        -38.34391       -136.8038             -200               0             -200               0
1.81579               -0.8226811        -30.8214        -38.11035       -140.5807             -200               0             -200               0
1.82237               -0.8505233       -31.15665        -37.87685       -144.3539             -200               0             -200               0
1.82895               -0.8792251       -31.49605        -37.64315       -148.1246             -200               0             -200               0
1.83553               -0.9088014        -31.8398          -37.409       -151.8941             -200               0             -200               0
1.84211               -0.9392703        -32.1881        -37.17417       -155.6641             -200               0             -200               0
1.84868               -0.9706553       -32.54119        -36.93847       -159.4362             -200               0             -200               0
