! TOUCHSTONE file generated by CST MICROWAVE STUDIO
! Date and time: Tue Mar 18 00:02:16 2025
! Project name: oblique.cst
! Parameters = {Tilt=40; Fracture=1; B=10; D=160; F=15; Feed=2.85625; L=100; M=10; R=0.384908; S=2; Theta=180; length=57.125; wave=114.25}
! Header version: 2024
! Port assignment regex: !\s*Touchstone port\s*([0-9]+)\s*=\s*(CST MWS port|CST DES external port|CST DES block port)\s*(.+)\s* \(\"(.*)\"\)(\s*mode\s*([0-9]+))?.*
! Touchstone port assignment:
! Touchstone port 1 = CST MWS port 1 ("")
! Touchstone port 2 = CST MWS port 2 ("")
# GHz S DB R 50
1                    -0.01910241       -9.785457        -70.33977       -145.1278             -200               0             -200               0
1.00658              -0.01984007       -9.873858        -70.08754       -148.3337             -200               0             -200               0
1.01316              -0.02061484       -9.962717        -69.85212       -151.5036             -200               0             -200               0
1.01974              -0.02142619       -10.05203        -69.63237       -154.6254             -200               0             -200               0
1.02632              -0.02226878       -10.14178        -69.42696       -157.6879             -200               0             -200               0
1.03289              -0.02313873       -10.23196        -69.23444       -160.6802             -200               0             -200               0
1.03947              -0.02403143        -10.3226         -69.0532       -163.5924             -200               0             -200               0
1.04605              -0.02494536       -10.41368        -68.88144       -166.4154             -200               0             -200               0
1.05263              -0.02587288       -10.50523        -68.71718       -169.1411             -200               0             -200               0
1.05921              -0.02681322       -10.59726        -68.55824       -171.7627             -200               0             -200               0
1.06579              -0.02776003        -10.6898        -68.40224        -174.275             -200               0             -200               0
1.07237              -0.02871049       -10.78289        -68.24664       -176.6748             -200               0             -200               0
1.07895              -0.02966325       -10.87654        -68.08874        -178.961             -200               0             -200               0
1.08553              -0.03061675       -10.97082        -67.92576        178.8647             -200               0             -200               0
1.09211              -0.03156834       -11.06574        -67.75487        176.7976             -200               0             -200               0
1.09868              -0.03251674       -11.16136        -67.57329        174.8302             -200               0             -200               0
1.10526               -0.0334655       -11.25772        -67.37843        172.9512             -200               0             -200               0
1.11184              -0.03441426       -11.35486        -67.16794        171.1465             -200               0             -200               0
1.11842              -0.03536382       -11.45283        -66.93987         169.399             -200               0             -200               0
1.125                -0.03632022       -11.55166        -66.69276        167.6895             -200               0             -200               0
1.13158              -0.03728476       -11.65141         -66.4257         165.997             -200               0             -200               0
1.13816              -0.03826306       -11.75209        -66.13841        164.2999             -200               0             -200               0
1.14474              -0.03925982       -11.85375        -65.83122        162.5771             -200               0             -200               0
1.15132              -0.04028095       -11.95641        -65.50504        160.8085             -200               0             -200               0
1.15789              -0.04133181        -12.0601        -65.16127        158.9759             -200               0             -200               0
1.16447              -0.04241863       -12.16482        -64.80174        157.0639             -200               0             -200               0
1.17105              -0.04354932       -12.27059         -64.4286        155.0598             -200               0             -200               0
1.17763              -0.04472776       -12.37741        -64.04413        152.9542             -200               0             -200               0
1.18421              -0.04596067       -12.48529        -63.65073        150.7408             -200               0             -200               0
1.19079               -0.0472538       -12.59421        -63.25075         148.416             -200               0             -200               0
1.19737              -0.04861101       -12.70417        -62.84647        145.9788             -200               0             -200               0
1.20395              -0.05003856       -12.81516        -62.44001        143.4304             -200               0             -200               0
1.21053              -0.05153939       -12.92715         -62.0333        140.7738             -200               0             -200               0
1.21711              -0.05311466       -13.04013        -61.62806        138.0134             -200               0             -200               0
1.22368              -0.05476862       -13.15407         -61.2258        135.1547             -200               0             -200               0
1.23026              -0.05650247       -13.26896        -60.82784        132.2037             -200               0             -200               0
1.23684              -0.05831476       -13.38477        -60.43527        129.1671             -200               0             -200               0
1.24342              -0.06020492       -13.50148          -60.049        126.0519             -200               0             -200               0
1.25                 -0.06217309       -13.61908        -59.66978         122.865             -200               0             -200               0
1.25658              -0.06421526       -13.73756        -59.29818        119.6136             -200               0             -200               0
1.26316              -0.06632903        -13.8569        -58.93467        116.3044             -200               0             -200               0
1.26974              -0.06851232        -13.9771        -58.57956        112.9443             -200               0             -200               0
1.27632              -0.07075904       -14.09818        -58.23308        109.5396             -200               0             -200               0
1.28289              -0.07306452       -14.22012        -57.89535        106.0965             -200               0             -200               0
1.28947              -0.07542643       -14.34296        -57.56642        102.6211             -200               0             -200               0
1.29605              -0.07783993       -14.46671        -57.24625        99.11888             -200               0             -200               0
1.30263              -0.08029902        -14.5914        -56.93474        95.59523             -200               0             -200               0
1.30921              -0.08280134       -14.71707        -56.63175        92.05517             -200               0             -200               0
1.31579              -0.08534287       -14.84377        -56.33707        88.50342             -200               0             -200               0
1.32237              -0.08792035       -14.97153        -56.05045        84.94443             -200               0             -200               0
1.32895              -0.09053174       -15.10041        -55.77159        81.38234             -200               0             -200               0
1.33553              -0.09317706       -15.23047        -55.50019        77.82101             -200               0             -200               0
1.34211              -0.09585597       -15.36177        -55.23587        74.26398             -200               0             -200               0
1.34868              -0.09856689       -15.49437        -54.97824        70.71455             -200               0             -200               0
1.35526               -0.1013141       -15.62835        -54.72688        67.17567             -200               0             -200               0
1.36184               -0.1040986       -15.76375        -54.48134        63.65004             -200               0             -200               0
1.36842               -0.1069233       -15.90065        -54.24117        60.14001             -200               0             -200               0
1.375                 -0.1097968        -16.0391        -54.00586        56.64767             -200               0             -200               0
1.38158               -0.1127214       -16.17917        -53.77492        53.17473             -200               0             -200               0
1.38816               -0.1157049       -16.32092        -53.54783        49.72262             -200               0             -200               0
1.39474               -0.1187541       -16.46439        -53.32406         46.2924             -200               0             -200               0
1.40132               -0.1218765       -16.60964        -53.10308         42.8848             -200               0             -200               0
1.40789               -0.1250799        -16.7567        -52.88435        39.50022             -200               0             -200               0
1.41447               -0.1283749        -16.9056        -52.66734        36.13866             -200               0             -200               0
1.42105               -0.1317676       -17.05639        -52.45154        32.79979             -200               0             -200               0
1.42763               -0.1352688       -17.20909        -52.23643        29.48293             -200               0             -200               0
1.43421               -0.1388838       -17.36372        -52.02153        26.18706             -200               0             -200               0
1.44079               -0.1426233       -17.52029        -51.80638        22.91082             -200               0             -200               0
1.44737               -0.1464934       -17.67881        -51.59056        19.65256             -200               0             -200               0
1.45395               -0.1505012       -17.83929        -51.37367        16.41032             -200               0             -200               0
1.46053                -0.154652       -18.00175        -51.15537        13.18192             -200               0             -200               0
1.46711               -0.1589537       -18.16617        -50.93536        9.964947             -200               0             -200               0
1.47368               -0.1634089       -18.33258         -50.7134        6.756813             -200               0             -200               0
1.48026               -0.1680204       -18.50098        -50.48928        3.554811             -200               0             -200               0
1.48684               -0.1727947       -18.67136        -50.26287       0.3561558             -200               0             -200               0
1.49342                 -0.17773       -18.84375        -50.03409       -2.841972             -200               0             -200               0
1.5                   -0.1828323       -19.01816        -49.80291       -6.042366             -200               0             -200               0
1.50658               -0.1880994       -19.19461        -49.56936       -9.247751             -200               0             -200               0
1.51316               -0.1935324       -19.37313        -49.33352       -12.46074             -200               0             -200               0
1.51974               -0.1991314       -19.55375        -49.09551       -15.68378             -200               0             -200               0
1.52632               -0.2048995       -19.73651         -48.8555       -18.91914             -200               0             -200               0
1.53289               -0.2108323       -19.92147        -48.61369       -22.16885             -200               0             -200               0
1.53947                -0.216934       -20.10868        -48.37033        -25.4347             -200               0             -200               0
1.54605                -0.223204       -20.29821        -48.12566       -28.71821             -200               0             -200               0
1.55263                -0.229645       -20.49013        -47.87998       -32.02062             -200               0             -200               0
1.55921               -0.2362569       -20.68454        -47.63358        -35.3429             -200               0             -200               0
1.56579                -0.243046        -20.8815        -47.38675       -38.68573             -200               0             -200               0
1.57237                -0.250015       -21.08112         -47.1398        -42.0495             -200               0             -200               0
1.57895               -0.2571709       -21.28351        -46.89303       -45.43436             -200               0             -200               0
1.58553                 -0.26452       -21.48877        -46.64672        -48.8402             -200               0             -200               0
1.59211                -0.272073         -21.697        -46.40115       -52.26667             -200               0             -200               0
1.59868               -0.2798386       -21.90832        -46.15659        -55.7132             -200               0             -200               0
1.60526               -0.2878296       -22.12285        -45.91326       -59.17905             -200               0             -200               0
1.61184               -0.2960603       -22.34069         -45.6714        -62.6633             -200               0             -200               0
1.61842               -0.3045451       -22.56195        -45.43119       -66.16486             -200               0             -200               0
1.625                 -0.3133024       -22.78674        -45.19281       -69.68254             -200               0             -200               0
1.63158               -0.3223492       -23.01517        -44.95639       -73.21504             -200               0             -200               0
1.63816               -0.3317062       -23.24732        -44.72204       -76.76097             -200               0             -200               0
1.64474               -0.3413941        -23.4833        -44.48986        -80.3189             -200               0             -200               0
1.65132               -0.3514356       -23.72319         -44.2599       -83.88735             -200               0             -200               0
1.65789                -0.361853       -23.96706        -44.03219       -87.46481             -200               0             -200               0
1.66447               -0.3726696       -24.21499        -43.80673       -91.04979             -200               0             -200               0
1.67105               -0.3839117       -24.46704        -43.58349       -94.64083             -200               0             -200               0
1.67763               -0.3956027       -24.72328        -43.36242       -98.23648             -200               0             -200               0
1.68421               -0.4077678       -24.98373        -43.14344       -101.8354             -200               0             -200               0
1.69079               -0.4204313       -25.24846        -42.92644       -105.4362             -200               0             -200               0
1.69737               -0.4336192        -25.5175         -42.7113       -109.0377             -200               0             -200               0
1.70395               -0.4473561       -25.79089        -42.49787       -112.6389             -200               0             -200               0
1.71053               -0.4616651       -26.06865        -42.28598       -116.2386             -200               0             -200               0
1.71711               -0.4765715       -26.35082        -42.07543       -119.8361             -200               0             -200               0
1.72368               -0.4920997       -26.63741        -41.86604       -123.4307             -200               0             -200               0
1.73026                -0.508272       -26.92847        -41.65757       -127.0217             -200               0             -200               0
1.73684               -0.5251132       -27.22401         -41.4498       -130.6088             -200               0             -200               0
1.74342               -0.5426449       -27.52409         -41.2425       -134.1918             -200               0             -200               0
1.75                  -0.5608919       -27.82873        -41.03541       -137.7707             -200               0             -200               0
1.75658               -0.5798757       -28.13798         -40.8283       -141.3456             -200               0             -200               0
1.76316               -0.5996215       -28.45188        -40.62092       -144.9168             -200               0             -200               0
1.76974               -0.6201538       -28.77051        -40.41303       -148.4849             -200               0             -200               0
1.77632               -0.6414958       -29.09391         -40.2044       -152.0507             -200               0             -200               0
1.78289               -0.6636764       -29.42217        -39.99479        -155.615             -200               0             -200               0
1.78947               -0.6867231       -29.75537        -39.78401       -159.1789             -200               0             -200               0
1.79605               -0.7106638        -30.0936        -39.57186       -162.7438             -200               0             -200               0
1.80263               -0.7355326       -30.43696        -39.35818       -166.3109             -200               0             -200               0
1.80921                -0.761362       -30.78554         -39.1428       -169.8819             -200               0             -200               0
1.81579               -0.7881898       -31.13947        -38.92561       -173.4585             -200               0             -200               0
1.82237               -0.8160545       -31.49885        -38.70652       -177.0423             -200               0             -200               0
1.82895               -0.8450003       -31.86381        -38.48545        179.3648             -200               0             -200               0
1.83553               -0.8750724       -32.23444        -38.26237        175.7608             -200               0             -200               0
1.84211               -0.9063217       -32.61089        -38.03727        172.1439             -200               0             -200               0
1.84868               -0.9388026       -32.99324        -37.81018        168.5121             -200               0             -200               0
