! TOUCHSTONE file generated by CST MICROWAVE STUDIO
! Date and time: Tue Mar 18 00:02:18 2025
! Project name: oblique.cst
! Parameters = {Tilt=40; Fracture=1; B=10; D=160; F=15; Feed=2.85625; L=100; M=30; R=0.384908; S=2; Theta=270; length=57.125; wave=114.25}
! Header version: 2024
! Port assignment regex: !\s*Touchstone port\s*([0-9]+)\s*=\s*(CST MWS port|CST DES external port|CST DES block port)\s*(.+)\s* \(\"(.*)\"\)(\s*mode\s*([0-9]+))?.*
! Touchstone port assignment:
! Touchstone port 1 = CST MWS port 1 ("")
! Touchstone port 2 = CST MWS port 2 ("")
# GHz S DB R 50
1                    -0.02149161       -9.784649         -66.0128         170.444             -200               0             -200               0
1.00658              -0.02210076       -9.871191        -66.11153        164.6944             -200               0             -200               0
1.01316              -0.02269904       -9.958399        -66.24989        159.0618             -200               0             -200               0
1.01974              -0.02328851       -10.04632        -66.43014        153.5595             -200               0             -200               0
1.02632              -0.02387339       -10.13499        -66.65496        148.2048             -200               0             -200               0
1.03289                -0.024458       -10.22445        -66.92756        143.0205             -200               0             -200               0
1.03947              -0.02504556       -10.31472        -67.25167         138.036             -200               0             -200               0
1.04605              -0.02564436       -10.40585        -67.63166        133.2907             -200               0             -200               0
1.05263              -0.02625841       -10.49784        -68.07253        128.8369             -200               0             -200               0
1.05921              -0.02689561       -10.59072        -68.57979        124.7451             -200               0             -200               0
1.06579              -0.02756255       -10.68449        -69.15924        121.1119             -200               0             -200               0
1.07237               -0.0282637       -10.77917        -69.81613        118.0711             -200               0             -200               0
1.07895              -0.02900705       -10.87474        -70.55344        115.8089             -200               0             -200               0
1.08553              -0.02979961        -10.9712        -71.36801        114.5844             -200               0             -200               0
1.09211              -0.03064329       -11.06853         -72.2426        114.7475             -200               0             -200               0
1.09868               -0.0315466       -11.16672        -73.13104        116.7319             -200               0             -200               0
1.10526              -0.03251225       -11.26574        -73.93601        120.9552             -200               0             -200               0
1.11184              -0.03354201       -11.36557        -74.49436        127.5172             -200               0             -200               0
1.11842              -0.03464007       -11.46618        -74.61624        135.7343             -200               0             -200               0
1.125                -0.03580721       -11.56754         -74.2047        144.0583             -200               0             -200               0
1.13158              -0.03704549       -11.66963        -73.34105        150.8894             -200               0             -200               0
1.13816              -0.03835119        -11.7724        -72.21211        155.4523             -200               0             -200               0
1.14474              -0.03972407       -11.87585        -70.98644        157.7926             -200               0             -200               0
1.15132              -0.04116289       -11.97995        -69.76718         158.315             -200               0             -200               0
1.15789              -0.04266419       -12.08467        -68.60414        157.4589             -200               0             -200               0
1.16447              -0.04422312          -12.19        -67.51634        155.5842             -200               0             -200               0
1.17105              -0.04583488       -12.29594        -66.50765        152.9587             -200               0             -200               0
1.17763              -0.04749488       -12.40249        -65.57523         149.776             -200               0             -200               0
1.18421              -0.04919927       -12.50965        -64.71372        146.1753             -200               0             -200               0
1.19079              -0.05094203       -12.61742        -63.91709        142.2576             -200               0             -200               0
1.19737              -0.05271712       -12.72584         -63.1795        138.0973             -200               0             -200               0
1.20395              -0.05451953       -12.83493        -62.49562        133.7502             -200               0             -200               0
1.21053              -0.05634553       -12.94472        -61.86075        129.2587             -200               0             -200               0
1.21711              -0.05819045       -13.05524        -61.27075        124.6557             -200               0             -200               0
1.22368              -0.06005166       -13.16656        -60.72204        119.9671             -200               0             -200               0
1.23026              -0.06192621       -13.27871        -60.21149        115.2139             -200               0             -200               0
1.23684              -0.06381209       -13.39174         -59.7364         110.413             -200               0             -200               0
1.24342              -0.06571018       -13.50572        -59.29443        105.5787             -200               0             -200               0
1.25                 -0.06762037       -13.62071        -58.88352         100.723             -200               0             -200               0
1.25658              -0.06954335       -13.73675        -58.50187        95.85646             -200               0             -200               0
1.26316              -0.07148422       -13.85392        -58.14791        90.98817             -200               0             -200               0
1.26974              -0.07344354       -13.97226        -57.82023        86.12644             -200               0             -200               0
1.27632              -0.07542977       -14.09183        -57.51759        81.27892             -200               0             -200               0
1.28289              -0.07744529       -14.21268        -57.23888        76.45272             -200               0             -200               0
1.28947              -0.07949917       -14.33485        -56.98309        71.65466             -200               0             -200               0
1.29605              -0.08159796       -14.45838        -56.74931        66.89137             -200               0             -200               0
1.30263              -0.08374907        -14.5833        -56.53667        62.16938             -200               0             -200               0
1.30921              -0.08596093       -14.70965        -56.34438        57.49524             -200               0             -200               0
1.31579              -0.08824156       -14.83743        -56.17167         52.8756             -200               0             -200               0
1.32237              -0.09059848       -14.96666        -56.01778        48.31726             -200               0             -200               0
1.32895              -0.09303981       -15.09735        -55.88196        43.82725             -200               0             -200               0
1.33553              -0.09557302       -15.22948        -55.76342        39.41285             -200               0             -200               0
1.34211              -0.09820498       -15.36307        -55.66133        35.08163             -200               0             -200               0
1.34868               -0.1009414       -15.49808        -55.57482        30.84152             -200               0             -200               0
1.35526                -0.103788       -15.63452        -55.50289        26.70069             -200               0             -200               0
1.36184               -0.1067489       -15.77235        -55.44444        22.66763             -200               0             -200               0
1.36842               -0.1098267       -15.91155        -55.39821        18.75102             -200               0             -200               0
1.375                 -0.1130245       -16.05211        -55.36278        14.95965             -200               0             -200               0
1.38158               -0.1163402       -16.19401         -55.3365        11.30222             -200               0             -200               0
1.38816               -0.1197763       -16.33722        -55.31746        7.787123             -200               0             -200               0
1.39474               -0.1233294       -16.48173        -55.30351        4.422124             -200               0             -200               0
1.40132                -0.126999       -16.62754        -55.29216        1.213957             -200               0             -200               0
1.40789               -0.1307798       -16.77463        -55.28066        -1.83218             -200               0             -200               0
1.41447               -0.1346665       -16.92301        -55.26592       -4.713212             -200               0             -200               0
1.42105               -0.1386582       -17.07271        -55.24459       -7.428832             -200               0             -200               0
1.42763               -0.1427463       -17.22373        -55.21313       -9.982167             -200               0             -200               0
1.43421               -0.1469263        -17.3761        -55.16789       -12.38041             -200               0             -200               0
1.44079               -0.1511938       -17.52988        -55.10522       -14.63528             -200               0             -200               0
1.44737                -0.155542       -17.68511         -55.0217       -16.76329             -200               0             -200               0
1.45395               -0.1599679       -17.84185         -54.9143       -18.78562             -200               0             -200               0
1.46053               -0.1644677       -18.00017        -54.78056        -20.7276             -200               0             -200               0
1.46711               -0.1690367       -18.16015        -54.61877       -22.61783             -200               0             -200               0
1.47368               -0.1736757       -18.32188        -54.42811        -24.4868             -200               0             -200               0
1.48026                -0.178383       -18.48546         -54.2087       -26.36543             -200               0             -200               0
1.48684               -0.1831583       -18.65098        -53.96155       -28.28344             -200               0             -200               0
1.49342               -0.1880063       -18.81855        -53.68852       -30.26794             -200               0             -200               0
1.5                   -0.1929317       -18.98827        -53.39215       -32.34227             -200               0             -200               0
1.50658               -0.1979391       -19.16026        -53.07543       -34.52528             -200               0             -200               0
1.51316               -0.2030367       -19.33462        -52.74168         -36.831             -200               0             -200               0
1.51974                -0.208235       -19.51145        -52.39431       -39.26873             -200               0             -200               0
1.52632               -0.2135441       -19.69086        -52.03667       -41.84342             -200               0             -200               0
1.53289               -0.2189765       -19.87296        -51.67197       -44.55617             -200               0             -200               0
1.53947               -0.2245481       -20.05782        -51.30313       -47.40498             -200               0             -200               0
1.54605               -0.2302711       -20.24553        -50.93281       -50.38532             -200               0             -200               0
1.55263               -0.2361652       -20.43617         -50.5633       -53.49082             -200               0             -200               0
1.55921               -0.2422447        -20.6298         -50.1966       -56.71379             -200               0             -200               0
1.56579               -0.2485277       -20.82648        -49.83438       -60.04572             -200               0             -200               0
1.57237               -0.2550335       -21.02626        -49.47805       -63.47757             -200               0             -200               0
1.57895               -0.2617779       -21.22918        -49.12872       -67.00012             -200               0             -200               0
1.58553                 -0.26878       -21.43525         -48.7873       -70.60418             -200               0             -200               0
1.59211               -0.2760561       -21.64451        -48.45449       -74.28069             -200               0             -200               0
1.59868               -0.2836238       -21.85696        -48.13082       -78.02086             -200               0             -200               0
1.60526               -0.2914968       -22.07261        -47.81666       -81.81623             -200               0             -200               0
1.61184               -0.2996906       -22.29146        -47.51224        -85.6587             -200               0             -200               0
1.61842               -0.3082188        -22.5135        -47.21771       -89.54053             -200               0             -200               0
1.625                 -0.3170927       -22.73874        -46.93309       -93.45436             -200               0             -200               0
1.63158               -0.3263243       -22.96716        -46.65833       -97.39321             -200               0             -200               0
1.63816               -0.3359227       -23.19878         -46.3933       -101.3505             -200               0             -200               0
1.64474               -0.3458944       -23.43357        -46.13781       -105.3198             -200               0             -200               0
1.65132               -0.3562473       -23.67156         -45.8916       -109.2952             -200               0             -200               0
1.65789                -0.366988       -23.91275        -45.65435       -113.2712             -200               0             -200               0
1.66447               -0.3781195       -24.15717        -45.42569       -117.2422             -200               0             -200               0
1.67105               -0.3896475       -24.40486        -45.20521       -121.2033             -200               0             -200               0
1.67763                -0.401575       -24.65586        -44.99243       -125.1497             -200               0             -200               0
1.68421               -0.4139055       -24.91022        -44.78683        -129.077             -200               0             -200               0
1.69079               -0.4266425       -25.16803        -44.58783       -132.9809             -200               0             -200               0
1.69737               -0.4397894       -25.42936        -44.39482       -136.8578             -200               0             -200               0
1.70395               -0.4533527       -25.69433        -44.20711       -140.7041             -200               0             -200               0
1.71053               -0.4673362       -25.96305        -44.02399       -144.5167             -200               0             -200               0
1.71711               -0.4817483       -26.23564         -43.8447       -148.2931             -200               0             -200               0
1.72368               -0.4965969       -26.51227        -43.66842        -152.031             -200               0             -200               0
1.73026               -0.5118939       -26.79308         -43.4943       -155.7288             -200               0             -200               0
1.73684               -0.5276524       -27.07823        -43.32146       -159.3854             -200               0             -200               0
1.74342                -0.543888       -27.36792        -43.14897       -163.0002             -200               0             -200               0
1.75                  -0.5606191       -27.66233        -42.97591       -166.5736             -200               0             -200               0
1.75658               -0.5778678       -27.96165        -42.80134       -170.1062             -200               0             -200               0
1.76316               -0.5956585       -28.26609        -42.62431       -173.5999             -200               0             -200               0
1.76974               -0.6140195       -28.57584        -42.44392       -177.0568             -200               0             -200               0
1.77632               -0.6329816       -28.89112        -42.25928        179.5197             -200               0             -200               0
1.78289               -0.6525793       -29.21211        -42.06957        176.1258             -200               0             -200               0
1.78947               -0.6728503       -29.53902        -41.87404         172.757             -200               0             -200               0
1.79605               -0.6938352       -29.87205        -41.67201        169.4079             -200               0             -200               0
1.80263               -0.7155777       -30.21138        -41.46294        166.0727             -200               0             -200               0
1.80921               -0.7381246        -30.5572        -41.24637        162.7451             -200               0             -200               0
1.81579               -0.7615259       -30.90967          -41.022        159.4185             -200               0             -200               0
1.82237               -0.7858341       -31.26897        -40.78966         156.086             -200               0             -200               0
1.82895               -0.8111031       -31.63525         -40.5493        152.7408             -200               0             -200               0
1.83553               -0.8373901       -32.00865        -40.30103        149.3759             -200               0             -200               0
1.84211               -0.8647542        -32.3893        -40.04508         145.985             -200               0             -200               0
1.84868               -0.8932575       -32.77733        -39.78181        142.5616             -200               0             -200               0
