! TOUCHSTONE file generated by CST MICROWAVE STUDIO
! Date and time: Tue Mar 18 00:01:35 2025
! Project name: oblique.cst
! Parameters = {Tilt=30; Fracture=1; B=12.5; D=160; F=15; Feed=2.85625; L=100; M=50; R=0.384908; S=1; Theta=270; length=57.125; wave=114.25}
! Header version: 2024
! Port assignment regex: !\s*Touchstone port\s*([0-9]+)\s*=\s*(CST MWS port|CST DES external port|CST DES block port)\s*(.+)\s* \(\"(.*)\"\)(\s*mode\s*([0-9]+))?.*
! Touchstone port assignment:
! Touchstone port 1 = CST MWS port 1 ("")
! Touchstone port 2 = CST MWS port 2 ("")
# GHz S DB R 50
1                     -0.0212666       -9.861509        -68.10207        156.2397             -200               0             -200               0
1.00662              -0.02201273       -9.950324        -68.10801        150.5455             -200               0             -200               0
1.01325              -0.02277398       -10.03972        -68.14774        144.9564             -200               0             -200               0
1.01987              -0.02354962       -10.12971        -68.22217        139.4822             -200               0             -200               0
1.02649              -0.02434038       -10.22031        -68.33243        134.1352             -200               0             -200               0
1.03311              -0.02514856       -10.31155        -68.47985        128.9309             -200               0             -200               0
1.03974              -0.02597378       -10.40342        -68.66598        123.8886             -200               0             -200               0
1.04636              -0.02681677       -10.49596        -68.89253        119.0328             -200               0             -200               0
1.05298               -0.0276809       -10.58917        -69.16137        114.3941             -200               0             -200               0
1.0596               -0.02856629       -10.68307        -69.47439        110.0112             -200               0             -200               0
1.06623              -0.02947423       -10.77768        -69.83336        105.9333             -200               0             -200               0
1.07285              -0.03040656         -10.873        -70.23956         102.223             -200               0             -200               0
1.07947               -0.0313661       -10.96905        -70.69326        98.95995             -200               0             -200               0
1.08609               -0.0323531       -11.06584        -71.19268        96.24522             -200               0             -200               0
1.09272              -0.03337215       -11.16338        -71.73239        94.20465             -200               0             -200               0
1.09934              -0.03442144       -11.26167        -72.30065        92.98975             -200               0             -200               0
1.10596              -0.03550548       -11.36072        -72.87558        92.76979             -200               0             -200               0
1.11258               -0.0366241       -11.46055        -73.42033        93.70498             -200               0             -200               0
1.11921              -0.03778098       -11.56114         -73.8795        95.88721             -200               0             -200               0
1.12583              -0.03897484       -11.66251        -74.18185        99.24528             -200               0             -200               0
1.13245               -0.0402077       -11.76465        -74.25602        103.4533             -200               0             -200               0
1.13907              -0.04148158       -11.86759        -74.05848        107.9352             -200               0             -200               0
1.1457               -0.04279529        -11.9713        -73.59581        112.0268             -200               0             -200               0
1.15232              -0.04415185       -12.07581        -72.92106        115.2055             -200               0             -200               0
1.15894              -0.04554846       -12.18112        -72.10763        117.2146             -200               0             -200               0
1.16556              -0.04698709       -12.28722        -71.22347         118.034             -200               0             -200               0
1.17219              -0.04846792       -12.39413        -70.31901        117.7809             -200               0             -200               0
1.17881              -0.04998805       -12.50186        -69.42667        116.6226             -200               0             -200               0
1.18543              -0.05155078       -12.61041        -68.56514        114.7262             -200               0             -200               0
1.19205              -0.05315198        -12.7198          -67.744         112.238             -200               0             -200               0
1.19868              -0.05479216       -12.83004        -66.96732        109.2787             -200               0             -200               0
1.2053               -0.05647278       -12.94114        -66.23595        105.9446             -200               0             -200               0
1.21192              -0.05818995       -13.05313          -65.549        102.3123             -200               0             -200               0
1.21854              -0.05994493       -13.16602        -64.90472        98.44247             -200               0             -200               0
1.22517              -0.06173621       -13.27984        -64.30093        94.38314             -200               0             -200               0
1.23179              -0.06356441       -13.39461        -63.73538        90.17297             -200               0             -200               0
1.23841              -0.06542828       -13.51036        -63.20581        85.84319             -200               0             -200               0
1.24503              -0.06732882       -13.62711        -62.71012         81.4194             -200               0             -200               0
1.25166               -0.0692667        -13.7449        -62.24633        76.92279             -200               0             -200               0
1.25828              -0.07124269       -13.86375        -61.81263        72.37121             -200               0             -200               0
1.2649                -0.0732573       -13.98371        -61.40736        67.77985             -200               0             -200               0
1.27152              -0.07531165        -14.1048        -61.02902        63.16185             -200               0             -200               0
1.27815              -0.07740783       -14.22706         -60.6762        58.52876             -200               0             -200               0
1.28477              -0.07954779       -14.35053        -60.34766        53.89088             -200               0             -200               0
1.29139              -0.08173468       -14.47523        -60.04222        49.25758             -200               0             -200               0
1.29801              -0.08397158       -14.60119        -59.75879        44.63747             -200               0             -200               0
1.30464              -0.08626201       -14.72847        -59.49635         40.0386             -200               0             -200               0
1.31126              -0.08860733       -14.85707        -59.25395        35.46863             -200               0             -200               0
1.31788               -0.0910134       -14.98705        -59.03064        30.93493             -200               0             -200               0
1.3245               -0.09348485       -15.11842        -58.82551        26.44465             -200               0             -200               0
1.33113              -0.09602315       -15.25121        -58.63767        22.00484             -200               0             -200               0
1.33775              -0.09863521       -15.38546        -58.46619        17.62247             -200               0             -200               0
1.34437               -0.1013254       -15.52118        -58.31014        13.30446             -200               0             -200               0
1.35099               -0.1040969        -15.6584        -58.16851        9.057726             -200               0             -200               0
1.35762               -0.1069546       -15.79713        -58.04026        4.889142             -200               0             -200               0
1.36424               -0.1099023       -15.93741        -57.92426       0.8055269             -200               0             -200               0
1.37086               -0.1129477       -16.07925        -57.81926       -3.186418             -200               0             -200               0
1.37748               -0.1160908       -16.22267        -57.72393       -7.080204             -200               0             -200               0
1.38411               -0.1193391       -16.36768        -57.63677       -10.86967             -200               0             -200               0
1.39073               -0.1226942       -16.51431        -57.55613       -14.54917             -200               0             -200               0
1.39735                -0.126162       -16.66257        -57.48022       -18.11374             -200               0             -200               0
1.40397               -0.1297446       -16.81247        -57.40707        -21.5594             -200               0             -200               0
1.4106                -0.1334457       -16.96404        -57.33453        -24.8834             -200               0             -200               0
1.41722               -0.1372689       -17.11729        -57.26031       -28.08458             -200               0             -200               0
1.42384               -0.1412165       -17.27226        -57.18199       -31.16366             -200               0             -200               0
1.43046               -0.1452926       -17.42895        -57.09707       -34.12361             -200               0             -200               0
1.43709               -0.1494997       -17.58739        -57.00302       -36.96991             -200               0             -200               0
1.44371               -0.1538406       -17.74761        -56.89735       -39.71078             -200               0             -200               0
1.45033               -0.1583186       -17.90964        -56.77771       -42.35723             -200               0             -200               0
1.45695               -0.1629357       -18.07351          -56.642       -44.92305             -200               0             -200               0
1.46358               -0.1676963       -18.23925        -56.48842       -47.42447             -200               0             -200               0
1.4702                -0.1726023       -18.40691        -56.31564       -49.87983             -200               0             -200               0
1.47682               -0.1776578       -18.57651        -56.12277       -52.30884             -200               0             -200               0
1.48344               -0.1828672        -18.7481        -55.90951       -54.73194             -200               0             -200               0
1.49007               -0.1882338       -18.92173        -55.67607       -57.16942             -200               0             -200               0
1.49669               -0.1937635       -19.09743        -55.42321       -59.64067             -200               0             -200               0
1.50331               -0.1994602       -19.27527        -55.15216       -62.16345             -200               0             -200               0
1.50993               -0.2053296       -19.45528        -54.86453       -64.75331             -200               0             -200               0
1.51656               -0.2113774       -19.63752        -54.56224       -67.42323             -200               0             -200               0
1.52318               -0.2176119       -19.82204        -54.24742        -70.1834             -200               0             -200               0
1.5298                 -0.224039       -20.00889        -53.92226       -73.04123             -200               0             -200               0
1.53642               -0.2306652       -20.19812        -53.58902       -76.00147             -200               0             -200               0
1.54305               -0.2375022       -20.38979        -53.24986       -79.06641             -200               0             -200               0
1.54967               -0.2445551       -20.58394        -52.90684       -82.23627             -200               0             -200               0
1.55629               -0.2518353       -20.78063        -52.56187       -85.50945             -200               0             -200               0
1.56291               -0.2593523       -20.97989         -52.2167       -88.88292             -200               0             -200               0
1.56954               -0.2671153       -21.18179        -51.87286       -92.35255             -200               0             -200               0
1.57616               -0.2751351       -21.38636        -51.53171       -95.91334             -200               0             -200               0
1.58278                -0.283423       -21.59365        -51.19442       -99.55972             -200               0             -200               0
1.5894                -0.2919895       -21.80371        -50.86201       -103.2858             -200               0             -200               0
1.59603               -0.3008462       -22.01656        -50.53529       -107.0853             -200               0             -200               0
1.60265               -0.3100039       -22.23225        -50.21497       -110.9521             -200               0             -200               0
1.60927               -0.3194737       -22.45082         -49.9016         -114.88             -200               0             -200               0
1.61589               -0.3292678       -22.67231        -49.59562       -118.8628             -200               0             -200               0
1.62252               -0.3393974       -22.89675        -49.29737       -122.8946             -200               0             -200               0
1.62914               -0.3498737       -23.12418        -49.00709       -126.9696             -200               0             -200               0
1.63576               -0.3607091       -23.35463        -48.72495       -131.0823             -200               0             -200               0
1.64238               -0.3719135       -23.58815        -48.45103       -135.2272             -200               0             -200               0
1.64901               -0.3834993       -23.82476        -48.18537       -139.3993             -200               0             -200               0
1.65563               -0.3954771       -24.06452        -47.92793       -143.5937             -200               0             -200               0
1.66225               -0.4078589       -24.30747        -47.67864       -147.8058             -200               0             -200               0
1.66887               -0.4206562       -24.55364        -47.43737        -152.031             -200               0             -200               0
1.6755                -0.4338804        -24.8031        -47.20397       -156.2652             -200               0             -200               0
1.68212               -0.4475437       -25.05589        -46.97822       -160.5044             -200               0             -200               0
1.68874               -0.4616587       -25.31207        -46.75988       -164.7446             -200               0             -200               0
1.69536               -0.4762362        -25.5717        -46.54869       -168.9824             -200               0             -200               0
1.70199                -0.491292       -25.83485        -46.34434       -173.2144             -200               0             -200               0
1.70861               -0.5068391        -26.1016         -46.1465       -177.4372             -200               0             -200               0
1.71523               -0.5228915         -26.372         -45.9548         178.352             -200               0             -200               0
1.72185               -0.5394657       -26.64616        -45.76885        174.1561             -200               0             -200               0
1.72848               -0.5565783       -26.92414        -45.58821        169.9776             -200               0             -200               0
1.7351                 -0.574246       -27.20604        -45.41245        165.8189             -200               0             -200               0
1.74172               -0.5924892       -27.49195        -45.24109         161.682             -200               0             -200               0
1.74834               -0.6113266       -27.78197        -45.07362        157.5688             -200               0             -200               0
1.75497               -0.6307826       -28.07619        -44.90952        153.4808             -200               0             -200               0
1.76159               -0.6508778       -28.37471        -44.74824        149.4193             -200               0             -200               0
1.76821                -0.671639       -28.67763        -44.58921        145.3852             -200               0             -200               0
1.77483               -0.6930918       -28.98505        -44.43186        141.3791             -200               0             -200               0
1.78146               -0.7152649       -29.29708        -44.27559        137.4011             -200               0             -200               0
1.78808               -0.7381883       -29.61381        -44.11979        133.4512             -200               0             -200               0
1.7947                -0.7618924       -29.93534        -43.96388        129.5288             -200               0             -200               0
1.80132               -0.7864128       -30.26176        -43.80724        125.6328             -200               0             -200               0
1.80795               -0.8117825       -30.59316        -43.64932        121.7619             -200               0             -200               0
1.81457               -0.8380385       -30.92965        -43.48953        117.9143             -200               0             -200               0
1.82119               -0.8652197       -31.27128        -43.32735        114.0878             -200               0             -200               0
1.82781               -0.8933653       -31.61816        -43.16227        110.2797             -200               0             -200               0
1.83444               -0.9225168       -31.97035        -42.99386         106.487             -200               0             -200               0
1.84106               -0.9527156       -32.32792         -42.8217        102.7065             -200               0             -200               0
1.84768               -0.9840066       -32.69094        -42.64545        98.93443             -200               0             -200               0
1.8543                 -1.016434       -33.05946        -42.46484        95.16702             -200               0             -200               0
