! TOUCHSTONE file generated by CST MICROWAVE STUDIO
! Date and time: Tue Mar 18 00:01:41 2025
! Project name: oblique.cst
! Parameters = {Tilt=30; Fracture=1; B=12.5; D=160; F=25; Feed=2.85625; L=100; M=10; R=0.384908; S=1; Theta=90; length=57.125; wave=114.25}
! Header version: 2024
! Port assignment regex: !\s*Touchstone port\s*([0-9]+)\s*=\s*(CST MWS port|CST DES external port|CST DES block port)\s*(.+)\s* \(\"(.*)\"\)(\s*mode\s*([0-9]+))?.*
! Touchstone port assignment:
! Touchstone port 1 = CST MWS port 1 ("")
! Touchstone port 2 = CST MWS port 2 ("")
# GHz S DB R 50
1                    -0.02083884       -9.854872         -67.6055       -171.4019             -200               0             -200               0
1.00658              -0.02135986       -9.942594        -67.72018       -175.8058             -200               0             -200               0
1.01316              -0.02187797       -10.03107        -67.86982       -179.9745             -200               0             -200               0
1.01974              -0.02239432       -10.12034        -68.05413        176.1271             -200               0             -200               0
1.02632              -0.02291651       -10.21043        -68.27223        172.5413             -200               0             -200               0
1.03289              -0.02344956       -10.30138        -68.52222        169.3187             -200               0             -200               0
1.03947              -0.02399972       -10.39319        -68.80067        166.5187             -200               0             -200               0
1.04605              -0.02457393       -10.48588         -69.1018        164.2098             -200               0             -200               0
1.05263              -0.02517666       -10.57946        -69.41643         162.467             -200               0             -200               0
1.05921              -0.02581663       -10.67393        -69.73074        161.3659             -200               0             -200               0
1.06579              -0.02649826        -10.7693        -70.02501        160.9715             -200               0             -200               0
1.07237              -0.02722746       -10.86554        -70.27296        161.3184             -200               0             -200               0
1.07895              -0.02801159       -10.96265        -70.44273        162.3845             -200               0             -200               0
1.08553              -0.02885212        -11.0606        -70.50061        164.0639             -200               0             -200               0
1.09211              -0.02975563       -11.15937        -70.41787         166.155             -200               0             -200               0
1.09868              -0.03072281       -11.25894        -70.17876        168.3795             -200               0             -200               0
1.10526              -0.03175613       -11.35927        -69.78566        170.4355             -200               0             -200               0
1.11184              -0.03285865       -11.46035        -69.25822        172.0618             -200               0             -200               0
1.11842              -0.03402805       -11.56214        -68.62696        173.0826             -200               0             -200               0
1.125                -0.03526371       -11.66461        -67.92527        173.4174             -200               0             -200               0
1.13158              -0.03656588       -11.76775        -67.18337        173.0627             -200               0             -200               0
1.13816              -0.03793011       -11.87153        -66.42536        172.0646             -200               0             -200               0
1.14474              -0.03935378       -11.97594        -65.66887        170.4932             -200               0             -200               0
1.15132              -0.04083215       -12.08096         -64.9259        168.4257             -200               0             -200               0
1.15789              -0.04236171       -12.18659        -64.20414        165.9369             -200               0             -200               0
1.16447              -0.04393732       -12.29283        -63.50819        163.0939             -200               0             -200               0
1.17105              -0.04555449       -12.39969        -62.84051        159.9552             -200               0             -200               0
1.17763              -0.04720655       -12.50719        -62.20214        156.5707             -200               0             -200               0
1.18421              -0.04889119       -12.61534        -61.59321        152.9823             -200               0             -200               0
1.19079              -0.05060329       -12.72417        -61.01328        149.2252             -200               0             -200               0
1.19737              -0.05233681       -12.83373        -60.46158         145.329             -200               0             -200               0
1.20395              -0.05408997       -12.94404        -59.93712        141.3186             -200               0             -200               0
1.21053              -0.05586155       -13.05516        -59.43885        137.2151             -200               0             -200               0
1.21711              -0.05764659       -13.16713        -58.96564        133.0365             -200               0             -200               0
1.22368              -0.05944576          -13.28        -58.51641        128.7981             -200               0             -200               0
1.23026              -0.06125903       -13.39383        -58.09008        124.5132             -200               0             -200               0
1.23684              -0.06308908       -13.50867        -57.68561        120.1935             -200               0             -200               0
1.24342              -0.06493577       -13.62458        -57.30201        115.8492             -200               0             -200               0
1.25                 -0.06680263       -13.74161        -56.93834        111.4894             -200               0             -200               0
1.25658              -0.06869652       -13.85981        -56.59367        107.1223             -200               0             -200               0
1.26316              -0.07061895       -13.97923        -56.26715        102.7552             -200               0             -200               0
1.26974              -0.07257875        -14.0999        -55.95793        98.39497             -200               0             -200               0
1.27632              -0.07458081       -14.22188        -55.66521        94.04782             -200               0             -200               0
1.28289              -0.07663104       -14.34518        -55.38818        89.71956             -200               0             -200               0
1.28947              -0.07873851       -14.46983        -55.12607        85.41565             -200               0             -200               0
1.29605              -0.08091112       -14.59587        -54.87812        81.14123             -200               0             -200               0
1.30263              -0.08315434       -14.72329        -54.64354        76.90115             -200               0             -200               0
1.30921              -0.08547582        -14.8521        -54.42157        72.70004             -200               0             -200               0
1.31579              -0.08788368       -14.98231        -54.21141        68.54228             -200               0             -200               0
1.32237              -0.09038252       -15.11391        -54.01225        64.43204             -200               0             -200               0
1.32895              -0.09297909       -15.24689        -53.82325        60.37325             -200               0             -200               0
1.33553              -0.09567621       -15.38123        -53.64355        56.36958             -200               0             -200               0
1.34211              -0.09848151       -15.51694        -53.47225        52.42443             -200               0             -200               0
1.34868               -0.1013944       -15.65397        -53.30839        48.54087             -200               0             -200               0
1.35526               -0.1044182       -15.79232        -53.15099        44.72163             -200               0             -200               0
1.36184               -0.1075524       -15.93197        -52.99901        40.96897             -200               0             -200               0
1.36842               -0.1107982       -16.07291        -52.85138        37.28469             -200               0             -200               0
1.375                  -0.114154       -16.21512        -52.70699        33.67001             -200               0             -200               0
1.38158                -0.117616       -16.35861        -52.56467        30.12549             -200               0             -200               0
1.38816               -0.1211834       -16.50335        -52.42324          26.651             -200               0             -200               0
1.39474               -0.1248521       -16.64937        -52.28151        23.24559             -200               0             -200               0
1.40132               -0.1286165       -16.79667        -52.13828        19.90745             -200               0             -200               0
1.40789               -0.1324726       -16.94528        -51.99236        16.63385             -200               0             -200               0
1.41447               -0.1364161       -17.09522        -51.84261        13.42115             -200               0             -200               0
1.42105               -0.1404422       -17.24655        -51.68794        10.26474             -200               0             -200               0
1.42763               -0.1445461       -17.39929        -51.52735         7.15911             -200               0             -200               0
1.43421               -0.1487237       -17.55352        -51.35996        4.097888             -200               0             -200               0
1.44079               -0.1529718       -17.70929          -51.185        1.073969             -200               0             -200               0
1.44737               -0.1572882       -17.86667        -51.00186       -1.920371             -200               0             -200               0
1.45395               -0.1616713       -18.02576        -50.81011       -4.893302             -200               0             -200               0
1.46053               -0.1661203       -18.18663        -50.60949       -7.853248             -200               0             -200               0
1.46711               -0.1706372       -18.34937        -50.39993       -10.80869             -200               0             -200               0
1.47368               -0.1752239       -18.51409        -50.18152       -13.76795             -200               0             -200               0
1.48026               -0.1798844       -18.68087        -49.95455       -16.73902             -200               0             -200               0
1.48684               -0.1846231       -18.84981        -49.71946       -19.72932             -200               0             -200               0
1.49342                -0.189447       -19.02102        -49.47683       -22.74565             -200               0             -200               0
1.5                   -0.1943647       -19.19458        -49.22735       -25.79395             -200               0             -200               0
1.50658               -0.1993871       -19.37059        -48.97181       -28.87932             -200               0             -200               0
1.51316               -0.2045213       -19.54914        -48.71105       -32.00592             -200               0             -200               0
1.51974               -0.2097824       -19.73032        -48.44599       -35.17694             -200               0             -200               0
1.52632               -0.2151815       -19.91419        -48.17752       -38.39471             -200               0             -200               0
1.53289               -0.2207325       -20.10083        -47.90655       -41.66061             -200               0             -200               0
1.53947                -0.226449       -20.29031        -47.63398       -44.97525             -200               0             -200               0
1.54605               -0.2323461       -20.48269        -47.36065       -48.33849             -200               0             -200               0
1.55263                -0.238438       -20.67801        -47.08737       -51.74952             -200               0             -200               0
1.55921               -0.2447389       -20.87631        -46.81488       -55.20696             -200               0             -200               0
1.56579               -0.2512632       -21.07764        -46.54386       -58.70897             -200               0             -200               0
1.57237               -0.2580241       -21.28202        -46.27492       -62.25324             -200               0             -200               0
1.57895               -0.2650357       -21.48949        -46.00863       -65.83721             -200               0             -200               0
1.58553               -0.2723098       -21.70006        -45.74544       -69.45801             -200               0             -200               0
1.59211               -0.2798581       -21.91377        -45.48578       -73.11258             -200               0             -200               0
1.59868               -0.2876918       -22.13063        -45.22998       -76.79774             -200               0             -200               0
1.60526               -0.2958202       -22.35067        -44.97831       -80.51019             -200               0             -200               0
1.61184               -0.3042531       -22.57392        -44.73101        -84.2466             -200               0             -200               0
1.61842               -0.3129976        -22.8004        -44.48821       -88.00361             -200               0             -200               0
1.625                 -0.3220627       -23.03015        -44.25003        -91.7779             -200               0             -200               0
1.63158               -0.3314544       -23.26323        -44.01651       -95.56617             -200               0             -200               0
1.63816               -0.3411796       -23.49967        -43.78765       -99.36521             -200               0             -200               0
1.64474               -0.3512445       -23.73955        -43.56339       -103.1719             -200               0             -200               0
1.65132               -0.3616564       -23.98294        -43.34364       -106.9831             -200               0             -200               0
1.65789               -0.3724234       -24.22991        -43.12827       -110.7961             -200               0             -200               0
1.66447               -0.3835503       -24.48058        -42.91708        -114.608             -200               0             -200               0
1.67105               -0.3950473       -24.73504        -42.70986       -118.4163             -200               0             -200               0
1.67763               -0.4069236       -24.99342        -42.50636       -122.2186             -200               0             -200               0
1.68421               -0.4191901       -25.25585        -42.30629       -126.0126             -200               0             -200               0
1.69079               -0.4318619       -25.52246        -42.10931       -129.7963             -200               0             -200               0
1.69737               -0.4449525       -25.79342        -41.91509        -133.568             -200               0             -200               0
1.70395               -0.4584808       -26.06887        -41.72324       -137.3261             -200               0             -200               0
1.71053                -0.472466       -26.34898        -41.53336       -141.0694             -200               0             -200               0
1.71711               -0.4869311       -26.63393        -41.34503       -144.7969             -200               0             -200               0
1.72368               -0.5019026       -26.92388         -41.1578       -148.5079             -200               0             -200               0
1.73026               -0.5174093         -27.219        -40.97123       -152.2022             -200               0             -200               0
1.73684               -0.5334821       -27.51947        -40.78487       -155.8795             -200               0             -200               0
1.74342               -0.5501554       -27.82545        -40.59823       -159.5404             -200               0             -200               0
1.75                  -0.5674699       -28.13711        -40.41088       -163.1853             -200               0             -200               0
1.75658               -0.5854638       -28.45461        -40.22235       -166.8154             -200               0             -200               0
1.76316               -0.6041812       -28.77807        -40.03223       -170.4319             -200               0             -200               0
1.76974               -0.6236695       -29.10764        -39.84009       -174.0366             -200               0             -200               0
1.77632               -0.6439758       -29.44345        -39.64555       -177.6315             -200               0             -200               0
1.78289               -0.6651513       -29.78559        -39.44827        178.7812             -200               0             -200               0
1.78947                -0.687248       -30.13416        -39.24794        175.1989             -200               0             -200               0
1.79605               -0.7103223       -30.48925         -39.0443        171.6187             -200               0             -200               0
1.80263               -0.7344295       -30.85091        -38.83714        168.0377             -200               0             -200               0
1.80921               -0.7596257        -31.2192        -38.62629        164.4527             -200               0             -200               0
1.81579               -0.7859687       -31.59414        -38.41167        160.8605             -200               0             -200               0
1.82237               -0.8135184       -31.97576        -38.19321        157.2577             -200               0             -200               0
1.82895               -0.8423329       -32.36408        -37.97095         153.641             -200               0             -200               0
1.83553               -0.8724723       -32.75907        -37.74495        150.0071             -200               0             -200               0
1.84211               -0.9039969       -33.16074        -37.51534        146.3529             -200               0             -200               0
1.84868                -0.936966       -33.56906        -37.28229        142.6754             -200               0             -200               0
