! TOUCHSTONE file generated by CST MICROWAVE STUDIO
! Date and time: Tue Mar 18 00:02:57 2025
! Project name: oblique.cst
! Parameters = {Tilt=40; Fracture=1; B=12.5; D=160; F=15; Feed=2.85625; L=100; M=10; R=0.384908; S=2; Theta=270; length=57.125; wave=114.25}
! Header version: 2024
! Port assignment regex: !\s*Touchstone port\s*([0-9]+)\s*=\s*(CST MWS port|CST DES external port|CST DES block port)\s*(.+)\s* \(\"(.*)\"\)(\s*mode\s*([0-9]+))?.*
! Touchstone port assignment:
! Touchstone port 1 = CST MWS port 1 ("")
! Touchstone port 2 = CST MWS port 2 ("")
# GHz S DB R 50
1                    -0.01912103        -9.77991        -69.95113       -154.8698             -200               0             -200               0
1.0066               -0.01983668       -9.868436         -69.8448       -158.2157             -200               0             -200               0
1.0132               -0.02059068        -9.95745        -69.75477       -161.4281             -200               0             -200               0
1.0198               -0.02138095       -10.04694        -69.67896       -164.4934             -200               0             -200               0
1.0264                -0.0222026        -10.1369        -69.61499       -167.3977             -200               0             -200               0
1.033                -0.02305451       -10.22733        -69.56007       -170.1283             -200               0             -200               0
1.0396                -0.0239331       -10.31823        -69.51094       -172.6731             -200               0             -200               0
1.0462               -0.02483373       -10.40959        -69.46387       -175.0221             -200               0             -200               0
1.05281              -0.02575369       -10.50144        -69.41461       -177.1683             -200               0             -200               0
1.05941              -0.02668905        -10.5938        -69.35841       -179.1084             -200               0             -200               0
1.06601              -0.02763673       -10.68667        -69.29014        179.1553             -200               0             -200               0
1.07261              -0.02859362       -10.78009        -69.20444        177.6143             -200               0             -200               0
1.07921              -0.02955794       -10.87408        -69.09594        176.2526             -200               0             -200               0
1.08581              -0.03052618       -10.96868        -68.95957        175.0461             -200               0             -200               0
1.09241              -0.03149639       -11.06392        -68.79094        173.9631             -200               0             -200               0
1.09901              -0.03247114       -11.15984         -68.5867         172.965             -200               0             -200               0
1.10561              -0.03344721       -11.25648        -68.34483        172.0087             -200               0             -200               0
1.11221              -0.03442755       -11.35388         -68.0648        171.0488             -200               0             -200               0
1.11881              -0.03541362       -11.45209        -67.74767         170.041             -200               0             -200               0
1.12541              -0.03640634       -11.55113        -67.39589        168.9444             -200               0             -200               0
1.13201              -0.03741016       -11.65105        -67.01307        167.7245             -200               0             -200               0
1.13861              -0.03842929       -11.75187        -66.60365        166.3539             -200               0             -200               0
1.14521              -0.03946568       -11.85365        -66.17248        164.8132             -200               0             -200               0
1.15182              -0.04052634       -11.95639        -65.72454        163.0909             -200               0             -200               0
1.15842              -0.04161664       -12.06012        -65.26461        161.1821             -200               0             -200               0
1.16502               -0.0427407       -12.16486        -64.79715        159.0877             -200               0             -200               0
1.17162              -0.04390466       -12.27063        -64.32609         156.813             -200               0             -200               0
1.17822              -0.04511445       -12.37743        -63.85488        154.3666             -200               0             -200               0
1.18482              -0.04637614       -12.48526        -63.38641        151.7591             -200               0             -200               0
1.19142              -0.04769224       -12.59413        -62.92305        149.0025             -200               0             -200               0
1.19802              -0.04907061       -12.70403        -62.46675        146.1094             -200               0             -200               0
1.20462              -0.05051418       -12.81495        -62.01901        143.0926             -200               0             -200               0
1.21122              -0.05202747       -12.92687        -61.58101        139.9644             -200               0             -200               0
1.21782              -0.05361179       -13.03978        -61.15362        136.7371             -200               0             -200               0
1.22442              -0.05527193       -13.15367        -60.73747         133.422             -200               0             -200               0
1.23102              -0.05700681       -13.26851        -60.33299        130.0299             -200               0             -200               0
1.23762              -0.05881897       -13.38429        -59.94042        126.5709             -200               0             -200               0
1.24422              -0.06070746       -13.50099        -59.55989        123.0545             -200               0             -200               0
1.25083               -0.0626721        -13.6186         -59.1914        119.4893             -200               0             -200               0
1.25743              -0.06471057        -13.7371        -58.83486        115.8835             -200               0             -200               0
1.26403              -0.06682095       -13.85649        -58.49011        112.2446             -200               0             -200               0
1.27063              -0.06900061       -13.97676        -58.15692        108.5795             -200               0             -200               0
1.27723              -0.07124471       -14.09792          -57.835        104.8947             -200               0             -200               0
1.28383              -0.07355164       -14.21996        -57.52403        101.1961             -200               0             -200               0
1.29043              -0.07591553       -14.34291        -57.22366        97.48935             -200               0             -200               0
1.29703              -0.07833339       -14.46678        -56.93347        93.77952             -200               0             -200               0
1.30363              -0.08080128        -14.5916        -56.65304        90.07139             -200               0             -200               0
1.31023              -0.08331509        -14.7174        -56.38191        86.36936             -200               0             -200               0
1.31683              -0.08587144       -14.84422         -56.1196        82.67751             -200               0             -200               0
1.32343              -0.08846832        -14.9721        -55.86561        78.99957             -200               0             -200               0
1.33003              -0.09110181       -15.10108        -55.61939        75.33896             -200               0             -200               0
1.33663              -0.09377195       -15.23123         -55.3804        71.69877             -200               0             -200               0
1.34323              -0.09647769        -15.3626        -55.14806        68.08178             -200               0             -200               0
1.34984              -0.09921775       -15.49524        -54.92177        64.49043             -200               0             -200               0
1.35644               -0.1019957       -15.62923        -54.70093        60.92682             -200               0             -200               0
1.36304               -0.1048117       -15.76462        -54.48491         57.3927             -200               0             -200               0
1.36964               -0.1076705       -15.90147        -54.27306        53.88948             -200               0             -200               0
1.37624               -0.1105741       -16.03984        -54.06473        50.41814             -200               0             -200               0
1.38284               -0.1135282       -16.17981        -53.85927        46.97933             -200               0             -200               0
1.38944               -0.1165393       -16.32141        -53.65601        43.57325             -200               0             -200               0
1.39604               -0.1196133       -16.46471        -53.45431        40.19968             -200               0             -200               0
1.40264               -0.1227586       -16.60976        -53.25352        36.85803             -200               0             -200               0
1.40924               -0.1259796        -16.7566        -53.05302        33.54722             -200               0             -200               0
1.41584               -0.1292877       -16.90527         -52.8522        30.26581             -200               0             -200               0
1.42244               -0.1326885       -17.05581        -52.65051         27.0119             -200               0             -200               0
1.42904               -0.1361925       -17.20824         -52.4474        23.78327             -200               0             -200               0
1.43564               -0.1398063       -17.36259         -52.2424        20.57728             -200               0             -200               0
1.44224               -0.1435385       -17.51889        -52.03509        17.39102             -200               0             -200               0
1.44884               -0.1473966       -17.67714         -51.8251        14.22129             -200               0             -200               0
1.45545               -0.1513876       -17.83737        -51.61213        11.06467             -200               0             -200               0
1.46205               -0.1555179       -17.99957        -51.39595        7.917598             -200               0             -200               0
1.46865               -0.1597934       -18.16376        -51.17641        4.776399             -200               0             -200               0
1.47525               -0.1642197       -18.32995        -50.95342        1.637392             -200               0             -200               0
1.48185               -0.1688005       -18.49814        -50.72697       -1.503075             -200               0             -200               0
1.48845               -0.1735412       -18.66835        -50.49712       -4.648542             -200               0             -200               0
1.49505               -0.1784418       -18.84057          -50.264       -7.802383             -200               0             -200               0
1.50165               -0.1835067       -19.01483        -50.02778       -10.96776             -200               0             -200               0
1.50825               -0.1887364       -19.19115        -49.78871       -14.14754             -200               0             -200               0
1.51485               -0.1941327       -19.36955        -49.54707       -17.34432             -200               0             -200               0
1.52145               -0.1996959       -19.55006        -49.30319       -20.56034             -200               0             -200               0
1.52805               -0.2054262       -19.73272        -49.05742       -23.79747             -200               0             -200               0
1.53465               -0.2113244       -19.91758        -48.81013       -27.05724             -200               0             -200               0
1.54125               -0.2173909       -20.10468        -48.56171       -30.34079             -200               0             -200               0
1.54785               -0.2236253       -20.29409        -48.31256        -33.6489             -200               0             -200               0
1.55446                 -0.23003       -20.48588        -48.06306       -36.98199             -200               0             -200               0
1.56106               -0.2366063       -20.68013        -47.81362       -40.34017             -200               0             -200               0
1.56766               -0.2433567       -20.87692        -47.56458        -43.7232             -200               0             -200               0
1.57426               -0.2502857       -21.07635        -47.31632       -47.13058             -200               0             -200               0
1.58086               -0.2573966       -21.27851        -47.06915       -50.56154             -200               0             -200               0
1.58746               -0.2646962       -21.48352        -46.82339       -54.01507             -200               0             -200               0
1.59406               -0.2721924       -21.69147        -46.57931       -57.48996             -200               0             -200               0
1.60066               -0.2798946        -21.9025        -46.33714       -60.98482             -200               0             -200               0
1.60726               -0.2878128        -22.1167        -46.09712       -64.49814             -200               0             -200               0
1.61386               -0.2959599        -22.3342        -45.85941       -68.02825             -200               0             -200               0
1.62046               -0.3043493       -22.55512        -45.62415       -71.57341             -200               0             -200               0
1.62706               -0.3129981       -22.77957        -45.39147       -75.13183             -200               0             -200               0
1.63366               -0.3219231       -23.00767        -45.16143       -78.70164             -200               0             -200               0
1.64026                -0.331142       -23.23952        -44.93408       -82.28098             -200               0             -200               0
1.64686               -0.3406778       -23.47524        -44.70942       -85.86797             -200               0             -200               0
1.65347               -0.3505505       -23.71493        -44.48743       -89.46077             -200               0             -200               0
1.66007               -0.3607833       -23.95866        -44.26806       -93.05756             -200               0             -200               0
1.66667               -0.3714007       -24.20655        -44.05122       -96.65662             -200               0             -200               0
1.67327               -0.3824268       -24.45866        -43.83679       -100.2563             -200               0             -200               0
1.67987               -0.3938894       -24.71507        -43.62462       -103.8549             -200               0             -200               0
1.68647               -0.4058146       -24.97584        -43.41456       -107.4512             -200               0             -200               0
1.69307               -0.4182268       -25.24103        -43.20639       -111.0437             -200               0             -200               0
1.69967               -0.4311547       -25.51071        -42.99991       -114.6312             -200               0             -200               0
1.70627                -0.444626        -25.7849        -42.79486       -118.2128             -200               0             -200               0
1.71287               -0.4586676       -26.06366          -42.591       -121.7877             -200               0             -200               0
1.71947               -0.4733076       -26.34702        -42.38805       -125.3551             -200               0             -200               0
1.72607               -0.4885711       -26.63502        -42.18572       -128.9147             -200               0             -200               0
1.73267               -0.5044876       -26.92768        -41.98372       -132.4662             -200               0             -200               0
1.73927               -0.5210823       -27.22503        -41.78174       -136.0096             -200               0             -200               0
1.74587               -0.5383821       -27.52712        -41.57948       -139.5452             -200               0             -200               0
1.75248               -0.5564137       -27.83396        -41.37662       -143.0733             -200               0             -200               0
1.75908               -0.5752047       -28.14559        -41.17289       -146.5948             -200               0             -200               0
1.76568               -0.5947827       -28.46206        -40.96797       -150.1104             -200               0             -200               0
1.77228               -0.6151734       -28.78339        -40.76161       -153.6215             -200               0             -200               0
1.77888               -0.6364058       -29.10965        -40.55353       -157.1292             -200               0             -200               0
1.78548               -0.6585085       -29.44089        -40.34351       -160.6353             -200               0             -200               0
1.79208               -0.6815108       -29.77715        -40.13134       -164.1415             -200               0             -200               0
1.79868               -0.7054446       -30.11851        -39.91682       -167.6496             -200               0             -200               0
1.80528               -0.7303424       -30.46504        -39.69982       -171.1617             -200               0             -200               0
1.81188               -0.7562376       -30.81682        -39.48021       -174.6801             -200               0             -200               0
1.81848               -0.7831678       -31.17393        -39.25793       -178.2069             -200               0             -200               0
1.82508               -0.8111715       -31.53646        -39.03292        178.2554             -200               0             -200               0
1.83168               -0.8402903        -31.9045        -38.80519        174.7047             -200               0             -200               0
1.83828               -0.8705683       -32.27815        -38.57476        171.1384             -200               0             -200               0
1.84488                -0.902054       -32.65749        -38.34172        167.5544             -200               0             -200               0
1.85149               -0.9347969       -33.04262        -38.10617        163.9505             -200               0             -200               0
