! TOUCHSTONE file generated by CST MICROWAVE STUDIO
! Date and time: Tue Mar 18 00:02:22 2025
! Project name: oblique.cst
! Parameters = {Tilt=40; Fracture=1; B=10; D=160; F=25; Feed=2.85625; L=100; M=30; R=0.384908; S=1; Theta=90; length=57.125; wave=114.25}
! Header version: 2024
! Port assignment regex: !\s*Touchstone port\s*([0-9]+)\s*=\s*(CST MWS port|CST DES external port|CST DES block port)\s*(.+)\s* \(\"(.*)\"\)(\s*mode\s*([0-9]+))?.*
! Touchstone port assignment:
! Touchstone port 1 = CST MWS port 1 ("")
! Touchstone port 2 = CST MWS port 2 ("")
# GHz S DB R 50
1                    -0.02164684       -9.776714        -65.21024        165.3104             -200               0             -200               0
1.00658              -0.02216592       -9.862405        -65.29762        159.2446             -200               0             -200               0
1.01316              -0.02265648       -9.948846        -65.42347        153.2877             -200               0             -200               0
1.01974               -0.0231248        -10.0361        -65.59002        147.4493             -200               0             -200               0
1.02632              -0.02357672       -10.12421            -65.8        141.7426             -200               0             -200               0
1.03289              -0.02401886       -10.21324        -66.05663         136.185             -200               0             -200               0
1.03947                -0.024461       -10.30322        -66.36378        130.7998             -200               0             -200               0
1.04605              -0.02491062       -10.39418        -66.72605        125.6176             -200               0             -200               0
1.05263              -0.02537856       -10.48614        -67.14887        120.6799             -200               0             -200               0
1.05921              -0.02587429       -10.57913        -67.63862         116.043             -200               0             -200               0
1.06579              -0.02640766       -10.67313        -68.20266        111.7844             -200               0             -200               0
1.07237              -0.02698766       -10.76815        -68.84908        108.0132             -200               0             -200               0
1.07895              -0.02762363       -10.86416        -69.58607        104.8847             -200               0             -200               0
1.08553              -0.02832405       -10.96114         -70.4199        102.6235             -200               0             -200               0
1.09211              -0.02909613       -11.05906        -71.35006        101.5556             -200               0             -200               0
1.09868              -0.02994576       -11.15788        -72.35814        102.1431             -200               0             -200               0
1.10526              -0.03087846       -11.25755        -73.38457        104.9852             -200               0             -200               0
1.11184              -0.03189781       -11.35803        -74.29111        110.6597             -200               0             -200               0
1.11842              -0.03300434       -11.45927         -74.8392         119.186             -200               0             -200               0
1.125                 -0.0342002       -11.56121        -74.78047         129.268             -200               0             -200               0
1.13158              -0.03548292        -11.6638        -74.06854        138.5572             -200               0             -200               0
1.13816               -0.0368513       -11.76701        -72.90879        145.2961             -200               0             -200               0
1.14474              -0.03830064       -11.87078        -71.56113        149.1442             -200               0             -200               0
1.15132              -0.03982589       -11.97508        -70.19686        150.5795             -200               0             -200               0
1.15789              -0.04142024       -12.07988         -68.8964        150.2261             -200               0             -200               0
1.16447              -0.04307715       -12.18517        -67.68805        148.5953             -200               0             -200               0
1.17105              -0.04478811       -12.29093        -66.57626        146.0547             -200               0             -200               0
1.17763              -0.04654539       -12.39717        -65.55601        142.8592             -200               0             -200               0
1.18421              -0.04833984        -12.5039        -64.61922        139.1848             -200               0             -200               0
1.19079              -0.05016292       -12.61113         -63.7574         135.155             -200               0             -200               0
1.19737              -0.05200724       -12.71891        -62.96267        130.8581             -200               0             -200               0
1.20395              -0.05386506       -12.82727         -62.2281        126.3582             -200               0             -200               0
1.21053              -0.05572887       -12.93626        -61.54766        121.7031             -200               0             -200               0
1.21711              -0.05759535       -13.04596        -60.91622         116.929             -200               0             -200               0
1.22368              -0.05945838       -13.15643        -60.32938        112.0639             -200               0             -200               0
1.23026              -0.06131584       -13.26773        -59.78338        107.1299             -200               0             -200               0
1.23684              -0.06316721       -13.37996          -59.275        102.1448             -200               0             -200               0
1.24342               -0.0650122       -13.49318        -58.80147        97.12303             -200               0             -200               0
1.25                 -0.06685446       -13.60749         -58.3604        92.07677             -200               0             -200               0
1.25658               -0.0686961       -13.72295        -57.94969        87.01629             -200               0             -200               0
1.26316              -0.07054446       -13.83965        -57.56754        81.95051             -200               0             -200               0
1.26974              -0.07240608       -13.95765        -57.21235         76.8873             -200               0             -200               0
1.27632              -0.07429026       -14.07703        -56.88272        71.83378             -200               0             -200               0
1.28289              -0.07620507       -14.19784        -56.57738        66.79648             -200               0             -200               0
1.28947              -0.07816355       -14.32011        -56.29523        61.78153             -200               0             -200               0
1.29605              -0.08017507        -14.4439        -56.03524        56.79478             -200               0             -200               0
1.30263              -0.08225332       -14.56923        -55.79651        51.84191             -200               0             -200               0
1.30921               -0.0844095       -14.69611        -55.57817        46.92853             -200               0             -200               0
1.31579              -0.08665586       -14.82454        -55.37944        42.06023             -200               0             -200               0
1.32237              -0.08900372       -14.95451        -55.19955        37.24269             -200               0             -200               0
1.32895               -0.0914646       -15.08602        -55.03776        32.48169             -200               0             -200               0
1.33553              -0.09404726       -15.21903        -54.89336        27.78318             -200               0             -200               0
1.34211              -0.09676062        -15.3535        -54.76559        23.15333             -200               0             -200               0
1.34868              -0.09961293        -15.4894         -54.6537        18.59851             -200               0             -200               0
1.35526               -0.1026081       -15.62667        -54.55687        14.12536             -200               0             -200               0
1.36184                -0.105751       -15.76526        -54.47422        9.740724             -200               0             -200               0
1.36842               -0.1090431       -15.90514        -54.40479        5.451708             -200               0             -200               0
1.375                 -0.1124852       -16.04623        -54.34751        1.265561             -200               0             -200               0
1.38158               -0.1160755       -16.18851        -54.30117       -2.810362             -200               0             -200               0
1.38816               -0.1198101       -16.33192        -54.26439       -6.768723             -200               0             -200               0
1.39474               -0.1236849       -16.47643        -54.23564       -10.60237             -200               0             -200               0
1.40132               -0.1276925       -16.62202        -54.21315       -14.30454             -200               0             -200               0
1.40789               -0.1318257       -16.76867        -54.19493       -17.86914             -200               0             -200               0
1.41447               -0.1360769       -16.91638        -54.17877       -21.29109             -200               0             -200               0
1.42105               -0.1404361       -17.06516        -54.16219       -24.56677             -200               0             -200               0
1.42763               -0.1448944       -17.21503        -54.14251       -27.69438             -200               0             -200               0
1.43421                -0.149442       -17.36605        -54.11681       -30.67457             -200               0             -200               0
1.44079               -0.1540706       -17.51825        -54.08208       -33.51082             -200               0             -200               0
1.44737               -0.1587724        -17.6717        -54.03521       -36.20999             -200               0             -200               0
1.45395               -0.1635394        -17.8265        -53.97315       -38.78255             -200               0             -200               0
1.46053               -0.1683671       -17.98273        -53.89303       -41.24282             -200               0             -200               0
1.46711               -0.1732504       -18.14048        -53.79229        -43.6088             -200               0             -200               0
1.47368               -0.1781888       -18.29989        -53.66886       -45.90182             -200               0             -200               0
1.48026               -0.1831814       -18.46106        -53.52123        -48.1458             -200               0             -200               0
1.48684               -0.1882309       -18.62412        -53.34863       -50.36634             -200               0             -200               0
1.49342               -0.1933435       -18.78919          -53.151       -52.58953             -200               0             -200               0
1.5                   -0.1985258        -18.9564        -52.92901        -54.8408             -200               0             -200               0
1.50658               -0.2037867       -19.12587        -52.68406       -57.14376             -200               0             -200               0
1.51316               -0.2091402       -19.29772        -52.41807       -59.51929             -200               0             -200               0
1.51974               -0.2146004       -19.47207        -52.13347       -61.98484             -200               0             -200               0
1.52632               -0.2201822         -19.649        -51.83294       -64.55414             -200               0             -200               0
1.53289               -0.2259048        -19.8286        -51.51933       -67.23704             -200               0             -200               0
1.53947               -0.2317877       -20.01096        -51.19554       -70.03974             -200               0             -200               0
1.54605               -0.2378505       -20.19613        -50.86436       -72.96512             -200               0             -200               0
1.55263               -0.2441152       -20.38415        -50.52843        -76.0132             -200               0             -200               0
1.55921               -0.2506021       -20.57505        -50.19018       -79.18163             -200               0             -200               0
1.56579               -0.2573328       -20.76885         -49.8518        -82.4662             -200               0             -200               0
1.57237               -0.2643278       -20.96555        -49.51521        -85.8613             -200               0             -200               0
1.57895                -0.271606       -21.16511        -49.18207       -89.36029             -200               0             -200               0
1.58553               -0.2791861       -21.36752        -48.85382       -92.95588             -200               0             -200               0
1.59211               -0.2870839       -21.57274        -48.53165       -96.64039             -200               0             -200               0
1.59868               -0.2953133       -21.78071        -48.21655        -100.406             -200               0             -200               0
1.60526                -0.303887       -21.99137        -47.90934       -104.2447             -200               0             -200               0
1.61184               -0.3128149       -22.20466        -47.61065       -108.1487             -200               0             -200               0
1.61842               -0.3221025       -22.42053        -47.32099       -112.1105             -200               0             -200               0
1.625                  -0.331755        -22.6389        -47.04075       -116.1225             -200               0             -200               0
1.63158               -0.3417737       -22.85973        -46.77019       -120.1777             -200               0             -200               0
1.63816               -0.3521582       -23.08297        -46.50949       -124.2691             -200               0             -200               0
1.64474               -0.3629048       -23.30859        -46.25874       -128.3901             -200               0             -200               0
1.65132               -0.3740077       -23.53657        -46.01797       -132.5342             -200               0             -200               0
1.65789               -0.3854608        -23.7669        -45.78713       -136.6955             -200               0             -200               0
1.66447               -0.3972562        -23.9996        -45.56614       -140.8679             -200               0             -200               0
1.67105               -0.4093839       -24.23472        -45.35482       -145.0458             -200               0             -200               0
1.67763               -0.4218332       -24.47231        -45.15298       -149.2237             -200               0             -200               0
1.68421               -0.4345965       -24.71246        -44.96036       -153.3963             -200               0             -200               0
1.69079                -0.447663       -24.95528        -44.77666       -157.5585             -200               0             -200               0
1.69737               -0.4610263       -25.20091        -44.60153       -161.7054             -200               0             -200               0
1.70395               -0.4746804       -25.44951        -44.43456       -165.8321             -200               0             -200               0
1.71053               -0.4886215       -25.70126        -44.27531       -169.9341             -200               0             -200               0
1.71711               -0.5028485       -25.95636        -44.12327        -174.007             -200               0             -200               0
1.72368               -0.5173651       -26.21504        -43.97789       -178.0466             -200               0             -200               0
1.73026               -0.5321772       -26.47754        -43.83855         177.951             -200               0             -200               0
1.73684               -0.5472957        -26.7441        -43.70458        173.9897             -200               0             -200               0
1.74342                -0.562735       -27.01499        -43.57524        170.0727             -200               0             -200               0
1.75                  -0.5785153       -27.29048        -43.44974        166.2031             -200               0             -200               0
1.75658               -0.5946605       -27.57084        -43.32721        162.3836             -200               0             -200               0
1.76316               -0.6112001       -27.85633        -43.20674        158.6162             -200               0             -200               0
1.76974                -0.628167       -28.14721        -43.08736        154.9025             -200               0             -200               0
1.77632               -0.6456012       -28.44375        -42.96803        151.2435             -200               0             -200               0
1.78289               -0.6635432       -28.74618         -42.8477        147.6394             -200               0             -200               0
1.78947               -0.6820416       -29.05473        -42.72526        144.0896             -200               0             -200               0
1.79605               -0.7011449        -29.3696         -42.5996        140.5926             -200               0             -200               0
1.80263               -0.7209068       -29.69098        -42.46961        137.1461             -200               0             -200               0
1.80921               -0.7413836       -30.01904        -42.33419        133.7468             -200               0             -200               0
1.81579               -0.7626328       -30.35393        -42.19231        130.3902             -200               0             -200               0
1.82237               -0.7847149       -30.69575          -42.043        127.0711             -200               0             -200               0
1.82895               -0.8076898       -31.04461        -41.88538        123.7834             -200               0             -200               0
1.83553                -0.831618       -31.40057        -41.71869          120.52             -200               0             -200               0
1.84211                -0.856562        -31.7637        -41.54232        117.2733             -200               0             -200               0
1.84868               -0.8825825       -32.13403        -41.35583        114.0349             -200               0             -200               0
