! TOUCHSTONE file generated by CST MICROWAVE STUDIO
! Date and time: Tue Mar 18 00:01:50 2025
! Project name: oblique.cst
! Parameters = {Tilt=30; Fracture=1; B=12.5; D=160; F=25; Feed=2.85625; L=100; M=50; R=0.384908; S=2; Theta=270; length=57.125; wave=114.25}
! Header version: 2024
! Port assignment regex: !\s*Touchstone port\s*([0-9]+)\s*=\s*(CST MWS port|CST DES external port|CST DES block port)\s*(.+)\s* \(\"(.*)\"\)(\s*mode\s*([0-9]+))?.*
! Touchstone port assignment:
! Touchstone port 1 = CST MWS port 1 ("")
! Touchstone port 2 = CST MWS port 2 ("")
# GHz S DB R 50
1                    -0.01919897       -9.814024        -70.36202        135.1447             -200               0             -200               0
1.0076               -0.02016054       -9.915403        -70.34435        130.0372             -200               0             -200               0
1.01521              -0.02112938       -10.01735        -70.34441        125.0218             -200               0             -200               0
1.02281              -0.02210365        -10.1199        -70.36223        120.1054             -200               0             -200               0
1.03042              -0.02307588        -10.2231        -70.39777         115.296             -200               0             -200               0
1.03802               -0.0240449       -10.32698        -70.45098        110.6029             -200               0             -200               0
1.04563               -0.0250081       -10.43161        -70.52171        106.0367             -200               0             -200               0
1.05323              -0.02596127       -10.53704        -70.60972        101.6096             -200               0             -200               0
1.06084              -0.02690572       -10.64332        -70.71458        97.33538             -200               0             -200               0
1.06844              -0.02783955       -10.75052        -70.83566         93.2296             -200               0             -200               0
1.07605              -0.02876601        -10.8587        -70.97202        89.30978             -200               0             -200               0
1.08365              -0.02968773       -10.96793        -71.12232        85.59532             -200               0             -200               0
1.09125              -0.03060679       -11.07825        -71.28467        82.10747             -200               0             -200               0
1.09886              -0.03152843       -11.18974        -71.45652        78.86896             -200               0             -200               0
1.10646              -0.03245751       -11.30244        -71.63446         75.9034             -200               0             -200               0
1.11407              -0.03340136       -11.41642        -71.81403        73.23417             -200               0             -200               0
1.12167              -0.03436652        -11.5317        -71.98956         70.8827             -200               0             -200               0
1.12928              -0.03536128       -11.64834        -72.15401        68.86601             -200               0             -200               0
1.13688              -0.03639394       -11.76637        -72.29897         67.1934             -200               0             -200               0
1.14449               -0.0374741       -11.88582         -72.4148        65.86254             -200               0             -200               0
1.15209              -0.03860844        -12.0067        -72.49106        64.85532             -200               0             -200               0
1.1597               -0.03980688       -12.12903        -72.51731        64.13453             -200               0             -200               0
1.1673               -0.04107967       -12.25283        -72.48408        63.64245             -200               0             -200               0
1.1749               -0.04243304       -12.37808        -72.38415        63.30265             -200               0             -200               0
1.18251              -0.04387599       -12.50479        -72.21357        63.02544             -200               0             -200               0
1.19011              -0.04541616       -12.63294        -71.97228        62.71643             -200               0             -200               0
1.19772              -0.04705823       -12.76253        -71.66415        62.28615             -200               0             -200               0
1.20532              -0.04881124       -12.89352        -71.29629        61.65855             -200               0             -200               0
1.21293              -0.05067749       -13.02591        -70.87801        60.77641             -200               0             -200               0
1.22053              -0.05266248       -13.15967        -70.41961        59.60305             -200               0             -200               0
1.22814              -0.05476817       -13.29477        -69.93135        58.12095             -200               0             -200               0
1.23574              -0.05699699       -13.43119        -69.42268         56.3283             -200               0             -200               0
1.24335              -0.05934858       -13.56892        -68.90182        54.23496             -200               0             -200               0
1.25095              -0.06182318       -13.70793        -68.37558        51.85846             -200               0             -200               0
1.25856              -0.06441918       -13.84822        -67.84945        49.22079             -200               0             -200               0
1.26616              -0.06713698       -13.98976        -67.32766        46.34589             -200               0             -200               0
1.27376              -0.06997251       -14.13257         -66.8134        43.25796             -200               0             -200               0
1.28137              -0.07292259       -14.27665        -66.30901        39.98042             -200               0             -200               0
1.28897              -0.07598549         -14.422        -65.81612        36.53519             -200               0             -200               0
1.29658              -0.07915438       -14.56865        -65.33585        32.94248             -200               0             -200               0
1.30418              -0.08242855       -14.71662        -64.86888        29.22063             -200               0             -200               0
1.31179              -0.08580544       -14.86596        -64.41558        25.38615             -200               0             -200               0
1.31939              -0.08927836       -15.01671         -63.9761        21.45384             -200               0             -200               0
1.327                -0.09284906       -15.16891        -63.55039        17.43691             -200               0             -200               0
1.3346               -0.09651245       -15.32263        -63.13829        13.34716             -200               0             -200               0
1.34221               -0.1002697       -15.47792        -62.73953        9.195109             -200               0             -200               0
1.34981               -0.1041215       -15.63488        -62.35377        4.990167             -200               0             -200               0
1.35741               -0.1080681       -15.79356        -61.98063       0.7407469             -200               0             -200               0
1.36502               -0.1121137       -15.95406         -61.6197       -3.545603             -200               0             -200               0
1.37262               -0.1162625       -16.11644        -61.27053       -7.862095             -200               0             -200               0
1.38023               -0.1205186        -16.2808        -60.93266       -12.20261             -200               0             -200               0
1.38783               -0.1248909       -16.44722        -60.60563       -16.56162             -200               0             -200               0
1.39544               -0.1293852       -16.61577        -60.28895        -20.9341             -200               0             -200               0
1.40304               -0.1340157       -16.78655        -59.98214       -25.31551             -200               0             -200               0
1.41065               -0.1387895       -16.95961        -59.68472        -29.7017             -200               0             -200               0
1.41825               -0.1437198       -17.13504         -59.3962       -34.08891             -200               0             -200               0
1.42586               -0.1488227       -17.31288        -59.11608       -38.47369             -200               0             -200               0
1.43346               -0.1541097       -17.49321        -58.84387       -42.85292             -200               0             -200               0
1.44106               -0.1595968       -17.67606        -58.57908       -47.22378             -200               0             -200               0
1.44867                -0.165298       -17.86148        -58.32118       -51.58368             -200               0             -200               0
1.45627               -0.1712333        -18.0495        -58.06969       -55.93034             -200               0             -200               0
1.46388               -0.1774142       -18.24013        -57.82408       -60.26171             -200               0             -200               0
1.47148               -0.1838603        -18.4334        -57.58385       -64.57598             -200               0             -200               0
1.47909               -0.1905845       -18.62931        -57.34847       -68.87162             -200               0             -200               0
1.48669               -0.1976031       -18.82784        -57.11742        -73.1473             -200               0             -200               0
1.4943                -0.2049305         -19.029        -56.89016         -77.402             -200               0             -200               0
1.5019                -0.2125795       -19.23277        -56.66617       -81.63492             -200               0             -200               0
1.50951                -0.220564       -19.43912        -56.44492       -85.84554             -200               0             -200               0
1.51711               -0.2288959       -19.64803        -56.22588       -90.03361             -200               0             -200               0
1.52471               -0.2375823       -19.85948        -56.00851       -94.19915             -200               0             -200               0
1.53232               -0.2466353       -20.07343        -55.79231       -98.34248             -200               0             -200               0
1.53992               -0.2560617       -20.28985        -55.57676       -102.4642             -200               0             -200               0
1.54753               -0.2658677       -20.50873        -55.36135       -106.5651             -200               0             -200               0
1.55513               -0.2760572       -20.73004        -55.14562       -110.6465             -200               0             -200               0
1.56274               -0.2866366       -20.95377        -54.92909       -114.7098             -200               0             -200               0
1.57034               -0.2976074       -21.17989        -54.71134       -118.7566             -200               0             -200               0
1.57795                -0.308972       -21.40843        -54.49195       -122.7891             -200               0             -200               0
1.58555               -0.3207312       -21.63938        -54.27056       -126.8093             -200               0             -200               0
1.59316               -0.3328874       -21.87276        -54.04683       -130.8198             -200               0             -200               0
1.60076               -0.3454389        -22.1086        -53.82047       -134.8231             -200               0             -200               0
1.60837               -0.3583884       -22.34695        -53.59124       -138.8221             -200               0             -200               0
1.61597               -0.3717367       -22.58785        -53.35893       -142.8196             -200               0             -200               0
1.62357                -0.385485       -22.83139        -53.12339       -146.8188             -200               0             -200               0
1.63118               -0.3996337       -23.07763        -52.88452       -150.8226             -200               0             -200               0
1.63878               -0.4141885       -23.32667        -52.64227       -154.8341             -200               0             -200               0
1.64639               -0.4291542       -23.57862        -52.39665       -158.8565             -200               0             -200               0
1.65399               -0.4445348       -23.83357        -52.14769       -162.8926             -200               0             -200               0
1.6616                -0.4603404       -24.09167        -51.89549       -166.9453             -200               0             -200               0
1.6692                -0.4765808       -24.35303        -51.64018       -171.0175             -200               0             -200               0
1.67681               -0.4932674       -24.61779        -51.38195       -175.1117             -200               0             -200               0
1.68441               -0.5104168       -24.88611          -51.121       -179.2303             -200               0             -200               0
1.69202               -0.5280434       -25.15812        -50.85756        176.6245             -200               0             -200               0
1.69962               -0.5461682       -25.43398        -50.59191        172.4506             -200               0             -200               0
1.70722               -0.5648136       -25.71382        -50.32433        168.2463             -200               0             -200               0
1.71483                -0.584003        -25.9978        -50.05512        164.0101             -200               0             -200               0
1.72243               -0.6037632       -26.28606         -49.7846        159.7407             -200               0             -200               0
1.73004               -0.6241246       -26.57874        -49.51308         155.437             -200               0             -200               0
1.73764               -0.6451184       -26.87598        -49.24089        151.0981             -200               0             -200               0
1.74525               -0.6667781       -27.17788        -48.96835        146.7234             -200               0             -200               0
1.75285               -0.6891372       -27.48458        -48.69578        142.3125             -200               0             -200               0
1.76046               -0.7122353       -27.79618        -48.42351        137.8651             -200               0             -200               0
1.76806               -0.7361088       -28.11278        -48.15182        133.3812             -200               0             -200               0
1.77567               -0.7607992       -28.43446        -47.88102        128.8607             -200               0             -200               0
1.78327               -0.7863453       -28.76131        -47.61139         124.304             -200               0             -200               0
1.79087               -0.8127901       -29.09341        -47.34319        119.7114             -200               0             -200               0
1.79848               -0.8401753       -29.43079        -47.07669        115.0833             -200               0             -200               0
1.80608               -0.8685434       -29.77354        -46.81212        110.4202             -200               0             -200               0
1.81369               -0.8979369       -30.12168         -46.5497        105.7228             -200               0             -200               0
1.82129               -0.9283995       -30.47528        -46.28966        100.9918             -200               0             -200               0
1.8289                -0.9599741       -30.83437        -46.03218        96.22802             -200               0             -200               0
1.8365                -0.9927047         -31.199        -45.77745        91.43212             -200               0             -200               0
1.84411                -1.026634       -31.56919        -45.52563        86.60501             -200               0             -200               0
1.85171                -1.061806       -31.94502        -45.27688        81.74754             -200               0             -200               0
1.85932                -1.098265       -32.32651        -45.03133        76.86058             -200               0             -200               0
1.86692                -1.136056       -32.71375        -44.78913        71.94503             -200               0             -200               0
1.87452                -1.175225       -33.10679        -44.55037        67.00178             -200               0             -200               0
1.88213                 -1.21582       -33.50571        -44.31518        62.03174             -200               0             -200               0
1.88973                -1.257889       -33.91061        -44.08364         57.0358             -200               0             -200               0
1.89734                -1.301482        -34.3216        -43.85584        52.01483             -200               0             -200               0
1.90494                -1.346656        -34.7388        -43.63186        46.96972             -200               0             -200               0
1.91255                -1.393466       -35.16236        -43.41176        41.90133             -200               0             -200               0
1.92015                -1.441974       -35.59242        -43.19561        36.81049             -200               0             -200               0
1.92776                -1.492247       -36.02916        -42.98347        31.69804             -200               0             -200               0
1.93536                -1.544355       -36.47278        -42.77537        26.56478             -200               0             -200               0
1.94297                -1.598375       -36.92347        -42.57137         21.4115             -200               0             -200               0
1.95057                -1.654391       -37.38145         -42.3715        16.23896             -200               0             -200               0
1.95817                -1.712496       -37.84695        -42.17578         11.0479             -200               0             -200               0
1.96578                -1.772789       -38.32021        -41.98425        5.839048             -200               0             -200               0
1.97338                -1.835381       -38.80146        -41.79694       0.6131034             -200               0             -200               0
1.98099                -1.900387       -39.29096        -41.61385       -4.629258             -200               0             -200               0
