! TOUCHSTONE file generated by CST MICROWAVE STUDIO
! Date and time: Tue Mar 18 00:01:51 2025
! Project name: oblique.cst
! Parameters = {Tilt=40; Fracture=1; B=10; D=160; F=5; Feed=2.85625; L=100; M=10; R=0.384908; S=1; Theta=90; length=57.125; wave=114.25}
! Header version: 2024
! Port assignment regex: !\s*Touchstone port\s*([0-9]+)\s*=\s*(CST MWS port|CST DES external port|CST DES block port)\s*(.+)\s* \(\"(.*)\"\)(\s*mode\s*([0-9]+))?.*
! Touchstone port assignment:
! Touchstone port 1 = CST MWS port 1 ("")
! Touchstone port 2 = CST MWS port 2 ("")
# GHz S DB R 50
1                    -0.01814063       -9.781283        -69.85491       -115.7952             -200               0             -200               0
1.00658              -0.01888044       -9.870904        -69.20472       -121.3387             -200               0             -200               0
1.01316              -0.01969317       -9.960943        -68.62247       -126.8843             -200               0             -200               0
1.01974              -0.02057327       -10.05134        -68.10113       -132.4228             -200               0             -200               0
1.02632              -0.02151543       -10.14206        -67.63515       -137.9468             -200               0             -200               0
1.03289              -0.02251216       -10.23306        -67.22013       -143.4496             -200               0             -200               0
1.03947              -0.02355415       -10.32431        -66.85257       -148.9254             -200               0             -200               0
1.04605              -0.02463228       -10.41578        -66.52969       -154.3685             -200               0             -200               0
1.05263              -0.02573504       -10.50748        -66.24928       -159.7734             -200               0             -200               0
1.05921              -0.02685317       -10.59941        -66.00963       -165.1344             -200               0             -200               0
1.06579              -0.02797544       -10.69159        -65.80947       -170.4453             -200               0             -200               0
1.07237              -0.02909181       -10.78404        -65.64787       -175.6995             -200               0             -200               0
1.07895              -0.03019184       -10.87681        -65.52424        179.1105             -200               0             -200               0
1.08553              -0.03126678       -10.96996        -65.43827        173.9929             -200               0             -200               0
1.09211               -0.0323081       -11.06356        -65.38993        168.9576             -200               0             -200               0
1.09868              -0.03331103       -11.15767        -65.37948        164.0157             -200               0             -200               0
1.10526              -0.03427004       -11.25237        -65.40737        159.1808             -200               0             -200               0
1.11184              -0.03518199       -11.34777        -65.47433        154.4685             -200               0             -200               0
1.11842              -0.03604511       -11.44394        -65.58125        149.8982             -200               0             -200               0
1.125                -0.03686266       -11.54098        -65.72925        145.4929             -200               0             -200               0
1.13158              -0.03763588         -11.639        -65.91953        141.2812             -200               0             -200               0
1.13816              -0.03837013       -11.73806        -66.15335        137.2982             -200               0             -200               0
1.14474              -0.03907248       -11.83827        -66.43184        133.5873             -200               0             -200               0
1.15132              -0.03975218        -11.9397        -66.75572        130.2029             -200               0             -200               0
1.15789              -0.04041929       -12.04242        -67.12488        127.2127             -200               0             -200               0
1.16447              -0.04108516        -12.1465        -67.53762        124.7009             -200               0             -200               0
1.17105               -0.0417636       -12.25197        -67.98946         122.771             -200               0             -200               0
1.17763               -0.0424677       -12.35888        -68.47124         121.546             -200               0             -200               0
1.18421              -0.04321112       -12.46725        -68.96649        121.1643             -200               0             -200               0
1.19079              -0.04400774       -12.57709        -69.44798        121.7631             -200               0             -200               0
1.19737              -0.04487307       -12.68839        -69.87463        123.4423             -200               0             -200               0
1.20395              -0.04581841       -12.80114        -70.19152        126.2018             -200               0             -200               0
1.21053              -0.04685799        -12.9153        -70.33745        129.8682             -200               0             -200               0
1.21711               -0.0480024       -13.03084        -70.26241         134.058             -200               0             -200               0
1.22368              -0.04926051        -13.1477        -69.94811        138.2407             -200               0             -200               0
1.23026              -0.05064177       -13.26583        -69.41684        141.8958             -200               0             -200               0
1.23684              -0.05215108       -13.38516        -68.72064        144.6627             -200               0             -200               0
1.24342              -0.05379372       -13.50562        -67.92035        146.3908             -200               0             -200               0
1.25                 -0.05557108       -13.62715        -67.06915        147.0956             -200               0             -200               0
1.25658              -0.05748332       -13.74967        -66.20613        146.8841             -200               0             -200               0
1.26316              -0.05952754       -13.87311        -65.35672        145.8959             -200               0             -200               0
1.26974              -0.06170017       -13.99743        -64.53602         144.269             -200               0             -200               0
1.27632              -0.06399517       -14.12255        -63.75209        142.1252             -200               0             -200               0
1.28289              -0.06640453       -14.24845        -63.00856        139.5668             -200               0             -200               0
1.28947              -0.06891839       -14.37509        -62.30641        136.6773             -200               0             -200               0
1.29605              -0.07152789       -14.50245        -61.64509        133.5241             -200               0             -200               0
1.30263              -0.07422184       -14.63054         -61.0232        130.1616             -200               0             -200               0
1.30921              -0.07698767       -14.75935        -60.43895         126.634             -200               0             -200               0
1.31579              -0.07981511       -14.88892        -59.89038        122.9775             -200               0             -200               0
1.32237              -0.08269326       -15.01929        -59.37548        119.2216             -200               0             -200               0
1.32895              -0.08561113       -15.15051        -58.89231        115.3913             -200               0             -200               0
1.33553              -0.08855913       -15.28266          -58.439        111.5075             -200               0             -200               0
1.34211               -0.0915303       -15.41583        -58.01376        107.5882             -200               0             -200               0
1.34868              -0.09451856       -15.55009        -57.61492        103.6491             -200               0             -200               0
1.35526              -0.09751905       -15.68557        -57.24088        99.70381             -200               0             -200               0
1.36184               -0.1005308       -15.82238         -56.8901        95.76461             -200               0             -200               0
1.36842                -0.103554       -15.96062        -56.56111        91.84255             -200               0             -200               0
1.375                 -0.1065918       -16.10041        -56.25249        87.94771             -200               0             -200               0
1.38158               -0.1096496       -16.24188        -55.96282        84.08937             -200               0             -200               0
1.38816               -0.1127363       -16.38515        -55.69071        80.27614             -200               0             -200               0
1.39474               -0.1158607       -16.53031        -55.43473        76.51601             -200               0             -200               0
1.40132               -0.1190366       -16.67748        -55.19345        72.81639             -200               0             -200               0
1.40789               -0.1222775       -16.82673        -54.96537        69.18413             -200               0             -200               0
1.41447               -0.1256004       -16.97816        -54.74895        65.62548             -200               0             -200               0
1.42105               -0.1290231       -17.13182        -54.54258        62.14602             -200               0             -200               0
1.42763               -0.1325627       -17.28777        -54.34457        58.75056             -200               0             -200               0
1.43421               -0.1362389       -17.44603        -54.15315        55.44304             -200               0             -200               0
1.44079               -0.1400721       -17.60663        -53.96647        52.22633             -200               0             -200               0
1.44737               -0.1440788       -17.76956        -53.78259        49.10213             -200               0             -200               0
1.45395                -0.148279       -17.93481        -53.59955        46.07073             -200               0             -200               0
1.46053               -0.1526892       -18.10235         -53.4153        43.13089             -200               0             -200               0
1.46711               -0.1573252       -18.27214        -53.22785        40.27966             -200               0             -200               0
1.47368               -0.1622004       -18.44411         -53.0352        37.51227             -200               0             -200               0
1.48026               -0.1673271       -18.61822        -52.83544         34.8221             -200               0             -200               0
1.48684               -0.1727132       -18.79438        -52.62684        32.20063             -200               0             -200               0
1.49342               -0.1783671       -18.97253        -52.40782        29.63765             -200               0             -200               0
1.5                   -0.1842917       -19.15258        -52.17708        27.12139             -200               0             -200               0
1.50658                -0.190489       -19.33446        -51.93361        24.63886             -200               0             -200               0
1.51316               -0.1969581       -19.51811        -51.67672        22.17622             -200               0             -200               0
1.51974               -0.2036953       -19.70347        -51.40611        19.71923             -200               0             -200               0
1.52632               -0.2106949       -19.89048        -51.12181        17.25374             -200               0             -200               0
1.53289               -0.2179475       -20.07912        -50.82421        14.76613             -200               0             -200               0
1.53947               -0.2254465       -20.26936        -50.51402        12.24376             -200               0             -200               0
1.54605               -0.2331783        -20.4612         -50.1922        9.675276             -200               0             -200               0
1.55263               -0.2411323       -20.65467        -49.85996        7.050924             -200               0             -200               0
1.55921               -0.2492974       -20.84981        -49.51865        4.362677             -200               0             -200               0
1.56579               -0.2576611       -21.04667        -49.16974        1.604312             -200               0             -200               0
1.57237               -0.2662126       -21.24535        -48.81473       -1.228615             -200               0             -200               0
1.57895               -0.2749407       -21.44594        -48.45513       -4.138866             -200               0             -200               0
1.58553               -0.2838395       -21.64858         -48.0924       -7.127662             -200               0             -200               0
1.59211               -0.2929009       -21.85342        -47.72794       -10.19487             -200               0             -200               0
1.59868               -0.3021235        -22.0606        -47.36305       -13.33918             -200               0             -200               0
1.60526               -0.3115061       -22.27031        -46.99891       -16.55833             -200               0             -200               0
1.61184               -0.3210527       -22.48274        -46.63658       -19.84927             -200               0             -200               0
1.61842               -0.3307692       -22.69809          -46.277       -23.20836             -200               0             -200               0
1.625                 -0.3406678       -22.91654        -45.92099       -26.63151             -200               0             -200               0
1.63158               -0.3507623        -23.1383        -45.56923        -30.1143             -200               0             -200               0
1.63816               -0.3610719       -23.36357        -45.22232       -33.65215             -200               0             -200               0
1.64474                 -0.37162       -23.59255        -44.88072       -37.24036             -200               0             -200               0
1.65132               -0.3824317        -23.8254        -44.54481       -40.87419             -200               0             -200               0
1.65789               -0.3935362        -24.0623        -44.21487       -44.54897             -200               0             -200               0
1.66447               -0.4049681       -24.30339        -43.89111       -48.26009             -200               0             -200               0
1.67105               -0.4167626       -24.54881        -43.57365       -52.00309             -200               0             -200               0
1.67763               -0.4289563       -24.79866        -43.26254       -55.77364             -200               0             -200               0
1.68421               -0.4415878       -25.05303         -42.9578       -59.56761             -200               0             -200               0
1.69079               -0.4546995       -25.31198        -42.65936       -63.38103             -200               0             -200               0
1.69737               -0.4683291       -25.57553         -42.3671       -67.21017             -200               0             -200               0
1.70395               -0.4825196       -25.84372        -42.08088        -71.0515             -200               0             -200               0
1.71053               -0.4973104       -26.11651         -41.8005       -74.90173             -200               0             -200               0
1.71711               -0.5127388       -26.39388        -41.52573       -78.75777             -200               0             -200               0
1.72368               -0.5288426       -26.67577         -41.2563       -82.61681             -200               0             -200               0
1.73026               -0.5456553       -26.96211        -40.99192       -86.47626             -200               0             -200               0
1.73684               -0.5632082       -27.25281        -40.73225        -90.3338             -200               0             -200               0
1.74342               -0.5815294       -27.54778        -40.47696       -94.18736             -200               0             -200               0
1.75                  -0.6006446        -27.8469        -40.22567       -98.03514             -200               0             -200               0
1.75658               -0.6205752       -28.15009          -39.978       -101.8756             -200               0             -200               0
1.76316               -0.6413399       -28.45723        -39.73355       -105.7075             -200               0             -200               0
1.76974               -0.6629522       -28.76824         -39.4919       -109.5299             -200               0             -200               0
1.77632               -0.6854251       -29.08303        -39.25263       -113.3422             -200               0             -200               0
1.78289               -0.7087649       -29.40153        -39.01532       -117.1439             -200               0             -200               0
1.78947               -0.7329804        -29.7237        -38.77955        -120.935             -200               0             -200               0
1.79605               -0.7580749       -30.04953        -38.54491       -124.7157             -200               0             -200               0
1.80263               -0.7840501       -30.37902        -38.31097       -128.4865             -200               0             -200               0
1.80921               -0.8109098       -30.71221        -38.07735       -132.2483             -200               0             -200               0
1.81579               -0.8386544       -31.04918        -37.84368       -136.0022             -200               0             -200               0
1.82237               -0.8672904       -31.39003         -37.6096       -139.7495             -200               0             -200               0
1.82895               -0.8968197       -31.73491        -37.37478       -143.4918             -200               0             -200               0
1.83553               -0.9272522       -32.08398        -37.13894        -147.231             -200               0             -200               0
1.84211                -0.958599       -32.43748        -36.90181       -150.9691             -200               0             -200               0
1.84868               -0.9908773       -32.79565        -36.66318       -154.7083             -200               0             -200               0
