! TOUCHSTONE file generated by CST MICROWAVE STUDIO
! Date and time: Tue Mar 18 00:02:10 2025
! Project name: oblique.cst
! Parameters = {Tilt=40; Fracture=1; B=10; D=160; F=5; Feed=2.85625; L=100; M=50; R=0.384908; S=2; Theta=180; length=57.125; wave=114.25}
! Header version: 2024
! Port assignment regex: !\s*Touchstone port\s*([0-9]+)\s*=\s*(CST MWS port|CST DES external port|CST DES block port)\s*(.+)\s* \(\"(.*)\"\)(\s*mode\s*([0-9]+))?.*
! Touchstone port assignment:
! Touchstone port 1 = CST MWS port 1 ("")
! Touchstone port 2 = CST MWS port 2 ("")
# GHz S DB R 50
1                    -0.02165391        -9.78388        -66.97589        171.1239             -200               0             -200               0
1.00658              -0.02237975         -9.8706        -66.92752        165.6195             -200               0             -200               0
1.01316              -0.02310371       -9.957907        -66.90952        160.2072             -200               0             -200               0
1.01974              -0.02382915       -10.04584        -66.92231        154.8948             -200               0             -200               0
1.02632              -0.02455643       -10.13442        -66.96641         149.692             -200               0             -200               0
1.03289              -0.02528847       -10.22369        -67.04251        144.6106             -200               0             -200               0
1.03947              -0.02602924       -10.31368        -67.15137        139.6653             -200               0             -200               0
1.04605              -0.02678175        -10.4044        -67.29387        134.8736             -200               0             -200               0
1.05263              -0.02754965       -10.49589        -67.47092        130.2571             -200               0             -200               0
1.05921              -0.02833824       -10.58816         -67.6834        125.8423             -200               0             -200               0
1.06579               -0.0291518       -10.68123        -67.93208        121.6615             -200               0             -200               0
1.07237              -0.02999534       -10.77511         -68.2174        117.7543             -200               0             -200               0
1.07895                -0.030874       -10.86979         -68.5392        114.1694             -200               0             -200               0
1.08553              -0.03179197       -10.96529        -68.89629        110.9657             -200               0             -200               0
1.09211              -0.03275411        -11.0616         -69.2858        108.2144             -200               0             -200               0
1.09868              -0.03376589       -11.15872        -69.70211        105.9995             -200               0             -200               0
1.10526               -0.0348288       -11.25662         -70.1355        104.4158             -200               0             -200               0
1.11184              -0.03594851        -11.3553         -70.5703        103.5629             -200               0             -200               0
1.11842              -0.03712628       -11.45473         -70.9829          103.53             -200               0             -200               0
1.125                -0.03836475       -11.55491        -71.34051        104.3689             -200               0             -200               0
1.13158              -0.03966522        -11.6558        -71.60224        106.0542             -200               0             -200               0
1.13816               -0.0410279       -11.75739        -71.72473        108.4424             -200               0             -200               0
1.14474              -0.04245308       -11.85965         -71.6728        111.2558             -200               0             -200               0
1.15132              -0.04393883       -11.96256        -71.43133        114.1204             -200               0             -200               0
1.15789              -0.04548419       -12.06612        -71.01122        116.6542             -200               0             -200               0
1.16447              -0.04708614       -12.17029        -70.44498          118.56             -200               0             -200               0
1.17105              -0.04874145       -12.27508        -69.77531        119.6728             -200               0             -200               0
1.17763              -0.05044727       -12.38047        -69.04383        119.9509             -200               0             -200               0
1.18421              -0.05219893       -12.48647        -68.28465        119.4371             -200               0             -200               0
1.19079              -0.05399233       -12.59308        -67.52262        118.2174             -200               0             -200               0
1.19737               -0.0558229        -12.7003        -66.77436        116.3918             -200               0             -200               0
1.20395              -0.05768595       -12.80816        -66.05023        114.0573             -200               0             -200               0
1.21053              -0.05957718       -12.91667        -65.35617        111.3008             -200               0             -200               0
1.21711              -0.06149186       -13.02587        -64.69521        108.1967             -200               0             -200               0
1.22368               -0.0634268       -13.13577         -64.0685        104.8072             -200               0             -200               0
1.23026              -0.06537788       -13.24644        -63.47608        101.1838             -200               0             -200               0
1.23684              -0.06734292        -13.3579        -62.91729        97.36929             -200               0             -200               0
1.24342               -0.0693198        -13.4702        -62.39111        93.39878             -200               0             -200               0
1.25                  -0.0713064        -13.5834        -61.89631        89.30164             -200               0             -200               0
1.25658               -0.0733033       -13.69754        -61.43164        85.10244             -200               0             -200               0
1.26316              -0.07531093       -13.81268        -60.99579        80.82197             -200               0             -200               0
1.26974              -0.07733022       -13.92888        -60.58754        76.47798             -200               0             -200               0
1.27632               -0.0793641       -14.04619         -60.2057        72.08584             -200               0             -200               0
1.28289               -0.0814144       -14.16466        -59.84916        67.65899             -200               0             -200               0
1.28947              -0.08348756       -14.28434        -59.51689        63.20941             -200               0             -200               0
1.29605              -0.08558754       -14.40529        -59.20791        58.74784             -200               0             -200               0
1.30263              -0.08771969       -14.52754        -58.92133        54.28414             -200               0             -200               0
1.30921              -0.08988991       -14.65114        -58.65628        49.82747             -200               0             -200               0
1.31579              -0.09210505       -14.77611        -58.41197        45.38644             -200               0             -200               0
1.32237              -0.09437135        -14.9025        -58.18762        40.96931             -200               0             -200               0
1.32895               -0.0966975       -15.03031        -57.98247        36.58411             -200               0             -200               0
1.33553              -0.09908855       -15.15958         -57.7958        32.23868             -200               0             -200               0
1.34211               -0.1015526       -15.29031        -57.62685        27.94084             -200               0             -200               0
1.34868               -0.1040956       -15.42252        -57.47487        23.69841             -200               0             -200               0
1.35526               -0.1067245        -15.5562        -57.33904        19.51929             -200               0             -200               0
1.36184               -0.1094436       -15.69135        -57.21852        15.41146             -200               0             -200               0
1.36842               -0.1122592       -15.82798        -57.11239        11.38304             -200               0             -200               0
1.375                  -0.115174       -15.96607         -57.0196         7.44222             -200               0             -200               0
1.38158               -0.1181929       -16.10562        -56.93904        3.597285             -200               0             -200               0
1.38816               -0.1213169       -16.24663         -56.8694      -0.1435059             -200               0             -200               0
1.39474               -0.1245489       -16.38908        -56.80923       -3.772022             -200               0             -200               0
1.40132               -0.1278896       -16.53297        -56.75687       -7.280434             -200               0             -200               0
1.40789               -0.1313381        -16.6783        -56.71046       -10.66145             -200               0             -200               0
1.41447               -0.1348936       -16.82507        -56.66789        -13.9086             -200               0             -200               0
1.42105               -0.1385562        -16.9733         -56.6268       -17.01662             -200               0             -200               0
1.42763               -0.1423218       -17.12298        -56.58459       -19.98187             -200               0             -200               0
1.43421               -0.1461905       -17.27415        -56.53844       -22.80284             -200               0             -200               0
1.44079               -0.1501585       -17.42684        -56.48532       -25.48063             -200               0             -200               0
1.44737               -0.1542229       -17.58106        -56.42209        -28.0195             -200               0             -200               0
1.45395               -0.1583819       -17.73688        -56.34559       -30.42722             -200               0             -200               0
1.46053               -0.1626329       -17.89433        -56.25273       -32.71547             -200               0             -200               0
1.46711                -0.166975       -18.05348        -56.14066       -34.89981             -200               0             -200               0
1.47368               -0.1714072        -18.2144        -56.00689       -36.99952             -200               0             -200               0
1.48026                -0.175929       -18.37714         -55.8495        -39.0371             -200               0             -200               0
1.48684               -0.1805419        -18.5418        -55.66717       -41.03741             -200               0             -200               0
1.49342               -0.1852462       -18.70844        -55.45933       -43.02663             -200               0             -200               0
1.5                   -0.1900478       -18.87716         -55.2262       -45.03107             -200               0             -200               0
1.50658               -0.1949507       -19.04805         -54.9687       -47.07589             -200               0             -200               0
1.51316                -0.199959        -19.2212        -54.68846       -49.18406             -200               0             -200               0
1.51974               -0.2050834       -19.39669        -54.38761       -51.37546             -200               0             -200               0
1.52632               -0.2103293       -19.57461        -54.06872       -53.66631             -200               0             -200               0
1.53289               -0.2157101       -19.75506        -53.73459       -56.06893             -200               0             -200               0
1.53947                -0.221234       -19.93811        -53.38813       -58.59177             -200               0             -200               0
1.54605               -0.2269156       -20.12384        -53.03222       -61.23965             -200               0             -200               0
1.55263               -0.2327685       -20.31232        -52.66963       -64.01417             -200               0             -200               0
1.55921               -0.2388054       -20.50362        -52.30293       -66.91427             -200               0             -200               0
1.56579               -0.2450435        -20.6978        -51.93448       -69.93663             -200               0             -200               0
1.57237               -0.2514988        -20.8949        -51.56635       -73.07629             -200               0             -200               0
1.57895               -0.2581843       -21.09497        -51.20036       -76.32703             -200               0             -200               0
1.58553               -0.2651174       -21.29804        -50.83806       -79.68176             -200               0             -200               0
1.59211               -0.2723138       -21.50414        -50.48077       -83.13289             -200               0             -200               0
1.59868               -0.2797883       -21.71329        -50.12957       -86.67253             -200               0             -200               0
1.60526               -0.2875558        -21.9255        -49.78535       -90.29268             -200               0             -200               0
1.61184               -0.2956306       -22.14078        -49.44881       -93.98545             -200               0             -200               0
1.61842                -0.304026       -22.35914        -49.12051       -97.74306             -200               0             -200               0
1.625                 -0.3127534       -22.58057        -48.80085        -101.558             -200               0             -200               0
1.63158               -0.3218242       -22.80508        -48.49013        -105.423             -200               0             -200               0
1.63816               -0.3312478       -23.03267        -48.18852       -109.3312             -200               0             -200               0
1.64474               -0.3410331       -23.26333        -47.89613       -113.2758             -200               0             -200               0
1.65132                -0.351188       -23.49709        -47.61297       -117.2505             -200               0             -200               0
1.65789               -0.3617181       -23.73394        -47.33899       -121.2495             -200               0             -200               0
1.66447               -0.3726293       -23.97392        -47.07406       -125.2668             -200               0             -200               0
1.67105               -0.3839269       -24.21704        -46.81803        -129.297             -200               0             -200               0
1.67763               -0.3956143       -24.46335        -46.57066       -133.3351             -200               0             -200               0
1.68421                -0.407696       -24.71289        -46.33169        -137.376             -200               0             -200               0
1.69079               -0.4201757       -24.96574        -46.10081       -141.4152             -200               0             -200               0
1.69737               -0.4330569       -25.22196        -45.87764       -145.4482             -200               0             -200               0
1.70395               -0.4463445       -25.48165        -45.66181       -149.4709             -200               0             -200               0
1.71053               -0.4600428       -25.74491        -45.45285       -153.4795             -200               0             -200               0
1.71711                 -0.47416       -26.01186        -45.25031       -157.4702             -200               0             -200               0
1.72368               -0.4887033       -26.28262        -45.05365       -161.4397             -200               0             -200               0
1.73026               -0.5036841       -26.55736        -44.86232        -165.385             -200               0             -200               0
1.73684               -0.5191099       -26.83621        -44.67572       -169.3033             -200               0             -200               0
1.74342               -0.5349995       -27.11935        -44.49322       -173.1922             -200               0             -200               0
1.75                  -0.5513675       -27.40695        -44.31415       -177.0496             -200               0             -200               0
1.75658                -0.568235        -27.6992        -44.13779        179.1261             -200               0             -200               0
1.76316               -0.5856225       -27.99628        -43.96343        175.3362             -200               0             -200               0
1.76974               -0.6035593       -28.29839        -43.79031        171.5814             -200               0             -200               0
1.77632               -0.6220724       -28.60571        -43.61764         167.862             -200               0             -200               0
1.78289                -0.641194       -28.91845        -43.44465        164.1776             -200               0             -200               0
1.78947               -0.6609616       -29.23678        -43.27054        160.5274             -200               0             -200               0
1.79605               -0.6814134        -29.5609        -43.09453          156.91             -200               0             -200               0
1.80263               -0.7025912       -29.89098        -42.91586        153.3232             -200               0             -200               0
1.80921               -0.7245405       -30.22718        -42.73379        149.7645             -200               0             -200               0
1.81579               -0.7473103       -30.56967        -42.54765        146.2306             -200               0             -200               0
1.82237                 -0.77095        -30.9186        -42.35679        142.7177             -200               0             -200               0
1.82895               -0.7955128       -31.27408        -42.16066        139.2214             -200               0             -200               0
1.83553               -0.8210544       -31.63626        -41.95877         135.737             -200               0             -200               0
1.84211               -0.8476314       -32.00522        -41.75075        132.2594             -200               0             -200               0
1.84868               -0.8753034       -32.38107        -41.53631         128.783             -200               0             -200               0
