! TOUCHSTONE file generated by CST MICROWAVE STUDIO
! Date and time: Tue Mar 18 00:00:47 2025
! Project name: oblique.cst
! Parameters = {Tilt=30; Fracture=1; B=10; D=160; F=5; Feed=2.85625; L=100; M=10; R=0.384908; S=2; Theta=90; length=57.125; wave=114.25}
! Header version: 2024
! Port assignment regex: !\s*Touchstone port\s*([0-9]+)\s*=\s*(CST MWS port|CST DES external port|CST DES block port)\s*(.+)\s* \(\"(.*)\"\)(\s*mode\s*([0-9]+))?.*
! Touchstone port assignment:
! Touchstone port 1 = CST MWS port 1 ("")
! Touchstone port 2 = CST MWS port 2 ("")
# GHz S DB R 50
1                    -0.01891836       -9.783273        -70.99826       -124.6089             -200               0             -200               0
1.00658              -0.01962459       -9.871904         -70.3936       -128.8647             -200               0             -200               0
1.01316              -0.02038247       -9.960996        -69.84522       -133.2384             -200               0             -200               0
1.01974              -0.02118739       -10.05052        -69.34863       -137.6969             -200               0             -200               0
1.02632              -0.02203649       -10.14044        -68.90002       -142.2135             -200               0             -200               0
1.03289              -0.02292436       -10.23076        -68.49622       -146.7664             -200               0             -200               0
1.03947              -0.02384477       -10.32144        -68.13456       -151.3371             -200               0             -200               0
1.04605              -0.02479238        -10.4125        -67.81282       -155.9093             -200               0             -200               0
1.05263              -0.02576052       -10.50393        -67.52911       -160.4686             -200               0             -200               0
1.05921              -0.02674133       -10.59573        -67.28188       -165.0012             -200               0             -200               0
1.06579              -0.02772924       -10.68794        -67.06983       -169.4939             -200               0             -200               0
1.07237              -0.02871789       -10.78058        -66.89187       -173.9338             -200               0             -200               0
1.07895              -0.02970177       -10.87368        -66.74707       -178.3075             -200               0             -200               0
1.08553               -0.0306745       -10.96728        -66.63464        177.3991             -200               0             -200               0
1.09211              -0.03163216       -11.06144         -66.5539        173.2007             -200               0             -200               0
1.09868              -0.03257221       -11.15621        -66.50418        169.1138             -200               0             -200               0
1.10526              -0.03349078       -11.25164        -66.48481        165.1563             -200               0             -200               0
1.11184              -0.03438815       -11.34781        -66.49502        161.3482             -200               0             -200               0
1.11842              -0.03526486       -11.44477        -66.53388        157.7118             -200               0             -200               0
1.125                -0.03612162       -11.54259        -66.60016        154.2723             -200               0             -200               0
1.13158              -0.03696152       -11.64133        -66.69215         151.058             -200               0             -200               0
1.13816              -0.03778834       -11.74105        -66.80754        148.1002             -200               0             -200               0
1.14474              -0.03860895       -11.84182        -66.94308        145.4331             -200               0             -200               0
1.15132              -0.03942885       -11.94368        -67.09432        143.0934             -200               0             -200               0
1.15789              -0.04025527       -12.04669         -67.2552        141.1184             -200               0             -200               0
1.16447              -0.04109766       -12.15088        -67.41775        139.5436             -200               0             -200               0
1.17105              -0.04196318       -12.25627        -67.57171        138.3983             -200               0             -200               0
1.17763              -0.04286332       -12.36291        -67.70439        137.6997             -200               0             -200               0
1.18421              -0.04380624        -12.4708        -67.80103        137.4449             -200               0             -200               0
1.19079              -0.04480151       -12.57994        -67.84557        137.6029             -200               0             -200               0
1.19737              -0.04585933       -12.69035        -67.82235        138.1084             -200               0             -200               0
1.20395              -0.04698722       -12.80199        -67.71828        138.8614             -200               0             -200               0
1.21053              -0.04819445       -12.91487        -67.52518        139.7333             -200               0             -200               0
1.21711              -0.04948792       -13.02894        -67.24139        140.5826             -200               0             -200               0
1.22368              -0.05087327       -13.14418        -66.87213        141.2734             -200               0             -200               0
1.23026              -0.05235565       -13.26056        -66.42829        141.6926             -200               0             -200               0
1.23684              -0.05393947       -13.37803        -65.92433        141.7604             -200               0             -200               0
1.24342              -0.05562644       -13.49656         -65.3759        141.4326             -200               0             -200               0
1.25                 -0.05741684       -13.61611        -64.79797        140.6959             -200               0             -200               0
1.25658              -0.05931234       -13.73663        -64.20365        139.5603             -200               0             -200               0
1.26316              -0.06130951        -13.8581        -63.60366        138.0511             -200               0             -200               0
1.26974              -0.06340663       -13.98047        -63.00636        136.2023             -200               0             -200               0
1.27632              -0.06559829       -14.10373        -62.41796        134.0509             -200               0             -200               0
1.28289              -0.06788017       -14.22786        -61.84289        131.6343             -200               0             -200               0
1.28947               -0.0702462       -14.35285        -61.28421        128.9881             -200               0             -200               0
1.29605              -0.07268995        -14.4787        -60.74387        126.1448             -200               0             -200               0
1.30263              -0.07520445       -14.60541        -60.22302        123.1341             -200               0             -200               0
1.30921              -0.07778244       -14.73301        -59.72225        119.9823             -200               0             -200               0
1.31579              -0.08041824       -14.86153        -59.24169        116.7126             -200               0             -200               0
1.32237              -0.08310415       -14.99101        -58.78115        113.3458             -200               0             -200               0
1.32895              -0.08583465        -15.1215        -58.34027           109.9             -200               0             -200               0
1.33553               -0.0886044       -15.25305        -57.91848        106.3913             -200               0             -200               0
1.34211              -0.09141119       -15.38573        -57.51512        102.8339             -200               0             -200               0
1.34868              -0.09425001       -15.51963        -57.12947        99.24061             -200               0             -200               0
1.35526              -0.09712218       -15.65481        -56.76072        95.62268             -200               0             -200               0
1.36184                -0.100026       -15.79136        -56.40804        91.99027             -200               0             -200               0
1.36842                -0.102964       -15.92936        -56.07055        88.35248             -200               0             -200               0
1.375                 -0.1059406       -16.06892        -55.74736        84.71752             -200               0             -200               0
1.38158               -0.1089607        -16.2101        -55.43755        81.09276             -200               0             -200               0
1.38816               -0.1120306       -16.35299        -55.14016        77.48486             -200               0             -200               0
1.39474               -0.1151592       -16.49767        -54.85422        73.89976             -200               0             -200               0
1.40132               -0.1183569       -16.64422        -54.57873        70.34276             -200               0             -200               0
1.40789               -0.1216343       -16.79269        -54.31268         66.8185             -200               0             -200               0
1.41447               -0.1250031       -16.94316        -54.05501          63.331             -200               0             -200               0
1.42105               -0.1284761       -17.09565        -53.80465        59.88364             -200               0             -200               0
1.42763               -0.1320684       -17.25022        -53.56052        56.47913             -200               0             -200               0
1.43421               -0.1357911       -17.40688         -53.3215        53.11947             -200               0             -200               0
1.44079               -0.1396601       -17.56566        -53.08649        49.80596             -200               0             -200               0
1.44737               -0.1436878       -17.72656        -52.85435        46.53915             -200               0             -200               0
1.45395               -0.1478868       -17.88958        -52.62398        43.31883             -200               0             -200               0
1.46053               -0.1522701       -18.05471        -52.39429        40.14396             -200               0             -200               0
1.46711               -0.1568477       -18.22192         -52.1642        37.01272             -200               0             -200               0
1.47368               -0.1616295       -18.39118        -51.93271        33.92248             -200               0             -200               0
1.48026                -0.166624       -18.56248        -51.69887        30.86985             -200               0             -200               0
1.48684               -0.1718381       -18.73577         -51.4618        27.85071             -200               0             -200               0
1.49342                -0.177276       -18.91101        -51.22075        24.86027             -200               0             -200               0
1.5                    -0.182943       -19.08817        -50.97504        21.89319             -200               0             -200               0
1.50658               -0.1888389       -19.26723        -50.72414        18.94363             -200               0             -200               0
1.51316               -0.1949653       -19.44814        -50.46765        16.00547             -200               0             -200               0
1.51974               -0.2013203        -19.6309        -50.20531        13.07236             -200               0             -200               0
1.52632               -0.2079007       -19.81548        -49.93699        10.13792             -200               0             -200               0
1.53289               -0.2147044        -20.0019        -49.66271        7.195871             -200               0             -200               0
1.53947               -0.2217253       -20.19015        -49.38263        4.240164             -200               0             -200               0
1.54605               -0.2289597       -20.38027          -49.097        1.265123             -200               0             -200               0
1.55263               -0.2364016       -20.57228        -48.80621       -1.734456             -200               0             -200               0
1.55921                -0.244045       -20.76624        -48.51072       -4.763216             -200               0             -200               0
1.56579               -0.2518865       -20.96222        -48.21109       -7.825172             -200               0             -200               0
1.57237               -0.2599202        -21.1603         -47.9079       -10.92368             -200               0             -200               0
1.57895               -0.2681447       -21.36057        -47.60181       -14.06142             -200               0             -200               0
1.58553               -0.2765576       -21.56314        -47.29346       -17.24039             -200               0             -200               0
1.59211               -0.2851594       -21.76813        -46.98353       -20.46193             -200               0             -200               0
1.59868               -0.2939521       -21.97567        -46.67267       -23.72679             -200               0             -200               0
1.60526               -0.3029403       -22.18589        -46.36153       -27.03512             -200               0             -200               0
1.61184                -0.312131       -22.39895        -46.05071       -30.38657             -200               0             -200               0
1.61842               -0.3215337       -22.61498        -45.74078       -33.78035             -200               0             -200               0
1.625                 -0.3311618       -22.83415        -45.43228       -37.21526             -200               0             -200               0
1.63158               -0.3410282       -23.05659        -45.12568       -40.68977             -200               0             -200               0
1.63816               -0.3511534       -23.28247        -44.82143       -44.20207             -200               0             -200               0
1.64474               -0.3615564       -23.51191        -44.51989       -47.75014             -200               0             -200               0
1.65132               -0.3722598       -23.74505        -44.22141       -51.33178             -200               0             -200               0
1.65789               -0.3832889       -23.98202        -43.92626       -54.94467             -200               0             -200               0
1.66447               -0.3946727       -24.22292        -43.63467        -58.5864             -200               0             -200               0
1.67105               -0.4064383       -24.46786        -43.34684       -62.25452             -200               0             -200               0
1.67763               -0.4186166       -24.71692        -43.06289       -65.94654             -200               0             -200               0
1.68421               -0.4312391       -24.97016        -42.78293       -69.66001             -200               0             -200               0
1.69079               -0.4443378       -25.22763        -42.50701       -73.39251             -200               0             -200               0
1.69737               -0.4579446       -25.48939        -42.23514       -77.14166             -200               0             -200               0
1.70395               -0.4720935       -25.75543        -41.96731       -80.90518             -200               0             -200               0
1.71053               -0.4868151       -26.02577        -41.70347       -84.68087             -200               0             -200               0
1.71711               -0.5021411        -26.3004        -41.44353       -88.46664             -200               0             -200               0
1.72368               -0.5181005        -26.5793        -41.18738       -92.26054             -200               0             -200               0
1.73026               -0.5347226       -26.86243        -40.93487       -96.06071             -200               0             -200               0
1.73684               -0.5520346       -27.14977        -40.68586       -99.86549             -200               0             -200               0
1.74342               -0.5700597       -27.44127        -40.44016       -103.6733             -200               0             -200               0
1.75                   -0.588823       -27.73688        -40.19757       -107.4828             -200               0             -200               0
1.75658               -0.6083459       -28.03655        -39.95787       -111.2928             -200               0             -200               0
1.76316               -0.6286464       -28.34025        -39.72082       -115.1023             -200               0             -200               0
1.76974               -0.6497428       -28.64794        -39.48619       -118.9104             -200               0             -200               0
1.77632               -0.6716516        -28.9596        -39.25373       -122.7164             -200               0             -200               0
1.78289               -0.6943865        -29.2752        -39.02317       -126.5198             -200               0             -200               0
1.78947               -0.7179606       -29.59476        -38.79425       -130.3205             -200               0             -200               0
1.79605               -0.7423881       -29.91828        -38.56672       -134.1183             -200               0             -200               0
1.80263               -0.7676826       -30.24582        -38.34032       -137.9133             -200               0             -200               0
1.80921               -0.7938553       -30.57742        -38.11479       -141.7058             -200               0             -200               0
1.81579               -0.8209213       -30.91315        -37.88989       -145.4962             -200               0             -200               0
1.82237               -0.8488957       -31.25313        -37.66538       -149.2853             -200               0             -200               0
1.82895               -0.8777971       -31.59748        -37.44104       -153.0739             -200               0             -200               0
1.83553               -0.9076446       -31.94634        -37.21667       -156.8628             -200               0             -200               0
1.84211               -0.9384624       -32.29986        -36.99209       -160.6534             -200               0             -200               0
1.84868               -0.9702777       -32.65825        -36.76712       -164.4467             -200               0             -200               0
