! TOUCHSTONE file generated by CST MICROWAVE STUDIO
! Date and time: Tue Mar 18 00:02:50 2025
! Project name: oblique.cst
! Parameters = {Tilt=40; Fracture=1; B=12.5; D=160; F=5; Feed=2.85625; L=100; M=50; R=0.384908; S=2; Theta=90; length=57.125; wave=114.25}
! Header version: 2024
! Port assignment regex: !\s*Touchstone port\s*([0-9]+)\s*=\s*(CST MWS port|CST DES external port|CST DES block port)\s*(.+)\s* \(\"(.*)\"\)(\s*mode\s*([0-9]+))?.*
! Touchstone port assignment:
! Touchstone port 1 = CST MWS port 1 ("")
! Touchstone port 2 = CST MWS port 2 ("")
# GHz S DB R 50
1                    -0.02194834       -9.803343        -66.35126        165.4502             -200               0             -200               0
1.0066               -0.02264037       -9.890362        -66.34156        159.5811             -200               0             -200               0
1.0132                -0.0233261       -9.978027        -66.36426        153.8036             -200               0             -200               0
1.0198               -0.02400653       -10.06638        -66.42027        148.1244             -200               0             -200               0
1.0264               -0.02468538       -10.15547        -66.51069         142.552             -200               0             -200               0
1.033                -0.02536817       -10.24532        -66.63688        137.0973             -200               0             -200               0
1.0396               -0.02605922       -10.33596        -66.80047        131.7741             -200               0             -200               0
1.0462               -0.02676307       -10.42743        -67.00332           126.6             -200               0             -200               0
1.05281              -0.02748811       -10.51974        -67.24759        121.5973             -200               0             -200               0
1.05941              -0.02823863        -10.6129        -67.53571         116.794             -200               0             -200               0
1.06601              -0.02902172       -10.70693        -67.87031        112.2264             -200               0             -200               0
1.07261               -0.0298426       -10.80183        -68.25418         107.941             -200               0             -200               0
1.07921              -0.03071025       -10.89759        -68.69002        103.9978             -200               0             -200               0
1.08581              -0.03162765        -10.9942        -69.18002        100.4753             -200               0             -200               0
1.09241              -0.03260202       -11.09165        -69.72508        97.47575             -200               0             -200               0
1.09901              -0.03363668       -11.18992        -70.32333        95.13225             -200               0             -200               0
1.10561              -0.03473656       -11.28898        -70.96761        93.61458             -200               0             -200               0
1.11221              -0.03590413       -11.38881        -71.64105        93.13036             -200               0             -200               0
1.11881              -0.03714143       -11.48937        -72.31056        93.90926             -200               0             -200               0
1.12541              -0.03844999       -11.59063        -72.91907        96.14886             -200               0             -200               0
1.13201               -0.0398299       -11.69257        -73.38195        99.89768             -200               0             -200               0
1.13861              -0.04128009       -11.79515        -73.59962        104.8915             -200               0             -200               0
1.14521              -0.04279731       -11.89835        -73.49511        110.4694             -200               0             -200               0
1.15182              -0.04438204       -12.00214        -73.05749        115.7422             -200               0             -200               0
1.15842              -0.04602715        -12.1065        -72.34896         119.957             -200               0             -200               0
1.16502              -0.04773118       -12.21141        -71.46739        122.7406             -200               0             -200               0
1.17162              -0.04948666       -12.31688        -70.50364        124.0723             -200               0             -200               0
1.17822              -0.05128911       -12.42288        -69.52229        124.1238             -200               0             -200               0
1.18482              -0.05313213       -12.52943        -68.56212        123.1243             -200               0             -200               0
1.19142              -0.05501021       -12.63655        -67.64353        121.2909             -200               0             -200               0
1.19802              -0.05691751       -12.74424        -66.77568        118.8051             -200               0             -200               0
1.20462              -0.05884786       -12.85254        -65.96137        115.8106             -200               0             -200               0
1.21122              -0.06079535       -12.96148        -65.20008        112.4187             -200               0             -200               0
1.21782              -0.06275763        -13.0711        -64.48968        108.7152             -200               0             -200               0
1.22442              -0.06472757       -13.18145        -63.82733        104.7663             -200               0             -200               0
1.23102              -0.06670493       -13.29258        -63.21001        100.6238             -200               0             -200               0
1.23762              -0.06868499       -13.40455        -62.63476        96.32839             -200               0             -200               0
1.24422              -0.07066847       -13.51742        -62.09882        91.91254             -200               0             -200               0
1.25083              -0.07265251       -13.63124        -61.59964        87.40253             -200               0             -200               0
1.25743              -0.07464138       -13.74609        -61.13494        82.81994             -200               0             -200               0
1.26403              -0.07663626       -13.86202        -60.70268        78.18273             -200               0             -200               0
1.27063              -0.07864031        -13.9791        -60.30101        73.50614             -200               0             -200               0
1.27723               -0.0806584       -14.09738        -59.92831        68.80328             -200               0             -200               0
1.28383               -0.0826961       -14.21692        -59.58312        64.08566             -200               0             -200               0
1.29043               -0.0847584       -14.33778        -59.26412        59.36356             -200               0             -200               0
1.29703              -0.08685323       -14.45999        -58.97014        54.64634             -200               0             -200               0
1.30363              -0.08898801        -14.5836        -58.70012        49.94267             -200               0             -200               0
1.31023              -0.09117183       -14.70864        -58.45307        45.26074             -200               0             -200               0
1.31683              -0.09341225       -14.83513        -58.22812        40.60845             -200               0             -200               0
1.32343              -0.09571796       -14.96309         -58.0244        35.99351             -200               0             -200               0
1.33003              -0.09809711       -15.09253        -57.84113        31.42356             -200               0             -200               0
1.33663               -0.1005558       -15.22347        -57.67752        26.90631             -200               0             -200               0
1.34323               -0.1031039       -15.35589         -57.5328        22.44956             -200               0             -200               0
1.34984                -0.105748       -15.48979        -57.40617        18.06135             -200               0             -200               0
1.35644               -0.1084922       -15.62516        -57.29682        13.74993             -200               0             -200               0
1.36304               -0.1113421       -15.76199        -57.20384        9.523866             -200               0             -200               0
1.36964               -0.1143038       -15.90026        -57.12627        5.392007             -200               0             -200               0
1.37624               -0.1173778       -16.03995        -57.06302        1.363498             -200               0             -200               0
1.38284               -0.1205662       -16.18105        -57.01283       -2.552275             -200               0             -200               0
1.38944               -0.1238698       -16.32353        -56.97431        -6.34578             -200               0             -200               0
1.39604               -0.1272897        -16.4674        -56.94581       -10.00749             -200               0             -200               0
1.40264               -0.1308228       -16.61263        -56.92544       -13.52809             -200               0             -200               0
1.40924               -0.1344692       -16.75923        -56.91103       -16.89883             -200               0             -200               0
1.41584               -0.1382226        -16.9072        -56.90008       -20.11188             -200               0             -200               0
1.42244                -0.142083       -17.05655        -56.88978       -23.16085             -200               0             -200               0
1.42904               -0.1460452       -17.20731        -56.87694       -26.04145             -200               0             -200               0
1.43564               -0.1501046        -17.3595        -56.85811       -28.75213             -200               0             -200               0
1.44224                -0.154257       -17.51315        -56.82956       -31.29486             -200               0             -200               0
1.44884               -0.1585005       -17.66832        -56.78741       -33.67584             -200               0             -200               0
1.45545               -0.1628306       -17.82506        -56.72776        -35.9061             -200               0             -200               0
1.46205               -0.1672443       -17.98343        -56.64686       -38.00186             -200               0             -200               0
1.46865               -0.1717403       -18.14351        -56.54135       -39.98451             -200               0             -200               0
1.47525               -0.1763181       -18.30537        -56.40844       -41.88019             -200               0             -200               0
1.48185               -0.1809787       -18.46911        -56.24613       -43.71883             -200               0             -200               0
1.48845               -0.1857231        -18.6348        -56.05337       -45.53278             -200               0             -200               0
1.49505               -0.1905561       -18.80255         -55.8301       -47.35516             -200               0             -200               0
1.50165               -0.1954807       -18.97246        -55.57729       -49.21805             -200               0             -200               0
1.50825               -0.2005049       -19.14461        -55.29682       -51.15089             -200               0             -200               0
1.51485               -0.2056367        -19.3191        -54.99133       -53.17913             -200               0             -200               0
1.52145                -0.210886       -19.49603          -54.664       -55.32339             -200               0             -200               0
1.52805               -0.2162628       -19.67549        -54.31835       -57.59903             -200               0             -200               0
1.53465               -0.2217806       -19.85756        -53.95803       -60.01629             -200               0             -200               0
1.54125               -0.2274519       -20.04231        -53.58663       -62.58062             -200               0             -200               0
1.54785               -0.2332948       -20.22983        -53.20757       -65.29332             -200               0             -200               0
1.55446               -0.2393205       -20.42017        -52.82398       -68.15231             -200               0             -200               0
1.56106               -0.2455472       -20.61338        -52.43866       -71.15281             -200               0             -200               0
1.56766                -0.251991       -20.80951        -52.05406       -74.28809             -200               0             -200               0
1.57426               -0.2586675        -21.0086         -51.6723       -77.55005             -200               0             -200               0
1.58086               -0.2655944       -21.21066        -51.29512       -80.92971             -200               0             -200               0
1.58746               -0.2727879       -21.41573          -50.924       -84.41765             -200               0             -200               0
1.59406               -0.2802623        -21.6238        -50.56013       -88.00426             -200               0             -200               0
1.60066               -0.2880326       -21.83488        -50.20444       -91.68001             -200               0             -200               0
1.60726               -0.2961105       -22.04898        -49.85766       -95.43558             -200               0             -200               0
1.61386               -0.3045104       -22.26608        -49.52035       -99.26198             -200               0             -200               0
1.62046                -0.313243       -22.48618        -49.19291       -103.1506             -200               0             -200               0
1.62706               -0.3223174       -22.70926        -48.87561       -107.0931             -200               0             -200               0
1.63366               -0.3317418       -22.93533         -48.5686       -111.0819             -200               0             -200               0
1.64026               -0.3415239       -23.16438        -48.27195       -115.1094             -200               0             -200               0
1.64686               -0.3516687       -23.39642        -47.98563       -119.1688             -200               0             -200               0
1.65347               -0.3621806       -23.63145        -47.70956       -123.2535             -200               0             -200               0
1.66007               -0.3730639        -23.8695        -47.44358       -127.3571             -200               0             -200               0
1.66667               -0.3843207       -24.11058         -47.1875       -131.4738             -200               0             -200               0
1.67327               -0.3959531       -24.35476        -46.94105        -135.598             -200               0             -200               0
1.67987               -0.4079631       -24.60208        -46.70394       -139.7244             -200               0             -200               0
1.68647               -0.4203531       -24.85261        -46.47583        -143.848             -200               0             -200               0
1.69307               -0.4331248       -25.10644        -46.25633       -147.9641             -200               0             -200               0
1.69967               -0.4462808       -25.36367        -46.04501        -152.068             -200               0             -200               0
1.70627               -0.4598252       -25.62441        -45.84142       -156.1557             -200               0             -200               0
1.71287               -0.4737664       -25.88879        -45.64504       -160.2231             -200               0             -200               0
1.71947               -0.4881075       -26.15696        -45.45533       -164.2665             -200               0             -200               0
1.72607               -0.5028598       -26.42908         -45.2717       -168.2824             -200               0             -200               0
1.73267               -0.5180358       -26.70532        -45.09353       -172.2678             -200               0             -200               0
1.73927               -0.5336495       -26.98585        -44.92013       -176.2197             -200               0             -200               0
1.74587               -0.5497182       -27.27086        -44.75081        179.8642             -200               0             -200               0
1.75248               -0.5662627       -27.56056        -44.58481        175.9859             -200               0             -200               0
1.75908               -0.5833063       -27.85512        -44.42134        172.1472             -200               0             -200               0
1.76568               -0.6008762       -28.15476        -44.25958        168.3492             -200               0             -200               0
1.77228               -0.6190039       -28.45967        -44.09869        164.5924             -200               0             -200               0
1.77888               -0.6377229       -28.77005         -43.9378        160.8769             -200               0             -200               0
1.78548                 -0.65707       -29.08609        -43.77603        157.2021             -200               0             -200               0
1.79208               -0.6770861       -29.40796         -43.6125        153.5668             -200               0             -200               0
1.79868                -0.697816       -29.73586        -43.44633         149.969             -200               0             -200               0
1.80528               -0.7193029       -30.06993        -43.27669        146.4063             -200               0             -200               0
1.81188                -0.741599       -30.41032        -43.10278        142.8753             -200               0             -200               0
1.81848                -0.764754       -30.75718        -42.92383        139.3721             -200               0             -200               0
1.82508                -0.788822       -31.11062        -42.73918        135.8921             -200               0             -200               0
1.83168               -0.8138574       -31.47075        -42.54824        132.4301             -200               0             -200               0
1.83828               -0.8399185       -31.83767         -42.3505        128.9806             -200               0             -200               0
1.84488               -0.8670613       -32.21145        -42.14559        125.5376             -200               0             -200               0
1.85149                -0.895346       -32.59216        -41.93325        122.0947             -200               0             -200               0
