! TOUCHSTONE file generated by CST MICROWAVE STUDIO
! Date and time: Tue Mar 18 00:01:49 2025
! Project name: oblique.cst
! Parameters = {Tilt=30; Fracture=1; B=12.5; D=160; F=25; Feed=2.85625; L=100; M=50; R=0.384908; S=2; Theta=180; length=57.125; wave=114.25}
! Header version: 2024
! Port assignment regex: !\s*Touchstone port\s*([0-9]+)\s*=\s*(CST MWS port|CST DES external port|CST DES block port)\s*(.+)\s* \(\"(.*)\"\)(\s*mode\s*([0-9]+))?.*
! Touchstone port assignment:
! Touchstone port 1 = CST MWS port 1 ("")
! Touchstone port 2 = CST MWS port 2 ("")
# GHz S DB R 50
1                     -0.0192002       -9.814037         -70.3617        135.1466             -200               0             -200               0
1.0076               -0.02016125       -9.915416        -70.34402        130.0391             -200               0             -200               0
1.01521              -0.02113064       -10.01736        -70.34408        125.0236             -200               0             -200               0
1.02281              -0.02210335       -10.11991        -70.36189         120.107             -200               0             -200               0
1.03042              -0.02307723        -10.2231        -70.39742        115.2976             -200               0             -200               0
1.03802              -0.02404571       -10.32699        -70.45063        110.6044             -200               0             -200               0
1.04563              -0.02500898       -10.43162        -70.52135        106.0381             -200               0             -200               0
1.05323              -0.02596268       -10.53704        -70.60935        101.6109             -200               0             -200               0
1.06084              -0.02690664       -10.64332        -70.71421        97.33657             -200               0             -200               0
1.06844              -0.02784103       -10.75052        -70.83529        93.23067             -200               0             -200               0
1.07605              -0.02876802       -10.85871        -70.97164        89.31071             -200               0             -200               0
1.08365              -0.02968926       -10.96793        -71.12193        85.59611             -200               0             -200               0
1.09125              -0.03060834       -11.07825        -71.28428        82.10809             -200               0             -200               0
1.09886              -0.03152953       -11.18974        -71.45612         78.8694             -200               0             -200               0
1.10646               -0.0324586       -11.30244        -71.63406        75.90364             -200               0             -200               0
1.11407              -0.03340146       -11.41641        -71.81364        73.23419             -200               0             -200               0
1.12167              -0.03436775        -11.5317        -71.98918        70.88249             -200               0             -200               0
1.12928              -0.03536302       -11.64834        -72.15364        68.86556             -200               0             -200               0
1.13688               -0.0363957       -11.76636        -72.29862        67.19271             -200               0             -200               0
1.14449              -0.03747434       -11.88581        -72.41447         65.8616             -200               0             -200               0
1.15209              -0.03860917       -12.00669        -72.49076        64.85415             -200               0             -200               0
1.1597               -0.03980763       -12.12902        -72.51704        64.13316             -200               0             -200               0
1.1673               -0.04107994       -12.25282        -72.48386        63.64092             -200               0             -200               0
1.1749               -0.04243326       -12.37807        -72.38398          63.301             -200               0             -200               0
1.18251              -0.04387621       -12.50478        -72.21345        63.02375             -200               0             -200               0
1.19011              -0.04541532       -12.63293        -71.97221        62.71475             -200               0             -200               0
1.19772              -0.04705897       -12.76252        -71.66412        62.28453             -200               0             -200               0
1.20532              -0.04881144       -12.89352         -71.2963        61.65705             -200               0             -200               0
1.21293              -0.05067821       -13.02591        -70.87806        60.77505             -200               0             -200               0
1.22053              -0.05266271       -13.15966        -70.41969        59.60186             -200               0             -200               0
1.22814               -0.0547673       -13.29476        -69.93145        58.11993             -200               0             -200               0
1.23574              -0.05699606       -13.43119         -69.4228        56.32746             -200               0             -200               0
1.24335              -0.05934766       -13.56892        -68.90194        54.23428             -200               0             -200               0
1.25095              -0.06182219       -13.70793        -68.37572        51.85795             -200               0             -200               0
1.25856              -0.06441928       -13.84821        -67.84959        49.22042             -200               0             -200               0
1.26616              -0.06713653       -13.98976         -67.3278        46.34564             -200               0             -200               0
1.27376              -0.06997207       -14.13257        -66.81354        43.25783             -200               0             -200               0
1.28137              -0.07292152       -14.27665        -66.30914        39.98038             -200               0             -200               0
1.28897              -0.07598451         -14.422        -65.81626        36.53525             -200               0             -200               0
1.29658              -0.07915333       -14.56865        -65.33598        32.94262             -200               0             -200               0
1.30418              -0.08242905       -14.71662          -64.869        29.22083             -200               0             -200               0
1.31179              -0.08580436       -14.86596         -64.4157         25.3864             -200               0             -200               0
1.31939              -0.08927836       -15.01671        -63.97621        21.45413             -200               0             -200               0
1.327                -0.09284798       -15.16891         -63.5505        17.43724             -200               0             -200               0
1.3346               -0.09651245       -15.32263        -63.13839        13.34752             -200               0             -200               0
1.34221               -0.1002697       -15.47792        -62.73962        9.195491             -200               0             -200               0
1.34981               -0.1041214       -15.63488        -62.35386        4.990566             -200               0             -200               0
1.35741               -0.1080686       -15.79356        -61.98072       0.7411584             -200               0             -200               0
1.36502               -0.1121138       -15.95406        -61.61978       -3.545185             -200               0             -200               0
1.37262               -0.1162624       -16.11644         -61.2706       -7.861675             -200               0             -200               0
1.38023               -0.1205186        -16.2808        -60.93273       -12.20219             -200               0             -200               0
1.38783               -0.1248904       -16.44722        -60.60569        -16.5612             -200               0             -200               0
1.39544               -0.1293858       -16.61578        -60.28901        -20.9337             -200               0             -200               0
1.40304               -0.1340146       -16.78655         -59.9822       -25.31512             -200               0             -200               0
1.41065               -0.1387894       -16.95961        -59.68477       -29.70132             -200               0             -200               0
1.41825               -0.1437204       -17.13504        -59.39625       -34.08854             -200               0             -200               0
1.42586               -0.1488216       -17.31288        -59.11613       -38.47334             -200               0             -200               0
1.43346               -0.1541087       -17.49321        -58.84392       -42.85259             -200               0             -200               0
1.44106               -0.1595957       -17.67606        -58.57911       -47.22347             -200               0             -200               0
1.44867               -0.1652986       -17.86148        -58.32122        -51.5834             -200               0             -200               0
1.45627               -0.1712327        -18.0495        -58.06972       -55.93009             -200               0             -200               0
1.46388               -0.1774142       -18.24013        -57.82412       -60.26148             -200               0             -200               0
1.47148               -0.1838597        -18.4334        -57.58388       -64.57577             -200               0             -200               0
1.47909               -0.1905839       -18.62931         -57.3485       -68.87144             -200               0             -200               0
1.48669               -0.1976025       -18.82784        -57.11744       -73.14715             -200               0             -200               0
1.4943                -0.2049299         -19.029        -56.89018       -77.40188             -200               0             -200               0
1.5019                -0.2125795       -19.23277        -56.66619       -81.63482             -200               0             -200               0
1.50951               -0.2205645       -19.43912        -56.44494       -85.84547             -200               0             -200               0
1.51711               -0.2288947       -19.64803         -56.2259       -90.03357             -200               0             -200               0
1.52471               -0.2375827       -19.85948        -56.00854       -94.19914             -200               0             -200               0
1.53232               -0.2466353       -20.07343        -55.79233        -98.3425             -200               0             -200               0
1.53992               -0.2560615       -20.28986        -55.57678       -102.4642             -200               0             -200               0
1.54753               -0.2658674       -20.50874        -55.36137       -106.5652             -200               0             -200               0
1.55513               -0.2760575       -20.73005        -55.14564       -110.6466             -200               0             -200               0
1.56274               -0.2866365       -20.95377        -54.92911       -114.7099             -200               0             -200               0
1.57034               -0.2976076        -21.1799        -54.71136       -118.7568             -200               0             -200               0
1.57795               -0.3089717       -21.40843        -54.49197       -122.7892             -200               0             -200               0
1.58555               -0.3207316       -21.63938        -54.27058       -126.8095             -200               0             -200               0
1.59316               -0.3328872       -21.87276        -54.04686         -130.82             -200               0             -200               0
1.60076               -0.3454401        -22.1086         -53.8205       -134.8233             -200               0             -200               0
1.60837               -0.3583898       -22.34695        -53.59127       -138.8223             -200               0             -200               0
1.61597                -0.371738       -22.58786        -53.35896       -142.8199             -200               0             -200               0
1.62357               -0.3854857        -22.8314        -53.12342       -146.8191             -200               0             -200               0
1.63118               -0.3996351       -23.07764        -52.88455       -150.8229             -200               0             -200               0
1.63878               -0.4141905       -23.32668        -52.64231       -154.8344             -200               0             -200               0
1.64639               -0.4291551       -23.57862        -52.39668       -158.8568             -200               0             -200               0
1.65399               -0.4445356       -23.83358        -52.14772       -162.8929             -200               0             -200               0
1.6616                -0.4603414       -24.09167        -51.89553       -166.9456             -200               0             -200               0
1.6692                 -0.476582       -24.35303        -51.64022       -171.0178             -200               0             -200               0
1.67681                -0.493269        -24.6178        -51.38199        -175.112             -200               0             -200               0
1.68441               -0.5104187       -24.88611        -51.12104       -179.2306             -200               0             -200               0
1.69202               -0.5280452       -25.15812        -50.85761        176.6242             -200               0             -200               0
1.69962               -0.5461701       -25.43397        -50.59196        172.4503             -200               0             -200               0
1.70722                -0.564815       -25.71382        -50.32438         168.246             -200               0             -200               0
1.71483               -0.5840051        -25.9978        -50.05517        164.0098             -200               0             -200               0
1.72243               -0.6037654       -26.28606        -49.78464        159.7404             -200               0             -200               0
1.73004               -0.6241278       -26.57874        -49.51312        155.4367             -200               0             -200               0
1.73764                -0.645121       -26.87597        -49.24093        151.0978             -200               0             -200               0
1.74525               -0.6667799       -27.17787        -48.96839        146.7232             -200               0             -200               0
1.75285               -0.6891391       -27.48457        -48.69583        142.3123             -200               0             -200               0
1.76046               -0.7122362       -27.79617        -48.42355        137.8649             -200               0             -200               0
1.76806               -0.7361104       -28.11277        -48.15186         133.381             -200               0             -200               0
1.77567               -0.7608002       -28.43445        -47.88106        128.8605             -200               0             -200               0
1.78327               -0.7863466       -28.76131        -47.61143        124.3038             -200               0             -200               0
1.79087               -0.8127913       -29.09339        -47.34323        119.7112             -200               0             -200               0
1.79848               -0.8401764       -29.43078        -47.07673        115.0831             -200               0             -200               0
1.80608               -0.8685444       -29.77352        -46.81215          110.42             -200               0             -200               0
1.81369               -0.8979381       -30.12167        -46.54974        105.7227             -200               0             -200               0
1.82129               -0.9284006       -30.47527         -46.2897        100.9917             -200               0             -200               0
1.8289                -0.9599753       -30.83436        -46.03221        96.22789             -200               0             -200               0
1.8365                -0.9927054       -31.19898        -45.77748        91.43201             -200               0             -200               0
1.84411                -1.026634       -31.56918        -45.52566        86.60491             -200               0             -200               0
1.85171                -1.061807         -31.945        -45.27691        81.74744             -200               0             -200               0
1.85932                -1.098265        -32.3265        -45.03136         76.8605             -200               0             -200               0
1.86692                -1.136056       -32.71374        -44.78915        71.94496             -200               0             -200               0
1.87452                -1.175225       -33.10677         -44.5504        67.00172             -200               0             -200               0
1.88213                -1.215819       -33.50569         -44.3152        62.03169             -200               0             -200               0
1.88973                -1.257888        -33.9106        -44.08366        57.03575             -200               0             -200               0
1.89734                -1.301482       -34.32159        -43.85585        52.01479             -200               0             -200               0
1.90494                -1.346655       -34.73879        -43.63187        46.96969             -200               0             -200               0
1.91255                -1.393465       -35.16235        -43.41177        41.90131             -200               0             -200               0
1.92015                -1.441973       -35.59241        -43.19563        36.81048             -200               0             -200               0
1.92776                -1.492247       -36.02916        -42.98348        31.69803             -200               0             -200               0
1.93536                -1.544354       -36.47277        -42.77538        26.56478             -200               0             -200               0
1.94297                -1.598374       -36.92346        -42.57138         21.4115             -200               0             -200               0
1.95057                 -1.65439       -37.38144         -42.3715        16.23897             -200               0             -200               0
1.95817                -1.712496       -37.84695        -42.17578        11.04792             -200               0             -200               0
1.96578                -1.772788       -38.32021        -41.98426        5.839074             -200               0             -200               0
1.97338                 -1.83538       -38.80146        -41.79694       0.6131334             -200               0             -200               0
1.98099                -1.900386       -39.29096        -41.61385       -4.629224             -200               0             -200               0
