! TOUCHSTONE file generated by CST MICROWAVE STUDIO
! Date and time: Tue Mar 18 00:02:08 2025
! Project name: oblique.cst
! Parameters = {Tilt=40; Fracture=1; B=10; D=160; F=5; Feed=2.85625; L=100; M=30; R=0.384908; S=2; Theta=180; length=57.125; wave=114.25}
! Header version: 2024
! Port assignment regex: !\s*Touchstone port\s*([0-9]+)\s*=\s*(CST MWS port|CST DES external port|CST DES block port)\s*(.+)\s* \(\"(.*)\"\)(\s*mode\s*([0-9]+))?.*
! Touchstone port assignment:
! Touchstone port 1 = CST MWS port 1 ("")
! Touchstone port 2 = CST MWS port 2 ("")
# GHz S DB R 50
1                      -0.020038       -9.784735        -68.32303       -165.4281             -200               0             -200               0
1.00658              -0.02092292       -9.872804        -68.18712       -169.8954             -200               0             -200               0
1.01316              -0.02184615       -9.961198         -68.0773        -174.289             -200               0             -200               0
1.01974              -0.02280098       -10.04991        -67.99308       -178.5977             -200               0             -200               0
1.02632              -0.02378201       -10.13892        -67.93397        177.1906             -200               0             -200               0
1.03289              -0.02478163       -10.22826        -67.89946        173.0893             -200               0             -200               0
1.03947              -0.02579341       -10.31792        -67.88892        169.1131             -200               0             -200               0
1.04605              -0.02681086       -10.40793        -67.90162        165.2784             -200               0             -200               0
1.05263              -0.02782803       -10.49832        -67.93657        161.6032             -200               0             -200               0
1.05921              -0.02883847       -10.58912        -67.99248        158.1077             -200               0             -200               0
1.06579              -0.02983793       -10.68038        -68.06766        154.8137             -200               0             -200               0
1.07237              -0.03082206       -10.77215        -68.15982         151.745             -200               0             -200               0
1.07895              -0.03178934       -10.86448        -68.26594        148.9265             -200               0             -200               0
1.08553              -0.03273623       -10.95743        -68.38208         146.384             -200               0             -200               0
1.09211              -0.03366353       -11.05107        -68.50317        144.1425             -200               0             -200               0
1.09868              -0.03457268       -11.14544        -68.62279        142.2243             -200               0             -200               0
1.10526              -0.03546453       -11.24061         -68.7331        140.6463             -200               0             -200               0
1.11184              -0.03634353       -11.33665        -68.82484        139.4157             -200               0             -200               0
1.11842              -0.03721434       -11.43359        -68.88755        138.5264             -200               0             -200               0
1.125                -0.03808212        -11.5315        -68.91019        137.9542             -200               0             -200               0
1.13158              -0.03895491       -11.63042        -68.88199        137.6541             -200               0             -200               0
1.13816              -0.03983924       -11.73037        -68.79373        137.5593             -200               0             -200               0
1.14474              -0.04074359        -11.8314        -68.63892        137.5851             -200               0             -200               0
1.15132              -0.04167552       -11.93352        -68.41488        137.6359             -200               0             -200               0
1.15789                -0.042646       -12.03674        -68.12315        137.6146             -200               0             -200               0
1.16447              -0.04366161       -12.14107        -67.76919        137.4335             -200               0             -200               0
1.17105              -0.04473131        -12.2465        -67.36149        137.0216             -200               0             -200               0
1.17763              -0.04586368       -12.35303        -66.91032        136.3292             -200               0             -200               0
1.18421              -0.04706357       -12.46062        -66.42652         135.328             -200               0             -200               0
1.19079              -0.04833904       -12.56925        -65.92044        134.0084             -200               0             -200               0
1.19737              -0.04969424       -12.67889        -65.40137        132.3755             -200               0             -200               0
1.20395              -0.05113395        -12.7895        -64.87717        130.4447             -200               0             -200               0
1.21053              -0.05265941       -12.90105        -64.35426        128.2379             -200               0             -200               0
1.21711              -0.05427242       -13.01349        -63.83766          125.78             -200               0             -200               0
1.22368              -0.05597278       -13.12679        -63.33119        123.0973             -200               0             -200               0
1.23026              -0.05775796       -13.24091         -62.8377        120.2156             -200               0             -200               0
1.23684              -0.05962602       -13.35581         -62.3592        117.1594             -200               0             -200               0
1.24342              -0.06157263       -13.47147        -61.89708        113.9516             -200               0             -200               0
1.25                 -0.06359218       -13.58787        -61.45224        110.6133             -200               0             -200               0
1.25658              -0.06567879       -13.70499        -61.02521        107.1637             -200               0             -200               0
1.26316              -0.06782525       -13.82284        -60.61622          103.62             -200               0             -200               0
1.26974              -0.07002434        -13.9414         -60.2253         99.9981             -200               0             -200               0
1.27632              -0.07226814       -14.06071        -59.85232         96.3121             -200               0             -200               0
1.28289              -0.07455016       -14.18078        -59.49702        92.57497             -200               0             -200               0
1.28947              -0.07686212       -14.30165        -59.15907         88.7985             -200               0             -200               0
1.29605              -0.07919718       -14.42336        -58.83803        84.99349             -200               0             -200               0
1.30263              -0.08154885       -14.54598        -58.53345         81.1699             -200               0             -200               0
1.30921              -0.08391262       -14.66956        -58.24481        77.33697             -200               0             -200               0
1.31579              -0.08628434       -14.79417        -57.97156        73.50331             -200               0             -200               0
1.32237              -0.08866103        -14.9199         -57.7131          69.677             -200               0             -200               0
1.32895              -0.09104217       -15.04682         -57.4688        65.86565             -200               0             -200               0
1.33553              -0.09342698       -15.17503        -57.23799        62.07647             -200               0             -200               0
1.34211              -0.09581916        -15.3046        -57.01997        58.31632             -200               0             -200               0
1.34868              -0.09822105       -15.43563        -56.81397        54.59171             -200               0             -200               0
1.35526               -0.1006384       -15.56819        -56.61918        50.90881             -200               0             -200               0
1.36184               -0.1030774       -15.70238        -56.43473        47.27349             -200               0             -200               0
1.36842               -0.1055466       -15.83826         -56.2597        43.69123             -200               0             -200               0
1.375                 -0.1080547       -15.97591        -56.09307        40.16713             -200               0             -200               0
1.38158                -0.110614       -16.11539        -55.93379        36.70585             -200               0             -200               0
1.38816               -0.1132336       -16.25675        -55.78069        33.31152             -200               0             -200               0
1.39474               -0.1159264       -16.40003        -55.63254        29.98767             -200               0             -200               0
1.40132                -0.118704       -16.54528        -55.48805        26.73711             -200               0             -200               0
1.40789                -0.121579       -16.69251        -55.34584        23.56183             -200               0             -200               0
1.41447               -0.1245638       -16.84174        -55.20447        20.46286             -200               0             -200               0
1.42105               -0.1276694       -16.99298        -55.06246        17.44017             -200               0             -200               0
1.42763               -0.1309062       -17.14622        -54.91831        14.49256             -200               0             -200               0
1.43421               -0.1342857       -17.30145        -54.77049        11.61752             -200               0             -200               0
1.44079               -0.1378141       -17.45866        -54.61754         8.81121             -200               0             -200               0
1.44737               -0.1415005       -17.61783        -54.45803        6.068415             -200               0             -200               0
1.45395               -0.1453512       -17.77893        -54.29065        3.382561             -200               0             -200               0
1.46053                -0.149369       -17.94195        -54.11421       0.7457977             -200               0             -200               0
1.46711               -0.1535596       -18.10686        -53.92774       -1.850854             -200               0             -200               0
1.47368               -0.1579217       -18.27363        -53.73044       -4.417304             -200               0             -200               0
1.48026               -0.1624571       -18.44226        -53.52176       -6.964129             -200               0             -200               0
1.48684               -0.1671649       -18.61274        -53.30142       -9.502282             -200               0             -200               0
1.49342               -0.1720415       -18.78506        -53.06939       -12.04276             -200               0             -200               0
1.5                   -0.1770845       -18.95924        -52.82589       -14.59631             -200               0             -200               0
1.50658               -0.1822907       -19.13531        -52.57141       -17.17306             -200               0             -200               0
1.51316               -0.1876553       -19.31328        -52.30662       -19.78234             -200               0             -200               0
1.51974               -0.1931739       -19.49321         -52.0324       -22.43239             -200               0             -200               0
1.52632               -0.1988431       -19.67517        -51.74976       -25.13023             -200               0             -200               0
1.53289               -0.2046587       -19.85921        -51.45983       -27.88158             -200               0             -200               0
1.53947               -0.2106182       -20.04543        -51.16379       -30.69081             -200               0             -200               0
1.54605               -0.2167215       -20.23392        -50.86287       -33.56097             -200               0             -200               0
1.55263               -0.2229669       -20.42479        -50.55826       -36.49387             -200               0             -200               0
1.55921               -0.2293577       -20.61816        -50.25116       -39.49012             -200               0             -200               0
1.56579               -0.2358973       -20.81416        -49.94267       -42.54934             -200               0             -200               0
1.57237                -0.242591        -21.0129        -49.63385       -45.67022             -200               0             -200               0
1.57895               -0.2494498       -21.21454        -49.32567       -48.85067             -200               0             -200               0
1.58553               -0.2564824       -21.41921          -49.019       -52.08798             -200               0             -200               0
1.59211               -0.2637018       -21.62704         -48.7146       -55.37894             -200               0             -200               0
1.59868               -0.2711265       -21.83817        -48.41315       -58.71989             -200               0             -200               0
1.60526                -0.278772       -22.05273        -48.11523       -62.10694             -200               0             -200               0
1.61184               -0.2866592       -22.27083        -47.82133       -65.53593             -200               0             -200               0
1.61842               -0.2948112       -22.49261        -47.53182       -69.00261             -200               0             -200               0
1.625                  -0.303251       -22.71815        -47.24701       -72.50263             -200               0             -200               0
1.63158               -0.3120066       -22.94754        -46.96713       -76.03166             -200               0             -200               0
1.63816               -0.3211024       -23.18086        -46.69231       -79.58538             -200               0             -200               0
1.64474               -0.3305683       -23.41818        -46.42263       -83.15955             -200               0             -200               0
1.65132               -0.3404319       -23.65954        -46.15809       -86.75003             -200               0             -200               0
1.65789               -0.3507206       -23.90498        -45.89863       -90.35284             -200               0             -200               0
1.66447               -0.3614645       -24.15451        -45.64412       -93.96414             -200               0             -200               0
1.67105               -0.3726903       -24.40813        -45.39438       -97.58028             -200               0             -200               0
1.67763               -0.3844248       -24.66585        -45.14919       -101.1978             -200               0             -200               0
1.68421               -0.3966946       -24.92765        -44.90826       -104.8135             -200               0             -200               0
1.69079               -0.4095234        -25.1935        -44.67126       -108.4245             -200               0             -200               0
1.69737               -0.4229343       -25.46338        -44.43782        -112.028             -200               0             -200               0
1.70395               -0.4369472       -25.73723        -44.20753       -115.6217             -200               0             -200               0
1.71053               -0.4515835       -26.01503        -43.97994       -119.2035             -200               0             -200               0
1.71711               -0.4668582       -26.29674        -43.75458       -122.7717             -200               0             -200               0
1.72368               -0.4827878       -26.58233        -43.53092       -126.3249             -200               0             -200               0
1.73026               -0.4993863       -26.87178        -43.30845       -129.8622             -200               0             -200               0
1.73684               -0.5166657       -27.16507        -43.08662        -133.383             -200               0             -200               0
1.74342               -0.5346374        -27.4622        -42.86488       -136.8872             -200               0             -200               0
1.75                  -0.5533114       -27.76317        -42.64266       -140.3751             -200               0             -200               0
1.75658                -0.572697       -28.06802        -42.41941       -143.8475             -200               0             -200               0
1.76316               -0.5928041       -28.37679         -42.1946       -147.3056             -200               0             -200               0
1.76974               -0.6136416       -28.68955         -41.9677       -150.7509             -200               0             -200               0
1.77632               -0.6352216       -29.00638        -41.73823       -154.1857             -200               0             -200               0
1.78289               -0.6575559       -29.32738        -41.50573       -157.6123             -200               0             -200               0
1.78947               -0.6806577       -29.65269         -41.2698       -161.0337             -200               0             -200               0
1.79605               -0.7045445       -29.98244         -41.0301       -164.4529             -200               0             -200               0
1.80263               -0.7292343       -30.31678        -40.78634       -167.8735             -200               0             -200               0
1.80921                 -0.75475       -30.65592         -40.5383       -171.2991             -200               0             -200               0
1.81579               -0.7811197       -31.00002        -40.28583       -174.7336             -200               0             -200               0
1.82237                -0.808374       -31.34931        -40.02885       -178.1809             -200               0             -200               0
1.82895                -0.836549       -31.70399        -39.76737         178.355             -200               0             -200               0
1.83553               -0.8656846       -32.06427        -39.50145        174.8704             -200               0             -200               0
1.84211               -0.8958291       -32.43038        -39.23123        171.3612             -200               0             -200               0
1.84868               -0.9270334       -32.80254        -38.95691         167.824             -200               0             -200               0
