! TOUCHSTONE file generated by CST MICROWAVE STUDIO
! Date and time: Tue Mar 18 00:01:39 2025
! Project name: oblique.cst
! Parameters = {Tilt=30; Fracture=1; B=12.5; D=160; F=15; Feed=2.85625; L=100; M=50; R=0.384908; S=2; Theta=90; length=57.125; wave=114.25}
! Header version: 2024
! Port assignment regex: !\s*Touchstone port\s*([0-9]+)\s*=\s*(CST MWS port|CST DES external port|CST DES block port)\s*(.+)\s* \(\"(.*)\"\)(\s*mode\s*([0-9]+))?.*
! Touchstone port assignment:
! Touchstone port 1 = CST MWS port 1 ("")
! Touchstone port 2 = CST MWS port 2 ("")
# GHz S DB R 50
1                    -0.02055382       -9.801026         -68.1485        159.3922             -200               0             -200               0
1.00662              -0.02130027       -9.889157        -68.10017        153.7719             -200               0             -200               0
1.01325              -0.02205262       -9.977834        -68.08242         148.251             -200               0             -200               0
1.01987              -0.02281143       -10.06708        -68.09556        142.8374             -200               0             -200               0
1.02649              -0.02357562       -10.15693        -68.14002        137.5411             -200               0             -200               0
1.03311              -0.02434656        -10.2474        -68.21639        132.3742             -200               0             -200               0
1.03974              -0.02512418       -10.33853         -68.3253        127.3518             -200               0             -200               0
1.04636              -0.02590986       -10.43034        -68.46745        122.4921             -200               0             -200               0
1.05298              -0.02670494       -10.52287        -68.64357        117.8173             -200               0             -200               0
1.0596               -0.02751195       -10.61612        -68.85428        113.3545             -200               0             -200               0
1.06623               -0.0283338       -10.71015        -69.09998        109.1368             -200               0             -200               0
1.07285              -0.02917358       -10.80496        -69.38068        105.2044             -200               0             -200               0
1.07947              -0.03003331       -10.90057        -69.69565        101.6061             -200               0             -200               0
1.08609              -0.03091826       -10.99701        -70.04293        98.40073             -200               0             -200               0
1.09272              -0.03183163       -11.09429        -70.41867        95.65765             -200               0             -200               0
1.09934              -0.03277726       -11.19242        -70.81609        93.45687             -200               0             -200               0
1.10596              -0.03375863        -11.2914        -71.22415        91.88566             -200               0             -200               0
1.11258               -0.0347797       -11.39125        -71.62589        91.03048             -200               0             -200               0
1.11921              -0.03584516       -11.49196        -71.99701        90.96048             -200               0             -200               0
1.12583              -0.03695707       -11.59353        -72.30533        91.70052             -200               0             -200               0
1.13245              -0.03811975       -11.69596        -72.51295        93.19631             -200               0             -200               0
1.13907              -0.03933496       -11.79924        -72.58229        95.28445             -200               0             -200               0
1.1457               -0.04060507       -11.90337        -72.48575         97.6904             -200               0             -200               0
1.15232              -0.04193233       -12.00833        -72.21483        100.0721             -200               0             -200               0
1.15894              -0.04331762       -12.11412        -71.78328        102.0983             -200               0             -200               0
1.16556              -0.04476068       -12.22073        -71.22203        103.5205             -200               0             -200               0
1.17219              -0.04626232       -12.32814        -70.56933        104.2049             -200               0             -200               0
1.17881               -0.0478222       -12.43635        -69.86183        104.1211             -200               0             -200               0
1.18543              -0.04943895       -12.54536        -69.12956        103.3089             -200               0             -200               0
1.19205              -0.05111041       -12.65516        -68.39462        101.8446             -200               0             -200               0
1.19868              -0.05283655       -12.76576        -67.67208         99.8166             -200               0             -200               0
1.2053                -0.0546135       -12.87716        -66.97151         97.3119             -200               0             -200               0
1.21192              -0.05643933       -12.98936        -66.29858        94.40892             -200               0             -200               0
1.21854              -0.05831236       -13.10239         -65.6563        91.17555             -200               0             -200               0
1.22517              -0.06022874       -13.21626        -65.04596        87.66918             -200               0             -200               0
1.23179              -0.06218656       -13.33099        -64.46776         83.9378             -200               0             -200               0
1.23841              -0.06418355       -13.44661        -63.92125        80.02136             -200               0             -200               0
1.24503              -0.06621793       -13.56315        -63.40556        75.95317             -200               0             -200               0
1.25166              -0.06828762       -13.68065        -62.91966        71.76107             -200               0             -200               0
1.25828              -0.07039208       -13.79915        -62.46239        67.46851             -200               0             -200               0
1.2649               -0.07253202       -13.91869        -62.03258        63.09537             -200               0             -200               0
1.27152              -0.07470599       -14.03932         -61.6291        58.65871             -200               0             -200               0
1.27815              -0.07691623       -14.16108        -61.25084        54.17328             -200               0             -200               0
1.28477              -0.07916364       -14.28403        -60.89674        49.65197             -200               0             -200               0
1.29139              -0.08145181        -14.4082        -60.56582        45.10624             -200               0             -200               0
1.29801              -0.08378373       -14.53366        -60.25714        40.54636             -200               0             -200               0
1.30464              -0.08616398       -14.66044        -59.96982        35.98166             -200               0             -200               0
1.31126              -0.08859736        -14.7886        -59.70304        31.42078             -200               0             -200               0
1.31788              -0.09108948       -14.91817        -59.45599        26.87177             -200               0             -200               0
1.3245               -0.09364696        -15.0492        -59.22792        22.34227             -200               0             -200               0
1.33113               -0.0962757       -15.18171        -59.01809         17.8396             -200               0             -200               0
1.33775              -0.09898451       -15.31575        -58.82578        13.37089             -200               0             -200               0
1.34437               -0.1017794       -15.45134        -58.65026        8.943084             -200               0             -200               0
1.35099               -0.1046689       -15.58849        -58.49078        4.563086             -200               0             -200               0
1.35762               -0.1076609       -15.72722         -58.3466       0.2377539             -200               0             -200               0
1.36424               -0.1107624       -15.86755         -58.2169        -4.02606             -200               0             -200               0
1.37086               -0.1139802       -16.00947        -58.10085       -8.221491             -200               0             -200               0
1.37748               -0.1173226         -16.153        -57.99751       -12.34167             -200               0             -200               0
1.38411               -0.1207966       -16.29813        -57.90589       -16.37974             -200               0             -200               0
1.39073               -0.1244063       -16.44486        -57.82487       -20.32893             -200               0             -200               0
1.39735               -0.1281574       -16.59317        -57.75323       -24.18263             -200               0             -200               0
1.40397               -0.1320557       -16.74306        -57.68959       -27.93445             -200               0             -200               0
1.4106                -0.1361043       -16.89452        -57.63244       -31.57849             -200               0             -200               0
1.41722               -0.1403065       -17.04754         -57.5801       -35.10941             -200               0             -200               0
1.42384               -0.1446639       -17.20211        -57.53069       -38.52275             -200               0             -200               0
1.43046                 -0.14918       -17.35823         -57.4822       -41.81515             -200               0             -200               0
1.43709               -0.1538533        -17.5159        -57.43243       -44.98473             -200               0             -200               0
1.44371               -0.1586862        -17.6751        -57.37902       -48.03136             -200               0             -200               0
1.45033               -0.1636771       -17.83586        -57.31954       -50.95703             -200               0             -200               0
1.45695               -0.1688266       -17.99818        -57.25147       -53.76615             -200               0             -200               0
1.46358               -0.1741334       -18.16208        -57.17232        -56.4658             -200               0             -200               0
1.4702                -0.1795968       -18.32759        -57.07971       -59.06589             -200               0             -200               0
1.47682               -0.1852157       -18.49473        -56.97143        -61.5791             -200               0             -200               0
1.48344               -0.1909893       -18.66354        -56.84559       -64.02075             -200               0             -200               0
1.49007               -0.1969173       -18.83406        -56.70067        -66.4084             -200               0             -200               0
1.49669               -0.2030015       -19.00635        -56.53564       -68.76132             -200               0             -200               0
1.50331               -0.2092404       -19.18046        -56.34997       -71.09973             -200               0             -200               0
1.50993               -0.2156381       -19.35645         -56.1437       -73.44409             -200               0             -200               0
1.51656               -0.2221962       -19.53438        -55.91742       -75.81416             -200               0             -200               0
1.52318               -0.2289188       -19.71432         -55.6722       -78.22838             -200               0             -200               0
1.5298                -0.2358101       -19.89635        -55.40954       -80.70312             -200               0             -200               0
1.53642                -0.242877       -20.08054        -55.13128        -83.2523             -200               0             -200               0
1.54305               -0.2501266       -20.26695        -54.83949       -85.88708             -200               0             -200               0
1.54967               -0.2575668       -20.45567        -54.53638       -88.61579             -200               0             -200               0
1.55629               -0.2652082       -20.64675        -54.22422       -91.44403             -200               0             -200               0
1.56291               -0.2730603       -20.84027        -53.90521       -94.37483             -200               0             -200               0
1.56954               -0.2811364       -21.03628        -53.58148       -97.40897             -200               0             -200               0
1.57616               -0.2894463       -21.23486        -53.25501       -100.5453             -200               0             -200               0
1.58278               -0.2980052       -21.43604        -52.92762       -103.7811             -200               0             -200               0
1.5894                -0.3068259       -21.63987        -52.60092       -107.1125             -200               0             -200               0
1.59603               -0.3159229        -21.8464        -52.27635       -110.5344             -200               0             -200               0
1.60265               -0.3253103       -22.05565        -51.95514       -114.0413             -200               0             -200               0
1.60927               -0.3350016       -22.26766        -51.63836       -117.6271             -200               0             -200               0
1.61589               -0.3450136       -22.48244        -51.32689       -121.2855             -200               0             -200               0
1.62252               -0.3553577       -22.70002        -51.02146         -125.01             -200               0             -200               0
1.62914               -0.3660473       -22.92038        -50.72267       -128.7941             -200               0             -200               0
1.63576               -0.3770953       -23.14356        -50.43098       -132.6315             -200               0             -200               0
1.64238               -0.3885155       -23.36953        -50.14674       -136.5158             -200               0             -200               0
1.64901               -0.4003154       -23.59832        -49.87019       -140.4409             -200               0             -200               0
1.65563               -0.4125073       -23.82991         -49.6015       -144.4009             -200               0             -200               0
1.66225               -0.4250999       -24.06432        -49.34075       -148.3901             -200               0             -200               0
1.66887               -0.4381008       -24.30153        -49.08794        -152.403             -200               0             -200               0
1.6755                -0.4515181       -24.54157        -48.84302       -156.4344             -200               0             -200               0
1.68212                -0.465358       -24.78445        -48.60586       -160.4793             -200               0             -200               0
1.68874               -0.4796251       -25.03019         -48.3763       -164.5329             -200               0             -200               0
1.69536               -0.4943254       -25.27881        -48.15411       -168.5908             -200               0             -200               0
1.70199               -0.5094631       -25.53037        -47.93903       -172.6485             -200               0             -200               0
1.70861               -0.5250431        -25.7849        -47.73075        -176.702             -200               0             -200               0
1.71523               -0.5410694       -26.04247         -47.5289        179.2524             -200               0             -200               0
1.72185               -0.5575476       -26.30316         -47.3331        175.2184             -200               0             -200               0
1.72848               -0.5744833       -26.56704         -47.1429        171.1992             -200               0             -200               0
1.7351                 -0.591882       -26.83422        -46.95784        167.1979             -200               0             -200               0
1.74172               -0.6097517       -27.10482         -46.7774        163.2172             -200               0             -200               0
1.74834               -0.6281037       -27.37894        -46.60104        159.2595             -200               0             -200               0
1.75497                -0.646947       -27.65673        -46.42817         155.327             -200               0             -200               0
1.76159               -0.6662959       -27.93833        -46.25819        151.4214             -200               0             -200               0
1.76821               -0.6861652       -28.22388        -46.09046         147.544             -200               0             -200               0
1.77483               -0.7065718       -28.51356        -45.92432        143.6958             -200               0             -200               0
1.78146               -0.7275391       -28.80751        -45.75908        139.8773             -200               0             -200               0
1.78808               -0.7490878       -29.10592        -45.59406        136.0884             -200               0             -200               0
1.7947                -0.7712445       -29.40893        -45.42856        132.3289             -200               0             -200               0
1.80132               -0.7940393       -29.71673         -45.2619        128.5976             -200               0             -200               0
1.80795               -0.8175034       -30.02949        -45.09338        124.8931             -200               0             -200               0
1.81457               -0.8416707       -30.34736        -44.92235        121.2134             -200               0             -200               0
1.82119               -0.8665799       -30.67049        -44.74819        117.5558             -200               0             -200               0
1.82781               -0.8922703       -30.99903        -44.57032        113.9175             -200               0             -200               0
1.83444               -0.9187842       -31.33314         -44.3882        110.2949             -200               0             -200               0
1.84106               -0.9461669       -31.67293        -44.20138        106.6841             -200               0             -200               0
1.84768               -0.9744633       -32.01852        -44.00946        103.0808             -200               0             -200               0
1.8543                 -1.003723       -32.37003        -43.81215        99.48048             -200               0             -200               0
