! TOUCHSTONE file generated by CST MICROWAVE STUDIO
! Date and time: Tue Mar 18 00:03:01 2025
! Project name: oblique.cst
! Parameters = {Tilt=40; Fracture=1; B=12.5; D=160; F=25; Feed=2.85625; L=100; M=10; R=0.384908; S=1; Theta=270; length=57.125; wave=114.25}
! Header version: 2024
! Port assignment regex: !\s*Touchstone port\s*([0-9]+)\s*=\s*(CST MWS port|CST DES external port|CST DES block port)\s*(.+)\s* \(\"(.*)\"\)(\s*mode\s*([0-9]+))?.*
! Touchstone port assignment:
! Touchstone port 1 = CST MWS port 1 ("")
! Touchstone port 2 = CST MWS port 2 ("")
# GHz S DB R 50
1                    -0.02096341       -9.854602        -66.89139       -175.6411             -200               0             -200               0
1.00662              -0.02147407       -9.942777        -67.05619        179.4492             -200               0             -200               0
1.01325               -0.0219761       -10.03174        -67.26399        174.7619             -200               0             -200               0
1.01987              -0.02247524       -10.12152         -67.5165        170.3334             -200               0             -200               0
1.02649               -0.0229779       -10.21217        -67.81533        166.2103             -200               0             -200               0
1.03311              -0.02349062        -10.3037        -68.16165        162.4518             -200               0             -200               0
1.03974              -0.02401906       -10.39613        -68.55568        159.1337             -200               0             -200               0
1.04636              -0.02457269        -10.4895        -68.99581        156.3517             -200               0             -200               0
1.05298              -0.02515812       -10.58379        -69.47702        154.2256             -200               0             -200               0
1.0596               -0.02578152       -10.67901        -69.98853        152.8998             -200               0             -200               0
1.06623              -0.02645035       -10.77516        -70.51018        152.5373             -200               0             -200               0
1.07285               -0.0271697       -10.87221        -71.00797        153.2963             -200               0             -200               0
1.07947              -0.02794791       -10.97016        -71.43023        155.2779             -200               0             -200               0
1.08609              -0.02878938       -11.06898        -71.70916        158.4389             -200               0             -200               0
1.09272              -0.02969645       -11.16864        -71.77399        162.4999             -200               0             -200               0
1.09934               -0.0306732       -11.26911        -71.57658        166.9308             -200               0             -200               0
1.10596              -0.03172334       -11.37035        -71.11504        171.0849             -200               0             -200               0
1.11258              -0.03284528       -11.47234         -70.4347        174.4184             -200               0             -200               0
1.11921              -0.03403953       -11.57504        -69.60538        176.6347             -200               0             -200               0
1.12583              -0.03530609       -11.67841        -68.69532        177.6779             -200               0             -200               0
1.13245              -0.03664126       -11.78244        -67.75704         177.643             -200               0             -200               0
1.13907              -0.03804158        -11.8871        -66.82531        176.6873             -200               0             -200               0
1.1457               -0.03950469       -11.99236        -65.92068        174.9754             -200               0             -200               0
1.15232              -0.04102531       -12.09822        -65.05407        172.6543             -200               0             -200               0
1.15894              -0.04259681       -12.20467        -64.23037        169.8466             -200               0             -200               0
1.16556              -0.04421563       -12.31172        -63.45097        166.6513             -200               0             -200               0
1.17219              -0.04587349       -12.41936        -62.71529         163.147             -200               0             -200               0
1.17881              -0.04756748       -12.52763        -62.02174        159.3958             -200               0             -200               0
1.18543              -0.04928978       -12.63653        -61.36823        155.4472             -200               0             -200               0
1.19205              -0.05103666       -12.74612        -60.75251        151.3408             -200               0             -200               0
1.19868              -0.05280104       -12.85642        -60.17233        147.1086             -200               0             -200               0
1.2053               -0.05458284       -12.96748        -59.62554        142.7763             -200               0             -200               0
1.21192              -0.05637662       -13.07935        -59.11011        138.3655             -200               0             -200               0
1.21854              -0.05818119       -13.19209        -58.62419         133.894             -200               0             -200               0
1.22517              -0.05999598       -13.30575        -58.16604        129.3768             -200               0             -200               0
1.23179              -0.06182087        -13.4204        -57.73409        124.8267             -200               0             -200               0
1.23841              -0.06365799       -13.53609        -57.32689        120.2548             -200               0             -200               0
1.24503              -0.06551031       -13.65289        -56.94313        115.6707             -200               0             -200               0
1.25166              -0.06737955       -13.77085        -56.58157        111.0832             -200               0             -200               0
1.25828              -0.06927242       -13.89002        -56.24108           106.5             -200               0             -200               0
1.2649               -0.07119607       -14.01047         -55.9206         101.928             -200               0             -200               0
1.27152               -0.0731549       -14.13222        -55.61913         97.3738             -200               0             -200               0
1.27815              -0.07515741       -14.25533        -55.33572        92.84345             -200               0             -200               0
1.28477              -0.07721109       -14.37982        -55.06946        88.34264             -200               0             -200               0
1.29139              -0.07932339       -14.50572        -54.81948        83.87679             -200               0             -200               0
1.29801              -0.08150495       -14.63305         -54.5849        79.45107             -200               0             -200               0
1.30464              -0.08376237       -14.76181        -54.36487        75.07047             -200               0             -200               0
1.31126              -0.08610349       -14.89201        -54.15852        70.73981             -200               0             -200               0
1.31788              -0.08853641       -15.02364        -53.96497        66.46373             -200               0             -200               0
1.3245               -0.09106702        -15.1567        -53.78333        62.24673             -200               0             -200               0
1.33113              -0.09370289       -15.29117        -53.61265        58.09312             -200               0             -200               0
1.33775               -0.0964465       -15.42704        -53.45195        54.00698             -200               0             -200               0
1.34437              -0.09930309       -15.56427        -53.30022        49.99217             -200               0             -200               0
1.35099               -0.1022747       -15.70285        -53.15637        46.05221             -200               0             -200               0
1.35762                -0.105362       -15.84276        -53.01925        42.19026             -200               0             -200               0
1.36424               -0.1085688       -15.98397        -52.88766        38.40898             -200               0             -200               0
1.37086               -0.1118904       -16.12646        -52.76032        34.71047             -200               0             -200               0
1.37748               -0.1153256       -16.27023        -52.63589        31.09618             -200               0             -200               0
1.38411               -0.1188716       -16.41525        -52.51299         27.5667             -200               0             -200               0
1.39073                -0.122525       -16.56154        -52.39017        24.12176             -200               0             -200               0
1.39735               -0.1262807        -16.7091        -52.26597        20.76002             -200               0             -200               0
1.40397               -0.1301324       -16.85794        -52.13891        17.47902             -200               0             -200               0
1.4106                -0.1340768       -17.00808        -52.00755        14.27506             -200               0             -200               0
1.41722               -0.1381068       -17.15956        -51.87047        11.14322             -200               0             -200               0
1.42384               -0.1422167       -17.31243        -51.72634        8.077273             -200               0             -200               0
1.43046               -0.1464038       -17.46674        -51.57397        5.069791             -200               0             -200               0
1.43709               -0.1506601       -17.62255         -51.4123        2.112228             -200               0             -200               0
1.44371               -0.1549846       -17.77993        -51.24048      -0.8049173             -200               0             -200               0
1.45033                -0.159374       -17.93898        -51.05784       -3.691885             -200               0             -200               0
1.45695               -0.1638267       -18.09977        -50.86399       -6.559396             -200               0             -200               0
1.46358               -0.1683435       -18.26239        -50.65877       -9.418362             -200               0             -200               0
1.4702                -0.1729235       -18.42696        -50.44224       -12.27959             -200               0             -200               0
1.47682                -0.177573       -18.59357        -50.21476       -15.15346             -200               0             -200               0
1.48344               -0.1822946       -18.76233        -49.97685       -18.04972             -200               0             -200               0
1.49007               -0.1870947       -18.93333        -49.72926       -20.97716             -200               0             -200               0
1.49669               -0.1919811       -19.10669        -49.47289       -23.94354             -200               0             -200               0
1.50331               -0.1969644        -19.2825        -49.20876       -26.95536             -200               0             -200               0
1.50993               -0.2020556       -19.46087        -48.93798       -30.01792             -200               0             -200               0
1.51656               -0.2072649       -19.64187        -48.66172       -33.13518             -200               0             -200               0
1.52318               -0.2126069        -19.8256        -48.38115        -36.3099             -200               0             -200               0
1.5298                -0.2180944       -20.01214        -48.09743       -39.54366             -200               0             -200               0
1.53642               -0.2237434       -20.20154        -47.81169       -42.83699             -200               0             -200               0
1.54305               -0.2295697       -20.39388        -47.52501       -46.18943             -200               0             -200               0
1.54967               -0.2355872        -20.5892        -47.23838       -49.59976             -200               0             -200               0
1.55629               -0.2418123       -20.78756        -46.95272         -53.066             -200               0             -200               0
1.56291               -0.2482592       -20.98898        -46.66886       -56.58563             -200               0             -200               0
1.56954               -0.2549443       -21.19351        -46.38754       -60.15565             -200               0             -200               0
1.57616               -0.2618803       -21.40117        -46.10942       -63.77271             -200               0             -200               0
1.58278               -0.2690813       -21.61198        -45.83504       -67.43319             -200               0             -200               0
1.5894                -0.2765592       -21.82596        -45.56489       -71.13327             -200               0             -200               0
1.59603               -0.2843261       -22.04312        -45.29937       -74.86901             -200               0             -200               0
1.60265               -0.2923926        -22.2635        -45.03877       -78.63639             -200               0             -200               0
1.60927               -0.3007674        -22.4871        -44.78334        -82.4314             -200               0             -200               0
1.61589               -0.3094589       -22.71396        -44.53326       -86.25002             -200               0             -200               0
1.62252               -0.3184752        -22.9441        -44.28862       -90.08829             -200               0             -200               0
1.62914               -0.3278234       -23.17756        -44.04948       -93.94233             -200               0             -200               0
1.63576               -0.3375091        -23.4144        -43.81582       -97.80837             -200               0             -200               0
1.64238                -0.347538       -23.65466        -43.58757       -101.6827             -200               0             -200               0
1.64901               -0.3579186       -23.89844        -43.36463       -105.5619             -200               0             -200               0
1.65563               -0.3686532       -24.14578        -43.14683       -109.4426             -200               0             -200               0
1.66225               -0.3797524        -24.3968        -42.93395       -113.3215             -200               0             -200               0
1.66887               -0.3912212       -24.65161        -42.72576       -117.1957             -200               0             -200               0
1.6755                -0.4030698       -24.91031        -42.52197       -121.0623             -200               0             -200               0
1.68212               -0.4153081       -25.17306        -42.32223       -124.9188             -200               0             -200               0
1.68874               -0.4279484       -25.43998        -42.12621       -128.7629             -200               0             -200               0
1.69536               -0.4410048       -25.71123        -41.93348       -132.5923             -200               0             -200               0
1.70199               -0.4544944       -25.98697        -41.74364       -136.4054             -200               0             -200               0
1.70861               -0.4684373       -26.26739        -41.55623       -140.2005             -200               0             -200               0
1.71523                -0.482854       -26.55264        -41.37076       -143.9765             -200               0             -200               0
1.72185               -0.4977723       -26.84292        -41.18674       -147.7324             -200               0             -200               0
1.72848               -0.5132197        -27.1384        -41.00367       -151.4678             -200               0             -200               0
1.7351                -0.5292283       -27.43927        -40.82101       -155.1825             -200               0             -200               0
1.74172               -0.5458333       -27.74569        -40.63823       -158.8766             -200               0             -200               0
1.74834               -0.5630722       -28.05785        -40.45482       -162.5508             -200               0             -200               0
1.75497               -0.5809865       -28.37589        -40.27024       -166.2062             -200               0             -200               0
1.76159                -0.599622       -28.69998        -40.08401        -169.844             -200               0             -200               0
1.76821               -0.6190256       -29.03026        -39.89564       -173.4661             -200               0             -200               0
1.77483               -0.6392451       -29.36686        -39.70467       -177.0747             -200               0             -200               0
1.78146               -0.6603347       -29.70988        -39.51071        179.3277             -200               0             -200               0
1.78808                -0.682347       -30.05944        -39.31337        175.7383             -200               0             -200               0
1.7947                -0.7053397        -30.4156        -39.11236        172.1539             -200               0             -200               0
1.80132               -0.7293682       -30.77844        -38.90741        168.5712             -200               0             -200               0
1.80795               -0.7544925       -31.14801        -38.69833        164.9866             -200               0             -200               0
1.81457               -0.7807713       -31.52434        -38.48498        161.3965             -200               0             -200               0
1.82119               -0.8082659       -31.90745         -38.2673         157.797             -200               0             -200               0
1.82781               -0.8370349       -32.29735         -38.0453        154.1845             -200               0             -200               0
1.83444               -0.8671417       -32.69403        -37.81905        150.5552             -200               0             -200               0
1.84106               -0.8986458       -33.09747        -37.58868        146.9055             -200               0             -200               0
1.84768               -0.9316099       -33.50766        -37.35438        143.2319             -200               0             -200               0
1.8543                -0.9660937       -33.92454         -37.1164        139.5313             -200               0             -200               0
