! TOUCHSTONE file generated by CST MICROWAVE STUDIO
! Date and time: Tue Mar 18 00:02:14 2025
! Project name: oblique.cst
! Parameters = {Tilt=40; Fracture=1; B=10; D=160; F=15; Feed=2.85625; L=100; M=50; R=0.384908; S=1; Theta=90; length=57.125; wave=114.25}
! Header version: 2024
! Port assignment regex: !\s*Touchstone port\s*([0-9]+)\s*=\s*(CST MWS port|CST DES external port|CST DES block port)\s*(.+)\s* \(\"(.*)\"\)(\s*mode\s*([0-9]+))?.*
! Touchstone port assignment:
! Touchstone port 1 = CST MWS port 1 ("")
! Touchstone port 2 = CST MWS port 2 ("")
# GHz S DB R 50
1                    -0.02107889       -9.796902        -67.45223        159.5324             -200               0             -200               0
1.00658              -0.02182849       -9.884518        -67.45363        153.6767             -200               0             -200               0
1.01316              -0.02259173       -9.972677         -67.4888        147.9157             -200               0             -200               0
1.01974              -0.02336838       -10.06139        -67.55881        142.2568             -200               0             -200               0
1.02632              -0.02415801       -10.15069        -67.66499        136.7094             -200               0             -200               0
1.03289              -0.02496144       -10.24058        -67.80893        131.2857             -200               0             -200               0
1.03947              -0.02577874       -10.33108        -67.99254        126.0014             -200               0             -200               0
1.04605              -0.02661056       -10.42222        -68.21804        120.8763             -200               0             -200               0
1.05263              -0.02745809       -10.51401        -68.48799        115.9359             -200               0             -200               0
1.05921              -0.02832191       -10.60647        -68.80529        111.2128             -200               0             -200               0
1.06579              -0.02920429       -10.69962        -69.17311        106.7491             -200               0             -200               0
1.07237              -0.03010681       -10.79348        -69.59481           102.6             -200               0             -200               0
1.07895              -0.03103074       -10.88806        -70.07361         98.8378             -200               0             -200               0
1.08553              -0.03197887       -10.98337        -70.61205        95.55825             -200               0             -200               0
1.09211              -0.03295293       -11.07943        -71.21085        92.88819             -200               0             -200               0
1.09868              -0.03395475       -11.17625        -71.86677        90.99466             -200               0             -200               0
1.10526               -0.0349877       -11.27384        -72.56872        90.09223             -200               0             -200               0
1.11184               -0.0360527       -11.37221        -73.29121        90.43985             -200               0             -200               0
1.11842              -0.03715317       -11.47136        -73.98471        92.30601             -200               0             -200               0
1.125                -0.03829008        -11.5713        -74.56645        95.86607             -200               0             -200               0
1.13158              -0.03946543       -11.67203        -74.92343        101.0102             -200               0             -200               0
1.13816              -0.04068121       -11.77355        -74.94624        107.1534             -200               0             -200               0
1.14474              -0.04193847       -11.87587        -74.58867        113.3007             -200               0             -200               0
1.15132               -0.0432387       -11.97898        -73.89974        118.4652             -200               0             -200               0
1.15789              -0.04458241        -12.0829        -72.98973        122.0796             -200               0             -200               0
1.16447              -0.04597062       -12.18761        -71.97075        124.0475             -200               0             -200               0
1.17105              -0.04740219       -12.29312         -70.9242        124.5506             -200               0             -200               0
1.17763              -0.04887859       -12.39944        -69.89841        123.8589             -200               0             -200               0
1.18421              -0.05039857       -12.50656        -68.91804        122.2308             -200               0             -200               0
1.19079              -0.05196243        -12.6145        -67.99362        119.8802             -200               0             -200               0
1.19737              -0.05356881       -12.72325        -67.12796        116.9736             -200               0             -200               0
1.20395              -0.05521627       -12.83284        -66.32002        113.6379             -200               0             -200               0
1.21053              -0.05690381       -12.94327        -65.56698        109.9693             -200               0             -200               0
1.21711              -0.05863074       -13.05456        -64.86533        106.0409             -200               0             -200               0
1.22368              -0.06039632       -13.16673        -64.21142        101.9093             -200               0             -200               0
1.23026               -0.0621986       -13.27979        -63.60179        97.61813             -200               0             -200               0
1.23684              -0.06403671       -13.39378         -63.0332        93.20206             -200               0             -200               0
1.24342              -0.06591051       -13.50871        -62.50276        88.68876             -200               0             -200               0
1.25                 -0.06781925       -13.62462        -62.00785        84.10072             -200               0             -200               0
1.25658              -0.06976207       -13.74154        -61.54614        79.45651             -200               0             -200               0
1.26316               -0.0717397       -13.85949        -61.11556        74.77171             -200               0             -200               0
1.26974              -0.07375259       -13.97853        -60.71428        70.05962             -200               0             -200               0
1.27632              -0.07580169       -14.09868        -60.34064        65.33175             -200               0             -200               0
1.28289              -0.07788847       -14.21998        -59.99317        60.59832             -200               0             -200               0
1.28947              -0.08001578       -14.34248        -59.67055        55.86848             -200               0             -200               0
1.29605              -0.08218457        -14.4662        -59.37155        51.15064             -200               0             -200               0
1.30263              -0.08439811       -14.59118        -59.09509        46.45261             -200               0             -200               0
1.30921              -0.08665987       -14.71747        -58.84013        41.78183             -200               0             -200               0
1.31579              -0.08897428       -14.84511        -58.60572        37.14543             -200               0             -200               0
1.32237              -0.09134485       -14.97411        -58.39093         32.5504             -200               0             -200               0
1.32895              -0.09377605       -15.10453        -58.19489        28.00362             -200               0             -200               0
1.33553              -0.09627362       -15.23638        -58.01672        23.51199             -200               0             -200               0
1.34211              -0.09884164        -15.3697        -57.85554        19.08243             -200               0             -200               0
1.34868               -0.1014854       -15.50451        -57.71044        14.72196             -200               0             -200               0
1.35526               -0.1042102       -15.64084        -57.58048        10.43767             -200               0             -200               0
1.36184               -0.1070211       -15.77871        -57.46464        6.236772             -200               0             -200               0
1.36842               -0.1099246       -15.91813        -57.36181        2.126546             -200               0             -200               0
1.375                 -0.1129241       -16.05913         -57.2708       -1.885717             -200               0             -200               0
1.38158               -0.1160255       -16.20172        -57.19026       -5.792787             -200               0             -200               0
1.38816               -0.1192332       -16.34591         -57.1187       -9.587628             -200               0             -200               0
1.39474               -0.1225514       -16.49171        -57.05445       -13.26358             -200               0             -200               0
1.40132               -0.1259854       -16.63914        -56.99565       -16.81456             -200               0             -200               0
1.40789               -0.1295378       -16.78822        -56.94023       -20.23539             -200               0             -200               0
1.41447               -0.1332126       -16.93894        -56.88591       -23.52207             -200               0             -200               0
1.42105                -0.137013       -17.09133        -56.83021       -26.67221             -200               0             -200               0
1.42763               -0.1409414        -17.2454        -56.77045       -29.68547             -200               0             -200               0
1.43421               -0.1450009       -17.40117        -56.70383       -32.56395             -200               0             -200               0
1.44079               -0.1491936       -17.55865        -56.62745        -35.3126             -200               0             -200               0
1.44737               -0.1535224       -17.71786        -56.53844       -37.93961             -200               0             -200               0
1.45395               -0.1579891       -17.87884        -56.43401        -40.4565             -200               0             -200               0
1.46053               -0.1625953       -18.04161        -56.31165       -42.87824             -200               0             -200               0
1.46711               -0.1673438        -18.2062        -56.16915       -45.22294             -200               0             -200               0
1.47368               -0.1722365       -18.37265        -56.00484       -47.51139             -200               0             -200               0
1.48026               -0.1772763       -18.54099         -55.8176       -49.76635             -200               0             -200               0
1.48684                -0.182466       -18.71127        -55.60695       -52.01159             -200               0             -200               0
1.49342               -0.1878078       -18.88352         -55.3731       -54.27093             -200               0             -200               0
1.5                    -0.193307       -19.05782         -55.1169       -56.56712             -200               0             -200               0
1.50658               -0.1989677       -19.23419        -54.83978       -58.92099             -200               0             -200               0
1.51316               -0.2047933       -19.41271        -54.54364       -61.35072             -200               0             -200               0
1.51974                -0.210791       -19.59341        -54.23075       -63.87128             -200               0             -200               0
1.52632               -0.2169655       -19.77637         -53.9036       -66.49428             -200               0             -200               0
1.53289                -0.223326       -19.96163        -53.56481       -69.22793             -200               0             -200               0
1.53947               -0.2298779       -20.14925        -53.21697       -72.07721             -200               0             -200               0
1.54605               -0.2366306        -20.3393         -52.8626       -75.04427             -200               0             -200               0
1.55263               -0.2435931       -20.53183        -52.50405       -78.12877             -200               0             -200               0
1.55921               -0.2507758       -20.72688         -52.1435       -81.32836             -200               0             -200               0
1.56579               -0.2581884       -20.92452        -51.78288       -84.63908             -200               0             -200               0
1.57237               -0.2658414       -21.12479        -51.42391       -88.05578             -200               0             -200               0
1.57895               -0.2737465       -21.32774        -51.06807       -91.57246             -200               0             -200               0
1.58553               -0.2819159       -21.53342        -50.71663       -95.18253             -200               0             -200               0
1.59211                -0.290361       -21.74186        -50.37065        -98.8791             -200               0             -200               0
1.59868               -0.2990939        -21.9531        -50.03101       -102.6551             -200               0             -200               0
1.60526                -0.308127       -22.16718        -49.69843       -106.5035             -200               0             -200               0
1.61184                -0.317473       -22.38413        -49.37348       -110.4174             -200               0             -200               0
1.61842               -0.3271433       -22.60398        -49.05659         -114.39             -200               0             -200               0
1.625                 -0.3371505       -22.82676        -48.74811       -118.4147             -200               0             -200               0
1.63158               -0.3475055       -23.05248        -48.44825       -122.4853             -200               0             -200               0
1.63816               -0.3582212       -23.28119        -48.15716       -126.5956             -200               0             -200               0
1.64474               -0.3693086       -23.51291        -47.87493       -130.7401             -200               0             -200               0
1.65132               -0.3807773       -23.74765        -47.60156       -134.9131             -200               0             -200               0
1.65789               -0.3926393       -23.98546          -47.337       -139.1096             -200               0             -200               0
1.66447               -0.4049026       -24.22635        -47.08115       -143.3245             -200               0             -200               0
1.67105               -0.4175809       -24.47038        -46.83389       -147.5532             -200               0             -200               0
1.67763               -0.4306809       -24.71756        -46.59501       -151.7911             -200               0             -200               0
1.68421               -0.4442147       -24.96796        -46.36431       -156.0341             -200               0             -200               0
1.69079               -0.4581914       -25.22161        -46.14154       -160.2782             -200               0             -200               0
1.69737               -0.4726199       -25.47857         -45.9264       -164.5194             -200               0             -200               0
1.70395               -0.4875127       -25.73891        -45.71857       -168.7543             -200               0             -200               0
1.71053               -0.5028793       -26.00269        -45.51772       -172.9794             -200               0             -200               0
1.71711               -0.5187323       -26.26999        -45.32346       -177.1915             -200               0             -200               0
1.72368               -0.5350835       -26.54089        -45.13539        178.6123             -200               0             -200               0
1.73026               -0.5519478       -26.81549        -44.95306        174.4349             -200               0             -200               0
1.73684               -0.5693377       -27.09387        -44.77602        170.2788             -200               0             -200               0
1.74342               -0.5872709       -27.37615        -44.60376        166.1462             -200               0             -200               0
1.75                  -0.6057645       -27.66242        -44.43577        162.0392             -200               0             -200               0
1.75658               -0.6248369       -27.95281        -44.27149        157.9596             -200               0             -200               0
1.76316               -0.6445116       -28.24743        -44.11036        153.9089             -200               0             -200               0
1.76974               -0.6648099        -28.5464        -43.95179        149.8882             -200               0             -200               0
1.77632               -0.6857576       -28.84984        -43.79514        145.8982             -200               0             -200               0
1.78289               -0.7073812       -29.15787         -43.6398        141.9395             -200               0             -200               0
1.78947               -0.7297101       -29.47062        -43.48512         138.012             -200               0             -200               0
1.79605               -0.7527764        -29.7882        -43.33045        134.1153             -200               0             -200               0
1.80263               -0.7766133       -30.11073        -43.17516        130.2487             -200               0             -200               0
1.80921               -0.8012558       -30.43832        -43.01859        126.4108             -200               0             -200               0
1.81579               -0.8267422       -30.77108        -42.86014        122.5998             -200               0             -200               0
1.82237                -0.853111       -31.10911         -42.6992        118.8137             -200               0             -200               0
1.82895               -0.8804046        -31.4525        -42.53522        115.0496             -200               0             -200               0
1.83553               -0.9086649       -31.80135        -42.36767        111.3047             -200               0             -200               0
1.84211               -0.9379362       -32.15573        -42.19609        107.5754             -200               0             -200               0
1.84868               -0.9682658       -32.51571        -42.02008        103.8578             -200               0             -200               0
