! TOUCHSTONE file generated by CST MICROWAVE STUDIO
! Date and time: Tue Mar 18 00:01:24 2025
! Project name: oblique.cst
! Parameters = {Tilt=30; Fracture=1; B=12.5; D=160; F=5; Feed=2.85625; L=100; M=30; R=0.384908; S=1; Theta=270; length=57.125; wave=114.25}
! Header version: 2024
! Port assignment regex: !\s*Touchstone port\s*([0-9]+)\s*=\s*(CST MWS port|CST DES external port|CST DES block port)\s*(.+)\s* \(\"(.*)\"\)(\s*mode\s*([0-9]+))?.*
! Touchstone port assignment:
! Touchstone port 1 = CST MWS port 1 ("")
! Touchstone port 2 = CST MWS port 2 ("")
# GHz S DB R 50
1                    -0.02091312       -9.858131         -66.8909       -178.1638             -200               0             -200               0
1.00662              -0.02175007        -9.94742        -66.90522        176.6364             -200               0             -200               0
1.01325              -0.02261756       -10.03714        -66.95248        171.5498             -200               0             -200               0
1.01987               -0.0235113       -10.12729        -67.03339        166.5893             -200               0             -200               0
1.02649              -0.02442553       -10.21787         -67.1488        161.7706             -200               0             -200               0
1.03311               -0.0253587        -10.3089        -67.29966         157.113             -200               0             -200               0
1.03974              -0.02630491       -10.40038        -67.48699        152.6399             -200               0             -200               0
1.04636              -0.02726115       -10.49234        -67.71177        148.3803             -200               0             -200               0
1.05298              -0.02822428        -10.5848        -67.97485        144.3698             -200               0             -200               0
1.0596               -0.02918943       -10.67779        -68.27671        140.6522             -200               0             -200               0
1.06623              -0.03015477       -10.77134        -68.61716        137.2816             -200               0             -200               0
1.07285              -0.03111824       -10.86549        -68.99476        134.3241             -200               0             -200               0
1.07947              -0.03207926       -10.96029        -69.40608        131.8597             -200               0             -200               0
1.08609              -0.03303723       -11.05577        -69.84442        129.9827             -200               0             -200               0
1.09272              -0.03399191       -11.15197        -70.29808        128.7993             -200               0             -200               0
1.09934              -0.03494469       -11.24895        -70.74819        128.4184             -200               0             -200               0
1.10596              -0.03589841       -11.34674        -71.16641        128.9318             -200               0             -200               0
1.11258              -0.03685497       -11.44538        -71.51396        130.3781             -200               0             -200               0
1.11921              -0.03781788       -11.54491        -71.74411        132.6941             -200               0             -200               0
1.12583              -0.03879436       -11.64537        -71.81072        135.6721             -200               0             -200               0
1.13245              -0.03978594       -11.74679        -71.68186        138.9596             -200               0             -200               0
1.13907              -0.04079861       -11.84918        -71.35214        142.1287             -200               0             -200               0
1.1457               -0.04183988       -11.95259        -70.84499        144.7892             -200               0             -200               0
1.15232              -0.04291501       -12.05701        -70.20302        146.6794             -200               0             -200               0
1.15894               -0.0440277       -12.16245        -69.47385        147.6888             -200               0             -200               0
1.16556              -0.04518655       -12.26893        -68.69941        147.8268             -200               0             -200               0
1.17219              -0.04639579       -12.37644        -67.91149        147.1717             -200               0             -200               0
1.17881              -0.04766059       -12.48498        -67.13186        145.8303             -200               0             -200               0
1.18543              -0.04898659       -12.59452        -66.37421        143.9121             -200               0             -200               0
1.19205              -0.05037498       -12.70507        -65.64652        141.5171             -200               0             -200               0
1.19868              -0.05183215       -12.81659        -64.95296        138.7316             -200               0             -200               0
1.2053               -0.05335703       -12.92908        -64.29525        135.6277             -200               0             -200               0
1.21192              -0.05495277       -13.04251        -63.67365         132.265             -200               0             -200               0
1.21854              -0.05661999       -13.15686        -63.08753        128.6924             -200               0             -200               0
1.22517               -0.0583572       -13.27212        -62.53577        124.9501             -200               0             -200               0
1.23179              -0.06016476       -13.38826        -62.01703        121.0712             -200               0             -200               0
1.23841              -0.06203834       -13.50528        -61.52986        117.0836             -200               0             -200               0
1.24503               -0.0639744       -13.62316        -61.07279        113.0102             -200               0             -200               0
1.25166              -0.06597199       -13.74189         -60.6444        108.8709             -200               0             -200               0
1.25828              -0.06802383        -13.8615        -60.24333        104.6826             -200               0             -200               0
1.2649               -0.07012798       -13.98197         -59.8683          100.46             -200               0             -200               0
1.27152              -0.07227883       -14.10334         -59.5181        96.21607             -200               0             -200               0
1.27815              -0.07447004       -14.22561        -59.19159        91.96255             -200               0             -200               0
1.28477              -0.07669793       -14.34883        -58.88769        87.70999             -200               0             -200               0
1.29139              -0.07895772       -14.47303        -58.60539        83.46813             -200               0             -200               0
1.29801              -0.08124458       -14.59825        -58.34369         79.2461             -200               0             -200               0
1.30464               -0.0835573       -14.72455        -58.10166        75.05254             -200               0             -200               0
1.31126              -0.08589185       -14.85199        -57.87835        70.89572             -200               0             -200               0
1.31788              -0.08824667       -14.98062        -57.67283        66.78367             -200               0             -200               0
1.3245               -0.09062212       -15.11052        -57.48415        62.72421             -200               0             -200               0
1.33113              -0.09301534       -15.24174        -57.31132        58.72506             -200               0             -200               0
1.33775              -0.09543236       -15.37437        -57.15332        54.79378             -200               0             -200               0
1.34437              -0.09787213       -15.50848        -57.00905        50.93785             -200               0             -200               0
1.35099               -0.1003417       -15.64414        -56.87732        47.16462             -200               0             -200               0
1.35762               -0.1028437       -15.78141        -56.75687        43.48121             -200               0             -200               0
1.36424               -0.1053855       -15.92037        -56.64627         39.8945             -200               0             -200               0
1.37086               -0.1079735       -16.06107        -56.54399        36.41093             -200               0             -200               0
1.37748               -0.1106162       -16.20358        -56.44832        33.03637             -200               0             -200               0
1.38411               -0.1133212       -16.34795        -56.35742        29.77589             -200               0             -200               0
1.39073               -0.1160997       -16.49422        -56.26926        26.63351             -200               0             -200               0
1.39735               -0.1189598       -16.64245        -56.18163         23.6119             -200               0             -200               0
1.40397               -0.1219114       -16.79264        -56.09222        20.71208             -200               0             -200               0
1.4106                -0.1249647       -16.94485        -55.99855        17.93304             -200               0             -200               0
1.41722               -0.1281277       -17.09909        -55.89812         15.2715             -200               0             -200               0
1.42384               -0.1314106       -17.25537        -55.78838        12.72155             -200               0             -200               0
1.43046               -0.1348212       -17.41371        -55.66688        10.27454             -200               0             -200               0
1.43709               -0.1383694       -17.57411        -55.53131        7.919021             -200               0             -200               0
1.44371                 -0.14206       -17.73657        -55.37963        5.640836             -200               0             -200               0
1.45033               -0.1459003        -17.9011        -55.21015        3.423439             -200               0             -200               0
1.45695               -0.1498953       -18.06769        -55.02164        1.248386             -200               0             -200               0
1.46358               -0.1540493       -18.23635        -54.81335      -0.9040179             -200               0             -200               0
1.4702                -0.1583658       -18.40708        -54.58509       -3.053951             -200               0             -200               0
1.47682               -0.1628476       -18.57989        -54.33722       -5.221265             -200               0             -200               0
1.48344               -0.1674943       -18.75479        -54.07058       -7.424706             -200               0             -200               0
1.49007               -0.1723093       -18.93179        -53.78652       -9.681233             -200               0             -200               0
1.49669               -0.1772916       -19.11092        -53.48671        -12.0055             -200               0             -200               0
1.50331               -0.1824391       -19.29222        -53.17311       -14.40951             -200               0             -200               0
1.50993               -0.1877544       -19.47572        -52.84786       -16.90246             -200               0             -200               0
1.51656               -0.1932362       -19.66148        -52.51316       -19.49078             -200               0             -200               0
1.52318               -0.1988842       -19.84955        -52.17123        -22.1783             -200               0             -200               0
1.5298                -0.2046988       -20.04001        -51.82418       -24.96646             -200               0             -200               0
1.53642               -0.2106812       -20.23293        -51.47403       -27.85468             -200               0             -200               0
1.54305               -0.2168327       -20.42841        -51.12262       -30.84066             -200               0             -200               0
1.54967               -0.2231571       -20.62656        -50.77161       -33.92073             -200               0             -200               0
1.55629                -0.229661       -20.82745        -50.42246       -37.09018             -200               0             -200               0
1.56291                -0.236347       -21.03122        -50.07647        -40.3435             -200               0             -200               0
1.56954               -0.2432266       -21.23798        -49.73472       -43.67465             -200               0             -200               0
1.57616               -0.2503088       -21.44785        -49.39813       -47.07723             -200               0             -200               0
1.58278               -0.2576047       -21.66095        -49.06745       -50.54468             -200               0             -200               0
1.5894                -0.2651299        -21.8774        -48.74329       -54.07034             -200               0             -200               0
1.59603                -0.272899       -22.09733        -48.42612       -57.64762             -200               0             -200               0
1.60265               -0.2809319       -22.32085        -48.11629       -61.27002             -200               0             -200               0
1.60927               -0.2892455       -22.54807        -47.81404       -64.93119             -200               0             -200               0
1.61589               -0.2978649        -22.7791        -47.51951       -68.62499             -200               0             -200               0
1.62252               -0.3068108       -23.01403        -47.23276       -72.34549             -200               0             -200               0
1.62914               -0.3161098       -23.25296        -46.95376       -76.08698             -200               0             -200               0
1.63576               -0.3257861       -23.49596        -46.68241       -79.84401             -200               0             -200               0
1.64238               -0.3358683       -23.74309        -46.41856        -83.6114             -200               0             -200               0
1.64901               -0.3463829       -23.99441        -46.16197       -87.38419             -200               0             -200               0
1.65563               -0.3573585       -24.24997        -45.91236       -91.15773             -200               0             -200               0
1.66225               -0.3688233        -24.5098        -45.66941        -94.9276             -200               0             -200               0
1.66887                -0.380804       -24.77391        -45.43271       -98.68969             -200               0             -200               0
1.6755                -0.3933291       -25.04233        -45.20183       -102.4402             -200               0             -200               0
1.68212               -0.4064256       -25.31504         -44.9763       -106.1756             -200               0             -200               0
1.68874               -0.4201196       -25.59205        -44.75558       -109.8926             -200               0             -200               0
1.69536               -0.4344348       -25.87333         -44.5391       -113.5886             -200               0             -200               0
1.70199               -0.4493966       -26.15889        -44.32626       -117.2609             -200               0             -200               0
1.70861               -0.4650262       -26.44869         -44.1164       -120.9077             -200               0             -200               0
1.71523               -0.4813457       -26.74272        -43.90886       -124.5271             -200               0             -200               0
1.72185               -0.4983754       -27.04096        -43.70294       -128.1182             -200               0             -200               0
1.72848               -0.5161332        -27.3434        -43.49789       -131.6802             -200               0             -200               0
1.7351                -0.5346366       -27.65004          -43.293        -135.213             -200               0             -200               0
1.74172               -0.5539044       -27.96088        -43.08751        -138.717             -200               0             -200               0
1.74834               -0.5739508       -28.27593        -42.88068       -142.1933             -200               0             -200               0
1.75497               -0.5947942       -28.59523        -42.67179       -145.6433             -200               0             -200               0
1.76159               -0.6164481        -28.9188        -42.46013       -149.0693             -200               0             -200               0
1.76821               -0.6389302       -29.24671        -42.24505       -152.4739             -200               0             -200               0
1.77483               -0.6622568       -29.57902        -42.02594       -155.8604             -200               0             -200               0
1.78146               -0.6864476       -29.91583        -41.80223       -159.2327             -200               0             -200               0
1.78808               -0.7115209       -30.25724        -41.57346       -162.5948             -200               0             -200               0
1.7947                -0.7374999       -30.60336        -41.33923       -165.9514             -200               0             -200               0
1.80132               -0.7644092       -30.95434        -41.09923       -169.3074             -200               0             -200               0
1.80795               -0.7922769       -31.31032        -40.85326       -172.6679             -200               0             -200               0
1.81457               -0.8211343       -31.67146        -40.60121       -176.0382             -200               0             -200               0
1.82119               -0.8510167       -32.03795        -40.34307       -179.4234             -200               0             -200               0
1.82781               -0.8819638       -32.40995        -40.07894        177.1712             -200               0             -200               0
1.83444                 -0.91402       -32.78766        -39.80901        173.7407             -200               0             -200               0
1.84106                -0.947234       -33.17125        -39.53354        170.2803             -200               0             -200               0
1.84768               -0.9816613       -33.56093        -39.25291        166.7857             -200               0             -200               0
1.8543                 -1.017361       -33.95687        -38.96753        163.2528             -200               0             -200               0
