! TOUCHSTONE file generated by CST MICROWAVE STUDIO
! Date and time: Tue Mar 18 00:03:09 2025
! Project name: oblique.cst
! Parameters = {Tilt=40; Fracture=1; B=12.5; D=160; F=25; Feed=2.85625; L=100; M=50; R=0.384908; S=2; Theta=270; length=57.125; wave=114.25}
! Header version: 2024
! Port assignment regex: !\s*Touchstone port\s*([0-9]+)\s*=\s*(CST MWS port|CST DES external port|CST DES block port)\s*(.+)\s* \(\"(.*)\"\)(\s*mode\s*([0-9]+))?.*
! Touchstone port assignment:
! Touchstone port 1 = CST MWS port 1 ("")
! Touchstone port 2 = CST MWS port 2 ("")
# GHz S DB R 50
1                    -0.01918975       -9.811363        -70.20714         133.982             -200               0             -200               0
1.0076               -0.02014523        -9.91272        -70.20164        128.8091             -200               0             -200               0
1.01521              -0.02111002       -10.01465        -70.21453        123.7295             -200               0             -200               0
1.02281              -0.02207907       -10.11718        -70.24591        118.7505             -200               0             -200               0
1.03042              -0.02304914       -10.22037        -70.29587        113.8803             -200               0             -200               0
1.03802              -0.02401435       -10.32425        -70.36446        109.1288             -200               0             -200               0
1.04563               -0.0249737       -10.42887        -70.45166         104.507             -200               0             -200               0
1.05323              -0.02592507       -10.53429        -70.55736         100.028             -200               0             -200               0
1.06084              -0.02686771       -10.64057        -70.68128        95.70662             -200               0             -200               0
1.06844              -0.02780183       -10.74777        -70.82292        91.55978             -200               0             -200               0
1.07605              -0.02872859       -10.85595        -70.98149        87.60678             -200               0             -200               0
1.08365              -0.02965018       -10.96517        -71.15574        83.86932             -200               0             -200               0
1.09125              -0.03057133       -11.07549        -71.34389        80.37147             -200               0             -200               0
1.09886              -0.03149513       -11.18697        -71.54339        77.13949             -200               0             -200               0
1.10646              -0.03242705       -11.29965        -71.75072        74.20121             -200               0             -200               0
1.11407              -0.03337495       -11.41361        -71.96115        71.58484             -200               0             -200               0
1.12167              -0.03434493       -11.52887        -72.16849        69.31711             -200               0             -200               0
1.12928              -0.03534416       -11.64548        -72.36487        67.42029             -200               0             -200               0
1.13688              -0.03638038       -11.76347        -72.54067        65.90812             -200               0             -200               0
1.14449              -0.03746437       -11.88287        -72.68464        64.78068             -200               0             -200               0
1.15209              -0.03860328       -12.00371        -72.78445        64.01889             -200               0             -200               0
1.1597               -0.03980607       -12.12599        -72.82759        63.57979             -200               0             -200               0
1.1673               -0.04108235       -12.24972        -72.80282        63.39451             -200               0             -200               0
1.1749               -0.04243941       -12.37491        -72.70174        63.37067             -200               0             -200               0
1.18251              -0.04388525       -12.50155        -72.52016        63.40002             -200               0             -200               0
1.19011              -0.04542852       -12.62963        -72.25892        63.37011             -200               0             -200               0
1.19772              -0.04707336       -12.75913        -71.92364        63.17721             -200               0             -200               0
1.20532              -0.04882667       -12.89005        -71.52378        62.73675             -200               0             -200               0
1.21293              -0.05069334       -13.02235        -71.07102        61.98921             -200               0             -200               0
1.22053              -0.05267728       -13.15602        -70.57779         60.9007             -200               0             -200               0
1.22814              -0.05478041       -13.29104        -70.05597        59.45983             -200               0             -200               0
1.23574              -0.05700615       -13.42737        -69.51609        57.67249             -200               0             -200               0
1.24335              -0.05935422       -13.56501        -68.96698        55.55638             -200               0             -200               0
1.25095              -0.06182472       -13.70394        -68.41573        53.13622             -200               0             -200               0
1.25856              -0.06441672       -13.84414        -67.86779        50.44006             -200               0             -200               0
1.26616               -0.0671298       -13.98561        -67.32724        47.49678             -200               0             -200               0
1.27376                -0.069958       -14.12834        -66.79703        44.33439             -200               0             -200               0
1.28137              -0.07290261       -14.27234        -66.27921        40.97915             -200               0             -200               0
1.28897               -0.0759581       -14.41763        -65.77513        37.45511             -200               0             -200               0
1.29658              -0.07912129       -14.56421        -65.28563        33.78397             -200               0             -200               0
1.30418              -0.08238819       -14.71213        -64.81115        29.98514             -200               0             -200               0
1.31179              -0.08575599       -14.86141        -64.35184        26.07584             -200               0             -200               0
1.31939              -0.08922304        -15.0121        -63.90765        22.07132             -200               0             -200               0
1.327                -0.09278605       -15.16425        -63.47836        17.98511             -200               0             -200               0
1.3346               -0.09644391       -15.31792        -63.06366        13.82914             -200               0             -200               0
1.34221                -0.100196       -15.47318        -62.66316        9.614023             -200               0             -200               0
1.34981               -0.1040416       -15.63009        -62.27641        5.349162             -200               0             -200               0
1.35741               -0.1079847       -15.78874        -61.90294        1.042943             -200               0             -200               0
1.36502               -0.1120263       -15.94919        -61.54225       -3.297142             -200               0             -200               0
1.37262                 -0.11617       -16.11153        -61.19384       -7.664378             -200               0             -200               0
1.38023               -0.1204233       -16.27585        -60.85718       -12.05272             -200               0             -200               0
1.38783               -0.1247935       -16.44223        -60.53176       -16.45673             -200               0             -200               0
1.39544                -0.129287       -16.61073        -60.21705       -20.87145             -200               0             -200               0
1.40304               -0.1339153       -16.78145        -59.91253       -25.29242             -200               0             -200               0
1.41065               -0.1386887       -16.95446        -59.61769       -29.71555             -200               0             -200               0
1.41825               -0.1436192       -17.12982        -59.33199       -34.13714             -200               0             -200               0
1.42586               -0.1487223       -17.30761        -59.05493       -38.55382             -200               0             -200               0
1.43346               -0.1540084       -17.48786        -58.78598       -42.96249             -200               0             -200               0
1.44106               -0.1594967       -17.67063        -58.52462       -47.36037             -200               0             -200               0
1.44867               -0.1652001       -17.85596        -58.27032       -51.74492             -200               0             -200               0
1.45627               -0.1711334       -18.04389        -58.02256       -56.11387             -200               0             -200               0
1.46388               -0.1773156       -18.23442         -57.7808       -60.46521             -200               0             -200               0
1.47148               -0.1837603       -18.42758        -57.54451       -64.79713             -200               0             -200               0
1.47909               -0.1904839       -18.62337        -57.31315       -69.10812             -200               0             -200               0
1.48669               -0.1974996       -18.82179        -57.08617        -73.3969             -200               0             -200               0
1.4943                -0.2048252       -19.02282        -56.86303       -77.66243             -200               0             -200               0
1.5019                -0.2124711       -19.22646        -56.64317       -81.90395             -200               0             -200               0
1.50951               -0.2204505       -19.43267        -56.42603       -86.12095             -200               0             -200               0
1.51711               -0.2287758       -19.64145        -56.21108       -90.31323             -200               0             -200               0
1.52471               -0.2374569       -19.85275        -55.99777       -94.48083             -200               0             -200               0
1.53232               -0.2465016       -20.06656        -55.78554       -98.62412             -200               0             -200               0
1.53992               -0.2559183       -20.28284        -55.57386       -102.7438             -200               0             -200               0
1.54753               -0.2657141       -20.50157        -55.36222       -106.8407             -200               0             -200               0
1.55513               -0.2758938       -20.72273         -55.1501       -110.9162             -200               0             -200               0
1.56274               -0.2864598       -20.94631        -54.93704       -114.9717             -200               0             -200               0
1.57034               -0.2974176       -21.17229        -54.72257       -119.0092             -200               0             -200               0
1.57795               -0.3087682       -21.40069        -54.50626       -123.0307             -200               0             -200               0
1.58555               -0.3205127       -21.63149        -54.28774       -127.0386             -200               0             -200               0
1.59316                -0.332653       -21.86474        -54.06664       -131.0355             -200               0             -200               0
1.60076               -0.3451895       -22.10045        -53.84267       -135.0242             -200               0             -200               0
1.60837               -0.3581227       -22.33866        -53.61557       -139.0076             -200               0             -200               0
1.61597               -0.3714542       -22.57944        -53.38513       -142.9888             -200               0             -200               0
1.62357               -0.3851842       -22.82285        -53.15119       -146.9711             -200               0             -200               0
1.63118               -0.3993169       -23.06897        -52.91366       -150.9576             -200               0             -200               0
1.63878               -0.4138544       -23.31789        -52.67248       -154.9517             -200               0             -200               0
1.64639               -0.4288021       -23.56971        -52.42767       -158.9565             -200               0             -200               0
1.65399               -0.4441665       -23.82454        -52.17926       -162.9753             -200               0             -200               0
1.6616                -0.4599549       -24.08251        -51.92738        -167.011             -200               0             -200               0
1.6692                -0.4761785       -24.34376        -51.67216       -171.0666             -200               0             -200               0
1.67681               -0.4928488        -24.6084        -51.41381       -175.1448             -200               0             -200               0
1.68441               -0.5099797       -24.87659        -51.15253        -179.248             -200               0             -200               0
1.69202               -0.5275906       -25.14847        -50.88859        176.6213             -200               0             -200               0
1.69962               -0.5456996       -25.42418        -50.62228        172.4611             -200               0             -200               0
1.70722               -0.5643272       -25.70388        -50.35389        168.2697             -200               0             -200               0
1.71483               -0.5835008       -25.98772        -50.08376        164.0454             -200               0             -200               0
1.72243               -0.6032444       -26.27582        -49.81221        159.7868             -200               0             -200               0
1.73004               -0.6235891       -26.56834        -49.53958         155.493             -200               0             -200               0
1.73764               -0.6445646        -26.8654        -49.26621         151.163             -200               0             -200               0
1.74525               -0.6662057       -27.16712        -48.99244        146.7962             -200               0             -200               0
1.75285               -0.6885452       -27.47363        -48.71861        142.3922             -200               0             -200               0
1.76046               -0.7116224       -27.78503        -48.44504        137.9509             -200               0             -200               0
1.76806               -0.7354757       -28.10142        -48.17206         133.472             -200               0             -200               0
1.77567               -0.7601427       -28.42289        -47.89997        128.9558             -200               0             -200               0
1.78327               -0.7856657       -28.74952        -47.62905        124.4026             -200               0             -200               0
1.79087               -0.8120836       -29.08137         -47.3596        119.8127             -200               0             -200               0
1.79848               -0.8394414       -29.41852        -47.09186        115.1865             -200               0             -200               0
1.80608               -0.8677792       -29.76101         -46.8261        110.5248             -200               0             -200               0
1.81369               -0.8971408        -30.1089        -46.56254        105.8282             -200               0             -200               0
1.82129               -0.9275695       -30.46224        -46.30138        101.0974             -200               0             -200               0
1.8289                -0.9591073       -30.82106        -46.04285        96.33333             -200               0             -200               0
1.8365                -0.9917985       -31.18541        -45.78711         91.5367             -200               0             -200               0
1.84411                -1.025686       -31.55533        -45.53434        86.70846             -200               0             -200               0
1.85171                -1.060814       -31.93087        -45.28469         81.8495             -200               0             -200               0
1.85932                -1.097226       -32.31209         -45.0383        76.96075             -200               0             -200               0
1.86692                -1.134967       -32.69904        -44.79531        72.04314             -200               0             -200               0
1.87452                -1.174084        -33.0918        -44.55583         67.0976             -200               0             -200               0
1.88213                -1.214624       -33.49043        -44.31996        62.12506             -200               0             -200               0
1.88973                -1.256634       -33.89506        -44.08779        57.12646             -200               0             -200               0
1.89734                -1.300168       -34.30576        -43.85943        52.10271             -200               0             -200               0
1.90494                -1.345278       -34.72268        -43.63493         47.0547             -200               0             -200               0
1.91255                -1.392023       -35.14595        -43.41437        41.98333             -200               0             -200               0
1.92015                -1.440462       -35.57574        -43.19781        36.88946             -200               0             -200               0
1.92776                -1.490663        -36.0122        -42.98529        31.77394             -200               0             -200               0
1.93536                -1.542697       -36.45554        -42.77687         26.6376             -200               0             -200               0
1.94297                 -1.59664       -36.90595        -42.57259        21.48124             -200               0             -200               0
1.95057                -1.652576       -37.36366        -42.37247        16.30563             -200               0             -200               0
1.95817                -1.710598       -37.82889        -42.17655        11.11154             -200               0             -200               0
1.96578                -1.770806       -38.30187        -41.98486         5.89971             -200               0             -200               0
1.97338                -1.833308       -38.78285        -41.79742       0.6708383             -200               0             -200               0
1.98099                -1.898222       -39.27207        -41.61423       -4.574381             -200               0             -200               0
