! TOUCHSTONE file generated by CST MICROWAVE STUDIO
! Date and time: Tue Mar 18 00:00:51 2025
! Project name: oblique.cst
! Parameters = {Tilt=30; Fracture=1; B=10; D=160; F=5; Feed=2.85625; L=100; M=50; R=0.384908; S=2; Theta=270; length=57.125; wave=114.25}
! Header version: 2024
! Port assignment regex: !\s*Touchstone port\s*([0-9]+)\s*=\s*(CST MWS port|CST DES external port|CST DES block port)\s*(.+)\s* \(\"(.*)\"\)(\s*mode\s*([0-9]+))?.*
! Touchstone port assignment:
! Touchstone port 1 = CST MWS port 1 ("")
! Touchstone port 2 = CST MWS port 2 ("")
# GHz S DB R 50
1                    -0.02163098       -9.783932        -66.98252         171.177             -200               0             -200               0
1.00658              -0.02235711       -9.870659        -66.93352        165.6758             -200               0             -200               0
1.01316              -0.02308295       -9.957974        -66.91488        160.2666             -200               0             -200               0
1.01974               -0.0238093       -10.04591        -66.92698        154.9572             -200               0             -200               0
1.02632              -0.02453859        -10.1345        -66.97036        149.7574             -200               0             -200               0
1.03289              -0.02527265       -10.22377        -67.04569        144.6789             -200               0             -200               0
1.03947                -0.026015       -10.31375        -67.15372        139.7363             -200               0             -200               0
1.04605              -0.02676914       -10.40447        -67.29532        134.9472             -200               0             -200               0
1.05263              -0.02753928       -10.49596        -67.47138        130.3331             -200               0             -200               0
1.05921              -0.02832911       -10.58822        -67.68279        125.9204             -200               0             -200               0
1.06579              -0.02914448       -10.68128        -67.93027        121.7414             -200               0             -200               0
1.07237              -0.02998936       -10.77515        -68.21427        117.8355             -200               0             -200               0
1.07895              -0.03086889       -10.86982         -68.5346         114.251             -200               0             -200               0
1.08553              -0.03178724       -10.96531        -68.89007        111.0468             -200               0             -200               0
1.09211               -0.0327508       -11.06161        -69.27776        108.2935             -200               0             -200               0
1.09868              -0.03376196       -11.15871        -69.69209        106.0745             -200               0             -200               0
1.10526              -0.03482528        -11.2566        -70.12337         104.484             -200               0             -200               0
1.11184              -0.03594388       -11.35526        -70.55602        103.6206             -200               0             -200               0
1.11842              -0.03712097       -11.45468         -70.9666        103.5729             -200               0             -200               0
1.125                -0.03835875       -11.55484        -71.32257         104.392             -200               0             -200               0
1.13158              -0.03965698       -11.65572        -71.58341         106.053             -200               0             -200               0
1.13816              -0.04101893        -11.7573        -71.70613        108.4143             -200               0             -200               0
1.14474              -0.04244174       -11.85955        -71.65572        111.2016             -200               0             -200               0
1.15132              -0.04392556       -11.96246        -71.41692        114.0446             -200               0             -200               0
1.15789              -0.04546845       -12.06601        -71.00021        116.5639             -200               0             -200               0
1.16447              -0.04706834       -12.17019        -70.43757         118.463             -200               0             -200               0
1.17105              -0.04872209       -12.27497        -69.77124        119.5757             -200               0             -200               0
1.17763              -0.05042573       -12.38037        -69.04262        119.8585             -200               0             -200               0
1.18421              -0.05217624       -12.48637        -68.28573        119.3522             -200               0             -200               0
1.19079              -0.05396785       -12.59298        -67.52546        118.1414             -200               0             -200               0
1.19737              -0.05579717       -12.70021        -66.77852        116.3251             -200               0             -200               0
1.20395              -0.05765843       -12.80808        -66.05534        113.9997             -200               0             -200               0
1.21053              -0.05954878        -12.9166        -65.36195        111.2519             -200               0             -200               0
1.21711              -0.06146319        -13.0258        -64.70144        108.1558             -200               0             -200               0
1.22368              -0.06339728       -13.13572        -64.07501        104.7737             -200               0             -200               0
1.23026              -0.06534905       -13.24639        -63.48274        101.1571             -200               0             -200               0
1.23684              -0.06731446       -13.35785        -62.92399        97.34877             -200               0             -200               0
1.24342              -0.06929155       -13.47016        -62.39778        93.38391             -200               0             -200               0
1.25                 -0.07127908       -13.58336        -61.90289        89.29191             -200               0             -200               0
1.25658              -0.07327687       -13.69751        -61.43807         85.0974             -200               0             -200               0
1.26316              -0.07528549       -13.81266        -61.00204        80.82121             -200               0             -200               0
1.26974              -0.07730684       -13.92886        -60.59358        76.48114             -200               0             -200               0
1.27632              -0.07934186       -14.04616         -60.2115        72.09258             -200               0             -200               0
1.28289              -0.08139502       -14.16463        -59.85469        67.66902             -200               0             -200               0
1.28947              -0.08346945       -14.28431        -59.52214        63.22242             -200               0             -200               0
1.29605               -0.0855703       -14.40525        -59.21286        58.76359             -200               0             -200               0
1.30263               -0.0877039       -14.52749        -58.92596        54.30239             -200               0             -200               0
1.30921              -0.08987523       -14.65107        -58.66058        49.84797             -200               0             -200               0
1.31579              -0.09209093       -14.77603        -58.41592        45.40899             -200               0             -200               0
1.32237              -0.09435836        -14.9024        -58.19122         40.9937             -200               0             -200               0
1.32895              -0.09668414        -15.0302         -57.9857        36.61011             -200               0             -200               0
1.33553              -0.09907541       -15.15945        -57.79865        32.26609             -200               0             -200               0
1.34211               -0.1015391       -15.29016        -57.62931        27.96946             -200               0             -200               0
1.34868               -0.1040814       -15.42235        -57.47692        23.72802             -200               0             -200               0
1.35526               -0.1067094       -15.55601        -57.34069        19.54966             -200               0             -200               0
1.36184               -0.1094276       -15.69115        -57.21975        15.44238             -200               0             -200               0
1.36842               -0.1122414       -15.82776        -57.11319        11.41426             -200               0             -200               0
1.375                 -0.1151548       -15.96583        -57.01998        7.473487             -200               0             -200               0
1.38158               -0.1181717       -16.10537        -56.93897        3.628333             -200               0             -200               0
1.38816               -0.1212941       -16.24636         -56.8689       -0.112959             -200               0             -200               0
1.39474               -0.1245235        -16.3888        -56.80829       -3.742277             -200               0             -200               0
1.40132               -0.1278609       -16.53268        -56.75551       -7.251808             -200               0             -200               0
1.40789               -0.1313071       -16.67801        -56.70869       -10.63427             -200               0             -200               0
1.41447               -0.1348613       -16.82477        -56.66572       -13.88321             -200               0             -200               0
1.42105               -0.1385209       -16.97299        -56.62427       -16.99337             -200               0             -200               0
1.42763               -0.1422839       -17.12267        -56.58173        -19.9611             -200               0             -200               0
1.43421               -0.1461507       -17.27384        -56.53528       -22.78488             -200               0             -200               0
1.44079                -0.150116       -17.42652        -56.48192       -25.46578             -200               0             -200               0
1.44737               -0.1541793       -17.58075        -56.41853       -28.00801             -200               0             -200               0
1.45395               -0.1583367       -17.73657        -56.34192        -30.4193             -200               0             -200               0
1.46053               -0.1625871       -17.89402        -56.24904       -32.71123             -200               0             -200               0
1.46711               -0.1669286       -18.05317        -56.13703       -34.89928             -200               0             -200               0
1.47368               -0.1713598       -18.21409        -56.00342       -37.00263             -200               0             -200               0
1.48026               -0.1758817       -18.37683        -55.84626       -39.04365             -200               0             -200               0
1.48684               -0.1804937       -18.54148        -55.66425       -41.04711             -200               0             -200               0
1.49342               -0.1851993       -18.70812         -55.4568       -43.03911             -200               0             -200               0
1.5                   -0.1900014       -18.87684         -55.2241       -45.04586             -200               0             -200               0
1.50658               -0.1949047       -19.04772        -54.96708       -47.09248             -200               0             -200               0
1.51316               -0.1999142       -19.22086        -54.68734       -49.20192             -200               0             -200               0
1.51974               -0.2050388       -19.39633        -54.38701       -51.39406             -200               0             -200               0
1.52632               -0.2102857       -19.57424        -54.06862       -53.68513             -200               0             -200               0
1.53289               -0.2156664       -19.75467        -53.73498       -56.08752             -200               0             -200               0
1.53947               -0.2211915        -19.9377        -53.38897        -58.6097             -200               0             -200               0
1.54605               -0.2268736        -20.1234        -53.03348       -61.25657             -200               0             -200               0
1.55263               -0.2327258       -20.31186        -52.67127       -64.02981             -200               0             -200               0
1.55921               -0.2387635       -20.50313        -52.30491       -66.92839             -200               0             -200               0
1.56579               -0.2450001       -20.69727        -51.93675       -69.94907             -200               0             -200               0
1.57237               -0.2514541       -20.89434        -51.56887       -73.08692             -200               0             -200               0
1.57895               -0.2581387       -21.09438        -51.20308       -76.33579             -200               0             -200               0
1.58553               -0.2650691       -21.29741        -50.84095       -79.68861             -200               0             -200               0
1.59211                -0.272264       -21.50347        -50.48378       -83.13783             -200               0             -200               0
1.59868               -0.2797358       -21.71259        -50.13267       -86.67557             -200               0             -200               0
1.60526               -0.2875007       -21.92476        -49.78852       -90.29389             -200               0             -200               0
1.61184               -0.2955721       -22.14001        -49.45201       -93.98487             -200               0             -200               0
1.61842               -0.3039625       -22.35833        -49.12372       -97.74077             -200               0             -200               0
1.625                 -0.3126857       -22.57973        -48.80404       -101.5541             -200               0             -200               0
1.63158               -0.3217522        -22.8042        -48.49328       -105.4176             -200               0             -200               0
1.63816               -0.3311705       -23.03175        -48.19162       -109.3242             -200               0             -200               0
1.64474               -0.3409505       -23.26239        -47.89916       -113.2675             -200               0             -200               0
1.65132               -0.3510995       -23.49611        -47.61591       -117.2411             -200               0             -200               0
1.65789               -0.3616246       -23.73294        -47.34183       -121.2388             -200               0             -200               0
1.66447               -0.3725307       -23.97289         -47.0768       -125.2551             -200               0             -200               0
1.67105                -0.383822       -24.21598        -46.82065       -129.2844             -200               0             -200               0
1.67763               -0.3955037       -24.46227        -46.57316       -133.3216             -200               0             -200               0
1.68421               -0.4075801       -24.71179        -46.33406       -137.3619             -200               0             -200               0
1.69079               -0.4200549       -24.96461        -46.10304       -141.4004             -200               0             -200               0
1.69737               -0.4329313       -25.22081        -45.87974        -145.433             -200               0             -200               0
1.70395               -0.4462137       -25.48048        -45.66376       -149.4553             -200               0             -200               0
1.71053               -0.4599084       -25.74371        -45.45467       -153.4635             -200               0             -200               0
1.71711               -0.4740205       -26.01064        -45.25199       -157.4541             -200               0             -200               0
1.72368               -0.4885592       -26.28138        -45.05519       -161.4235             -200               0             -200               0
1.73026                -0.503535       -26.55608        -44.86373       -165.3689             -200               0             -200               0
1.73684               -0.5189568        -26.8349          -44.677       -169.2873             -200               0             -200               0
1.74342               -0.5348422         -27.118        -44.49438       -173.1764             -200               0             -200               0
1.75                  -0.5512064       -27.40556        -44.31519       -177.0341             -200               0             -200               0
1.75658               -0.5680694       -27.69777        -44.13873        179.1412             -200               0             -200               0
1.76316               -0.5854538        -27.9948        -43.96427        175.3508             -200               0             -200               0
1.76974               -0.6033848       -28.29686        -43.79106        171.5955             -200               0             -200               0
1.77632               -0.6218925       -28.60412        -43.61833        167.8754             -200               0             -200               0
1.78289               -0.6410087        -28.9168        -43.44528        164.1904             -200               0             -200               0
1.78947               -0.6607708       -29.23506        -43.27113        160.5394             -200               0             -200               0
1.79605               -0.6812156       -29.55911        -43.09509        156.9212             -200               0             -200               0
1.80263               -0.7023865       -29.88912        -42.91641        153.3337             -200               0             -200               0
1.80921               -0.7243279       -30.22524        -42.73436        149.7742             -200               0             -200               0
1.81579               -0.7470881       -30.56765        -42.54824        146.2395             -200               0             -200               0
1.82237               -0.7707174       -30.91648        -42.35743        142.7258             -200               0             -200               0
1.82895               -0.7952694       -31.27188        -42.16136        139.2288             -200               0             -200               0
1.83553               -0.8207985       -31.63396        -41.95956        135.7437             -200               0             -200               0
1.84211               -0.8473626       -32.00283        -41.75163        132.2653             -200               0             -200               0
1.84868               -0.8750201       -32.37858         -41.5373        128.7884             -200               0             -200               0
