! TOUCHSTONE file generated by CST MICROWAVE STUDIO
! Date and time: Tue Mar 18 00:02:26 2025
! Project name: oblique.cst
! Parameters = {Tilt=40; Fracture=1; B=10; D=160; F=25; Feed=2.85625; L=100; M=10; R=0.384908; S=2; Theta=90; length=57.125; wave=114.25}
! Header version: 2024
! Port assignment regex: !\s*Touchstone port\s*([0-9]+)\s*=\s*(CST MWS port|CST DES external port|CST DES block port)\s*(.+)\s* \(\"(.*)\"\)(\s*mode\s*([0-9]+))?.*
! Touchstone port assignment:
! Touchstone port 1 = CST MWS port 1 ("")
! Touchstone port 2 = CST MWS port 2 ("")
# GHz S DB R 50
1                    -0.01929641       -9.776885        -68.72612       -163.1384             -200               0             -200               0
1.00658              -0.02004891       -9.864941        -68.61569       -166.7053             -200               0             -200               0
1.01316              -0.02083399       -9.953474        -68.51887       -170.1421             -200               0             -200               0
1.01974              -0.02164877       -10.04248        -68.43365       -173.4392             -200               0             -200               0
1.02632              -0.02249095       -10.13196        -68.35771       -176.5873             -200               0             -200               0
1.03289               -0.0233579       -10.22193        -68.28848        -179.578             -200               0             -200               0
1.03947              -0.02424651       -10.31237        -68.22306        177.5959             -200               0             -200               0
1.04605              -0.02515458       -10.40332         -68.1582        174.9394             -200               0             -200               0
1.05263              -0.02607971       -10.49478        -68.09037         172.455             -200               0             -200               0
1.05921              -0.02701894       -10.58678        -68.01575        170.1419             -200               0             -200               0
1.06579              -0.02797075       -10.67933        -67.93037        167.9951             -200               0             -200               0
1.07237              -0.02893344       -10.77247        -67.83017        166.0049             -200               0             -200               0
1.07895              -0.02990531       -10.86621        -67.71124        164.1564             -200               0             -200               0
1.08553              -0.03088768        -10.9606        -67.56998        162.4294             -200               0             -200               0
1.09211              -0.03187916       -11.05566        -67.40335        160.7986             -200               0             -200               0
1.09868               -0.0328794       -11.15143        -67.20905        159.2348             -200               0             -200               0
1.10526              -0.03389066       -11.24793         -66.9857        157.7057             -200               0             -200               0
1.11184              -0.03491558        -11.3452        -66.73295        156.1781             -200               0             -200               0
1.11842              -0.03595491       -11.44327        -66.45149        154.6192             -200               0             -200               0
1.125                -0.03701249       -11.54216        -66.14295        152.9985             -200               0             -200               0
1.13158              -0.03809165       -11.64191        -65.80979        151.2893             -200               0             -200               0
1.13816              -0.03919633       -11.74254        -65.45509        149.4696             -200               0             -200               0
1.14474              -0.04033015       -11.84406         -65.0823        147.5228             -200               0             -200               0
1.15132               -0.0414977        -11.9465        -64.69506        145.4374             -200               0             -200               0
1.15789              -0.04270328       -12.04986        -64.29699        143.2069             -200               0             -200               0
1.16447              -0.04395129       -12.15415        -63.89156        140.8291             -200               0             -200               0
1.17105              -0.04524625       -12.25938        -63.48197        138.3055             -200               0             -200               0
1.17763              -0.04659225       -12.36555        -63.07111        135.6404             -200               0             -200               0
1.18421              -0.04799351       -12.47265         -62.6615        132.8403             -200               0             -200               0
1.19079              -0.04945335       -12.58068        -62.25532         129.913             -200               0             -200               0
1.19737              -0.05097457       -12.68964        -61.85441        126.8677             -200               0             -200               0
1.20395              -0.05255963        -12.7995        -61.46028        123.7136             -200               0             -200               0
1.21053              -0.05421037       -12.91026        -61.07417        120.4606             -200               0             -200               0
1.21711              -0.05592884        -13.0219        -60.69707        117.1182             -200               0             -200               0
1.22368              -0.05771439       -13.13442        -60.32975         113.696             -200               0             -200               0
1.23026              -0.05956783       -13.24779        -59.97279        110.2031             -200               0             -200               0
1.23684              -0.06148797       -13.36202        -59.62662        106.6483             -200               0             -200               0
1.24342              -0.06347392       -13.47709        -59.29153        103.0399             -200               0             -200               0
1.25                 -0.06552271       -13.59299         -58.9677        99.38605             -200               0             -200               0
1.25658              -0.06763372       -13.70972        -58.65521        95.69416             -200               0             -200               0
1.26316              -0.06980212       -13.82729        -58.35405        91.97139             -200               0             -200               0
1.26974              -0.07202645       -13.94571        -58.06416        88.22448             -200               0             -200               0
1.27632              -0.07430299       -14.06498        -57.78542        84.45982             -200               0             -200               0
1.28289              -0.07662721       -14.18512        -57.51762        80.68346             -200               0             -200               0
1.28947              -0.07899763       -14.30616        -57.26055        76.90113             -200               0             -200               0
1.29605              -0.08140984       -14.42812        -57.01394        73.11827             -200               0             -200               0
1.30263              -0.08386172       -14.55104        -56.77745        69.34006             -200               0             -200               0
1.30921              -0.08635016       -14.67494        -56.55075        65.57143             -200               0             -200               0
1.31579              -0.08887318       -14.79988        -56.33344        61.81705             -200               0             -200               0
1.32237              -0.09142969        -14.9259         -56.1251        58.08137             -200               0             -200               0
1.32895              -0.09401899       -15.05305        -55.92526         54.3686             -200               0             -200               0
1.33553              -0.09664026       -15.18137        -55.73342        50.68273             -200               0             -200               0
1.34211              -0.09929467       -15.31092        -55.54905         47.0275             -200               0             -200               0
1.34868               -0.1019848       -15.44176        -55.37155        43.40638             -200               0             -200               0
1.35526               -0.1047111       -15.57394        -55.20033         39.8226             -200               0             -200               0
1.36184               -0.1074774        -15.7075        -55.03472        36.27907             -200               0             -200               0
1.36842               -0.1102876       -15.84251        -54.87402        32.77836             -200               0             -200               0
1.375                 -0.1131454       -15.97901        -54.71751        29.32271             -200               0             -200               0
1.38158               -0.1160558       -16.11705        -54.56441        25.91392             -200               0             -200               0
1.38816               -0.1190246       -16.25667        -54.41394        22.55337             -200               0             -200               0
1.39474               -0.1220575       -16.39791        -54.26525        19.24196             -200               0             -200               0
1.40132               -0.1251605       -16.54082         -54.1175        15.98002             -200               0             -200               0
1.40789               -0.1283401       -16.68541        -53.96984        12.76737             -200               0             -200               0
1.41447               -0.1316015       -16.83173        -53.82139        9.603175             -200               0             -200               0
1.42105               -0.1349517        -16.9798         -53.6713        6.485997             -200               0             -200               0
1.42763               -0.1383971       -17.12964        -53.51874        3.413746             -200               0             -200               0
1.43421               -0.1419415       -17.28126        -53.36291       0.3836836             -200               0             -200               0
1.44079               -0.1455907       -17.43469        -53.20305       -2.607556             -200               0             -200               0
1.44737               -0.1493492       -17.58995        -53.03847       -5.563937             -200               0             -200               0
1.45395               -0.1532218       -17.74704        -52.86857       -8.489968             -200               0             -200               0
1.46053               -0.1572111       -17.90598        -52.69282       -11.39063             -200               0             -200               0
1.46711               -0.1613201       -18.06679        -52.51081       -14.27128             -200               0             -200               0
1.47368               -0.1655504       -18.22948        -52.32224       -17.13756             -200               0             -200               0
1.48026               -0.1699043       -18.39409        -52.12692       -19.99528             -200               0             -200               0
1.48684               -0.1743826       -18.56062        -51.92477       -22.85026             -200               0             -200               0
1.49342                -0.178986       -18.72913        -51.71584       -25.70827             -200               0             -200               0
1.5                   -0.1837139       -18.89963         -51.5003       -28.57485             -200               0             -200               0
1.50658               -0.1885671       -19.07217        -51.27842       -31.45526             -200               0             -200               0
1.51316               -0.1935452       -19.24681        -51.05056        -34.3543             -200               0             -200               0
1.51974               -0.1986486        -19.4236        -50.81715       -37.27632             -200               0             -200               0
1.52632               -0.2038768        -19.6026        -50.57871       -40.22512             -200               0             -200               0
1.53289               -0.2092311       -19.78389         -50.3358        -43.2039             -200               0             -200               0
1.53947               -0.2147137       -19.96755        -50.08903       -46.21525             -200               0             -200               0
1.54605               -0.2203248       -20.15366        -49.83899       -49.26116             -200               0             -200               0
1.55263                -0.226069       -20.34233        -49.58634         -52.343             -200               0             -200               0
1.55921               -0.2319493       -20.53366        -49.33168       -55.46161             -200               0             -200               0
1.56579               -0.2379723       -20.72774        -49.07562       -58.61725             -200               0             -200               0
1.57237               -0.2441451       -20.92471        -48.81874       -61.80974             -200               0             -200               0
1.57895               -0.2504756       -21.12466        -48.56158       -65.03842             -200               0             -200               0
1.58553               -0.2569748       -21.32772        -48.30466       -68.30228             -200               0             -200               0
1.59211               -0.2636529       -21.53401        -48.04844       -71.59994             -200               0             -200               0
1.59868               -0.2705257       -21.74365        -47.79332        -74.9298             -200               0             -200               0
1.60526               -0.2776075       -21.95676        -47.53969       -78.28996             -200               0             -200               0
1.61184               -0.2849158       -22.17345        -47.28785       -81.67841             -200               0             -200               0
1.61842               -0.2924692       -22.39383        -47.03808       -85.09296             -200               0             -200               0
1.625                 -0.3002857       -22.61802        -46.79058       -88.53134             -200               0             -200               0
1.63158               -0.3083915       -22.84611        -46.54553       -91.99123             -200               0             -200               0
1.63816               -0.3168041       -23.07818        -46.30306       -95.47027             -200               0             -200               0
1.64474               -0.3255513       -23.31435        -46.06323       -98.96614             -200               0             -200               0
1.65132               -0.3346573       -23.55466        -45.82608       -102.4765             -200               0             -200               0
1.65789               -0.3441461        -23.7992        -45.59161       -105.9992             -200               0             -200               0
1.66447               -0.3540457       -24.04802        -45.35976        -109.532             -200               0             -200               0
1.67105               -0.3643814       -24.30117        -45.13046       -113.0728             -200               0             -200               0
1.67763               -0.3751798        -24.5587         -44.9036       -116.6199             -200               0             -200               0
1.68421               -0.3864683       -24.82063        -44.67902       -120.1713             -200               0             -200               0
1.69079               -0.3982731       -25.08699        -44.45654       -123.7255             -200               0             -200               0
1.69737               -0.4106192       -25.35781        -44.23598        -127.281             -200               0             -200               0
1.70395               -0.4235318       -25.63309         -44.0171       -130.8366             -200               0             -200               0
1.71053               -0.4370378       -25.91285        -43.79967       -134.3912             -200               0             -200               0
1.71711               -0.4511594        -26.1971        -43.58342       -137.9441             -200               0             -200               0
1.72368                -0.465921       -26.48583        -43.36809       -141.4945             -200               0             -200               0
1.73026               -0.4813452       -26.77907         -43.1534        -145.042             -200               0             -200               0
1.73684               -0.4974533       -27.07681        -42.93907       -148.5867             -200               0             -200               0
1.74342               -0.5142668       -27.37908         -42.7248       -152.1284             -200               0             -200               0
1.75                  -0.5318068       -27.68588        -42.51031       -155.6675             -200               0             -200               0
1.75658               -0.5500945       -27.99724        -42.29533       -159.2047             -200               0             -200               0
1.76316               -0.5691486       -28.31321         -42.0796       -162.7405             -200               0             -200               0
1.76974               -0.5889917       -28.63381        -41.86285       -166.2761             -200               0             -200               0
1.77632                -0.609644       -28.95911        -41.64487       -169.8127             -200               0             -200               0
1.78289               -0.6311274       -29.28916        -41.42544       -173.3515             -200               0             -200               0
1.78947               -0.6534642       -29.62405        -41.20437       -176.8942             -200               0             -200               0
1.79605               -0.6766777       -29.96386         -40.9815        179.5575             -200               0             -200               0
1.80263               -0.7007953       -30.30868        -40.75672        176.0019             -200               0             -200               0
1.80921               -0.7258424       -30.65863        -40.52992        172.4369             -200               0             -200               0
1.81579                -0.751851       -31.01385        -40.30105        168.8607             -200               0             -200               0
1.82237               -0.7788535       -31.37443        -40.07008        165.2711             -200               0             -200               0
1.82895               -0.8068859       -31.74055        -39.83703        161.6661             -200               0             -200               0
1.83553               -0.8359873       -32.11234        -39.60193        158.0438             -200               0             -200               0
1.84211               -0.8662007       -32.48995        -39.36487        154.4021             -200               0             -200               0
1.84868               -0.8975742       -32.87356        -39.12594        150.7391             -200               0             -200               0
