! TOUCHSTONE file generated by CST MICROWAVE STUDIO
! Date and time: Tue Mar 18 00:02:16 2025
! Project name: oblique.cst
! Parameters = {Tilt=40; Fracture=1; B=10; D=160; F=15; Feed=2.85625; L=100; M=10; R=0.384908; S=2; Theta=90; length=57.125; wave=114.25}
! Header version: 2024
! Port assignment regex: !\s*Touchstone port\s*([0-9]+)\s*=\s*(CST MWS port|CST DES external port|CST DES block port)\s*(.+)\s* \(\"(.*)\"\)(\s*mode\s*([0-9]+))?.*
! Touchstone port assignment:
! Touchstone port 1 = CST MWS port 1 ("")
! Touchstone port 2 = CST MWS port 2 ("")
# GHz S DB R 50
1                    -0.01910258        -9.78543         -70.3395       -145.1507             -200               0             -200               0
1.00658              -0.01983974       -9.873831        -70.08764       -148.3564             -200               0             -200               0
1.01316              -0.02061446       -9.962692         -69.8526       -151.5259             -200               0             -200               0
1.01974              -0.02142473         -10.052         -69.6332       -154.6471             -200               0             -200               0
1.02632              -0.02226675       -10.14175        -69.42813       -157.7087             -200               0             -200               0
1.03289              -0.02313557       -10.23194        -69.23595       -160.6999             -200               0             -200               0
1.03947              -0.02402874       -10.32258        -69.05502       -163.6108             -200               0             -200               0
1.04605              -0.02494204       -10.41366        -68.88355       -166.4324             -200               0             -200               0
1.05263              -0.02586954       -10.50521        -68.71955       -169.1564             -200               0             -200               0
1.05921              -0.02680867       -10.59725        -68.56084       -171.7762             -200               0             -200               0
1.06579              -0.02775587        -10.6898        -68.40505       -174.2865             -200               0             -200               0
1.07237              -0.02870675       -10.78289        -68.24961       -176.6841             -200               0             -200               0
1.07895              -0.02965936       -10.87655        -68.09184        -178.968             -200               0             -200               0
1.08553              -0.03061223       -10.97083        -67.92894          178.86             -200               0             -200               0
1.09211              -0.03156476       -11.06575        -67.75808        176.7954             -200               0             -200               0
1.09868              -0.03251412       -11.16138        -67.57648        174.8304             -200               0             -200               0
1.10526              -0.03346336       -11.25774        -67.38155        172.9538             -200               0             -200               0
1.11184              -0.03441204       -11.35488        -67.17094        171.1513             -200               0             -200               0
1.11842              -0.03536315       -11.45285        -66.94271        169.4059             -200               0             -200               0
1.125                -0.03631946       -11.55169        -66.69539        167.6983             -200               0             -200               0
1.13158                -0.037284       -11.65143        -66.42809        166.0074             -200               0             -200               0
1.13816              -0.03826341       -11.75212        -66.14054        164.3116             -200               0             -200               0
1.14474              -0.03926127       -11.85377        -65.83307        162.5898             -200               0             -200               0
1.15132              -0.04028245       -11.95643        -65.50659        160.8219             -200               0             -200               0
1.15789              -0.04133341       -12.06011        -65.16254        158.9896             -200               0             -200               0
1.16447              -0.04242194       -12.16483        -64.80274        157.0776             -200               0             -200               0
1.17105              -0.04355162        -12.2706        -64.42932        155.0734             -200               0             -200               0
1.17763              -0.04473076       -12.37742        -64.04461        152.9674             -200               0             -200               0
1.18421              -0.04596375       -12.48529          -63.651        150.7533             -200               0             -200               0
1.19079              -0.04725597       -12.59421        -63.25083        148.4277             -200               0             -200               0
1.19737              -0.04861443       -12.70417        -62.84639        145.9897             -200               0             -200               0
1.20395              -0.05004094       -12.81515         -62.4398        143.4404             -200               0             -200               0
1.21053              -0.05154195       -12.92714        -62.03298        140.7828             -200               0             -200               0
1.21711              -0.05311674       -13.04011        -61.62766        138.0214             -200               0             -200               0
1.22368              -0.05477029       -13.15405        -61.22535        135.1617             -200               0             -200               0
1.23026              -0.05650313       -13.26894        -60.82736        132.2097             -200               0             -200               0
1.23684               -0.0583154       -13.38475        -60.43477        129.1723             -200               0             -200               0
1.24342              -0.06020511       -13.50146        -60.04851        126.0562             -200               0             -200               0
1.25                 -0.06217216       -13.61906         -59.6693        122.8685             -200               0             -200               0
1.25658              -0.06421364       -13.73754        -59.29774        119.6163             -200               0             -200               0
1.26316              -0.06632792       -13.85689        -58.93427        116.3065             -200               0             -200               0
1.26974              -0.06850893       -13.97709        -58.57922        112.9458             -200               0             -200               0
1.27632              -0.07075556       -14.09817        -58.23281        109.5405             -200               0             -200               0
1.28289              -0.07306088       -14.22012        -57.89515        106.0971             -200               0             -200               0
1.28947              -0.07542368       -14.34296        -57.56629        102.6213             -200               0             -200               0
1.29605              -0.07783597       -14.46672        -57.24619         99.1188             -200               0             -200               0
1.30263              -0.08029472       -14.59141        -56.93476        95.59494             -200               0             -200               0
1.30921              -0.08279795       -14.71709        -56.63185        92.05475             -200               0             -200               0
1.31579              -0.08533978       -14.84379        -56.33725        88.50295             -200               0             -200               0
1.32237              -0.08791762       -14.97155        -56.05071        84.94398             -200               0             -200               0
1.32895              -0.09053102       -15.10044        -55.77194        81.38198             -200               0             -200               0
1.33553               -0.0931767       -15.23051        -55.50061        77.82079             -200               0             -200               0
1.34211              -0.09585596       -15.36181        -55.23636        74.26399             -200               0             -200               0
1.34868              -0.09856795       -15.49441         -54.9788        70.71483             -200               0             -200               0
1.35526               -0.1013146       -15.62839         -54.7275        67.17629             -200               0             -200               0
1.36184               -0.1041002       -15.76379        -54.48202        63.65104             -200               0             -200               0
1.36842               -0.1069282       -15.90068         -54.2419        60.14145             -200               0             -200               0
1.375                 -0.1098012       -16.03914        -54.00663        56.64958             -200               0             -200               0
1.38158               -0.1127266        -16.1792        -53.77573        53.17717             -200               0             -200               0
1.38816               -0.1157113       -16.32095        -53.54866        49.72561             -200               0             -200               0
1.39474               -0.1187603       -16.46441        -53.32491        46.29597             -200               0             -200               0
1.40132               -0.1218846       -16.60965        -53.10393        42.88898             -200               0             -200               0
1.40789               -0.1250895        -16.7567         -52.8852        39.50501             -200               0             -200               0
1.41447               -0.1283832        -16.9056        -52.66818        36.14408             -200               0             -200               0
1.42105               -0.1317768       -17.05639        -52.45235        32.80583             -200               0             -200               0
1.42763               -0.1352774       -17.20907         -52.2372        29.48959             -200               0             -200               0
1.43421               -0.1388928       -17.36369        -52.02226        26.19432             -200               0             -200               0
1.44079               -0.1426316       -17.52025        -51.80706        22.91868             -200               0             -200               0
1.44737               -0.1465003       -17.67877        -51.59117        19.66097             -200               0             -200               0
1.45395               -0.1505069       -17.83924         -51.3742        16.41925             -200               0             -200               0
1.46053               -0.1546587       -18.00169        -51.15582        13.19132             -200               0             -200               0
1.46711               -0.1589577       -18.16611        -50.93572         9.97476             -200               0             -200               0
1.47368               -0.1634116       -18.33252        -50.71365        6.766988             -200               0             -200               0
1.48026               -0.1680227       -18.50091        -50.48943        3.565287             -200               0             -200               0
1.48684               -0.1727942       -18.67129        -50.26291       0.3668658             -200               0             -200               0
1.49342               -0.1777301       -18.84368        -50.03402       -2.831096             -200               0             -200               0
1.5                   -0.1828296       -19.01809        -49.80272       -6.031395             -200               0             -200               0
1.50658               -0.1880954       -19.19455        -49.56906       -9.236759             -200               0             -200               0
1.51316               -0.1935265       -19.37307        -49.33309       -12.44979             -200               0             -200               0
1.51974               -0.1991253        -19.5537        -49.09497       -15.67296             -200               0             -200               0
1.52632               -0.2048919       -19.73647        -48.85484       -18.90851             -200               0             -200               0
1.53289               -0.2108243       -19.92143        -48.61292       -22.15847             -200               0             -200               0
1.53947               -0.2169256       -20.10865        -48.36945       -25.42464             -200               0             -200               0
1.54605               -0.2231951       -20.29819        -48.12469       -28.70853             -200               0             -200               0
1.55263               -0.2296343       -20.49012        -47.87891       -32.01136             -200               0             -200               0
1.55921               -0.2362469       -20.68453        -47.63242       -35.33412             -200               0             -200               0
1.56579               -0.2430359        -20.8815        -47.38551       -38.67746             -200               0             -200               0
1.57237               -0.2500053       -21.08114        -47.13848       -42.04179             -200               0             -200               0
1.57895               -0.2571614       -21.28353        -46.89164       -45.42724             -200               0             -200               0
1.58553               -0.2645124        -21.4888        -46.64528       -48.83369             -200               0             -200               0
1.59211               -0.2720653       -21.69704        -46.39966       -52.26079             -200               0             -200               0
1.59868               -0.2798322       -21.90837        -46.15505       -55.70798             -200               0             -200               0
1.60526               -0.2878247        -22.1229        -45.91169       -59.17449             -200               0             -200               0
1.61184               -0.2960562       -22.34074         -45.6698       -62.65939             -200               0             -200               0
1.61842               -0.3045427       -22.56201        -45.42958       -66.16161             -200               0             -200               0
1.625                 -0.3133013       -22.78679        -45.19119       -69.67995             -200               0             -200               0
1.63158               -0.3223496       -23.01522        -44.95476       -73.21311             -200               0             -200               0
1.63816               -0.3317072       -23.24738        -44.72042       -76.75968             -200               0             -200               0
1.64474               -0.3413966       -23.48335        -44.48826       -80.31823             -200               0             -200               0
1.65132               -0.3514391       -23.72323        -44.25832       -83.88728             -200               0             -200               0
1.65789               -0.3618572        -23.9671        -44.03063       -87.46533             -200               0             -200               0
1.66447               -0.3726749       -24.21503         -43.8052       -91.05087             -200               0             -200               0
1.67105               -0.3839174       -24.46707        -43.58199       -94.64244             -200               0             -200               0
1.67763               -0.3956093        -24.7233        -43.36096        -98.2386             -200               0             -200               0
1.68421               -0.4077734       -24.98375        -43.14203        -101.838             -200               0             -200               0
1.69079               -0.4204371       -25.24847        -42.92508       -105.4392             -200               0             -200               0
1.69737               -0.4336244       -25.51751        -42.70999       -109.0412             -200               0             -200               0
1.70395               -0.4473605       -25.79089        -42.49662       -112.6427             -200               0             -200               0
1.71053               -0.4616692       -26.06864        -42.28478       -116.2428             -200               0             -200               0
1.71711                -0.476575       -26.35081         -42.0743       -119.8406             -200               0             -200               0
1.72368               -0.4921024        -26.6374        -41.86497       -123.4354             -200               0             -200               0
1.73026               -0.5082742       -26.92846        -41.65656       -127.0267             -200               0             -200               0
1.73684               -0.5251132       -27.22401        -41.44886        -130.614             -200               0             -200               0
1.74342               -0.5426445       -27.52408        -41.24163       -134.1972             -200               0             -200               0
1.75                  -0.5608906       -27.82873        -41.03461       -137.7761             -200               0             -200               0
1.75658               -0.5798743       -28.13798        -40.82756       -141.3511             -200               0             -200               0
1.76316               -0.5996196       -28.45189        -40.62025       -144.9223             -200               0             -200               0
1.76974               -0.6201508       -28.77052        -40.41242       -148.4905             -200               0             -200               0
1.77632               -0.6414937       -29.09393        -40.20385       -152.0562             -200               0             -200               0
1.78289               -0.6636737        -29.4222         -39.9943       -155.6205             -200               0             -200               0
1.78947               -0.6867207       -29.75541        -39.78358       -159.1843             -200               0             -200               0
1.79605               -0.7106632       -30.09365        -39.57149       -162.7491             -200               0             -200               0
1.80263               -0.7355323       -30.43702        -39.35785       -166.3161             -200               0             -200               0
1.80921               -0.7613635       -30.78561        -39.14252       -169.8869             -200               0             -200               0
1.81579               -0.7881923       -31.13955        -38.92537       -173.4633             -200               0             -200               0
1.82237               -0.8160594       -31.49893        -38.70632       -177.0469             -200               0             -200               0
1.82895               -0.8450073       -31.86389        -38.48528        179.3603             -200               0             -200               0
1.83553               -0.8750823       -32.23453        -38.26223        175.7566             -200               0             -200               0
1.84211               -0.9063347       -32.61097        -38.03716        172.1399             -200               0             -200               0
1.84868                -0.938818       -32.99333        -37.81009        168.5084             -200               0             -200               0
