! TOUCHSTONE file generated by CST MICROWAVE STUDIO
! Date and time: Tue Mar 18 00:03:02 2025
! Project name: oblique.cst
! Parameters = {Tilt=40; Fracture=1; B=12.5; D=160; F=25; Feed=2.85625; L=100; M=30; R=0.384908; S=1; Theta=90; length=57.125; wave=114.25}
! Header version: 2024
! Port assignment regex: !\s*Touchstone port\s*([0-9]+)\s*=\s*(CST MWS port|CST DES external port|CST DES block port)\s*(.+)\s* \(\"(.*)\"\)(\s*mode\s*([0-9]+))?.*
! Touchstone port assignment:
! Touchstone port 1 = CST MWS port 1 ("")
! Touchstone port 2 = CST MWS port 2 ("")
# GHz S DB R 50
1                    -0.02173546       -9.790973        -65.13566        163.9584             -200               0             -200               0
1.0066               -0.02227311       -9.877137        -65.20359        157.7823             -200               0             -200               0
1.0132               -0.02278322       -9.964046         -65.3088        151.7104             -200               0             -200               0
1.0198               -0.02327049       -10.05176        -65.45332        145.7506             -200               0             -200               0
1.0264                -0.0237397       -10.14033         -65.6396         139.914             -200               0             -200               0
1.033                -0.02419895       -10.22981        -65.87055        134.2152             -200               0             -200               0
1.0396               -0.02465591       -10.32024         -66.1497        128.6736             -200               0             -200               0
1.0462               -0.02512011       -10.41165         -66.4812        123.3151             -200               0             -200               0
1.05281               -0.0256007       -10.50407        -66.87003        118.1742             -200               0             -200               0
1.05941              -0.02610764       -10.59751        -67.32205        113.2974             -200               0             -200               0
1.06601              -0.02665016       -10.69198        -67.84411        108.7486             -200               0             -200               0
1.07261              -0.02723722       -10.78747        -68.44401        104.6165             -200               0             -200               0
1.07921              -0.02787906       -10.88397         -69.1302        101.0265             -200               0             -200               0
1.08581              -0.02858414       -10.98146        -69.91067        98.15898             -200               0             -200               0
1.09241              -0.02935904       -11.07989        -70.79014        96.27609             -200               0             -200               0
1.09901              -0.03021063       -11.17925        -71.76322        95.75757             -200               0             -200               0
1.10561               -0.0311444       -11.27948         -72.7991        97.13155             -200               0             -200               0
1.11221              -0.03216324       -11.38054        -73.81145        101.0357             -200               0             -200               0
1.11881              -0.03327033       -11.48237        -74.61879        107.9299             -200               0             -200               0
1.12541               -0.0344652       -11.58494        -74.95316         117.378             -200               0             -200               0
1.13201               -0.0357499       -11.68818        -74.61873        127.4919             -200               0             -200               0
1.13861              -0.03711924       -11.79206        -73.68536        135.9103             -200               0             -200               0
1.14521              -0.03857143       -11.89654        -72.41317        141.4435             -200               0             -200               0
1.15182              -0.04010105       -12.00156        -71.03697        144.1994             -200               0             -200               0
1.15842              -0.04170177       -12.10712        -69.68777        144.7862             -200               0             -200               0
1.16502              -0.04336702       -12.21318        -68.42004        143.8039             -200               0             -200               0
1.17162              -0.04508895       -12.31974        -67.24941        141.7078             -200               0             -200               0
1.17822              -0.04685928       -12.42679        -66.17493        138.8169             -200               0             -200               0
1.18482              -0.04867108       -12.53435        -65.18956        135.3509             -200               0             -200               0
1.19142               -0.0505142       -12.64243        -64.28465        131.4621             -200               0             -200               0
1.19802              -0.05238249       -12.75106        -63.45177        127.2579             -200               0             -200               0
1.20462              -0.05426665       -12.86029        -62.68333        122.8156             -200               0             -200               0
1.21122              -0.05616173       -12.97017         -61.9727        118.1916             -200               0             -200               0
1.21782              -0.05806151       -13.08076         -61.3142        113.4286             -200               0             -200               0
1.22442              -0.05996093       -13.19211        -60.70297        108.5588             -200               0             -200               0
1.23102              -0.06185889       -13.30431        -60.13487        103.6076             -200               0             -200               0
1.23762              -0.06375256       -13.41743        -59.60636        98.59491             -200               0             -200               0
1.24422                -0.065643       -13.53155        -59.11442        93.53705             -200               0             -200               0
1.25083              -0.06753303       -13.64674        -58.65642        88.44733             -200               0             -200               0
1.25743                -0.069424       -13.76309        -58.23009        83.33697             -200               0             -200               0
1.26403              -0.07132248       -13.88067        -57.83349        78.21557             -200               0             -200               0
1.27063              -0.07323637       -13.99955        -57.46489        73.09149             -200               0             -200               0
1.27723              -0.07517197        -14.1198        -57.12279         67.9722             -200               0             -200               0
1.28383              -0.07713813       -14.24147        -56.80585        62.86447             -200               0             -200               0
1.29043              -0.07914748       -14.36462         -56.5129        57.77457             -200               0             -200               0
1.29703              -0.08121067       -14.48928        -56.24287        52.70845             -200               0             -200               0
1.30363              -0.08333775       -14.61549        -55.99482        47.67177             -200               0             -200               0
1.31023              -0.08554124       -14.74325        -55.76787        42.67014             -200               0             -200               0
1.31683              -0.08783223       -14.87257        -55.56123        37.70909             -200               0             -200               0
1.32343              -0.09022349       -15.00346        -55.37413        32.79417             -200               0             -200               0
1.33003              -0.09272624        -15.1359        -55.20587        27.93107             -200               0             -200               0
1.33663              -0.09534794       -15.26986        -55.05576         23.1256             -200               0             -200               0
1.34323              -0.09809833       -15.40532        -54.92309        18.38381             -200               0             -200               0
1.34984               -0.1009846       -15.54224        -54.80717        13.71195             -200               0             -200               0
1.35644               -0.1040133       -15.68057        -54.70727        9.116564             -200               0             -200               0
1.36304               -0.1071869       -15.82028        -54.62261        4.604474             -200               0             -200               0
1.36964               -0.1105112       -15.96131        -54.55234       0.1827919             -200               0             -200               0
1.37624               -0.1139833       -16.10362        -54.49552         -4.1411             -200               0             -200               0
1.38284               -0.1176054       -16.24717         -54.4511        -8.35959             -200               0             -200               0
1.38944               -0.1213732       -16.39191        -54.41788       -12.46491             -200               0             -200               0
1.39604               -0.1252833       -16.53783        -54.39449       -16.44927             -200               0             -200               0
1.40264               -0.1293305        -16.6849        -54.37938       -20.30496             -200               0             -200               0
1.40924                -0.133508       -16.83309        -54.37076       -24.02467             -200               0             -200               0
1.41584               -0.1378078       -16.98242        -54.36661       -27.60168             -200               0             -200               0
1.42244               -0.1422243        -17.1329        -54.36462       -31.03031             -200               0             -200               0
1.42904                -0.146748       -17.28454        -54.36224       -34.30631             -200               0             -200               0
1.43564               -0.1513716       -17.43738        -54.35665       -37.42737             -200               0             -200               0
1.44224               -0.1560862       -17.59147         -54.3448       -40.39371             -200               0             -200               0
1.44884               -0.1608873       -17.74689        -54.32348        -43.2086             -200               0             -200               0
1.45545               -0.1657661       -17.90369        -54.28938       -45.87891             -200               0             -200               0
1.46205               -0.1707193       -18.06198        -54.23924       -48.41549             -200               0             -200               0
1.46865               -0.1757445       -18.22184        -54.16997       -50.83334             -200               0             -200               0
1.47525               -0.1808396       -18.38337        -54.07882       -53.15158             -200               0             -200               0
1.48185               -0.1860075        -18.5467        -53.96355       -55.39295             -200               0             -200               0
1.48845               -0.1912486       -18.71192        -53.82258       -57.58312             -200               0             -200               0
1.49505               -0.1965703       -18.87917        -53.65505       -59.74953             -200               0             -200               0
1.50165               -0.2019797       -19.04854        -53.46095       -61.92021             -200               0             -200               0
1.50825               -0.2074856       -19.22016        -53.24107       -64.12236             -200               0             -200               0
1.51485               -0.2131007       -19.39413        -52.99694       -66.38112             -200               0             -200               0
1.52145                -0.218838       -19.57055        -52.73072       -68.71857             -200               0             -200               0
1.52805               -0.2247131       -19.74952        -52.44503       -71.15299             -200               0             -200               0
1.53465               -0.2307437       -19.93109        -52.14281       -73.69849             -200               0             -200               0
1.54125               -0.2369485       -20.11536        -51.82714       -76.36499             -200               0             -200               0
1.54785               -0.2433462       -20.30236         -51.5011       -79.15846             -200               0             -200               0
1.55446               -0.2499559       -20.49213        -51.16768       -82.08132             -200               0             -200               0
1.56106               -0.2567962       -20.68471        -50.82967       -85.13295             -200               0             -200               0
1.56766               -0.2638883       -20.88009         -50.4896       -88.31033             -200               0             -200               0
1.57426               -0.2712492       -21.07828        -50.14974       -91.60851             -200               0             -200               0
1.58086               -0.2788979       -21.27926        -49.81208       -95.02113             -200               0             -200               0
1.58746               -0.2868502         -21.483        -49.47832       -98.54087             -200               0             -200               0
1.59406               -0.2951203       -21.68946        -49.14991       -102.1598             -200               0             -200               0
1.60066               -0.3037202       -21.89859        -48.82805       -105.8696             -200               0             -200               0
1.60726               -0.3126608       -22.11035        -48.51374        -109.662             -200               0             -200               0
1.61386               -0.3219507       -22.32469        -48.20776       -113.5284             -200               0             -200               0
1.62046               -0.3315942       -22.54155        -47.91074       -117.4608             -200               0             -200               0
1.62706               -0.3415957       -22.76089        -47.62318       -121.4511             -200               0             -200               0
1.63366               -0.3519553       -22.98266        -47.34543       -125.4916             -200               0             -200               0
1.64026               -0.3626726       -23.20683        -47.07773       -129.5749             -200               0             -200               0
1.64686               -0.3737424       -23.43339        -46.82024       -133.6937             -200               0             -200               0
1.65347               -0.3851615       -23.66233        -46.57303       -137.8412             -200               0             -200               0
1.66007               -0.3969227       -23.89366         -46.3361       -142.0109             -200               0             -200               0
1.66667                -0.409017       -24.12741        -46.10938       -146.1964             -200               0             -200               0
1.67327               -0.4214385       -24.36366        -45.89274       -150.3916             -200               0             -200               0
1.67987               -0.4341788       -24.60245        -45.68601       -154.5907             -200               0             -200               0
1.68647               -0.4472285       -24.84391        -45.48896        -158.788             -200               0             -200               0
1.69307               -0.4605821       -25.08814        -45.30129       -162.9782             -200               0             -200               0
1.69967                -0.474233        -25.3353        -45.12269       -167.1559             -200               0             -200               0
1.70627               -0.4881804       -25.58556        -44.95276       -171.3161             -200               0             -200               0
1.71287               -0.5024225       -25.83909        -44.79109       -175.4539             -200               0             -200               0
1.71947                -0.516962       -26.09611        -44.63718       -179.5645             -200               0             -200               0
1.72607               -0.5318028       -26.35685        -44.49048        176.3565             -200               0             -200               0
1.73267               -0.5469578       -26.62152        -44.35042        172.3134             -200               0             -200               0
1.73927               -0.5624389        -26.8904        -44.21632        168.3103             -200               0             -200               0
1.74587               -0.5782644       -27.16371        -44.08746        164.3509             -200               0             -200               0
1.75248               -0.5944564       -27.44173        -43.96306        160.4388             -200               0             -200               0
1.75908                -0.611042       -27.72471        -43.84227        156.5768             -200               0             -200               0
1.76568               -0.6280547       -28.01289        -43.72417        152.7676             -200               0             -200               0
1.77228               -0.6455299       -28.30653        -43.60777        149.0131             -200               0             -200               0
1.77888                -0.663505       -28.60585        -43.49205         145.315             -200               0             -200               0
1.78548               -0.6820273       -28.91107        -43.37591        141.6737             -200               0             -200               0
1.79208               -0.7011419       -29.22239        -43.25822        138.0893             -200               0             -200               0
1.79868               -0.7209007          -29.54        -43.13783        134.5609             -200               0             -200               0
1.80528                -0.741357       -29.86406        -43.01356        131.0864             -200               0             -200               0
1.81188               -0.7625651        -30.1947        -42.88427        127.6631             -200               0             -200               0
1.81848                -0.784583       -30.53204        -42.74882        124.2869             -200               0             -200               0
1.82508               -0.8074669       -30.87618        -42.60615         120.953             -200               0             -200               0
1.83168               -0.8312761       -31.22718        -42.45529        117.6554             -200               0             -200               0
1.83828                -0.856069        -31.5851        -42.29537        114.3871             -200               0             -200               0
1.84488               -0.8819039       -31.94998        -42.12567        111.1404             -200               0             -200               0
1.85149               -0.9088378       -32.32183        -41.94562        107.9071             -200               0             -200               0
