! TOUCHSTONE file generated by CST MICROWAVE STUDIO
! Date and time: Tue Mar 18 00:00:55 2025
! Project name: oblique.cst
! Parameters = {Tilt=30; Fracture=1; B=10; D=160; F=15; Feed=2.85625; L=100; M=50; R=0.384908; S=1; Theta=90; length=57.125; wave=114.25}
! Header version: 2024
! Port assignment regex: !\s*Touchstone port\s*([0-9]+)\s*=\s*(CST MWS port|CST DES external port|CST DES block port)\s*(.+)\s* \(\"(.*)\"\)(\s*mode\s*([0-9]+))?.*
! Touchstone port assignment:
! Touchstone port 1 = CST MWS port 1 ("")
! Touchstone port 2 = CST MWS port 2 ("")
# GHz S DB R 50
1                    -0.02127407       -9.795522        -66.85473         158.691             -200               0             -200               0
1.00662              -0.02200807       -9.883504        -66.86529        152.5398             -200               0             -200               0
1.01325              -0.02275146       -9.972062        -66.91062        146.4773             -200               0             -200               0
1.01987              -0.02350334       -10.06122        -66.99206        140.5085             -200               0             -200               0
1.02649              -0.02426635       -10.15099        -67.11125        134.6408             -200               0             -200               0
1.03311              -0.02504004       -10.24141         -67.2702        128.8837             -200               0             -200               0
1.03974               -0.0258265       -10.33249        -67.47134        123.2498             -200               0             -200               0
1.04636              -0.02662845       -10.42425        -67.71758        117.7558             -200               0             -200               0
1.05298              -0.02744488       -10.51671        -68.01237        112.4233             -200               0             -200               0
1.0596               -0.02828116        -10.6099        -68.35983        107.2808             -200               0             -200               0
1.06623              -0.02913845       -10.70382        -68.76482        102.3662             -200               0             -200               0
1.07285              -0.03002065       -10.79849        -69.23301        97.73032             -200               0             -200               0
1.07947              -0.03092846       -10.89392        -69.77091        93.44247             -200               0             -200               0
1.08609               -0.0318648       -10.99012        -70.38569        89.59847             -200               0             -200               0
1.09272              -0.03283423        -11.0871        -71.08466          86.333             -200               0             -200               0
1.09934              -0.03383871       -11.18486        -71.87375        83.83784             -200               0             -200               0
1.10596              -0.03487985        -11.2834        -72.75393        82.38745             -200               0             -200               0
1.11258              -0.03596114       -11.38274        -73.71312        82.36874             -200               0             -200               0
1.11921              -0.03708438       -11.48285         -74.7094        84.29312             -200               0             -200               0
1.12583              -0.03825006       -11.58375          -75.642        88.71307             -200               0             -200               0
1.13245              -0.03946039       -11.68542        -76.32328        95.87798             -200               0             -200               0
1.13907              -0.04071547       -11.78788        -76.51458        105.0854             -200               0             -200               0
1.1457                -0.0420186        -11.8911         -76.0851        114.4522             -200               0             -200               0
1.15232              -0.04336669        -11.9951        -75.13938        122.0011             -200               0             -200               0
1.15894              -0.04476194       -12.09987        -73.91324        126.8736             -200               0             -200               0
1.16556              -0.04620221       -12.20541         -72.6047        129.2399             -200               0             -200               0
1.17219              -0.04768692       -12.31171        -71.32402        129.6414             -200               0             -200               0
1.17881              -0.04921599       -12.41879        -70.11839        128.6033             -200               0             -200               0
1.18543              -0.05078705       -12.52665        -69.00225        126.5287             -200               0             -200               0
1.19205              -0.05239982        -12.6353        -67.97546        123.7055             -200               0             -200               0
1.19868              -0.05404948       -12.74475        -67.03226        120.3352             -200               0             -200               0
1.2053               -0.05573767       -12.85502        -66.16518        116.5598             -200               0             -200               0
1.21192                -0.057461       -12.96612        -65.36676        112.4805             -200               0             -200               0
1.21854              -0.05921744       -13.07808        -64.63015        108.1713             -200               0             -200               0
1.22517              -0.06100771       -13.19092        -63.94932        103.6868             -200               0             -200               0
1.23179              -0.06282725       -13.30468        -63.31903        99.06842             -200               0             -200               0
1.23841              -0.06467816       -13.41938        -62.73477        94.34825             -200               0             -200               0
1.24503              -0.06655721       -13.53506        -62.19269        89.55144             -200               0             -200               0
1.25166               -0.0684667       -13.65176        -61.68946        84.69822             -200               0             -200               0
1.25828              -0.07040694       -13.76951         -61.2222        79.80515             -200               0             -200               0
1.2649               -0.07237677       -13.88835        -60.78842        74.88605             -200               0             -200               0
1.27152              -0.07438015       -14.00833        -60.38598        69.95273             -200               0             -200               0
1.27815              -0.07641666       -14.12948        -60.01298        65.01545             -200               0             -200               0
1.28477              -0.07849095       -14.25185        -59.66774        60.08333             -200               0             -200               0
1.29139              -0.08060676       -14.37548        -59.34881        55.16467             -200               0             -200               0
1.29801              -0.08276527        -14.5004        -59.05485        50.26714             -200               0             -200               0
1.30464              -0.08497104       -14.62666        -58.78469          45.398             -200               0             -200               0
1.31126              -0.08723004       -14.75429        -58.53722        40.56425             -200               0             -200               0
1.31788               -0.0895469       -14.88332        -58.31145        35.77273             -200               0             -200               0
1.3245               -0.09192674       -15.01378        -58.10643        31.03026             -200               0             -200               0
1.33113              -0.09437381       -15.14571        -57.92125        26.34367             -200               0             -200               0
1.33775              -0.09689606       -15.27912        -57.75503        21.71994             -200               0             -200               0
1.34437              -0.09949572       -15.41403        -57.60685         17.1662             -200               0             -200               0
1.35099               -0.1021816       -15.55048        -57.47582        12.68979             -200               0             -200               0
1.35762               -0.1049577       -15.68847        -57.36097        8.298287             -200               0             -200               0
1.36424               -0.1078281       -15.82801        -57.26125        3.999494             -200               0             -200               0
1.37086               -0.1107998       -15.96913        -57.17554      -0.1985774             -200               0             -200               0
1.37748               -0.1138766       -16.11182        -57.10259       -4.287754             -200               0             -200               0
1.38411               -0.1170631        -16.2561        -57.04097        -8.25981             -200               0             -200               0
1.39073               -0.1203633       -16.40198        -56.98908        -12.1066             -200               0             -200               0
1.39735               -0.1237805       -16.54946        -56.94513       -15.82026             -200               0             -200               0
1.40397               -0.1273189       -16.69856        -56.90706        -19.3935             -200               0             -200               0
1.4106                -0.1309785       -16.84928        -56.87256       -22.81993             -200               0             -200               0
1.41722               -0.1347644       -17.00164        -56.83904       -26.09448             -200               0             -200               0
1.42384               -0.1386777       -17.15566        -56.80365       -29.21392             -200               0             -200               0
1.43046               -0.1427205       -17.31134        -56.76329       -32.17746             -200               0             -200               0
1.43709               -0.1468944       -17.46871        -56.71467       -34.98723             -200               0             -200               0
1.44371               -0.1512013       -17.62779        -56.65437       -37.64897             -200               0             -200               0
1.45033               -0.1556403       -17.78861        -56.57898       -40.17239             -200               0             -200               0
1.45695               -0.1602156       -17.95121        -56.48522       -42.57149             -200               0             -200               0
1.46358               -0.1649279       -18.11561         -56.3701       -44.86457             -200               0             -200               0
1.4702                -0.1697787       -18.28187        -56.23111        -47.0739             -200               0             -200               0
1.47682               -0.1747708       -18.45002        -56.06637       -49.22498             -200               0             -200               0
1.48344               -0.1799061       -18.62011        -55.87477        -51.3456             -200               0             -200               0
1.49007               -0.1851892        -18.7922          -55.656       -53.46445             -200               0             -200               0
1.49669               -0.1906233       -18.96633        -55.41063       -55.60979             -200               0             -200               0
1.50331               -0.1962125       -19.14257        -55.13999       -57.80813             -200               0             -200               0
1.50993               -0.2019624       -19.32097        -54.84612       -60.08301             -200               0             -200               0
1.51656               -0.2078791        -19.5016        -54.53156       -62.45423             -200               0             -200               0
1.52318               -0.2139701       -19.68452        -54.19923       -64.93739             -200               0             -200               0
1.5298                -0.2202416       -19.86978        -53.85223        -67.5437             -200               0             -200               0
1.53642               -0.2267045       -20.05745         -53.4937       -70.28029             -200               0             -200               0
1.54305               -0.2333657       -20.24758        -53.12669        -73.1505             -200               0             -200               0
1.54967               -0.2402365       -20.44024        -52.75406       -76.15445             -200               0             -200               0
1.55629               -0.2473274       -20.63548        -52.37844       -79.28966             -200               0             -200               0
1.56291               -0.2546482       -20.83335        -52.00217        -82.5516             -200               0             -200               0
1.56954               -0.2622135       -21.03389         -51.6273        -85.9342             -200               0             -200               0
1.57616               -0.2700328       -21.23716        -51.25559       -89.43037             -200               0             -200               0
1.58278               -0.2781196       -21.44318        -50.88854       -93.03233             -200               0             -200               0
1.5894                -0.2864872       -21.65201        -50.52739       -96.73196             -200               0             -200               0
1.59603               -0.2951464       -21.86367        -50.17314        -100.521             -200               0             -200               0
1.60265               -0.3041116       -22.07819         -49.8266       -104.3912             -200               0             -200               0
1.60927               -0.3133941        -22.2956        -49.48843       -108.3346             -200               0             -200               0
1.61589               -0.3230068       -22.51592         -49.1591       -112.3434             -200               0             -200               0
1.62252               -0.3329611       -22.73917        -48.83898       -116.4101             -200               0             -200               0
1.62914               -0.3432694       -22.96539         -48.5283       -120.5276             -200               0             -200               0
1.63576                -0.353942       -23.19458        -48.22722       -124.6892             -200               0             -200               0
1.64238               -0.3649899       -23.42677        -47.93581       -128.8883             -200               0             -200               0
1.64901               -0.3764235       -23.66198        -47.65406        -133.119             -200               0             -200               0
1.65563               -0.3882528       -23.90024        -47.38192       -137.3754             -200               0             -200               0
1.66225               -0.4004876       -24.14158        -47.11926       -141.6522             -200               0             -200               0
1.66887               -0.4131363       -24.38603        -46.86594       -145.9442             -200               0             -200               0
1.6755                -0.4262092       -24.63362        -46.62175       -150.2465             -200               0             -200               0
1.68212               -0.4397143       -24.88442        -46.38645       -154.5546             -200               0             -200               0
1.68874               -0.4536613       -25.13845        -46.15976       -158.8639             -200               0             -200               0
1.69536               -0.4680591       -25.39579        -45.94137       -163.1705             -200               0             -200               0
1.70199               -0.4829181        -25.6565        -45.73095       -167.4704             -200               0             -200               0
1.70861               -0.4982481       -25.92066        -45.52812         -171.76             -200               0             -200               0
1.71523                 -0.51406       -26.18833        -45.33249       -176.0356             -200               0             -200               0
1.72185               -0.5303678       -26.45962        -45.14361        179.7058             -200               0             -200               0
1.72848               -0.5471828       -26.73462        -44.96104        175.4673             -200               0             -200               0
1.7351                 -0.564521       -27.01344        -44.78426        171.2518             -200               0             -200               0
1.74172               -0.5823975       -27.29618        -44.61277        167.0617             -200               0             -200               0
1.74834               -0.6008308       -27.58296        -44.44601        162.8993             -200               0             -200               0
1.75497               -0.6198402        -27.8739         -44.2834        158.7668             -200               0             -200               0
1.76159               -0.6394476       -28.16912        -44.12432        154.6656             -200               0             -200               0
1.76821               -0.6596774       -28.46876        -43.96814        150.5972             -200               0             -200               0
1.77483               -0.6805544       -28.77293        -43.81421        146.5626             -200               0             -200               0
1.78146               -0.7021086       -29.08176        -43.66184        142.5623             -200               0             -200               0
1.78808               -0.7243685       -29.39538        -43.51034        138.5965             -200               0             -200               0
1.7947                -0.7473669       -29.71391        -43.35902         134.665             -200               0             -200               0
1.80132               -0.7711399       -30.03747        -43.20717         130.767             -200               0             -200               0
1.80795               -0.7957227       -30.36618        -43.05409        126.9012             -200               0             -200               0
1.81457               -0.8211559       -30.70013         -42.8991         123.066             -200               0             -200               0
1.82119               -0.8474782       -31.03944        -42.74155        119.2589             -200               0             -200               0
1.82781               -0.8747341       -31.38419         -42.5808        115.4774             -200               0             -200               0
1.83444               -0.9029657       -31.73447        -42.41629        111.7182             -200               0             -200               0
1.84106               -0.9322193       -32.09035        -42.24749        107.9775             -200               0             -200               0
1.84768               -0.9625412       -32.45191        -42.07394        104.2514             -200               0             -200               0
1.8543                -0.9939811        -32.8192        -41.89526        100.5354             -200               0             -200               0
