! TOUCHSTONE file generated by CST MICROWAVE STUDIO
! Date and time: Tue Mar 18 00:01:07 2025
! Project name: oblique.cst
! Parameters = {Tilt=30; Fracture=1; B=10; D=160; F=25; Feed=2.85625; L=100; M=30; R=0.384908; S=2; Theta=90; length=57.125; wave=114.25}
! Header version: 2024
! Port assignment regex: !\s*Touchstone port\s*([0-9]+)\s*=\s*(CST MWS port|CST DES external port|CST DES block port)\s*(.+)\s* \(\"(.*)\"\)(\s*mode\s*([0-9]+))?.*
! Touchstone port assignment:
! Touchstone port 1 = CST MWS port 1 ("")
! Touchstone port 2 = CST MWS port 2 ("")
# GHz S DB R 50
1                    -0.02171765       -9.781543        -66.06805        164.4176             -200               0             -200               0
1.0066               -0.02220377       -9.867464        -66.09123         158.677             -200               0             -200               0
1.0132               -0.02265408       -9.954206        -66.14748        153.0481             -200               0             -200               0
1.0198               -0.02307438       -10.04185        -66.23779        147.5407             -200               0             -200               0
1.0264               -0.02347239       -10.13044        -66.36334        142.1676             -200               0             -200               0
1.033                -0.02385856       -10.22005         -66.5255        136.9449             -200               0             -200               0
1.0396                -0.0242441       -10.31072        -66.72583        131.8926             -200               0             -200               0
1.0462               -0.02463944       -10.40248        -66.96601         127.036             -200               0             -200               0
1.05281               -0.0250596       -10.49536        -67.24784        122.4071             -200               0             -200               0
1.05941              -0.02551456       -10.58937        -67.57305        118.0461             -200               0             -200               0
1.06601               -0.0260159       -10.68449        -67.94316         114.004             -200               0             -200               0
1.07261              -0.02657805       -10.78071        -68.35904        110.3458             -200               0             -200               0
1.07921              -0.02721216       -10.87802        -68.82031        107.1532             -200               0             -200               0
1.08581              -0.02792656       -10.97636        -69.32419        104.5294             -200               0             -200               0
1.09241              -0.02873054       -11.07569        -69.86382        102.6007             -200               0             -200               0
1.09901              -0.02963241       -11.17596        -70.42541         101.516             -200               0             -200               0
1.10561              -0.03063839        -11.2771        -70.98448        101.4345             -200               0             -200               0
1.11221              -0.03175051       -11.37904        -71.50158        102.4944             -200               0             -200               0
1.11881              -0.03297149       -11.48171        -71.92007        104.7488             -200               0             -200               0
1.12541              -0.03430092       -11.58505        -72.17127        108.0762             -200               0             -200               0
1.13201              -0.03573851       -11.68899          -72.192        112.1106             -200               0             -200               0
1.13861              -0.03727799       -11.79346         -71.9504        116.2776             -200               0             -200               0
1.14521              -0.03891451       -11.89841        -71.46218        119.9651             -200               0             -200               0
1.15182              -0.04064209       -12.00378        -70.78232        122.7225             -200               0             -200               0
1.15842              -0.04244956       -12.10955        -69.98007        124.3471             -200               0             -200               0
1.16502              -0.04432916       -12.21567        -69.11726        124.8421             -200               0             -200               0
1.17162              -0.04626903       -12.32215        -68.23921        124.3253             -200               0             -200               0
1.17822              -0.04825788       -12.42896        -67.37501        122.9544             -200               0             -200               0
1.18482              -0.05028664       -12.53614        -66.54152        120.8847             -200               0             -200               0
1.19142              -0.05234039       -12.64369        -65.74749        118.2521             -200               0             -200               0
1.19802              -0.05441113       -12.75166        -64.99668        115.1688             -200               0             -200               0
1.20462               -0.0564882       -12.86011        -64.28993        111.7251             -200               0             -200               0
1.21122               -0.0585627       -12.96909        -63.62651        107.9928             -200               0             -200               0
1.21782              -0.06062727       -13.07868        -63.00483        104.0291             -200               0             -200               0
1.22442              -0.06267683       -13.18897        -62.42294        99.87991             -200               0             -200               0
1.23102              -0.06470657       -13.30004        -61.87877        95.58185             -200               0             -200               0
1.23762               -0.0667156       -13.41198         -61.3703        91.16485             -200               0             -200               0
1.24422              -0.06870392        -13.5249        -60.89559        86.65349             -200               0             -200               0
1.25083              -0.07067407       -13.63888        -60.45285         82.0682             -200               0             -200               0
1.25743              -0.07263117       -13.75404        -60.04043        77.42619             -200               0             -200               0
1.26403              -0.07458063       -13.87045        -59.65686         72.7422             -200               0             -200               0
1.27063              -0.07653206        -13.9882        -59.30077        68.02903             -200               0             -200               0
1.27723              -0.07849593       -14.10737        -58.97096        63.29794             -200               0             -200               0
1.28383              -0.08048257       -14.22802        -58.66632         58.5591             -200               0             -200               0
1.29043              -0.08250535       -14.35021        -58.38587        53.82173             -200               0             -200               0
1.29703              -0.08457911       -14.47397        -58.12869        49.09446             -200               0             -200               0
1.30363              -0.08671661       -14.59934        -57.89397        44.38544             -200               0             -200               0
1.31023              -0.08893226       -14.72632        -57.68095        39.70253             -200               0             -200               0
1.31683              -0.09124138       -14.85492        -57.48891         35.0534             -200               0             -200               0
1.32343              -0.09365593       -14.98512        -57.31717         30.4457             -200               0             -200               0
1.33003              -0.09618965        -15.1169        -57.16508        25.88715             -200               0             -200               0
1.33663              -0.09885323       -15.25021        -57.03199        21.38559             -200               0             -200               0
1.34323                -0.101657       -15.38502        -56.91724        16.94912             -200               0             -200               0
1.34984               -0.1046085       -15.52125        -56.82013        12.58611             -200               0             -200               0
1.35644                -0.107713       -15.65886        -56.73991        8.305311             -200               0             -200               0
1.36304               -0.1109765       -15.79777        -56.67576        4.115843             -200               0             -200               0
1.36964               -0.1143979       -15.93792        -56.62673      0.02724067             -200               0             -200               0
1.37624               -0.1179782       -16.07925        -56.59177       -3.950574             -200               0             -200               0
1.38284                -0.121713       -16.22169        -56.56962       -7.807344             -200               0             -200               0
1.38944                  -0.1256       -16.36519        -56.55882       -11.53258             -200               0             -200               0
1.39604                 -0.12963       -16.50971        -56.55766       -15.11575             -200               0             -200               0
1.40264               -0.1337947       -16.65521        -56.56413        -18.5465             -200               0             -200               0
1.40924               -0.1380857       -16.80167        -56.57587       -21.81507             -200               0             -200               0
1.41584               -0.1424902       -16.94909        -56.59016       -24.91276             -200               0             -200               0
1.42244               -0.1469962       -17.09748        -56.60387       -27.83253             -200               0             -200               0
1.42904               -0.1515941       -17.24686        -56.61351       -30.56976             -200               0             -200               0
1.43564               -0.1562692       -17.39728        -56.61518       -33.12312             -200               0             -200               0
1.44224               -0.1610119       -17.54881        -56.60472       -35.49545             -200               0             -200               0
1.44884                -0.165812       -17.70151        -56.57779       -37.69462             -200               0             -200               0
1.45545               -0.1706588       -17.85548        -56.53009       -39.73422             -200               0             -200               0
1.46205               -0.1755446       -18.01083        -56.45751       -41.63391             -200               0             -200               0
1.46865               -0.1804659       -18.16768        -56.35647       -43.41932             -200               0             -200               0
1.47525               -0.1854193       -18.32617        -56.22414       -45.12129             -200               0             -200               0
1.48185               -0.1904033       -18.48642        -56.05865        -46.7746             -200               0             -200               0
1.48845               -0.1954203       -18.64858        -55.85927       -48.41613             -200               0             -200               0
1.49505               -0.2004754       -18.81279        -55.62648       -50.08279             -200               0             -200               0
1.50165                -0.205577       -18.97921        -55.36187        -51.8094             -200               0             -200               0
1.50825               -0.2107367       -19.14796        -55.06803       -53.62685             -200               0             -200               0
1.51485               -0.2159663       -19.31919        -54.74828       -55.56082             -200               0             -200               0
1.52145               -0.2212814       -19.49302        -54.40646       -57.63102             -200               0             -200               0
1.52805               -0.2267024       -19.66956        -54.04662       -59.85108             -200               0             -200               0
1.53465               -0.2322478       -19.84891        -53.67285        -62.2289             -200               0             -200               0
1.54125                -0.237939       -20.03115        -53.28903        -64.7673             -200               0             -200               0
1.54785               -0.2437985       -20.21635        -52.89877       -67.46491             -200               0             -200               0
1.55446               -0.2498498       -20.40456         -52.5053       -70.31706             -200               0             -200               0
1.56106               -0.2561173       -20.59581        -52.11142       -73.31666             -200               0             -200               0
1.56766               -0.2626217       -20.79011        -51.71955       -76.45491             -200               0             -200               0
1.57426               -0.2693875       -20.98746        -51.33169       -79.72197             -200               0             -200               0
1.58086                -0.276436       -21.18783        -50.94951       -83.10744             -200               0             -200               0
1.58746                -0.283784       -21.39119        -50.57432       -86.60074             -200               0             -200               0
1.59406               -0.2914513       -21.59749        -50.20717       -90.19136             -200               0             -200               0
1.60066               -0.2994526       -21.80668        -49.84887       -93.86907             -200               0             -200               0
1.60726               -0.3078005       -22.01868        -49.50002       -97.62405             -200               0             -200               0
1.61386               -0.3165032       -22.23344        -49.16103       -101.4469             -200               0             -200               0
1.62046               -0.3255697       -22.45087        -48.83217       -105.3289             -200               0             -200               0
1.62706               -0.3350037       -22.67093         -48.5136       -109.2615             -200               0             -200               0
1.63366               -0.3448038       -22.89354        -48.20536       -113.2371             -200               0             -200               0
1.64026               -0.3549709       -23.11867        -47.90739       -117.2481             -200               0             -200               0
1.64686               -0.3655004       -23.34627        -47.61959       -121.2879             -200               0             -200               0
1.65347               -0.3763853       -23.57633        -47.34176       -125.3498             -200               0             -200               0
1.66007               -0.3876186       -23.80885        -47.07366        -129.428             -200               0             -200               0
1.66667               -0.3991901       -24.04385        -46.81501       -133.5167             -200               0             -200               0
1.67327               -0.4110888       -24.28138        -46.56547       -137.6107             -200               0             -200               0
1.67987               -0.4233055       -24.52151        -46.32465        -141.705             -200               0             -200               0
1.68647               -0.4358295       -24.76434        -46.09214       -145.7951             -200               0             -200               0
1.69307               -0.4486519       -25.00999         -45.8675       -149.8767             -200               0             -200               0
1.69967               -0.4617636       -25.25861        -45.65022       -153.9458             -200               0             -200               0
1.70627               -0.4751593       -25.51038        -45.43979       -157.9988             -200               0             -200               0
1.71287               -0.4888362        -25.7655        -45.23565       -162.0322             -200               0             -200               0
1.71947               -0.5027952       -26.02418        -45.03721       -166.0432             -200               0             -200               0
1.72607               -0.5170395       -26.28667        -44.84385       -170.0291             -200               0             -200               0
1.73267               -0.5315763       -26.55321        -44.65492       -173.9875             -200               0             -200               0
1.73927               -0.5464191       -26.82408        -44.46975       -177.9166             -200               0             -200               0
1.74587               -0.5615839       -27.09954        -44.28763        178.1852             -200               0             -200               0
1.75248               -0.5770929       -27.37988        -44.10783        174.3189             -200               0             -200               0
1.75908               -0.5929723       -27.66538        -43.92962        170.4851             -200               0             -200               0
1.76568               -0.6092533       -27.95631        -43.75225        166.6839             -200               0             -200               0
1.77228               -0.6259737       -28.25294        -43.57496         162.915             -200               0             -200               0
1.77888               -0.6431708       -28.55553          -43.397        159.1773             -200               0             -200               0
1.78548               -0.6608926       -28.86432        -43.21765        155.4695             -200               0             -200               0
1.79208               -0.6791864       -29.17955        -43.03618        151.7894             -200               0             -200               0
1.79868               -0.6981039       -29.50142        -42.85192        148.1345             -200               0             -200               0
1.80528               -0.7177006       -29.83011        -42.66424        144.5017             -200               0             -200               0
1.81188               -0.7380318       -30.16579        -42.47257        140.8874             -200               0             -200               0
1.81848               -0.7591588       -30.50861        -42.27641        137.2876             -200               0             -200               0
1.82508               -0.7811405       -30.85869        -42.07531        133.6979             -200               0             -200               0
1.83168               -0.8040387       -31.21612        -41.86896        130.1135             -200               0             -200               0
1.83828               -0.8279131       -31.58099        -41.65708        126.5295             -200               0             -200               0
1.84488               -0.8528258       -31.95336        -41.43953        122.9407             -200               0             -200               0
1.85149               -0.8788367       -32.33328        -41.21624         119.342             -200               0             -200               0
