! TOUCHSTONE file generated by CST MICROWAVE STUDIO
! Date and time: Tue Mar 18 00:01:01 2025
! Project name: oblique.cst
! Parameters = {Tilt=30; Fracture=1; B=10; D=160; F=25; Feed=2.85625; L=100; M=10; R=0.384908; S=1; Theta=180; length=57.125; wave=114.25}
! Header version: 2024
! Port assignment regex: !\s*Touchstone port\s*([0-9]+)\s*=\s*(CST MWS port|CST DES external port|CST DES block port)\s*(.+)\s* \(\"(.*)\"\)(\s*mode\s*([0-9]+))?.*
! Touchstone port assignment:
! Touchstone port 1 = CST MWS port 1 ("")
! Touchstone port 2 = CST MWS port 2 ("")
# GHz S DB R 50
1                    -0.02099097       -9.783856        -68.17001       -165.7328             -200               0             -200               0
1.00662              -0.02154122       -9.870653        -68.22867       -169.7312             -200               0             -200               0
1.01325               -0.0220739       -9.958166        -68.31417       -173.4967             -200               0             -200               0
1.01987              -0.02259295       -10.04644        -68.42462       -176.9999             -200               0             -200               0
1.02649              -0.02310347       -10.13553        -68.55737        179.7922             -200               0             -200               0
1.03311              -0.02361067       -10.22547        -68.70863        176.9159             -200               0             -200               0
1.03974              -0.02412141        -10.3163        -68.87315        174.4101             -200               0             -200               0
1.04636              -0.02464374       -10.40804        -69.04375        172.3138             -200               0             -200               0
1.05298              -0.02518392       -10.50071        -69.21093        170.6625             -200               0             -200               0
1.0596               -0.02575037       -10.59433        -69.36253        169.4828             -200               0             -200               0
1.06623              -0.02635124       -10.68891        -69.48376        168.7842             -200               0             -200               0
1.07285              -0.02699393       -10.78444        -69.55776        168.5498             -200               0             -200               0
1.07947              -0.02768593       -10.88091        -69.56703        168.7277             -200               0             -200               0
1.08609              -0.02843342        -10.9783        -69.49559        169.2263             -200               0             -200               0
1.09272              -0.02924391        -11.0766        -69.33179        169.9174             -200               0             -200               0
1.09934              -0.03012187       -11.17578        -69.07058        170.6497             -200               0             -200               0
1.10596              -0.03107084        -11.2758        -68.71471        171.2689             -200               0             -200               0
1.11258              -0.03209506       -11.37662        -68.27395        171.6397             -200               0             -200               0
1.11921              -0.03319627       -11.47822        -67.76304        171.6607             -200               0             -200               0
1.12583              -0.03437568       -11.58054        -67.19893        171.2706             -200               0             -200               0
1.13245              -0.03563135       -11.68357         -66.5984        170.4448             -200               0             -200               0
1.13907              -0.03696401       -11.78725        -65.97639        169.1876             -200               0             -200               0
1.1457               -0.03836895       -11.89156        -65.34529        167.5228             -200               0             -200               0
1.15232              -0.03984343       -11.99647        -64.71477        165.4848             -200               0             -200               0
1.15894              -0.04138307       -12.10196        -64.09207        163.1132             -200               0             -200               0
1.16556              -0.04298165       -12.20802        -63.48234         160.448             -200               0             -200               0
1.17219              -0.04463424       -12.31463        -62.88913        157.5273             -200               0             -200               0
1.17881              -0.04633307        -12.4218        -62.31477        154.3862             -200               0             -200               0
1.18543              -0.04807216       -12.52954        -61.76065        151.0563             -200               0             -200               0
1.19205              -0.04984569       -12.63786        -61.22751        147.5656             -200               0             -200               0
1.19868              -0.05164705       -12.74679        -60.71561        143.9385             -200               0             -200               0
1.2053               -0.05346988       -12.85636        -60.22488        140.1967             -200               0             -200               0
1.21192              -0.05530894       -12.96662        -59.75502        136.3589             -200               0             -200               0
1.21854              -0.05715998       -13.07761        -59.30558        132.4416             -200               0             -200               0
1.22517              -0.05901985        -13.1894        -58.87602        128.4593             -200               0             -200               0
1.23179              -0.06088535       -13.30203         -58.4657        124.4248             -200               0             -200               0
1.23841              -0.06275665       -13.41557        -58.07397        120.3494             -200               0             -200               0
1.24503              -0.06463237       -13.53009        -57.70016        116.2432             -200               0             -200               0
1.25166              -0.06651445       -13.64565        -57.34356        112.1152             -200               0             -200               0
1.25828              -0.06840562       -13.76231        -57.00349        107.9737             -200               0             -200               0
1.2649               -0.07031006       -13.88015        -56.67924         103.826             -200               0             -200               0
1.27152              -0.07223211       -13.99921        -56.37012         99.6789             -200               0             -200               0
1.27815              -0.07417972       -14.11957        -56.07543        95.53861             -200               0             -200               0
1.28477               -0.0761581       -14.24126        -55.79447        91.41087             -200               0             -200               0
1.29139              -0.07817577       -14.36433        -55.52654        87.30098             -200               0             -200               0
1.29801              -0.08024141       -14.48881        -55.27093        83.21386             -200               0             -200               0
1.30464              -0.08236519       -14.61474        -55.02692        79.15408             -200               0             -200               0
1.31126              -0.08455376       -14.74213        -54.79378        75.12589             -200               0             -200               0
1.31788              -0.08681789         -14.871        -54.57075        71.13322             -200               0             -200               0
1.3245               -0.08916592       -15.00134        -54.35706        67.17968             -200               0             -200               0
1.33113              -0.09160594       -15.13316        -54.15194        63.26855             -200               0             -200               0
1.33775              -0.09414555       -15.26644        -53.95455        59.40281             -200               0             -200               0
1.34437              -0.09679229       -15.40117        -53.76406        55.58503             -200               0             -200               0
1.35099              -0.09954989       -15.53733        -53.57961        51.81742             -200               0             -200               0
1.35762               -0.1024247       -15.67488         -53.4003        48.10177             -200               0             -200               0
1.36424               -0.1054186       -15.81381        -53.22521         44.4394             -200               0             -200               0
1.37086               -0.1085345       -15.95409        -53.05342        40.83112             -200               0             -200               0
1.37748                -0.111772       -16.09568        -52.88398         37.2772             -200               0             -200               0
1.38411               -0.1151307       -16.23857        -52.71593        33.77734             -200               0             -200               0
1.39073               -0.1186089       -16.38274        -52.54833        30.33058             -200               0             -200               0
1.39735               -0.1222026       -16.52816        -52.38023        26.93538             -200               0             -200               0
1.40397               -0.1259079       -16.67484        -52.21074        23.58947             -200               0             -200               0
1.4106                  -0.12972       -16.82278        -52.03897        20.28997             -200               0             -200               0
1.41722               -0.1336321       -16.97199        -51.86411        17.03331             -200               0             -200               0
1.42384               -0.1376389       -17.12248        -51.68542        13.81535             -200               0             -200               0
1.43046               -0.1417334       -17.27429        -51.50223        10.63137             -200               0             -200               0
1.43709               -0.1459095       -17.42746        -51.31398        7.476158             -200               0             -200               0
1.44371               -0.1501609       -17.58206        -51.12021        4.344123             -200               0             -200               0
1.45033               -0.1544824       -17.73813        -50.92058        1.229392             -200               0             -200               0
1.45695               -0.1588685       -17.89577        -50.71487       -1.874075             -200               0             -200               0
1.46358               -0.1633161       -18.05504        -50.50299       -4.972353             -200               0             -200               0
1.4702                -0.1678229       -18.21606        -50.28499       -8.071421             -200               0             -200               0
1.47682               -0.1723888       -18.37891          -50.061       -11.17705             -200               0             -200               0
1.48344               -0.1770135       -18.54371        -49.83129       -14.29466             -200               0             -200               0
1.49007               -0.1817003       -18.71058        -49.59623       -17.42927             -200               0             -200               0
1.49669               -0.1864531       -18.87961        -49.35627       -20.58537             -200               0             -200               0
1.50331               -0.1912792       -19.05094        -49.11192       -23.76688             -200               0             -200               0
1.50993               -0.1961854       -19.22467        -48.86375        -26.9771             -200               0             -200               0
1.51656                -0.201183       -19.40092        -48.61239       -30.21869             -200               0             -200               0
1.52318               -0.2062832       -19.57979        -48.35845        -33.4937             -200               0             -200               0
1.5298                -0.2114998       -19.76139         -48.1026       -36.80351             -200               0             -200               0
1.53642               -0.2168459       -19.94581        -47.84547       -40.14895             -200               0             -200               0
1.54305               -0.2223399       -20.13314        -47.58768       -43.53025             -200               0             -200               0
1.54967                -0.227998       -20.32346        -47.32983       -46.94716             -200               0             -200               0
1.55629               -0.2338366       -20.51683        -47.07249       -50.39895             -200               0             -200               0
1.56291               -0.2398745       -20.71331        -46.81618       -53.88448             -200               0             -200               0
1.56954               -0.2461295       -20.91295        -46.56139       -57.40228             -200               0             -200               0
1.57616               -0.2526211       -21.11579        -46.30854       -60.95056             -200               0             -200               0
1.58278               -0.2593658       -21.32186        -46.05802       -64.52729             -200               0             -200               0
1.5894                -0.2663807       -21.53116        -45.81017       -68.13022             -200               0             -200               0
1.59603               -0.2736818       -21.74373        -45.56527       -71.75696             -200               0             -200               0
1.60265               -0.2812865       -21.95957        -45.32353       -75.40502             -200               0             -200               0
1.60927               -0.2892065       -22.17868        -45.08516       -79.07179             -200               0             -200               0
1.61589               -0.2974552       -22.40106        -44.85027       -82.75464             -200               0             -200               0
1.62252                -0.306045       -22.62672        -44.61895       -86.45092             -200               0             -200               0
1.62914               -0.3149856       -22.85566        -44.39124         -90.158             -200               0             -200               0
1.63576               -0.3242855       -23.08788        -44.16713       -93.87328             -200               0             -200               0
1.64238               -0.3339531       -23.32342        -43.94657       -97.59423             -200               0             -200               0
1.64901               -0.3439952       -23.56228        -43.72947       -101.3184             -200               0             -200               0
1.65563               -0.3544165        -23.8045        -43.51569       -105.0434             -200               0             -200               0
1.66225               -0.3652236       -24.05012        -43.30508       -108.7671             -200               0             -200               0
1.66887               -0.3764216       -24.29922        -43.09742       -112.4874             -200               0             -200               0
1.6755                -0.3880157       -24.55184         -42.8925       -116.2023             -200               0             -200               0
1.68212               -0.4000106       -24.80808        -42.69003       -119.9102             -200               0             -200               0
1.68874               -0.4124128       -25.06805        -42.48972       -123.6096             -200               0             -200               0
1.69536               -0.4252308       -25.33185        -42.29126        -127.299             -200               0             -200               0
1.70199                -0.438473       -25.59962        -42.09431       -130.9775             -200               0             -200               0
1.70861               -0.4521509       -25.87151         -41.8985       -134.6443             -200               0             -200               0
1.71523               -0.4662774       -26.14766        -41.70346       -138.2988             -200               0             -200               0
1.72185               -0.4808697       -26.42826         -41.5088       -141.9407             -200               0             -200               0
1.72848               -0.4959458       -26.71348        -41.31414       -145.5701             -200               0             -200               0
1.7351                 -0.511527        -27.0035        -41.11908       -149.1872             -200               0             -200               0
1.74172               -0.5276414       -27.29852        -40.92322       -152.7928             -200               0             -200               0
1.74834               -0.5443166       -27.59872         -40.7262       -156.3878             -200               0             -200               0
1.75497               -0.5615851       -27.90431        -40.52762       -159.9734             -200               0             -200               0
1.76159               -0.5794856       -28.21547        -40.32717       -163.5511             -200               0             -200               0
1.76821               -0.5980585       -28.53239         -40.1245       -167.1227             -200               0             -200               0
1.77483               -0.6173473       -28.85524        -39.91933       -170.6902             -200               0             -200               0
1.78146               -0.6374007       -29.18418        -39.71141       -174.2561             -200               0             -200               0
1.78808               -0.6582684       -29.51937        -39.50051       -177.8226             -200               0             -200               0
1.7947                -0.6800068       -29.86095        -39.28647        178.6075             -200               0             -200               0
1.80132               -0.7026733       -30.20902        -39.06916        175.0314             -200               0             -200               0
1.80795               -0.7263265       -30.56369         -38.8485        171.4463             -200               0             -200               0
1.81457               -0.7510302       -30.92504        -38.62447        167.8493             -200               0             -200               0
1.82119               -0.7768481       -31.29312        -38.39709        164.2376             -200               0             -200               0
1.82781               -0.8038454       -31.66798        -38.16642        160.6081             -200               0             -200               0
1.83444                 -0.83209       -32.04961        -37.93259        156.9582             -200               0             -200               0
1.84106               -0.8616491       -32.43802        -37.69576        153.2851             -200               0             -200               0
1.84768               -0.8925906       -32.83317        -37.45613        149.5864             -200               0             -200               0
1.8543                -0.9249835       -33.23503        -37.21393        145.8598             -200               0             -200               0
