! TOUCHSTONE file generated by CST MICROWAVE STUDIO
! Date and time: Tue Mar 18 00:00:50 2025
! Project name: oblique.cst
! Parameters = {Tilt=30; Fracture=1; B=10; D=160; F=5; Feed=2.85625; L=100; M=30; R=0.384908; S=2; Theta=270; length=57.125; wave=114.25}
! Header version: 2024
! Port assignment regex: !\s*Touchstone port\s*([0-9]+)\s*=\s*(CST MWS port|CST DES external port|CST DES block port)\s*(.+)\s* \(\"(.*)\"\)(\s*mode\s*([0-9]+))?.*
! Touchstone port assignment:
! Touchstone port 1 = CST MWS port 1 ("")
! Touchstone port 2 = CST MWS port 2 ("")
# GHz S DB R 50
1                    -0.02003383       -9.784794         -68.3235        -165.406             -200               0             -200               0
1.00658              -0.02091818       -9.872864        -68.18724       -169.8731             -200               0             -200               0
1.01316              -0.02184138       -9.961259        -68.07705       -174.2665             -200               0             -200               0
1.01974              -0.02279663       -10.04997        -67.99245       -178.5752             -200               0             -200               0
1.02632              -0.02377763       -10.13899        -67.93296        177.2129             -200               0             -200               0
1.03289              -0.02477774       -10.22832        -67.89806        173.1112             -200               0             -200               0
1.03947              -0.02578948       -10.31798        -67.88714        169.1344             -200               0             -200               0
1.04605              -0.02680738       -10.40799        -67.89944        165.2988             -200               0             -200               0
1.05263              -0.02782458       -10.49838        -67.93399        161.6226             -200               0             -200               0
1.05921              -0.02883498       -10.58919        -67.98951        158.1257             -200               0             -200               0
1.06579              -0.02983501       -10.68045        -68.06429        154.8299             -200               0             -200               0
1.07237              -0.03081963       -10.77222        -68.15606         151.759             -200               0             -200               0
1.07895              -0.03178646       -10.86455        -68.26182         148.938             -200               0             -200               0
1.08553              -0.03273389        -10.9575        -68.37763        146.3925             -200               0             -200               0
1.09211              -0.03366178       -11.05113        -68.49842        144.1475             -200               0             -200               0
1.09868              -0.03457048        -11.1455        -68.61782        142.2253             -200               0             -200               0
1.10526              -0.03546238       -11.24067        -68.72799        140.6428             -200               0             -200               0
1.11184              -0.03634149        -11.3367        -68.81971        139.4074             -200               0             -200               0
1.11842              -0.03721135       -11.43364        -68.88254         138.513             -200               0             -200               0
1.125                -0.03807919       -11.53154        -68.90545        137.9358             -200               0             -200               0
1.13158              -0.03895205       -11.63046        -68.87769        137.6308             -200               0             -200               0
1.13816              -0.03983545       -11.73041        -68.79002        137.5318             -200               0             -200               0
1.14474              -0.04073984       -11.83143        -68.63594        137.5543             -200               0             -200               0
1.15132              -0.04167181       -11.93355        -68.41272        137.6028             -200               0             -200               0
1.15789               -0.0426413       -12.03677        -68.12185        137.5805             -200               0             -200               0
1.16447              -0.04365692        -12.1411        -67.76873        137.3996             -200               0             -200               0
1.17105              -0.04472611       -12.24653        -67.36181        136.9889             -200               0             -200               0
1.17763              -0.04585697       -12.35305        -66.91134        136.2986             -200               0             -200               0
1.18421              -0.04705685       -12.46064        -66.42811        135.3001             -200               0             -200               0
1.19079              -0.04833178       -12.56927        -65.92251        133.9835             -200               0             -200               0
1.19737              -0.04968692       -12.67891         -65.4038        132.3539             -200               0             -200               0
1.20395              -0.05112549       -12.78953        -64.87987        130.4265             -200               0             -200               0
1.21053               -0.0526493       -12.90108        -64.35714        128.2229             -200               0             -200               0
1.21711              -0.05426281       -13.01352        -63.84065        125.7681             -200               0             -200               0
1.22368              -0.05596253       -13.12682        -63.33423        123.0883             -200               0             -200               0
1.23026              -0.05774766       -13.24094        -62.84073        120.2093             -200               0             -200               0
1.23684              -0.05961609       -13.35585        -62.36219        117.1556             -200               0             -200               0
1.24342              -0.06156206       -13.47151            -61.9        113.9502             -200               0             -200               0
1.25                 -0.06358207       -13.58791        -61.45507         110.614             -200               0             -200               0
1.25658              -0.06566804       -13.70504        -61.02792        107.1663             -200               0             -200               0
1.26316              -0.06781496       -13.82288        -60.61881        103.6244             -200               0             -200               0
1.26974              -0.07001508       -13.94145        -60.22775        100.0041             -200               0             -200               0
1.27632              -0.07225826       -14.06075        -59.85461        96.31952             -200               0             -200               0
1.28289              -0.07454137       -14.18082        -59.49916        92.58368             -200               0             -200               0
1.28947              -0.07685386       -14.30169        -59.16104        88.80836             -200               0             -200               0
1.29605              -0.07918899       -14.42341        -58.83983        85.00438             -200               0             -200               0
1.30263              -0.08154119       -14.54602        -58.53508        81.18171             -200               0             -200               0
1.30921              -0.08390615        -14.6696        -58.24627        77.34958             -200               0             -200               0
1.31579              -0.08627805       -14.79421        -57.97284        73.51662             -200               0             -200               0
1.32237               -0.0886555       -14.91993         -57.7142         69.6909             -200               0             -200               0
1.32895              -0.09103684       -15.04685        -57.46972        65.88004             -200               0             -200               0
1.33553              -0.09342235       -15.17505        -57.23873        62.09127             -200               0             -200               0
1.34211              -0.09581494       -15.30461        -57.02053        58.33143             -200               0             -200               0
1.34868               -0.0982171       -15.43563        -56.81435        54.60704             -200               0             -200               0
1.35526               -0.1006343       -15.56819        -56.61939        50.92427             -200               0             -200               0
1.36184               -0.1030736       -15.70236        -56.43477        47.28898             -200               0             -200               0
1.36842               -0.1055427       -15.83824        -56.25956        43.70666             -200               0             -200               0
1.375                 -0.1080507       -15.97588        -56.09277        40.18243             -200               0             -200               0
1.38158               -0.1106093       -16.11535        -55.93331        36.72091             -200               0             -200               0
1.38816               -0.1132284        -16.2567        -55.78005        33.32626             -200               0             -200               0
1.39474               -0.1159204       -16.39997        -55.63175          30.002             -200               0             -200               0
1.40132               -0.1186979       -16.54521        -55.48711        26.75093             -200               0             -200               0
1.40789               -0.1215723       -16.69243        -55.34476        23.57506             -200               0             -200               0
1.41447               -0.1245549       -16.84165        -55.20326        20.47541             -200               0             -200               0
1.42105               -0.1276603       -16.99288        -55.06114        17.45197             -200               0             -200               0
1.42763               -0.1308965       -17.14611        -54.91688        14.50352             -200               0             -200               0
1.43421               -0.1342737       -17.30133        -54.76897        11.62759             -200               0             -200               0
1.44079               -0.1378018       -17.45854        -54.61594        8.820329             -200               0             -200               0
1.44737               -0.1414864        -17.6177        -54.45637        6.076542             -200               0             -200               0
1.45395               -0.1453363        -17.7788        -54.28895        3.389663             -200               0             -200               0
1.46053               -0.1493534       -17.94181        -54.11249       0.7518616             -200               0             -200               0
1.46711               -0.1535422        -18.1067        -53.92601       -1.845828             -200               0             -200               0
1.47368               -0.1579039       -18.27347        -53.72873       -4.413299             -200               0             -200               0
1.48026               -0.1624374        -18.4421        -53.52008       -6.961112             -200               0             -200               0
1.48684               -0.1671438       -18.61257        -53.29978       -9.500206             -200               0             -200               0
1.49342               -0.1720212       -18.78489        -53.06781       -12.04157             -200               0             -200               0
1.5                   -0.1770639       -18.95907        -52.82439       -14.59592             -200               0             -200               0
1.50658               -0.1822694       -19.13513        -52.56999       -17.17342             -200               0             -200               0
1.51316               -0.1876333       -19.31309        -52.30529       -19.78335             -200               0             -200               0
1.51974               -0.1931514       -19.49303        -52.03116       -22.43395             -200               0             -200               0
1.52632               -0.1988197       -19.67497        -51.74863       -25.13228             -200               0             -200               0
1.53289               -0.2046352         -19.859         -51.4588       -27.88402             -200               0             -200               0
1.53947               -0.2105958       -20.04521        -51.16287       -30.69357             -200               0             -200               0
1.54605               -0.2166989       -20.23369        -50.86205       -33.56399             -200               0             -200               0
1.55263               -0.2229432       -20.42455        -50.55754       -36.49706             -200               0             -200               0
1.55921               -0.2293339        -20.6179        -50.25053       -39.49345             -200               0             -200               0
1.56579               -0.2358737       -20.81388        -49.94214       -42.55274             -200               0             -200               0
1.57237               -0.2425693       -21.01261        -49.63341       -45.67365             -200               0             -200               0
1.57895               -0.2494263       -21.21423        -49.32532       -48.85409             -200               0             -200               0
1.58553               -0.2564586       -21.41888        -49.01872       -52.09138             -200               0             -200               0
1.59211               -0.2636785       -21.62669         -48.7144       -55.38229             -200               0             -200               0
1.59868               -0.2711012       -21.83779        -48.41302       -58.72319             -200               0             -200               0
1.60526               -0.2787467       -22.05232        -48.11517       -62.11016             -200               0             -200               0
1.61184               -0.2866323        -22.2704        -47.82132       -65.53908             -200               0             -200               0
1.61842               -0.2947835       -22.49215        -47.53188       -69.00568             -200               0             -200               0
1.625                 -0.3032229       -22.71765        -47.24713       -72.50564             -200               0             -200               0
1.63158               -0.3119756       -22.94701         -46.9673        -76.0346             -200               0             -200               0
1.63816               -0.3210702        -23.1803        -46.69253       -79.58826             -200               0             -200               0
1.64474               -0.3305337       -23.41759        -46.42291       -83.16237             -200               0             -200               0
1.65132               -0.3403948       -23.65892        -46.15842       -86.75281             -200               0             -200               0
1.65789               -0.3506807       -23.90432        -45.89901       -90.35559             -200               0             -200               0
1.66447               -0.3614213       -24.15381        -45.64455       -93.96686             -200               0             -200               0
1.67105               -0.3726437       -24.40741        -45.39486       -97.58297             -200               0             -200               0
1.67763               -0.3843737       -24.66509        -45.14973       -101.2005             -200               0             -200               0
1.68421               -0.3966391       -24.92685        -44.90885       -104.8162             -200               0             -200               0
1.69079               -0.4094642       -25.19267        -44.67191       -108.4272             -200               0             -200               0
1.69737               -0.4228704        -25.4625        -44.43854       -112.0307             -200               0             -200               0
1.70395               -0.4368792       -25.73632        -44.20831       -115.6243             -200               0             -200               0
1.71053               -0.4515088       -26.01409        -43.98079       -119.2061             -200               0             -200               0
1.71711               -0.4667785       -26.29576        -43.75549       -122.7743             -200               0             -200               0
1.72368               -0.4827031       -26.58132        -43.53191       -126.3274             -200               0             -200               0
1.73026                -0.499296       -26.87073        -43.30952       -129.8647             -200               0             -200               0
1.73684               -0.5165703       -27.16399        -43.08777       -133.3854             -200               0             -200               0
1.74342                -0.534536       -27.46108        -42.86611       -136.8895             -200               0             -200               0
1.75                  -0.5532041       -27.76202        -42.64398       -140.3773             -200               0             -200               0
1.75658                -0.572583       -28.06683        -42.42083       -143.8495             -200               0             -200               0
1.76316               -0.5926834       -28.37556         -42.1961       -147.3074             -200               0             -200               0
1.76974               -0.6135151       -28.68828         -41.9693       -150.7525             -200               0             -200               0
1.77632               -0.6350886       -29.00507        -41.73992        -154.187             -200               0             -200               0
1.78289               -0.6574156       -29.32603        -41.50751       -157.6133             -200               0             -200               0
1.78947               -0.6805107       -29.65129        -41.27168       -161.0343             -200               0             -200               0
1.79605               -0.7043894       -29.98099        -41.03208       -164.4531             -200               0             -200               0
1.80263               -0.7290708       -30.31529        -40.78841       -167.8732             -200               0             -200               0
1.80921               -0.7545792       -30.65437        -40.54046       -171.2983             -200               0             -200               0
1.81579               -0.7809399       -30.99843        -40.28807       -174.7323             -200               0             -200               0
1.82237               -0.8081853       -31.34766        -40.03118        -178.179             -200               0             -200               0
1.82895               -0.8363507       -31.70228        -39.76977        178.3576             -200               0             -200               0
1.83553               -0.8654769        -32.0625        -39.50392        174.8736             -200               0             -200               0
1.84211               -0.8956101       -32.42855        -39.23377        171.3652             -200               0             -200               0
1.84868               -0.9268038       -32.80064        -38.95951        167.8288             -200               0             -200               0
