! TOUCHSTONE file generated by CST MICROWAVE STUDIO
! Date and time: Tue Mar 18 00:00:51 2025
! Project name: oblique.cst
! Parameters = {Tilt=30; Fracture=1; B=10; D=160; F=5; Feed=2.85625; L=100; M=50; R=0.384908; S=2; Theta=180; length=57.125; wave=114.25}
! Header version: 2024
! Port assignment regex: !\s*Touchstone port\s*([0-9]+)\s*=\s*(CST MWS port|CST DES external port|CST DES block port)\s*(.+)\s* \(\"(.*)\"\)(\s*mode\s*([0-9]+))?.*
! Touchstone port assignment:
! Touchstone port 1 = CST MWS port 1 ("")
! Touchstone port 2 = CST MWS port 2 ("")
# GHz S DB R 50
1                    -0.02163089       -9.783935        -66.98288        171.1772             -200               0             -200               0
1.00658              -0.02235807       -9.870663         -66.9339        165.6761             -200               0             -200               0
1.01316              -0.02308392       -9.957977        -66.91527        160.2669             -200               0             -200               0
1.01974              -0.02381027       -10.04591         -66.9274        154.9577             -200               0             -200               0
1.02632              -0.02453954        -10.1345         -66.9708         149.758             -200               0             -200               0
1.03289              -0.02527416       -10.22377        -67.04614        144.6796             -200               0             -200               0
1.03947              -0.02601597       -10.31375        -67.15419        139.7372             -200               0             -200               0
1.04605              -0.02677016       -10.40448         -67.2958        134.9483             -200               0             -200               0
1.05263               -0.0275403       -10.49596        -67.47188        130.3344             -200               0             -200               0
1.05921              -0.02833016       -10.58822         -67.6833         125.922             -200               0             -200               0
1.06579              -0.02914555       -10.68128         -67.9308        121.7433             -200               0             -200               0
1.07237              -0.02999045       -10.77515         -68.2148        117.8377             -200               0             -200               0
1.07895              -0.03086999       -10.86982        -68.53513        114.2537             -200               0             -200               0
1.08553              -0.03178831       -10.96531        -68.89058        111.0499             -200               0             -200               0
1.09211              -0.03275138       -11.06161        -69.27826        108.2971             -200               0             -200               0
1.09868              -0.03376308        -11.1587        -69.69255        106.0787             -200               0             -200               0
1.10526              -0.03482589       -11.25659        -70.12378        104.4888             -200               0             -200               0
1.11184                -0.035945       -11.35526        -70.55634         103.626             -200               0             -200               0
1.11842              -0.03712209       -11.45468        -70.96679        103.5788             -200               0             -200               0
1.125                -0.03835888       -11.55484        -71.32261        104.3984             -200               0             -200               0
1.13158              -0.03965813       -11.65572        -71.58326        106.0596             -200               0             -200               0
1.13816              -0.04101903        -11.7573        -71.70578        108.4207             -200               0             -200               0
1.14474              -0.04244185       -11.85955        -71.65516        111.2073             -200               0             -200               0
1.15132              -0.04392569       -11.96246        -71.41621        114.0493             -200               0             -200               0
1.15789              -0.04546858       -12.06601         -70.9994        116.5673             -200               0             -200               0
1.16447              -0.04706847       -12.17018        -70.43672        118.4652             -200               0             -200               0
1.17105              -0.04872217       -12.27497         -69.7704        119.5767             -200               0             -200               0
1.17763              -0.05042633       -12.38037        -69.04182        119.8585             -200               0             -200               0
1.18421              -0.05217632       -12.48637          -68.285        119.3514             -200               0             -200               0
1.19079              -0.05396794       -12.59298         -67.5248        118.1399             -200               0             -200               0
1.19737              -0.05579723       -12.70021        -66.77794        116.3231             -200               0             -200               0
1.20395              -0.05765845       -12.80807        -66.05484        113.9974             -200               0             -200               0
1.21053              -0.05954887       -12.91659        -65.36152        111.2493             -200               0             -200               0
1.21711              -0.06146322        -13.0258        -64.70107         108.153             -200               0             -200               0
1.22368              -0.06339728       -13.13572        -64.07471        104.7708             -200               0             -200               0
1.23026              -0.06534854       -13.24639        -63.48249        101.1542             -200               0             -200               0
1.23684              -0.06731389       -13.35785         -62.9238        97.34579             -200               0             -200               0
1.24342              -0.06929102       -13.47016        -62.39763        93.38091             -200               0             -200               0
1.25                 -0.07127947       -13.58337        -61.90279        89.28892             -200               0             -200               0
1.25658              -0.07327729       -13.69752        -61.43801        85.09444             -200               0             -200               0
1.26316              -0.07528593       -13.81266        -61.00202        80.81829             -200               0             -200               0
1.26974              -0.07730674       -13.92886        -60.59359        76.47827             -200               0             -200               0
1.27632              -0.07934173       -14.04617        -60.21154        72.08977             -200               0             -200               0
1.28289              -0.08139496       -14.16463        -59.85477        67.66628             -200               0             -200               0
1.28947              -0.08346932       -14.28431        -59.52224        63.21977             -200               0             -200               0
1.29605              -0.08557068       -14.40525        -59.21299        58.76103             -200               0             -200               0
1.30263              -0.08770377       -14.52749        -58.92611        54.29993             -200               0             -200               0
1.30921               -0.0898751       -14.65107        -58.66076        49.84562             -200               0             -200               0
1.31579              -0.09209137       -14.77604        -58.41613        45.40675             -200               0             -200               0
1.32237              -0.09435887        -14.9024        -58.19144        40.99159             -200               0             -200               0
1.32895              -0.09668471        -15.0302        -57.98595        36.60813             -200               0             -200               0
1.33553              -0.09907642       -15.15945        -57.79891        32.26425             -200               0             -200               0
1.34211               -0.1015402       -15.29016        -57.62959        27.96776             -200               0             -200               0
1.34868               -0.1040825       -15.42235        -57.47722        23.72649             -200               0             -200               0
1.35526               -0.1067101       -15.55601          -57.341         19.5483             -200               0             -200               0
1.36184               -0.1094288       -15.69115        -57.22007        15.44119             -200               0             -200               0
1.36842               -0.1122421       -15.82776        -57.11352        11.41325             -200               0             -200               0
1.375                 -0.1151559       -15.96583        -57.02032        7.472682             -200               0             -200               0
1.38158               -0.1181724       -16.10537        -56.93932        3.627733             -200               0             -200               0
1.38816               -0.1212943       -16.24636        -56.86925      -0.1133453             -200               0             -200               0
1.39474               -0.1245243        -16.3888        -56.80865        -3.74244             -200               0             -200               0
1.40132               -0.1278618       -16.53268        -56.75586       -7.251741             -200               0             -200               0
1.40789               -0.1313075         -16.678        -56.70904       -10.63397             -200               0             -200               0
1.41447               -0.1348611       -16.82476        -56.66606       -13.88267             -200               0             -200               0
1.42105               -0.1385203       -16.97298        -56.62459       -16.99259             -200               0             -200               0
1.42763               -0.1422843       -17.12267        -56.58203       -19.96009             -200               0             -200               0
1.43421               -0.1461499       -17.27383        -56.53556       -22.78364             -200               0             -200               0
1.44079               -0.1501153       -17.42652        -56.48218       -25.46432             -200               0             -200               0
1.44737               -0.1541781       -17.58074        -56.41875       -28.00635             -200               0             -200               0
1.45395               -0.1583359       -17.73656        -56.34211       -30.41748             -200               0             -200               0
1.46053               -0.1625857       -17.89402        -56.24919       -32.70927             -200               0             -200               0
1.46711               -0.1669267       -18.05317        -56.13714       -34.89722             -200               0             -200               0
1.47368               -0.1713584       -18.21408        -56.00348       -37.00049             -200               0             -200               0
1.48026               -0.1758797       -18.37682        -55.84628        -39.0415             -200               0             -200               0
1.48684               -0.1804922       -18.54148        -55.66421       -41.04498             -200               0             -200               0
1.49342               -0.1851972       -18.70812        -55.45672       -43.03705             -200               0             -200               0
1.5                   -0.1899992       -18.87684        -55.22398       -45.04391             -200               0             -200               0
1.50658                -0.194902       -19.04772        -54.96693       -47.09068             -200               0             -200               0
1.51316               -0.1999112       -19.22086        -54.68715        -49.2003             -200               0             -200               0
1.51974               -0.2050362       -19.39634        -54.38679       -51.39263             -200               0             -200               0
1.52632               -0.2102837       -19.57425        -54.06838       -53.68392             -200               0             -200               0
1.53289               -0.2156642       -19.75468        -53.73472       -56.08653             -200               0             -200               0
1.53947               -0.2211887       -19.93771        -53.38869       -58.60895             -200               0             -200               0
1.54605               -0.2268707       -20.12342         -53.0332       -61.25605             -200               0             -200               0
1.55263               -0.2327233       -20.31187        -52.67098       -64.02951             -200               0             -200               0
1.55921               -0.2387616       -20.50314        -52.30463        -66.9283             -200               0             -200               0
1.56579               -0.2449992       -20.69729        -51.93648       -69.94918             -200               0             -200               0
1.57237               -0.2514526       -20.89436         -51.5686       -73.08722             -200               0             -200               0
1.57895               -0.2581361       -21.09439        -51.20282       -76.33625             -200               0             -200               0
1.58553                -0.265068       -21.29743         -50.8407       -79.68923             -200               0             -200               0
1.59211               -0.2722629       -21.50349        -50.48355       -83.13859             -200               0             -200               0
1.59868               -0.2797347       -21.71261        -50.13246       -86.67645             -200               0             -200               0
1.60526               -0.2874996       -21.92478        -49.78832       -90.29487             -200               0             -200               0
1.61184               -0.2955722       -22.14003        -49.45183       -93.98594             -200               0             -200               0
1.61842               -0.3039625       -22.35835        -49.12355       -97.74192             -200               0             -200               0
1.625                 -0.3126858       -22.57974         -48.8039       -101.5553             -200               0             -200               0
1.63158               -0.3217523       -22.80422        -48.49315       -105.4188             -200               0             -200               0
1.63816               -0.3311724       -23.03177        -48.19151       -109.3256             -200               0             -200               0
1.64474               -0.3409516       -23.26241        -47.89907       -113.2689             -200               0             -200               0
1.65132               -0.3511009       -23.49613        -47.61584       -117.2424             -200               0             -200               0
1.65789               -0.3616255       -23.73295        -47.34178       -121.2402             -200               0             -200               0
1.66447               -0.3725322        -23.9729        -47.07676       -125.2564             -200               0             -200               0
1.67105               -0.3838237       -24.21599        -46.82063       -129.2858             -200               0             -200               0
1.67763               -0.3955053       -24.46228        -46.57316        -133.323             -200               0             -200               0
1.68421               -0.4075819        -24.7118        -46.33407       -137.3632             -200               0             -200               0
1.69079               -0.4200558       -24.96462        -46.10307       -141.4017             -200               0             -200               0
1.69737               -0.4329323       -25.22082        -45.87978       -145.4342             -200               0             -200               0
1.70395               -0.4462148       -25.48048        -45.66382       -149.4565             -200               0             -200               0
1.71053               -0.4599095       -25.74372        -45.45474       -153.4647             -200               0             -200               0
1.71711               -0.4740222       -26.01064        -45.25207       -157.4551             -200               0             -200               0
1.72368               -0.4885602       -26.28138        -45.05529       -161.4245             -200               0             -200               0
1.73026                -0.503535       -26.55608        -44.86384       -165.3698             -200               0             -200               0
1.73684                -0.518958        -26.8349        -44.67712       -169.2881             -200               0             -200               0
1.74342               -0.5348427         -27.118         -44.4945       -173.1771             -200               0             -200               0
1.75                  -0.5512064       -27.40556        -44.31532       -177.0348             -200               0             -200               0
1.75658               -0.5680693       -27.69777        -44.13887        179.1407             -200               0             -200               0
1.76316               -0.5854533        -27.9948        -43.96442        175.3504             -200               0             -200               0
1.76974               -0.6033848       -28.29686        -43.79122        171.5951             -200               0             -200               0
1.77632               -0.6218915       -28.60412        -43.61848        167.8751             -200               0             -200               0
1.78289               -0.6410086        -28.9168        -43.44543        164.1902             -200               0             -200               0
1.78947               -0.6607699       -29.23507        -43.27128        160.5393             -200               0             -200               0
1.79605               -0.6812148       -29.55911        -43.09525        156.9212             -200               0             -200               0
1.80263               -0.7023849       -29.88912        -42.91656        153.3338             -200               0             -200               0
1.80921               -0.7243268       -30.22524         -42.7345        149.7744             -200               0             -200               0
1.81579               -0.7470867       -30.56766        -42.54838        146.2398             -200               0             -200               0
1.82237               -0.7707159       -30.91649        -42.35756        142.7261             -200               0             -200               0
1.82895               -0.7952685       -31.27189        -42.16148        139.2292             -200               0             -200               0
1.83553                -0.820797       -31.63397        -41.95967        135.7442             -200               0             -200               0
1.84211               -0.8473613       -32.00284        -41.75174        132.2659             -200               0             -200               0
1.84868               -0.8750196       -32.37859         -41.5374         128.789             -200               0             -200               0
