! TOUCHSTONE file generated by CST MICROWAVE STUDIO
! Date and time: Tue Mar 18 00:00:45 2025
! Project name: oblique.cst
! Parameters = {Tilt=30; Fracture=1; B=10; D=160; F=5; Feed=2.85625; L=100; M=50; R=0.384908; S=1; Theta=180; length=57.125; wave=114.25}
! Header version: 2024
! Port assignment regex: !\s*Touchstone port\s*([0-9]+)\s*=\s*(CST MWS port|CST DES external port|CST DES block port)\s*(.+)\s* \(\"(.*)\"\)(\s*mode\s*([0-9]+))?.*
! Touchstone port assignment:
! Touchstone port 1 = CST MWS port 1 ("")
! Touchstone port 2 = CST MWS port 2 ("")
# GHz S DB R 50
1                    -0.02175369       -9.788202        -67.76461        172.8469             -200               0             -200               0
1.00658              -0.02245664       -9.875054        -67.69501        167.7631             -200               0             -200               0
1.01316              -0.02316157       -9.962524        -67.65318         162.774             -200               0             -200               0
1.01974              -0.02387146       -10.05064        -67.63903        157.8891             -200               0             -200               0
1.02632              -0.02458936       -10.13943        -67.65253        153.1197             -200               0             -200               0
1.03289              -0.02531882       -10.22893        -67.69367        148.4788             -200               0             -200               0
1.03947              -0.02606149       -10.31914        -67.76239        143.9815             -200               0             -200               0
1.04605              -0.02682317        -10.4101        -67.85857        139.6457             -200               0             -200               0
1.05263              -0.02760665       -10.50181         -67.9819        135.4922             -200               0             -200               0
1.05921              -0.02841745        -10.5943        -68.13182        131.5451             -200               0             -200               0
1.06579              -0.02925959       -10.68755        -68.30734        127.8325             -200               0             -200               0
1.07237              -0.03013673       -10.78159        -68.50686        124.3865             -200               0             -200               0
1.07895              -0.03105469        -10.8764         -68.7279        121.2436             -200               0             -200               0
1.08553              -0.03201581       -10.97198        -68.96672        118.4443             -200               0             -200               0
1.09211              -0.03302404       -11.06832        -69.21793        116.0319             -200               0             -200               0
1.09868              -0.03408447       -11.16542        -69.47396        114.0504             -200               0             -200               0
1.10526              -0.03519609       -11.26326        -69.72456        112.5402             -200               0             -200               0
1.11184              -0.03636414       -11.36181        -69.95639        111.5315             -200               0             -200               0
1.11842              -0.03758873       -11.46108        -70.15307        111.0345             -200               0             -200               0
1.125                -0.03887156       -11.56102        -70.29586        111.0288             -200               0             -200               0
1.13158              -0.04021124       -11.66164        -70.36542        111.4526             -200               0             -200               0
1.13816              -0.04160941        -11.7629        -70.34453        112.1982             -200               0             -200               0
1.14474              -0.04306191        -11.8648        -70.22138        113.1172             -200               0             -200               0
1.15132              -0.04456882       -11.96733        -69.99221        114.0383             -200               0             -200               0
1.15789              -0.04612694       -12.07046        -69.66222        114.7927             -200               0             -200               0
1.16447              -0.04773392        -12.1742        -69.24424        115.2386             -200               0             -200               0
1.17105              -0.04938568       -12.27854        -68.75594         115.277             -200               0             -200               0
1.17763              -0.05107868       -12.38348        -68.21652        114.8547             -200               0             -200               0
1.18421              -0.05281012       -12.48904        -67.64417        113.9582             -200               0             -200               0
1.19079              -0.05457378       -12.59522        -67.05454        112.6029             -200               0             -200               0
1.19737              -0.05636714       -12.70204        -66.46015        110.8219             -200               0             -200               0
1.20395              -0.05818572       -12.80952        -65.87047        108.6575             -200               0             -200               0
1.21053              -0.06002813        -12.9177         -65.2924        106.1547             -200               0             -200               0
1.21711              -0.06188832        -13.0266        -64.73072        103.3574             -200               0             -200               0
1.22368              -0.06376354       -13.13626        -64.18861        100.3065             -200               0             -200               0
1.23026              -0.06565392       -13.24672        -63.66807        97.03885             -200               0             -200               0
1.23684              -0.06755712       -13.35803        -63.17025        93.58719             -200               0             -200               0
1.24342              -0.06947153       -13.47022        -62.69567         89.9803             -200               0             -200               0
1.25                 -0.07139884       -13.58335        -62.24446        86.24336             -200               0             -200               0
1.25658              -0.07333828       -13.69746        -61.81646        82.39838             -200               0             -200               0
1.26316              -0.07529034       -13.81261        -61.41129        78.46465             -200               0             -200               0
1.26974              -0.07726097       -13.92885        -61.02849         74.4592             -200               0             -200               0
1.27632              -0.07925024       -14.04621         -60.6675        70.39707             -200               0             -200               0
1.28289               -0.0812626       -14.16474        -60.32772        66.29174             -200               0             -200               0
1.28947              -0.08330287       -14.28449        -60.00851        62.15534             -200               0             -200               0
1.29605              -0.08537462       -14.40549        -59.70923         57.9989             -200               0             -200               0
1.30263               -0.0874846       -14.52778        -59.42926        53.83258             -200               0             -200               0
1.30921              -0.08963912       -14.65138        -59.16792        49.66581             -200               0             -200               0
1.31579              -0.09184046       -14.77633        -58.92457        45.50747             -200               0             -200               0
1.32237              -0.09409852       -14.90264        -58.69855        41.36599             -200               0             -200               0
1.32895              -0.09641578       -15.03034        -58.48918        37.24942             -200               0             -200               0
1.33553              -0.09879984       -15.15942        -58.29577        33.16558             -200               0             -200               0
1.34211                -0.101254       -15.28992        -58.11759        29.12209             -200               0             -200               0
1.34868               -0.1037849       -15.42182        -57.95386        25.12639             -200               0             -200               0
1.35526               -0.1063958       -15.55514        -57.80379        21.18582             -200               0             -200               0
1.36184               -0.1090913       -15.68988        -57.66647         17.3076             -200               0             -200               0
1.36842               -0.1118746       -15.82603        -57.54096        13.49881             -200               0             -200               0
1.375                 -0.1147468        -15.9636        -57.42619        9.766395             -200               0             -200               0
1.38158               -0.1177089       -16.10259          -57.321        6.117062             -200               0             -200               0
1.38816               -0.1207661         -16.243        -57.22411        2.557205             -200               0             -200               0
1.39474                -0.123914       -16.38484        -57.13409      -0.9072156             -200               0             -200               0
1.40132               -0.1271563       -16.52811        -57.04939       -4.270841             -200               0             -200               0
1.40789               -0.1304892       -16.67283        -56.96828       -7.529107             -200               0             -200               0
1.41447               -0.1339147       -16.81901        -56.88888       -10.67848             -200               0             -200               0
1.42105               -0.1374278       -16.96668        -56.80919       -13.71672             -200               0             -200               0
1.42763               -0.1410307       -17.11586        -56.72705       -16.64314             -200               0             -200               0
1.43421               -0.1447202       -17.26659        -56.64022       -19.45896             -200               0             -200               0
1.44079                -0.148493        -17.4189        -56.54639       -22.16748             -200               0             -200               0
1.44737               -0.1523515       -17.57285        -56.44326       -24.77438             -200               0             -200               0
1.45395               -0.1562917       -17.72849        -56.32861       -27.28782             -200               0             -200               0
1.46053               -0.1603151       -17.88588        -56.20034       -29.71846             -200               0             -200               0
1.46711               -0.1644206       -18.04509        -56.05663       -32.07938             -200               0             -200               0
1.47368               -0.1686095       -18.20617        -55.89595       -34.38578             -200               0             -200               0
1.48026               -0.1728868       -18.36921        -55.71718       -36.65454             -200               0             -200               0
1.48684               -0.1772514       -18.53429        -55.51963       -38.90366             -200               0             -200               0
1.49342               -0.1817114       -18.70148        -55.30313       -41.15162             -200               0             -200               0
1.5                   -0.1862697       -18.87086        -55.06797       -43.41664             -200               0             -200               0
1.50658               -0.1909323       -19.04253        -54.81491       -45.71601             -200               0             -200               0
1.51316               -0.1957104       -19.21655        -54.54511       -48.06552             -200               0             -200               0
1.51974                -0.200608       -19.39302        -54.26009       -50.47892             -200               0             -200               0
1.52632               -0.2056398         -19.572        -53.96162       -52.96765             -200               0             -200               0
1.53289               -0.2108129       -19.75357        -53.65164       -55.54071             -200               0             -200               0
1.53947                -0.216141       -19.93781        -53.33217       -58.20455             -200               0             -200               0
1.54605               -0.2216373       -20.12477        -53.00525       -60.96328             -200               0             -200               0
1.55263               -0.2273124       -20.31451        -52.67286       -63.81883             -200               0             -200               0
1.55921               -0.2331817       -20.50709         -52.3369       -66.77121             -200               0             -200               0
1.56579               -0.2392595       -20.70256        -51.99912       -69.81883             -200               0             -200               0
1.57237               -0.2455587       -20.90096         -51.6611       -72.95875             -200               0             -200               0
1.57895               -0.2520951       -21.10231        -51.32429       -76.18702             -200               0             -200               0
1.58553               -0.2588792       -21.30666        -50.98992       -79.49885             -200               0             -200               0
1.59211               -0.2659282       -21.51402         -50.6591       -82.88893             -200               0             -200               0
1.59868                -0.273253       -21.72442        -50.33273       -86.35153             -200               0             -200               0
1.60526               -0.2808664       -21.93787         -50.0116       -89.88072             -200               0             -200               0
1.61184                 -0.28878       -22.15439        -49.69634       -93.47044             -200               0             -200               0
1.61842               -0.2970054       -22.37399        -49.38746       -97.11464             -200               0             -200               0
1.625                 -0.3055516        -22.5967        -49.08535       -100.8073             -200               0             -200               0
1.63158               -0.3144284       -22.82251         -48.7903       -104.5426             -200               0             -200               0
1.63816               -0.3236442       -23.05145        -48.50251       -108.3148             -200               0             -200               0
1.64474               -0.3332065       -23.28355        -48.22208       -112.1184             -200               0             -200               0
1.65132               -0.3431218       -23.51883        -47.94907       -115.9479             -200               0             -200               0
1.65789               -0.3533974       -23.75733        -47.68344       -119.7984             -200               0             -200               0
1.66447               -0.3640386       -23.99909        -47.42509        -123.665             -200               0             -200               0
1.67105               -0.3750506       -24.24416        -47.17388       -127.5429             -200               0             -200               0
1.67763               -0.3864401       -24.49261        -46.92962       -131.4278             -200               0             -200               0
1.68421               -0.3982128       -24.74452        -46.69205       -135.3154             -200               0             -200               0
1.69079                -0.410374       -24.99996        -46.46087       -139.2019             -200               0             -200               0
1.69737               -0.4229322       -25.25904        -46.23576       -143.0834             -200               0             -200               0
1.70395                -0.435893       -25.52185        -46.01633       -146.9567             -200               0             -200               0
1.71053                -0.449269       -25.78853        -45.80217       -150.8185             -200               0             -200               0
1.71711               -0.4630673        -26.0592        -45.59282       -154.6659             -200               0             -200               0
1.72368               -0.4773031         -26.334         -45.3878       -158.4963             -200               0             -200               0
1.73026               -0.4919881       -26.61308        -45.18658       -162.3075             -200               0             -200               0
1.73684               -0.5071413       -26.89661         -44.9886       -166.0976             -200               0             -200               0
1.74342                 -0.52278       -27.18473         -44.7933       -169.8649             -200               0             -200               0
1.75                  -0.5389258       -27.47764        -44.60007       -173.6082             -200               0             -200               0
1.75658               -0.5556033        -27.7755        -44.40829       -177.3269             -200               0             -200               0
1.76316               -0.5728391        -28.0785        -44.21733        178.9796             -200               0             -200               0
1.76974               -0.5906632        -28.3868        -44.02654        175.3111             -200               0             -200               0
1.77632               -0.6091074       -28.70059        -43.83528         171.667             -200               0             -200               0
1.78289               -0.6282087       -29.02005        -43.64292        168.0463             -200               0             -200               0
1.78947               -0.6480049       -29.34534        -43.44884        164.4476             -200               0             -200               0
1.79605               -0.6685383       -29.67664        -43.25246        160.8688             -200               0             -200               0
1.80263               -0.6898513       -30.01411         -43.0532        157.3075             -200               0             -200               0
1.80921                -0.711992       -30.35789        -42.85056        153.7608             -200               0             -200               0
1.81579               -0.7350091       -30.70813        -42.64408        150.2254             -200               0             -200               0
1.82237                -0.758955       -31.06496        -42.43335        146.6977             -200               0             -200               0
1.82895               -0.7838822       -31.42852        -42.21805        143.1738             -200               0             -200               0
1.83553               -0.8098473        -31.7989        -41.99792        139.6494             -200               0             -200               0
1.84211               -0.8369099       -32.17621        -41.77279        136.1202             -200               0             -200               0
1.84868               -0.8651274       -32.56055        -41.54256        132.5817             -200               0             -200               0
