! TOUCHSTONE file generated by CST MICROWAVE STUDIO
! Date and time: Tue Mar 18 00:02:19 2025
! Project name: oblique.cst
! Parameters = {Tilt=40; Fracture=1; B=10; D=160; F=15; Feed=2.85625; L=100; M=50; R=0.384908; S=2; Theta=90; length=57.125; wave=114.25}
! Header version: 2024
! Port assignment regex: !\s*Touchstone port\s*([0-9]+)\s*=\s*(CST MWS port|CST DES external port|CST DES block port)\s*(.+)\s* \(\"(.*)\"\)(\s*mode\s*([0-9]+))?.*
! Touchstone port assignment:
! Touchstone port 1 = CST MWS port 1 ("")
! Touchstone port 2 = CST MWS port 2 ("")
# GHz S DB R 50
1                     -0.0207467       -9.802831         -67.5927        161.9803             -200               0             -200               0
1.0066               -0.02150012       -9.890366        -67.54786        156.2691             -200               0             -200               0
1.0132               -0.02225715       -9.978425        -67.53396        150.6541             -200               0             -200               0
1.0198               -0.02301664       -10.06704        -67.55146        145.1425             -200               0             -200               0
1.0264               -0.02377738       -10.15624        -67.60096        139.7434             -200               0             -200               0
1.033                -0.02453967       -10.24606        -67.68325         134.468             -200               0             -200               0
1.0396               -0.02530536       -10.33652        -67.79921        129.3304             -200               0             -200               0
1.0462               -0.02607415       -10.42767        -67.94987        124.3479             -200               0             -200               0
1.05281              -0.02684885       -10.51954        -68.13633         119.542             -200               0             -200               0
1.05941              -0.02763239       -10.61215        -68.35973         114.939             -200               0             -200               0
1.06601              -0.02842816       -10.70553        -68.62112        110.5717             -200               0             -200               0
1.07261              -0.02923752       -10.79971        -68.92132        106.4805             -200               0             -200               0
1.07921              -0.03006722       -10.89472        -69.26063        102.7156             -200               0             -200               0
1.08581              -0.03091926       -10.99056        -69.63838        99.33892             -200               0             -200               0
1.09241              -0.03179953       -11.08726        -70.05228        96.42623             -200               0             -200               0
1.09901              -0.03271289       -11.18483        -70.49727        94.06863             -200               0             -200               0
1.10561              -0.03366335       -11.28327        -70.96402        92.37179             -200               0             -200               0
1.11221              -0.03465549       -11.38258         -71.4367        91.45034             -200               0             -200               0
1.11881              -0.03569455       -11.48278         -71.8905        91.41251             -200               0             -200               0
1.12541              -0.03678333       -11.58384        -72.28964        92.32973             -200               0             -200               0
1.13201              -0.03792627       -11.68576        -72.58802        94.18878             -200               0             -200               0
1.13861               -0.0391263       -11.78853        -72.73542        96.83868             -200               0             -200               0
1.14521               -0.0403854       -11.89214        -72.69043        99.96608             -200               0             -200               0
1.15182              -0.04170666       -11.99657        -72.43553        103.1393             -200               0             -200               0
1.15842               -0.0430901       -12.10181        -71.98468        105.9197             -200               0             -200               0
1.16502              -0.04453673       -12.20784        -71.37711        107.9771             -200               0             -200               0
1.17162              -0.04604705       -12.31464        -70.66263        109.1429             -200               0             -200               0
1.17822              -0.04761834       -12.42221        -69.88804        109.3914             -200               0             -200               0
1.18482              -0.04925041       -12.53053        -69.09017        108.7877             -200               0             -200               0
1.19142              -0.05094251       -12.63959        -68.29479        107.4384             -200               0             -200               0
1.19802              -0.05268891        -12.7494        -67.51836        105.4591             -200               0             -200               0
1.20462               -0.0544886       -12.85995        -66.77062        102.9578             -200               0             -200               0
1.21122              -0.05633869       -12.97125        -66.05676        100.0284             -200               0             -200               0
1.21782              -0.05823349        -13.0833        -65.37907        96.74945             -200               0             -200               0
1.22442              -0.06017175       -13.19614         -64.7381        93.18563             -200               0             -200               0
1.23102              -0.06214903       -13.30977        -64.13333        89.38981             -200               0             -200               0
1.23762              -0.06416155       -13.42424        -63.56369        85.40517             -200               0             -200               0
1.24422               -0.0662079       -13.53956         -63.0278        81.26705             -200               0             -200               0
1.25083              -0.06828451       -13.65579        -62.52418        77.00462             -200               0             -200               0
1.25743              -0.07039008       -13.77295        -62.05131        72.64213             -200               0             -200               0
1.26403               -0.0725237       -13.89111        -61.60774        68.19992             -200               0             -200               0
1.27063              -0.07468541       -14.01031        -61.19208        63.69526             -200               0             -200               0
1.27723              -0.07687344       -14.13061        -60.80302        59.14298             -200               0             -200               0
1.28383              -0.07909335       -14.25205        -60.43937        54.55597             -200               0             -200               0
1.29043              -0.08134374        -14.3747            -60.1         49.9456             -200               0             -200               0
1.29703              -0.08363115        -14.4986        -59.78388        45.32202             -200               0             -200               0
1.30363              -0.08595955       -14.62381        -59.49006        40.69444             -200               0             -200               0
1.31023              -0.08833221       -14.75038        -59.21764        36.07136             -200               0             -200               0
1.31683              -0.09075708       -14.87836        -58.96578        31.46071             -200               0             -200               0
1.32343              -0.09324087       -15.00779        -58.73372           26.87             -200               0             -200               0
1.33003              -0.09579054        -15.1387        -58.52067        22.30646             -200               0             -200               0
1.33663              -0.09841395       -15.27114        -58.32593        17.77714             -200               0             -200               0
1.34323               -0.1011217       -15.40512        -58.14877        13.28896             -200               0             -200               0
1.34984               -0.1039176       -15.54066        -57.98847         8.84882             -200               0             -200               0
1.35644               -0.1068143       -15.67779        -57.84429        4.463631             -200               0             -200               0
1.36304               -0.1098197       -15.81651        -57.71547       0.1403569             -200               0             -200               0
1.36964               -0.1129395       -15.95682         -57.6012       -4.113953             -200               0             -200               0
1.37624               -0.1161834       -16.09871         -57.5006       -8.292167             -200               0             -200               0
1.38284               -0.1195569        -16.2422        -57.41272       -12.38708             -200               0             -200               0
1.38944               -0.1230678       -16.38725         -57.3365       -16.39144             -200               0             -200               0
1.39604               -0.1267219       -16.53386        -57.27077       -20.29803             -200               0             -200               0
1.40264               -0.1305219         -16.682        -57.21419       -24.09977             -200               0             -200               0
1.40924               -0.1344721       -16.83168        -57.16529       -27.78984             -200               0             -200               0
1.41584               -0.1385769       -16.98286        -57.12241       -31.36189             -200               0             -200               0
1.42244               -0.1428364       -17.13553        -57.08369       -34.81027             -200               0             -200               0
1.42904               -0.1472522       -17.28968        -57.04705        -38.1303             -200               0             -200               0
1.43564                -0.151824        -17.4453        -57.01024       -41.31866             -200               0             -200               0
1.44224               -0.1565517       -17.60238        -56.97078       -44.37374             -200               0             -200               0
1.44884               -0.1614333       -17.76093        -56.92606       -47.29605             -200               0             -200               0
1.45545               -0.1664677       -17.92095        -56.87335       -50.08863             -200               0             -200               0
1.46205               -0.1716506       -18.08247        -56.80985       -52.75743             -200               0             -200               0
1.46865                -0.176982        -18.2455        -56.73283       -55.31153             -200               0             -200               0
1.47525               -0.1824589       -18.41006         -56.6397       -57.76331             -200               0             -200               0
1.48185               -0.1880797       -18.57621        -56.52814       -60.12834             -200               0             -200               0
1.48845                -0.193841       -18.74399        -56.39624       -62.42504             -200               0             -200               0
1.49505                -0.199742       -18.91345        -56.24255        -64.6742             -200               0             -200               0
1.50165               -0.2057853       -19.08465        -56.06623       -66.89818             -200               0             -200               0
1.50825               -0.2119674       -19.25766        -55.86706       -69.11997             -200               0             -200               0
1.51485               -0.2182927       -19.43255        -55.64547       -71.36223             -200               0             -200               0
1.52145               -0.2247638        -19.6094        -55.40248       -73.64635             -200               0             -200               0
1.52805               -0.2313848       -19.78828        -55.13963       -75.99159             -200               0             -200               0
1.53465               -0.2381616       -19.96929        -54.85891       -78.41451             -200               0             -200               0
1.54125               -0.2451012       -20.15249        -54.56259        -80.9285             -200               0             -200               0
1.54785               -0.2522124       -20.33797        -54.25314       -83.54371             -200               0             -200               0
1.55446               -0.2595036       -20.52581         -53.9331       -86.26702             -200               0             -200               0
1.56106               -0.2669866       -20.71608        -53.60497       -89.10237             -200               0             -200               0
1.56766               -0.2746746       -20.90886        -53.27116       -92.05099             -200               0             -200               0
1.57426               -0.2825803       -21.10419        -52.93392       -95.11186             -200               0             -200               0
1.58086               -0.2907174       -21.30214        -52.59531       -98.28211             -200               0             -200               0
1.58746               -0.2991012       -21.50276        -52.25714       -101.5574             -200               0             -200               0
1.59406               -0.3077459       -21.70609        -51.92104       -104.9324             -200               0             -200               0
1.60066               -0.3166681       -21.91216        -51.58839       -108.4008             -200               0             -200               0
1.60726               -0.3258824       -22.12099        -51.26039        -111.956             -200               0             -200               0
1.61386               -0.3354036       -22.33261        -50.93801        -115.591             -200               0             -200               0
1.62046               -0.3452471       -22.54701        -50.62208       -119.2988             -200               0             -200               0
1.62706               -0.3554261       -22.76421        -50.31325       -123.0721             -200               0             -200               0
1.63366               -0.3659539       -22.98419        -50.01203        -126.904             -200               0             -200               0
1.64026               -0.3768436       -23.20696        -49.71883       -130.7877             -200               0             -200               0
1.64686               -0.3881035        -23.4325        -49.43391       -134.7165             -200               0             -200               0
1.65347               -0.3997459        -23.6608        -49.15748       -138.6841             -200               0             -200               0
1.66007               -0.4117776       -23.89186        -48.88961       -142.6843             -200               0             -200               0
1.66667               -0.4242071       -24.12567        -48.63035       -146.7111             -200               0             -200               0
1.67327               -0.4370379       -24.36222        -48.37964       -150.7591             -200               0             -200               0
1.67987               -0.4502768       -24.60152         -48.1374       -154.8228             -200               0             -200               0
1.68647               -0.4639259       -24.84358        -47.90344       -158.8971             -200               0             -200               0
1.69307               -0.4779893       -25.08844        -47.67758        -162.977             -200               0             -200               0
1.69967               -0.4924693       -25.33611        -47.45954        -167.058             -200               0             -200               0
1.70627               -0.5073667       -25.58665        -47.24904       -171.1357             -200               0             -200               0
1.71287               -0.5226835       -25.84012        -47.04571       -175.2058             -200               0             -200               0
1.71947               -0.5384225       -26.09659        -46.84919       -179.2645             -200               0             -200               0
1.72607               -0.5545858       -26.35616        -46.65903        176.6921             -200               0             -200               0
1.73267                -0.571177       -26.61893        -46.47477        172.6672             -200               0             -200               0
1.73927               -0.5882006         -26.885        -46.29589        168.6641             -200               0             -200               0
1.74587               -0.6056644       -27.15454        -46.12186        164.6857             -200               0             -200               0
1.75248               -0.6235757       -27.42766        -45.95207        160.7345             -200               0             -200               0
1.75908               -0.6419443       -27.70455        -45.78592        156.8127             -200               0             -200               0
1.76568               -0.6607862       -27.98535        -45.62273        152.9223             -200               0             -200               0
1.77228               -0.6801159       -28.27026        -45.46182        149.0647             -200               0             -200               0
1.77888               -0.6999528       -28.55945        -45.30246        145.2409             -200               0             -200               0
1.78548               -0.7203196       -28.85311        -45.14393        141.4515             -200               0             -200               0
1.79208               -0.7412406       -29.15143        -44.98546        137.6965             -200               0             -200               0
1.79868               -0.7627455        -29.4546        -44.82629        133.9754             -200               0             -200               0
1.80528               -0.7848657        -29.7628        -44.66565        130.2872             -200               0             -200               0
1.81188               -0.8076368       -30.07622        -44.50279        126.6302             -200               0             -200               0
1.81848               -0.8310965       -30.39502        -44.33698        123.0023             -200               0             -200               0
1.82508               -0.8552862       -30.71938        -44.16753        119.4005             -200               0             -200               0
1.83168               -0.8802497       -31.04944        -43.99378        115.8217             -200               0             -200               0
1.83828               -0.9060327       -31.38536        -43.81514        112.2618             -200               0             -200               0
1.84488               -0.9326828       -31.72724        -43.63111        108.7164             -200               0             -200               0
1.85149               -0.9602506       -32.07522        -43.44124        105.1808             -200               0             -200               0
