! TOUCHSTONE file generated by CST MICROWAVE STUDIO
! Date and time: Tue Mar 18 00:02:06 2025
! Project name: oblique.cst
! Parameters = {Tilt=40; Fracture=1; B=10; D=160; F=5; Feed=2.85625; L=100; M=10; R=0.384908; S=2; Theta=90; length=57.125; wave=114.25}
! Header version: 2024
! Port assignment regex: !\s*Touchstone port\s*([0-9]+)\s*=\s*(CST MWS port|CST DES external port|CST DES block port)\s*(.+)\s* \(\"(.*)\"\)(\s*mode\s*([0-9]+))?.*
! Touchstone port assignment:
! Touchstone port 1 = CST MWS port 1 ("")
! Touchstone port 2 = CST MWS port 2 ("")
# GHz S DB R 50
1                    -0.01891821       -9.783501        -70.99892        -124.555             -200               0             -200               0
1.00658              -0.01962428       -9.872135        -70.39371       -128.8139             -200               0             -200               0
1.01316              -0.02038199       -9.961232        -69.84487       -133.1903             -200               0             -200               0
1.01974               -0.0211872       -10.05076        -69.34788       -137.6513             -200               0             -200               0
1.02632              -0.02203663       -10.14069        -68.89893       -142.1702             -200               0             -200               0
1.03289              -0.02292379       -10.23101        -68.49483       -146.7252             -200               0             -200               0
1.03947              -0.02384448        -10.3217        -68.13291       -151.2977             -200               0             -200               0
1.04605              -0.02479186       -10.41276        -67.81093       -155.8718             -200               0             -200               0
1.05263               -0.0257598        -10.5042        -67.52701       -160.4326             -200               0             -200               0
1.05921              -0.02674139       -10.59601         -67.2796       -164.9667             -200               0             -200               0
1.06579              -0.02772909       -10.68823        -67.06737       -169.4608             -200               0             -200               0
1.07237              -0.02871852       -10.78087        -66.88924       -173.9019             -200               0             -200               0
1.07895              -0.02970163       -10.87397         -66.7443       -178.2767             -200               0             -200               0
1.08553              -0.03067467       -10.96758        -66.63174        177.4287             -200               0             -200               0
1.09211              -0.03163315       -11.06175        -66.55086        173.2294             -200               0             -200               0
1.09868              -0.03257292       -11.15652        -66.50102        169.1416             -200               0             -200               0
1.10526              -0.03349228       -11.25196        -66.48152        165.1833             -200               0             -200               0
1.11184               -0.0343899       -11.34813        -66.49162        161.3744             -200               0             -200               0
1.11842              -0.03526642        -11.4451        -66.53037        157.7373             -200               0             -200               0
1.125                -0.03612345       -11.54292        -66.59653        154.2973             -200               0             -200               0
1.13158              -0.03696412       -11.64167        -66.68841        151.0824             -200               0             -200               0
1.13816              -0.03779169        -11.7414        -66.80367        148.1241             -200               0             -200               0
1.14474              -0.03861207       -11.84217        -66.93908        145.4566             -200               0             -200               0
1.15132              -0.03943274       -11.94404        -67.09018        143.1165             -200               0             -200               0
1.15789              -0.04025941       -12.04705        -67.25091        141.1412             -200               0             -200               0
1.16447              -0.04110203       -12.15125        -67.41329        139.5661             -200               0             -200               0
1.17105              -0.04196833       -12.25665        -67.56706        138.4205             -200               0             -200               0
1.17763              -0.04286868       -12.36329        -67.69954        137.7214             -200               0             -200               0
1.18421              -0.04381188       -12.47119        -67.79594         137.466             -200               0             -200               0
1.19079              -0.04480735       -12.58034        -67.84024        137.6233             -200               0             -200               0
1.19737              -0.04586543       -12.69075        -67.81677        138.1279             -200               0             -200               0
1.20395              -0.04699404        -12.8024        -67.71245        138.8796             -200               0             -200               0
1.21053              -0.04820143       -12.91528        -67.51912        139.7501             -200               0             -200               0
1.21711              -0.04949463       -13.02936        -67.23513        140.5977             -200               0             -200               0
1.22368              -0.05088015       -13.14461         -66.8657        141.2866             -200               0             -200               0
1.23026              -0.05236326       -13.26099        -66.42173        141.7039             -200               0             -200               0
1.23684              -0.05394721       -13.37847        -65.91767        141.7699             -200               0             -200               0
1.24342              -0.05563431       -13.49701        -65.36917        141.4402             -200               0             -200               0
1.25                 -0.05742585       -13.61656         -64.7912        140.7017             -200               0             -200               0
1.25658              -0.05932153       -13.73709        -64.19686        139.5645             -200               0             -200               0
1.26316              -0.06131887       -13.85856        -63.59687        138.0538             -200               0             -200               0
1.26974              -0.06341613       -13.98095        -62.99956        136.2035             -200               0             -200               0
1.27632              -0.06560738       -14.10421        -62.41116        134.0507             -200               0             -200               0
1.28289              -0.06788986       -14.22835         -61.8361        131.6328             -200               0             -200               0
1.28947              -0.07025604       -14.35335        -61.27742        128.9853             -200               0             -200               0
1.29605              -0.07270031        -14.4792        -60.73709        126.1408             -200               0             -200               0
1.30263              -0.07521485       -14.60593        -60.21625        123.1289             -200               0             -200               0
1.30921              -0.07779295       -14.73354        -59.71549        119.9759             -200               0             -200               0
1.31579              -0.08042874       -14.86207        -59.23493         116.705             -200               0             -200               0
1.32237              -0.08311413       -14.99155        -58.77441         113.337             -200               0             -200               0
1.32895              -0.08584511       -15.12205        -58.33353          109.89             -200               0             -200               0
1.33553              -0.08861534       -15.25361        -57.91175        106.3801             -200               0             -200               0
1.34211              -0.09142152       -15.38631        -57.50841        102.8215             -200               0             -200               0
1.34868              -0.09426088       -15.52021        -57.12277        99.22698             -200               0             -200               0
1.35526              -0.09713234        -15.6554        -56.75404        95.60779             -200               0             -200               0
1.36184                -0.100036       -15.79196        -56.40139         91.9741             -200               0             -200               0
1.36842               -0.1029737       -15.92998        -56.06393          88.335             -200               0             -200               0
1.375                 -0.1059501       -16.06955        -55.74078        84.69871             -200               0             -200               0
1.38158               -0.1089694       -16.21074        -55.43102         81.0726             -200               0             -200               0
1.38816               -0.1120394       -16.35365        -55.13368        77.46332             -200               0             -200               0
1.39474               -0.1151681       -16.49835         -54.8478        73.87682             -200               0             -200               0
1.40132               -0.1183652       -16.64492        -54.57239         70.3184             -200               0             -200               0
1.40789               -0.1216426       -16.79341        -54.30642        66.79271             -200               0             -200               0
1.41447               -0.1250107       -16.94389        -54.04885        63.30379             -200               0             -200               0
1.42105               -0.1284841       -17.09641         -53.7986        59.85499             -200               0             -200               0
1.42763                -0.132076         -17.251         -53.5546        56.44905             -200               0             -200               0
1.43421               -0.1357996       -17.40769        -53.31572        53.08798             -200               0             -200               0
1.44079               -0.1396682       -17.56649        -53.08086        49.77309             -200               0             -200               0
1.44737               -0.1436959       -17.72742         -52.8489        46.50494             -200               0             -200               0
1.45395               -0.1478959       -17.89047        -52.61872        43.28333             -200               0             -200               0
1.46053               -0.1522791       -18.05562        -52.38922        40.10723             -200               0             -200               0
1.46711               -0.1568577       -18.22286        -52.15936        36.97483             -200               0             -200               0
1.47368               -0.1616403       -18.39216         -51.9281        33.88354             -200               0             -200               0
1.48026               -0.1666355       -18.56349         -51.6945        30.82996             -200               0             -200               0
1.48684               -0.1718509       -18.73681        -51.45769        27.80998             -200               0             -200               0
1.49342               -0.1772909       -18.91208         -51.2169        24.81883             -200               0             -200               0
1.5                   -0.1829592       -19.08928        -50.97147        21.85116             -200               0             -200               0
1.50658               -0.1888577       -19.26837        -50.72085        18.90117             -200               0             -200               0
1.51316               -0.1949856       -19.44932        -50.46464        15.96272             -200               0             -200               0
1.51974               -0.2013433       -19.63212        -50.20258        13.02947             -200               0             -200               0
1.52632               -0.2079272       -19.81674        -49.93454        10.09503             -200               0             -200               0
1.53289               -0.2147329       -20.00319        -49.66054        7.153122             -200               0             -200               0
1.53947               -0.2217574       -20.19148        -49.38071        4.197689             -200               0             -200               0
1.54605               -0.2289954       -20.38164        -49.09534        1.223048             -200               0             -200               0
1.55263               -0.2364405       -20.57368        -48.80479       -1.776018             -200               0             -200               0
1.55921               -0.2440883       -20.76769        -48.50954       -4.804164             -200               0             -200               0
1.56579               -0.2519335        -20.9637        -48.21012        -7.86542             -200               0             -200               0
1.57237               -0.2599719       -21.16182        -47.90713       -10.96315             -200               0             -200               0
1.57895                  -0.2682       -21.36212        -47.60122       -14.10006             -200               0             -200               0
1.58553                -0.276618       -21.56473        -47.29304       -17.27814             -200               0             -200               0
1.59211               -0.2852241       -21.76976        -46.98327       -20.49877             -200               0             -200               0
1.59868               -0.2940216       -21.97733        -46.67255       -23.76269             -200               0             -200               0
1.60526                -0.303015       -22.18759        -46.36153       -27.07007             -200               0             -200               0
1.61184               -0.3122114       -22.40068        -46.05081       -30.42057             -200               0             -200               0
1.61842               -0.3216193       -22.61675        -45.74098       -33.81341             -200               0             -200               0
1.625                 -0.3312516       -22.83595        -45.43256       -37.24739             -200               0             -200               0
1.63158               -0.3411244       -23.05843        -45.12603       -40.72098             -200               0             -200               0
1.63816               -0.3512555       -23.28434        -44.82183        -44.2324             -200               0             -200               0
1.64474               -0.3616633       -23.51381        -44.52035       -47.77961             -200               0             -200               0
1.65132               -0.3723718       -23.74699         -44.2219       -51.36043             -200               0             -200               0
1.65789               -0.3834081       -23.98399        -43.92679       -54.97253             -200               0             -200               0
1.66447               -0.3947961       -24.22493        -43.63523        -58.6135             -200               0             -200               0
1.67105               -0.4065682       -24.46991        -43.34741        -62.2809             -200               0             -200               0
1.67763               -0.4187511         -24.719        -43.06348       -65.97223             -200               0             -200               0
1.68421               -0.4313798       -24.97228        -42.78353       -69.68506             -200               0             -200               0
1.69079               -0.4444844        -25.2298        -42.50761       -73.41694             -200               0             -200               0
1.69737                -0.458098       -25.49159        -42.23574       -77.16551             -200               0             -200               0
1.70395               -0.4722529       -25.75767        -41.96791       -80.92849             -200               0             -200               0
1.71053               -0.4869805       -26.02805        -41.70407       -84.70367             -200               0             -200               0
1.71711               -0.5023126       -26.30273        -41.44412       -88.48896             -200               0             -200               0
1.72368               -0.5182783       -26.58167        -41.18796        -92.2824             -200               0             -200               0
1.73026               -0.5349071       -26.86486        -40.93545       -96.08216             -200               0             -200               0
1.73684               -0.5522246       -27.15225        -40.68643       -99.88654             -200               0             -200               0
1.74342               -0.5702575        -27.4438        -40.44072        -103.694             -200               0             -200               0
1.75                  -0.5890275       -27.73946        -40.19812       -107.5032             -200               0             -200               0
1.75658               -0.6085576        -28.0392         -39.9584       -111.3128             -200               0             -200               0
1.76316               -0.6288655       -28.34296        -39.72135        -115.122             -200               0             -200               0
1.76974               -0.6499702       -28.65071        -39.48671       -118.9297             -200               0             -200               0
1.77632               -0.6718867       -28.96243        -39.25423       -122.7355             -200               0             -200               0
1.78289               -0.6946296        -29.2781        -39.02366       -126.5387             -200               0             -200               0
1.78947               -0.7182132       -29.59774        -38.79474       -130.3391             -200               0             -200               0
1.79605               -0.7426497       -29.92134         -38.5672       -134.1366             -200               0             -200               0
1.80263               -0.7679532       -30.24895        -38.34079       -137.9314             -200               0             -200               0
1.80921               -0.7941367       -30.58064        -38.11525       -141.7236             -200               0             -200               0
1.81579               -0.8212131       -30.91646        -37.89034       -145.5139             -200               0             -200               0
1.82237               -0.8491993       -31.25653        -37.66582       -149.3027             -200               0             -200               0
1.82895               -0.8781121       -31.60098        -37.44147       -153.0911             -200               0             -200               0
1.83553               -0.9079718       -31.94993         -37.2171       -156.8798             -200               0             -200               0
1.84211               -0.9388039       -32.30356        -36.99251       -160.6702             -200               0             -200               0
1.84868               -0.9706337       -32.66205        -36.76753       -164.4633             -200               0             -200               0
