! TOUCHSTONE file generated by CST MICROWAVE STUDIO
! Date and time: Tue Mar 18 00:01:08 2025
! Project name: oblique.cst
! Parameters = {Tilt=30; Fracture=1; B=10; D=160; F=25; Feed=2.85625; L=100; M=30; R=0.384908; S=2; Theta=180; length=57.125; wave=114.25}
! Header version: 2024
! Port assignment regex: !\s*Touchstone port\s*([0-9]+)\s*=\s*(CST MWS port|CST DES external port|CST DES block port)\s*(.+)\s* \(\"(.*)\"\)(\s*mode\s*([0-9]+))?.*
! Touchstone port assignment:
! Touchstone port 1 = CST MWS port 1 ("")
! Touchstone port 2 = CST MWS port 2 ("")
# GHz S DB R 50
1                     -0.0217166       -9.781542        -66.06685        164.4159             -200               0             -200               0
1.0066               -0.02220217       -9.867465        -66.09006        158.6746             -200               0             -200               0
1.0132               -0.02265295       -9.954209        -66.14633        153.0449             -200               0             -200               0
1.0198               -0.02307273       -10.04185        -66.23667        147.5368             -200               0             -200               0
1.0264                -0.0234707       -10.13045        -66.36226         142.163             -200               0             -200               0
1.033                -0.02385733       -10.22006        -66.52447        136.9394             -200               0             -200               0
1.0396                -0.0242428       -10.31073        -66.72485        131.8863             -200               0             -200               0
1.0462               -0.02463915       -10.40249        -66.96509        127.0288             -200               0             -200               0
1.05281              -0.02505766       -10.49537        -67.24699         122.399             -200               0             -200               0
1.05941              -0.02551318       -10.58938        -67.57229         118.037             -200               0             -200               0
1.06601              -0.02601605        -10.6845        -67.94251        113.9939             -200               0             -200               0
1.07261              -0.02657817       -10.78073        -68.35853        110.3346             -200               0             -200               0
1.07921              -0.02721172       -10.87803        -68.81996        107.1409             -200               0             -200               0
1.08581              -0.02792612       -10.97638        -69.32407         104.516             -200               0             -200               0
1.09241              -0.02873055       -11.07571        -69.86398        102.5863             -200               0             -200               0
1.09901              -0.02963354       -11.17598        -70.42592        101.5008             -200               0             -200               0
1.10561                -0.030639       -11.27711        -70.98542         101.419             -200               0             -200               0
1.11221              -0.03175165       -11.37905        -71.50301        102.4793             -200               0             -200               0
1.11881              -0.03297266       -11.48173        -71.92203        104.7352             -200               0             -200               0
1.12541              -0.03430267       -11.58506        -72.17371        108.0654             -200               0             -200               0
1.13201              -0.03574023         -11.689        -72.19474        112.1039             -200               0             -200               0
1.13861              -0.03727976       -11.79347        -71.95322        116.2754             -200               0             -200               0
1.14521              -0.03891692       -11.89841        -71.46484         119.967             -200               0             -200               0
1.15182              -0.04064397       -12.00379        -70.78465        122.7275             -200               0             -200               0
1.15842              -0.04245154       -12.10955          -69.982        124.3542             -200               0             -200               0
1.16502              -0.04433012       -12.21568        -69.11879        124.8504             -200               0             -200               0
1.17162              -0.04627112       -12.32215        -68.24038         124.334             -200               0             -200               0
1.17822              -0.04826056       -12.42896        -67.37587        122.9631             -200               0             -200               0
1.18482              -0.05028777       -12.53614        -66.54212        120.8931             -200               0             -200               0
1.19142              -0.05234208       -12.64369        -65.74787        118.2601             -200               0             -200               0
1.19802              -0.05441234       -12.75166        -64.99687        115.1763             -200               0             -200               0
1.20462               -0.0564884       -12.86011        -64.28998        111.7319             -200               0             -200               0
1.21122              -0.05856347       -12.96909        -63.62643         107.999             -200               0             -200               0
1.21782              -0.06062697       -13.07868        -63.00465        104.0347             -200               0             -200               0
1.22442              -0.06267707       -13.18896        -62.42268        99.88491             -200               0             -200               0
1.23102               -0.0647063       -13.30003        -61.87845        95.58627             -200               0             -200               0
1.23762              -0.06671536       -13.41197        -61.36992        91.16871             -200               0             -200               0
1.24422              -0.06870315       -13.52489        -60.89516        86.65681             -200               0             -200               0
1.25083              -0.07067321       -13.63888        -60.45238        82.07099             -200               0             -200               0
1.25743              -0.07262977       -13.75403        -60.03993        77.42848             -200               0             -200               0
1.26403              -0.07457968       -13.87044        -59.65633          72.744             -200               0             -200               0
1.27063              -0.07653104        -13.9882        -59.30022        68.03035             -200               0             -200               0
1.27723              -0.07849384       -14.10737        -58.97039        63.29881             -200               0             -200               0
1.28383              -0.08048038       -14.22802        -58.66575        58.55951             -200               0             -200               0
1.29043              -0.08250303       -14.35021        -58.38529        53.82171             -200               0             -200               0
1.29703              -0.08457676       -14.47397        -58.12811        49.09402             -200               0             -200               0
1.30363              -0.08671359       -14.59934         -57.8934        44.38458             -200               0             -200               0
1.31023              -0.08893072       -14.72633        -57.68038        39.70125             -200               0             -200               0
1.31683              -0.09123976       -14.85493        -57.48835        35.05173             -200               0             -200               0
1.32343              -0.09365475       -14.98514        -57.31663        30.44364             -200               0             -200               0
1.33003              -0.09618789       -15.11691        -57.16456        25.88471             -200               0             -200               0
1.33663              -0.09885261       -15.25023         -57.0315        21.38278             -200               0             -200               0
1.34323               -0.1016563       -15.38503        -56.91678        16.94594             -200               0             -200               0
1.34984               -0.1046084       -15.52127         -56.8197        12.58259             -200               0             -200               0
1.35644               -0.1077134       -15.65887        -56.73952        8.301448             -200               0             -200               0
1.36304               -0.1109774       -15.79779        -56.67542         4.11166             -200               0             -200               0
1.36964               -0.1143988       -15.93794        -56.62644      0.02275521             -200               0             -200               0
1.37624               -0.1179797       -16.07926        -56.59154       -3.955338             -200               0             -200               0
1.38284                -0.121715        -16.2217        -56.56945        -7.81236             -200               0             -200               0
1.38944               -0.1256022        -16.3652        -56.55872       -11.53781             -200               0             -200               0
1.39604               -0.1296318       -16.50972        -56.55764       -15.12116             -200               0             -200               0
1.40264               -0.1337971       -16.65522        -56.56419       -18.55204             -200               0             -200               0
1.40924               -0.1380877       -16.80168        -56.57601       -21.82068             -200               0             -200               0
1.41584               -0.1424928        -16.9491         -56.5904       -24.91837             -200               0             -200               0
1.42244               -0.1469989       -17.09748        -56.60421       -27.83806             -200               0             -200               0
1.42904                -0.151597       -17.24686        -56.61394       -30.57512             -200               0             -200               0
1.43564               -0.1562721       -17.39728        -56.61572       -33.12822             -200               0             -200               0
1.44224                -0.161015        -17.5488        -56.60535       -35.50018             -200               0             -200               0
1.44884                -0.165814        -17.7015        -56.57852       -37.69886             -200               0             -200               0
1.45545               -0.1706603       -17.85547         -56.5309       -39.73787             -200               0             -200               0
1.46205               -0.1755463       -18.01082         -56.4584       -41.63688             -200               0             -200               0
1.46865               -0.1804664       -18.16767        -56.35742       -43.42152             -200               0             -200               0
1.47525                -0.185419       -18.32615        -56.22512       -45.12265             -200               0             -200               0
1.48185               -0.1904028        -18.4864        -56.05965       -46.77508             -200               0             -200               0
1.48845               -0.1954199       -18.64856        -55.86027       -48.41573             -200               0             -200               0
1.49505               -0.2004739       -18.81278        -55.62745       -50.08154             -200               0             -200               0
1.50165               -0.2055761       -18.97919         -55.3628       -51.80732             -200               0             -200               0
1.50825               -0.2107345       -19.14795        -55.06889       -53.62403             -200               0             -200               0
1.51485                -0.215964       -19.31918        -54.74907       -55.55735             -200               0             -200               0
1.52145               -0.2212795       -19.49301        -54.40716         -57.627             -200               0             -200               0
1.52805               -0.2266999       -19.66955        -54.04723       -59.84661             -200               0             -200               0
1.53465               -0.2322445       -19.84891        -53.67335       -62.22408             -200               0             -200               0
1.54125               -0.2379356       -20.03115        -53.28944       -64.76223             -200               0             -200               0
1.54785               -0.2437944       -20.21636        -52.89908       -67.45968             -200               0             -200               0
1.55446               -0.2498471       -20.40457        -52.50551       -70.31175             -200               0             -200               0
1.56106               -0.2561126       -20.59583        -52.11154       -73.31134             -200               0             -200               0
1.56766               -0.2626185       -20.79013        -51.71958       -76.44965             -200               0             -200               0
1.57426               -0.2693836       -20.98748        -51.33164       -79.71681             -200               0             -200               0
1.58086                -0.276432       -21.18785        -50.94938       -83.10244             -200               0             -200               0
1.58746               -0.2837815       -21.39121        -50.57413       -86.59592             -200               0             -200               0
1.59406               -0.2914484       -21.59752        -50.20692       -90.18676             -200               0             -200               0
1.60066               -0.2994506       -21.80671        -49.84856       -93.86471             -200               0             -200               0
1.60726                -0.307799       -22.01871        -49.49965       -97.61996             -200               0             -200               0
1.61386               -0.3165027       -22.23347        -49.16062       -101.4431             -200               0             -200               0
1.62046               -0.3255692       -22.45091        -48.83172       -105.3254             -200               0             -200               0
1.62706               -0.3350023       -22.67097        -48.51311       -109.2583             -200               0             -200               0
1.63366               -0.3448048       -22.89358        -48.20483       -113.2341             -200               0             -200               0
1.64026               -0.3549718       -23.11871        -47.90683       -117.2455             -200               0             -200               0
1.64686               -0.3655015       -23.34631        -47.61901       -121.2856             -200               0             -200               0
1.65347                -0.376387       -23.57636        -47.34116       -125.3479             -200               0             -200               0
1.66007               -0.3876207       -23.80888        -47.07305       -129.4263             -200               0             -200               0
1.66667               -0.3991931       -24.04388        -46.81438       -133.5154             -200               0             -200               0
1.67327               -0.4110925       -24.28141        -46.56483       -137.6097             -200               0             -200               0
1.67987               -0.4233094       -24.52154          -46.324       -141.7044             -200               0             -200               0
1.68647               -0.4358337       -24.76436        -46.09149       -145.7948             -200               0             -200               0
1.69307               -0.4486558       -25.01001        -45.86685       -149.8767             -200               0             -200               0
1.69967               -0.4617683       -25.25863        -45.64958       -153.9461             -200               0             -200               0
1.70627               -0.4751642        -25.5104        -45.43915       -157.9994             -200               0             -200               0
1.71287               -0.4888421       -25.76551        -45.23502       -162.0332             -200               0             -200               0
1.71947               -0.5028001       -26.02419         -45.0366       -166.0445             -200               0             -200               0
1.72607                -0.517044       -26.28667        -44.84326       -170.0306             -200               0             -200               0
1.73267               -0.5315811       -26.55321        -44.65435       -173.9893             -200               0             -200               0
1.73927               -0.5464235       -26.82408         -44.4692       -177.9187             -200               0             -200               0
1.74587                -0.561588       -27.09954        -44.28711        178.1829             -200               0             -200               0
1.75248               -0.5770972       -27.37988        -44.10734        174.3163             -200               0             -200               0
1.75908                -0.592976       -27.66537        -43.92917        170.4823             -200               0             -200               0
1.76568               -0.6092572        -27.9563        -43.75183        166.6809             -200               0             -200               0
1.77228                -0.625976       -28.25293        -43.57458        162.9118             -200               0             -200               0
1.77888               -0.6431732       -28.55552        -43.39667         159.174             -200               0             -200               0
1.78548               -0.6608948       -28.86431        -43.21735         155.466             -200               0             -200               0
1.79208               -0.6791877       -29.17954        -43.03593        151.7858             -200               0             -200               0
1.79868               -0.6981055        -29.5014        -42.85171        148.1308             -200               0             -200               0
1.80528               -0.7177013        -29.8301        -42.66408        144.4979             -200               0             -200               0
1.81188               -0.7380328       -30.16578        -42.47246        140.8836             -200               0             -200               0
1.81848               -0.7591593        -30.5086        -42.27634        137.2838             -200               0             -200               0
1.82508               -0.7811407       -30.85868         -42.0753        133.6941             -200               0             -200               0
1.83168               -0.8040382       -31.21612        -41.86899        130.1097             -200               0             -200               0
1.83828               -0.8279132       -31.58099        -41.65715        126.5258             -200               0             -200               0
1.84488               -0.8528251       -31.95336        -41.43964        122.9371             -200               0             -200               0
1.85149               -0.8788368       -32.33328         -41.2164        119.3386             -200               0             -200               0
