! TOUCHSTONE file generated by CST MICROWAVE STUDIO
! Date and time: Tue Mar 18 00:01:40 2025
! Project name: oblique.cst
! Parameters = {Tilt=30; Fracture=1; B=12.5; D=160; F=15; Feed=2.85625; L=100; M=50; R=0.384908; S=2; Theta=270; length=57.125; wave=114.25}
! Header version: 2024
! Port assignment regex: !\s*Touchstone port\s*([0-9]+)\s*=\s*(CST MWS port|CST DES external port|CST DES block port)\s*(.+)\s* \(\"(.*)\"\)(\s*mode\s*([0-9]+))?.*
! Touchstone port assignment:
! Touchstone port 1 = CST MWS port 1 ("")
! Touchstone port 2 = CST MWS port 2 ("")
# GHz S DB R 50
1                    -0.02055315       -9.801032        -68.14863        159.3928             -200               0             -200               0
1.00662              -0.02129956       -9.889164        -68.10031        153.7724             -200               0             -200               0
1.01325              -0.02205246        -9.97784        -68.08256        148.2514             -200               0             -200               0
1.01987              -0.02281127       -10.06709        -68.09569        142.8377             -200               0             -200               0
1.02649              -0.02357595       -10.15694        -68.14016        137.5413             -200               0             -200               0
1.03311               -0.0243464       -10.24741        -68.21653        132.3744             -200               0             -200               0
1.03974              -0.02512402       -10.33854        -68.32544         127.352             -200               0             -200               0
1.04636              -0.02590967       -10.43035         -68.4676        122.4922             -200               0             -200               0
1.05298              -0.02670483       -10.52287        -68.64372        117.8173             -200               0             -200               0
1.0596               -0.02751232       -10.61613        -68.85442        113.3544             -200               0             -200               0
1.06623              -0.02833419       -10.71015        -69.10013        109.1366             -200               0             -200               0
1.07285              -0.02917345       -10.80496        -69.38083        105.2041             -200               0             -200               0
1.07947              -0.03003372       -10.90058         -69.6958        101.6058             -200               0             -200               0
1.08609              -0.03091867       -10.99702        -70.04309        98.40029             -200               0             -200               0
1.09272              -0.03183153       -11.09429        -70.41883        95.65711             -200               0             -200               0
1.09934              -0.03277721       -11.19242        -70.81626        93.45622             -200               0             -200               0
1.10596              -0.03375858        -11.2914        -71.22433        91.88491             -200               0             -200               0
1.11258              -0.03478016       -11.39125        -71.62609        91.02963             -200               0             -200               0
1.11921              -0.03584511       -11.49196        -71.99723        90.95954             -200               0             -200               0
1.12583              -0.03695753       -11.59353        -72.30557        91.69953             -200               0             -200               0
1.13245              -0.03811972       -11.69596        -72.51321        93.19531             -200               0             -200               0
1.13907              -0.03933493       -11.79925        -72.58259        95.28349             -200               0             -200               0
1.1457               -0.04060501       -11.90337        -72.48607        97.68953             -200               0             -200               0
1.15232              -0.04193227       -12.00834        -72.21516        100.0714             -200               0             -200               0
1.15894              -0.04331703       -12.11412        -71.78363        102.0978             -200               0             -200               0
1.16556              -0.04476012       -12.22073        -71.22238        103.5201             -200               0             -200               0
1.17219              -0.04626122       -12.32814        -70.56968        104.2047             -200               0             -200               0
1.17881               -0.0478211       -12.43635        -69.86217         104.121             -200               0             -200               0
1.18543               -0.0494378       -12.54536        -69.12988        103.3089             -200               0             -200               0
1.19205              -0.05110976       -12.65517        -68.39493        101.8446             -200               0             -200               0
1.19868              -0.05283587       -12.76577        -67.67238        99.81674             -200               0             -200               0
1.2053               -0.05461228       -12.87716         -66.9718        97.31208             -200               0             -200               0
1.21192              -0.05643859       -12.98937        -66.29886        94.40913             -200               0             -200               0
1.21854              -0.05831156        -13.1024        -65.65657        91.17578             -200               0             -200               0
1.22517              -0.06022797       -13.21627        -65.04622        87.66942             -200               0             -200               0
1.23179              -0.06218572         -13.331        -64.46801        83.93806             -200               0             -200               0
1.23841              -0.06418268       -13.44662        -63.92149        80.02163             -200               0             -200               0
1.24503              -0.06621702       -13.56316        -63.40579        75.95345             -200               0             -200               0
1.25166              -0.06828668       -13.68066        -62.91988        71.76135             -200               0             -200               0
1.25828              -0.07039218       -13.79916         -62.4626        67.46879             -200               0             -200               0
1.2649               -0.07253152       -13.91871         -62.0328        63.09566             -200               0             -200               0
1.27152              -0.07470554       -14.03933        -61.62931        58.65901             -200               0             -200               0
1.27815              -0.07691521       -14.16109        -61.25104        54.17357             -200               0             -200               0
1.28477              -0.07916259       -14.28404        -60.89694        49.65227             -200               0             -200               0
1.29139              -0.08145071       -14.40822        -60.56601        45.10655             -200               0             -200               0
1.29801               -0.0837832       -14.53367        -60.25733        40.54666             -200               0             -200               0
1.30464              -0.08616396       -14.66046        -59.97001        35.98197             -200               0             -200               0
1.31126              -0.08859733       -14.78861        -59.70321         31.4211             -200               0             -200               0
1.31788              -0.09108888       -14.91819        -59.45616         26.8721             -200               0             -200               0
1.3245               -0.09364577       -15.04921        -59.22809        22.34261             -200               0             -200               0
1.33113              -0.09627609       -15.18173        -59.01826        17.83995             -200               0             -200               0
1.33775              -0.09898503       -15.31577        -58.82594        13.37125             -200               0             -200               0
1.34437               -0.1017799       -15.45135        -58.65041        8.943455             -200               0             -200               0
1.35099                 -0.10467        -15.5885        -58.49094        4.563472             -200               0             -200               0
1.35762               -0.1076609       -15.72723        -58.34675       0.2381532             -200               0             -200               0
1.36424                -0.110763       -15.86756        -58.21705       -4.025646             -200               0             -200               0
1.37086               -0.1139808       -16.00949        -58.10099        -8.22106             -200               0             -200               0
1.37748               -0.1173243       -16.15301        -57.99765       -12.34122             -200               0             -200               0
1.38411               -0.1207972       -16.29814        -57.90603       -16.37927             -200               0             -200               0
1.39073               -0.1244069       -16.44487          -57.825       -20.32845             -200               0             -200               0
1.39735               -0.1281586       -16.59318        -57.75335       -24.18212             -200               0             -200               0
1.40397               -0.1320568       -16.74307        -57.68971       -27.93393             -200               0             -200               0
1.4106                -0.1361044       -16.89453        -57.63256       -31.57795             -200               0             -200               0
1.41722               -0.1403073       -17.04755        -57.58021       -35.10884             -200               0             -200               0
1.42384               -0.1446645       -17.20212         -57.5308       -38.52216             -200               0             -200               0
1.43046               -0.1491807       -17.35824        -57.48231       -41.81455             -200               0             -200               0
1.43709               -0.1538546        -17.5159        -57.43252        -44.9841             -200               0             -200               0
1.44371                -0.158687       -17.67511        -57.37911       -48.03072             -200               0             -200               0
1.45033               -0.1636788       -17.83587        -57.31962       -50.95636             -200               0             -200               0
1.45695               -0.1688284       -17.99819        -57.25154       -53.76547             -200               0             -200               0
1.46358               -0.1741353       -18.16209        -57.17239       -56.46512             -200               0             -200               0
1.4702                 -0.179598        -18.3276        -57.07977        -59.0652             -200               0             -200               0
1.47682               -0.1852166       -18.49473        -56.97148       -61.57841             -200               0             -200               0
1.48344               -0.1909907       -18.66354        -56.84564       -64.02005             -200               0             -200               0
1.49007               -0.1969193       -18.83407        -56.70071       -66.40772             -200               0             -200               0
1.49669               -0.2030024       -19.00635        -56.53567       -68.76064             -200               0             -200               0
1.50331               -0.2092424       -19.18046        -56.34999       -71.09908             -200               0             -200               0
1.50993               -0.2156396       -19.35645        -56.14372       -73.44345             -200               0             -200               0
1.51656               -0.2221972       -19.53438        -55.91743       -75.81354             -200               0             -200               0
1.52318               -0.2289199       -19.71433        -55.67221       -78.22778             -200               0             -200               0
1.5298                -0.2358122       -19.89636        -55.40954       -80.70255             -200               0             -200               0
1.53642               -0.2428791       -20.08054        -55.13127       -83.25176             -200               0             -200               0
1.54305               -0.2501288       -20.26695        -54.83948       -85.88657             -200               0             -200               0
1.54967               -0.2575685       -20.45567        -54.53637       -88.61531             -200               0             -200               0
1.55629                 -0.26521       -20.64675         -54.2242       -91.44358             -200               0             -200               0
1.56291               -0.2730618       -20.84026        -53.90519        -94.3744             -200               0             -200               0
1.56954               -0.2811372       -21.03628        -53.58146       -97.40857             -200               0             -200               0
1.57616               -0.2894479       -21.23485        -53.25499       -100.5449             -200               0             -200               0
1.58278               -0.2980052       -21.43603         -52.9276       -103.7808             -200               0             -200               0
1.5894                -0.3068259       -21.63986         -52.6009       -107.1121             -200               0             -200               0
1.59603               -0.3159235       -21.84639        -52.27633       -110.5341             -200               0             -200               0
1.60265               -0.3253097       -22.05564        -51.95512        -114.041             -200               0             -200               0
1.60927               -0.3350023       -22.26765        -51.63834       -117.6268             -200               0             -200               0
1.61589               -0.3450131       -22.48243        -51.32687       -121.2852             -200               0             -200               0
1.62252               -0.3553567           -22.7        -51.02144       -125.0097             -200               0             -200               0
1.62914               -0.3660464       -22.92037        -50.72265       -128.7939             -200               0             -200               0
1.63576               -0.3770945       -23.14354        -50.43096       -132.6313             -200               0             -200               0
1.64238               -0.3885133       -23.36952        -50.14672       -136.5156             -200               0             -200               0
1.64901               -0.4003137       -23.59831        -49.87017       -140.4407             -200               0             -200               0
1.65563               -0.4125057        -23.8299        -49.60149       -144.4007             -200               0             -200               0
1.66225               -0.4250982       -24.06431        -49.34074       -148.3899             -200               0             -200               0
1.66887               -0.4380994       -24.30153        -49.08793       -152.4029             -200               0             -200               0
1.6755                -0.4515156       -24.54157          -48.843       -156.4343             -200               0             -200               0
1.68212               -0.4653554       -24.78445        -48.60584       -160.4792             -200               0             -200               0
1.68874               -0.4796224       -25.03018        -48.37628       -164.5328             -200               0             -200               0
1.69536               -0.4943225       -25.27881        -48.15409       -168.5906             -200               0             -200               0
1.70199                 -0.50946       -25.53037        -47.93902       -172.6483             -200               0             -200               0
1.70861               -0.5250388        -25.7849        -47.73073       -176.7018             -200               0             -200               0
1.71523               -0.5410661       -26.04247        -47.52889        179.2526             -200               0             -200               0
1.72185               -0.5575442       -26.30316        -47.33309        175.2185             -200               0             -200               0
1.72848               -0.5744795       -26.56705        -47.14289        171.1994             -200               0             -200               0
1.7351                 -0.591878       -26.83423        -46.95783         167.198             -200               0             -200               0
1.74172               -0.6097488       -27.10483        -46.77739        163.2173             -200               0             -200               0
1.74834               -0.6281001       -27.37895        -46.60103        159.2596             -200               0             -200               0
1.75497               -0.6469438       -27.65675        -46.42816        155.3271             -200               0             -200               0
1.76159               -0.6662919       -27.93835        -46.25818        151.4215             -200               0             -200               0
1.76821               -0.6861622       -28.22391        -46.09045        147.5441             -200               0             -200               0
1.77483               -0.7065693       -28.51358         -45.9243        143.6959             -200               0             -200               0
1.78146               -0.7275362       -28.80754        -45.75907        139.8774             -200               0             -200               0
1.78808               -0.7490856       -29.10594        -45.59405        136.0886             -200               0             -200               0
1.7947                -0.7712427       -29.40896        -45.42855         132.329             -200               0             -200               0
1.80132               -0.7940376       -29.71676        -45.26188        128.5977             -200               0             -200               0
1.80795               -0.8175021       -30.02952        -45.09337        124.8932             -200               0             -200               0
1.81457               -0.8416703       -30.34738        -44.92234        121.2134             -200               0             -200               0
1.82119               -0.8665793       -30.67051        -44.74818        117.5559             -200               0             -200               0
1.82781               -0.8922703       -30.99906         -44.5703        113.9176             -200               0             -200               0
1.83444               -0.9187848       -31.33317        -44.38819         110.295             -200               0             -200               0
1.84106                -0.946167       -31.67295        -44.20137        106.6842             -200               0             -200               0
1.84768               -0.9744648       -32.01855        -44.00945        103.0809             -200               0             -200               0
1.8543                 -1.003724       -32.37006        -43.81213        99.48055             -200               0             -200               0
