! TOUCHSTONE file generated by CST MICROWAVE STUDIO
! Date and time: Tue Mar 18 00:00:41 2025
! Project name: oblique.cst
! Parameters = {Tilt=30; Fracture=1; B=10; D=160; F=5; Feed=2.85625; L=100; M=10; R=0.384908; S=1; Theta=90; length=57.125; wave=114.25}
! Header version: 2024
! Port assignment regex: !\s*Touchstone port\s*([0-9]+)\s*=\s*(CST MWS port|CST DES external port|CST DES block port)\s*(.+)\s* \(\"(.*)\"\)(\s*mode\s*([0-9]+))?.*
! Touchstone port assignment:
! Touchstone port 1 = CST MWS port 1 ("")
! Touchstone port 2 = CST MWS port 2 ("")
# GHz S DB R 50
1                    -0.01767254       -9.781992        -70.10736       -121.6624             -200               0             -200               0
1.00662              -0.01845961       -9.872683        -69.49997       -126.6932             -200               0             -200               0
1.01325              -0.01933152       -9.963742        -68.95399       -131.7808             -200               0             -200               0
1.01987              -0.02028252        -10.0551        -68.46386       -136.9048             -200               0             -200               0
1.02649              -0.02130456       -10.14671         -68.0251       -142.0488             -200               0             -200               0
1.03311              -0.02238676       -10.23851        -67.63414       -147.1995             -200               0             -200               0
1.03974              -0.02351996       -10.33047        -67.28806       -152.3452             -200               0             -200               0
1.04636              -0.02469058       -10.42257        -66.98455       -157.4753             -200               0             -200               0
1.05298              -0.02588603       -10.51481        -66.72175       -162.5804             -200               0             -200               0
1.0596               -0.02709287       -10.60718        -66.49824       -167.6509             -200               0             -200               0
1.06623              -0.02829816       -10.69972        -66.31292       -172.6775             -200               0             -200               0
1.07285              -0.02948849       -10.79246          -66.165       -177.6504             -200               0             -200               0
1.07947              -0.03065264       -10.88546        -66.05399        177.4406             -200               0             -200               0
1.08609              -0.03177936       -10.97878        -65.97962         172.607             -200               0             -200               0
1.09272              -0.03285962       -11.07251        -65.94184        167.8614             -200               0             -200               0
1.09934              -0.03388664       -11.16674         -65.9408        163.2183             -200               0             -200               0
1.10596              -0.03485439       -11.26157        -65.97681        158.6944             -200               0             -200               0
1.11258              -0.03575957        -11.3571        -66.05033        154.3093             -200               0             -200               0
1.11921              -0.03660247       -11.45345        -66.16187         150.086             -200               0             -200               0
1.12583              -0.03738379       -11.55072        -66.31198        146.0524             -200               0             -200               0
1.13245              -0.03810935       -11.64903        -66.50107        142.2416             -200               0             -200               0
1.13907              -0.03878461       -11.74847        -66.72926        138.6939             -200               0             -200               0
1.1457               -0.03941925       -11.84916        -66.99613        135.4579             -200               0             -200               0
1.15232              -0.04002534       -11.95117        -67.30022        132.5923             -200               0             -200               0
1.15894              -0.04061369       -12.05459        -67.63843        130.1672             -200               0             -200               0
1.16556              -0.04120014       -12.15949        -68.00507        128.2646             -200               0             -200               0
1.17219              -0.04180103        -12.2659        -68.39047        126.9769             -200               0             -200               0
1.17881              -0.04243052       -12.37386        -68.77931        126.4002             -200               0             -200               0
1.18543              -0.04310702        -12.4834        -69.14874        126.6209             -200               0             -200               0
1.19205              -0.04384626       -12.59451        -69.46722        127.6896             -200               0             -200               0
1.19868              -0.04466562       -12.70718        -69.69553        129.5846             -200               0             -200               0
1.2053               -0.04557988       -12.82137        -69.79192        132.1729             -200               0             -200               0
1.21192              -0.04660282       -12.93705        -69.72193        135.1945             -200               0             -200               0
1.21854              -0.04774705       -13.05415        -69.46957         138.295             -200               0             -200               0
1.22517              -0.04902256       -13.17261        -69.04343         141.106             -200               0             -200               0
1.23179                -0.050438       -13.29234        -68.47318        143.3336             -200               0             -200               0
1.23841              -0.05199941       -13.41328        -67.79925        144.8073             -200               0             -200               0
1.24503              -0.05371054       -13.53532        -67.06198        145.4762             -200               0             -200               0
1.25166               -0.0555703       -13.65838        -66.29506        145.3741             -200               0             -200               0
1.25828              -0.05757999       -13.78239        -65.52347        144.5807             -200               0             -200               0
1.2649               -0.05973259       -13.90725        -64.76415        143.1916             -200               0             -200               0
1.27152              -0.06202317        -14.0329         -64.0278        141.3021             -200               0             -200               0
1.27815              -0.06444242       -14.15929        -63.32065        138.9985             -200               0             -200               0
1.28477              -0.06698046       -14.28635        -62.64595        136.3552             -200               0             -200               0
1.29139              -0.06962493       -14.41407          -62.005        133.4352             -200               0             -200               0
1.29801              -0.07236148       -14.54242        -61.39787        130.2913             -200               0             -200               0
1.30464              -0.07517844        -14.6714         -60.8239         126.967             -200               0             -200               0
1.31126              -0.07806054       -14.80105        -60.28203         123.499             -200               0             -200               0
1.31788              -0.08099403       -14.93138        -59.77092        119.9178             -200               0             -200               0
1.3245               -0.08396681       -15.06247        -59.28916        116.2492             -200               0             -200               0
1.33113              -0.08696515       -15.19438        -58.83528        112.5153             -200               0             -200               0
1.33775              -0.08998065       -15.32721        -58.40781        108.7349             -200               0             -200               0
1.34437              -0.09300291       -15.46105        -58.00531        104.9246             -200               0             -200               0
1.35099              -0.09602712       -15.59603        -57.62638        101.0989             -200               0             -200               0
1.35762              -0.09904795       -15.73227        -57.26962        97.27079             -200               0             -200               0
1.36424                -0.102066       -15.86989        -56.93369        93.45178             -200               0             -200               0
1.37086                -0.105083       -16.00905        -56.61723        89.65246             -200               0             -200               0
1.37748               -0.1081025       -16.14986         -56.3189        85.88245             -200               0             -200               0
1.38411               -0.1111337       -16.29247        -56.03737         82.1506             -200               0             -200               0
1.39073               -0.1141872       -16.43701        -55.77125        78.46504             -200               0             -200               0
1.39735               -0.1172757       -16.58359        -55.51914        74.83325             -200               0             -200               0
1.40397               -0.1204152       -16.73231         -55.2796        71.26202             -200               0             -200               0
1.4106                -0.1236233       -16.88329        -55.05112        67.75749             -200               0             -200               0
1.41722               -0.1269186       -17.03658        -54.83213        64.32501             -200               0             -200               0
1.42384               -0.1303234       -17.19225        -54.62099        60.96916             -200               0             -200               0
1.43046                -0.133859       -17.35035        -54.41599        57.69353             -200               0             -200               0
1.43709               -0.1375467       -17.51089        -54.21536        54.50069             -200               0             -200               0
1.44371               -0.1414079       -17.67388        -54.01727        51.39196             -200               0             -200               0
1.45033               -0.1454638        -17.8393        -53.81983        48.36734             -200               0             -200               0
1.45695               -0.1497343       -18.00712        -53.62117        45.42534             -200               0             -200               0
1.46358                -0.154238       -18.17728         -53.4194        42.56285             -200               0             -200               0
1.4702                -0.1589902       -18.34973         -53.2127        39.77509             -200               0             -200               0
1.47682               -0.1640043       -18.52439        -52.99934        37.05559             -200               0             -200               0
1.48344               -0.1692932       -18.70117        -52.77774        34.39623             -200               0             -200               0
1.49007               -0.1748627       -18.87998        -52.54651        31.78735             -200               0             -200               0
1.49669               -0.1807193       -19.06073         -52.3045        29.21798             -200               0             -200               0
1.50331               -0.1868639       -19.24332        -52.05084        26.67615             -200               0             -200               0
1.50993               -0.1932967       -19.42769        -51.78496        24.14918             -200               0             -200               0
1.51656               -0.2000127       -19.61373        -51.50661        21.62414             -200               0             -200               0
1.52318               -0.2070049        -19.8014        -51.21587        19.08822             -200               0             -200               0
1.5298                -0.2142651       -19.99064        -50.91312        16.52917             -200               0             -200               0
1.53642               -0.2217809       -20.18141        -50.59902        13.93561             -200               0             -200               0
1.54305               -0.2295406       -20.37371        -50.27449        11.29737             -200               0             -200               0
1.54967               -0.2375294       -20.56754         -49.9406        8.605707             -200               0             -200               0
1.55629                -0.245733       -20.76294        -49.59859        5.853411             -200               0             -200               0
1.56291               -0.2541364       -20.95998         -49.2498        3.034885             -200               0             -200               0
1.56954               -0.2627269       -21.15873         -48.8956       0.1461199             -200               0             -200               0
1.57616               -0.2714908       -21.35929        -48.53734       -2.815389             -200               0             -200               0
1.58278               -0.2804179       -21.56182        -48.17638       -5.850768             -200               0             -200               0
1.5894                -0.2894992       -21.76645        -47.81399        -8.95991             -200               0             -200               0
1.59603               -0.2987298       -21.97337        -47.45135       -12.14165             -200               0             -200               0
1.60265               -0.3081073       -22.18275        -47.08955       -15.39394             -200               0             -200               0
1.60927               -0.3176335       -22.39481        -46.72958       -18.71402             -200               0             -200               0
1.61589                -0.327314       -22.60976        -46.37231       -22.09853             -200               0             -200               0
1.62252               -0.3371605       -22.82782        -46.01849       -25.54371             -200               0             -200               0
1.62914               -0.3471854        -23.0492        -45.66878       -29.04551             -200               0             -200               0
1.63576               -0.3574083       -23.27412        -45.32373       -32.59965             -200               0             -200               0
1.64238               -0.3678528       -23.50279        -44.98377       -36.20175             -200               0             -200               0
1.64901               -0.3785465       -23.73541        -44.64926       -39.84739             -200               0             -200               0
1.65563               -0.3895206       -23.97216        -44.32048       -43.53219             -200               0             -200               0
1.66225               -0.4008096       -24.21321        -43.99762       -47.25179             -200               0             -200               0
1.66887               -0.4124516        -24.4587         -43.6808       -51.00199             -200               0             -200               0
1.6755                -0.4244878       -24.70875        -43.37007       -54.77868             -200               0             -200               0
1.68212                -0.436957       -24.96344        -43.06544       -58.57794             -200               0             -200               0
1.68874               -0.4499047       -25.22284        -42.76684       -62.39601             -200               0             -200               0
1.69536               -0.4633744       -25.48699        -42.47417       -66.22932             -200               0             -200               0
1.70199               -0.4774086        -25.7559        -42.18729       -70.07452             -200               0             -200               0
1.70861               -0.4920501       -26.02954          -41.906       -73.92844             -200               0             -200               0
1.71523               -0.5073398       -26.30788        -41.63008       -77.78817             -200               0             -200               0
1.72185               -0.5233168       -26.59084        -41.35926       -81.65101             -200               0             -200               0
1.72848               -0.5400173       -26.87835        -41.09327        -85.5145             -200               0             -200               0
1.7351                -0.5574738       -27.17031        -40.83177       -89.37643             -200               0             -200               0
1.74172               -0.5757161        -27.4666        -40.57445       -93.23485             -200               0             -200               0
1.74834               -0.5947712       -27.76709        -40.32093       -97.08805             -200               0             -200               0
1.75497               -0.6146601       -28.07168        -40.07083       -100.9346             -200               0             -200               0
1.76159               -0.6354012       -28.38023        -39.82378       -104.7734             -200               0             -200               0
1.76821               -0.6570079       -28.69265        -39.57936       -108.6035             -200               0             -200               0
1.77483               -0.6794917       -29.00882        -39.33718       -112.4244             -200               0             -200               0
1.78146               -0.7028596       -29.32869        -39.09681       -116.2357             -200               0             -200               0
1.78808               -0.7271151       -29.65218        -38.85786       -120.0375             -200               0             -200               0
1.7947                -0.7522617       -29.97927        -38.61991       -123.8301             -200               0             -200               0
1.80132               -0.7782995       -30.30996        -38.38258        -127.614             -200               0             -200               0
1.80795               -0.8052282       -30.64428        -38.14549       -131.3901             -200               0             -200               0
1.81457               -0.8330474       -30.98232        -37.90828       -135.1596             -200               0             -200               0
1.82119               -0.8617584       -31.32418        -37.67062       -138.9238             -200               0             -200               0
1.82781               -0.8913636          -31.67        -37.43219       -142.6843             -200               0             -200               0
1.83444               -0.9218687       -32.01997        -37.19273       -146.4431             -200               0             -200               0
1.84106               -0.9532835       -32.37433        -36.95199        -150.202             -200               0             -200               0
1.84768               -0.9856234       -32.73333        -36.70977       -153.9634             -200               0             -200               0
1.8543                 -1.018908       -33.09727        -36.46591       -157.7296             -200               0             -200               0
