! TOUCHSTONE file generated by CST MICROWAVE STUDIO
! Date and time: Tue Mar 18 00:01:54 2025
! Project name: oblique.cst
! Parameters = {Tilt=40; Fracture=1; B=10; D=160; F=5; Feed=2.85625; L=100; M=10; R=0.384908; S=1; Theta=180; length=57.125; wave=114.25}
! Header version: 2024
! Port assignment regex: !\s*Touchstone port\s*([0-9]+)\s*=\s*(CST MWS port|CST DES external port|CST DES block port)\s*(.+)\s* \(\"(.*)\"\)(\s*mode\s*([0-9]+))?.*
! Touchstone port assignment:
! Touchstone port 1 = CST MWS port 1 ("")
! Touchstone port 2 = CST MWS port 2 ("")
# GHz S DB R 50
1                    -0.01786327       -9.781482        -70.03437       -119.1034             -200               0             -200               0
1.0066                -0.0186354       -9.871709        -69.40509       -124.3381             -200               0             -200               0
1.0132               -0.01948796       -9.962319        -68.84048       -129.6092             -200               0             -200               0
1.0198               -0.02041613       -10.05325        -68.33425       -134.9002             -200               0             -200               0
1.0264               -0.02141072       -10.14445        -67.88139       -140.1982             -200               0             -200               0
1.033                 -0.0224644       -10.23587        -67.47791       -145.4922             -200               0             -200               0
1.0396               -0.02356586       -10.32747         -67.1206       -150.7728             -200               0             -200               0
1.0462                -0.0247045       -10.41925         -66.8069       -156.0314             -200               0             -200               0
1.05281              -0.02586835       -10.51119        -66.53479         -161.26             -200               0             -200               0
1.05941              -0.02704388        -10.6033        -66.30268       -166.4506             -200               0             -200               0
1.06601              -0.02821932        -10.6956         -66.1094       -171.5952             -200               0             -200               0
1.07261               -0.0293839       -10.78813        -65.95407       -176.6854             -200               0             -200               0
1.07921              -0.03052494       -10.88094        -65.83614         178.288             -200               0             -200               0
1.08581              -0.03163291       -10.97409        -65.75532        173.3351             -200               0             -200               0
1.09241              -0.03269895       -11.06766        -65.71156        168.4672             -200               0             -200               0
1.09901              -0.03371645       -11.16173        -65.70504        163.6974             -200               0             -200               0
1.10561               -0.0346795        -11.2564        -65.73614        159.0409             -200               0             -200               0
1.11221              -0.03558564       -11.35177        -65.80541        154.5156             -200               0             -200               0
1.11881               -0.0364348       -11.44794        -65.91356         150.143             -200               0             -200               0
1.12541              -0.03722788       -11.54501        -66.06135        145.9486             -200               0             -200               0
1.13201              -0.03796831       -11.64309        -66.24957        141.9637             -200               0             -200               0
1.13861               -0.0386627       -11.74228        -66.47885         138.226             -200               0             -200               0
1.14521              -0.03931995       -11.84267        -66.74945        134.7821             -200               0             -200               0
1.15182              -0.03995009       -11.94436        -67.06091        131.6887             -200               0             -200               0
1.15842              -0.04056465        -12.0474        -67.41146        129.0151             -200               0             -200               0
1.16502              -0.04117742       -12.15187        -67.79718        126.8447             -200               0             -200               0
1.17162              -0.04180316       -12.25782        -68.21067        125.2753             -200               0             -200               0
1.17822              -0.04245661       -12.36528        -68.63924         124.416             -200               0             -200               0
1.18482              -0.04315401       -12.47426        -69.06257        124.3768             -200               0             -200               0
1.19142              -0.04391157       -12.58478        -69.45055        125.2466             -200               0             -200               0
1.19802              -0.04474397       -12.69683        -69.76251        127.0539             -200               0             -200               0
1.20462              -0.04566628       -12.81037        -69.95057        129.7173             -200               0             -200               0
1.21122              -0.04669117       -12.92537        -69.96911        133.0049             -200               0             -200               0
1.21782              -0.04783154       -13.04177        -69.78912        136.5436             -200               0             -200               0
1.22442              -0.04909759       -13.15951        -69.40962        139.8998             -200               0             -200               0
1.23102              -0.05049737       -13.27853        -68.85807        142.6949             -200               0             -200               0
1.23762              -0.05203604       -13.39875         -68.1792        144.6891             -200               0             -200               0
1.24422              -0.05371875       -13.52008        -67.42074        145.7941             -200               0             -200               0
1.25083              -0.05554525       -13.64244        -66.62345        146.0347             -200               0             -200               0
1.25743              -0.05751557       -13.76577        -65.81764        145.4981             -200               0             -200               0
1.26403               -0.0596256       -13.88997        -65.02363        144.2947             -200               0             -200               0
1.27063              -0.06187033         -14.015        -64.25404        142.5348             -200               0             -200               0
1.27723              -0.06424142       -14.14077        -63.51603        140.3176             -200               0             -200               0
1.28383              -0.06672941       -14.26727        -62.81316        137.7283             -200               0             -200               0
1.29043              -0.06932301       -14.39444        -62.14677        134.8381             -200               0             -200               0
1.29703              -0.07201105       -14.52227        -61.51677        131.7056             -200               0             -200               0
1.30363              -0.07478027       -14.65077        -60.92232        128.3789             -200               0             -200               0
1.31023              -0.07761738       -14.77994        -60.36209         124.898             -200               0             -200               0
1.31683              -0.08050971       -14.90982        -59.83456        121.2957             -200               0             -200               0
1.32343              -0.08344541       -15.04047        -59.33809        117.5997             -200               0             -200               0
1.33003              -0.08641204       -15.17195        -58.87105        113.8332             -200               0             -200               0
1.33663               -0.0893996       -15.30434        -58.43182        110.0163             -200               0             -200               0
1.34323              -0.09240101       -15.43774        -58.01884         106.166             -200               0             -200               0
1.34984               -0.0954081       -15.57225         -57.6306        102.2975             -200               0             -200               0
1.35644              -0.09841851       -15.70801        -57.26563        98.42412             -200               0             -200               0
1.36304               -0.1014298       -15.84511        -56.92251        94.55773             -200               0             -200               0
1.36964               -0.1044435       -15.98371        -56.59985        90.70917             -200               0             -200               0
1.37624               -0.1074652       -16.12392        -56.29628         86.8883             -200               0             -200               0
1.38284                  -0.1105       -16.26588        -56.01043        83.10417             -200               0             -200               0
1.38944               -0.1135581       -16.40971        -55.74094        79.36514             -200               0             -200               0
1.39604               -0.1166507       -16.55552        -55.48638        75.67894             -200               0             -200               0
1.40264               -0.1197944       -16.70342        -55.24534        72.05264             -200               0             -200               0
1.40924               -0.1230043        -16.8535        -55.01631        68.49272             -200               0             -200               0
1.41584               -0.1262988       -17.00585        -54.79774        65.00495             -200               0             -200               0
1.42244               -0.1296969       -17.16052        -54.58803        61.59434             -200               0             -200               0
1.42904               -0.1332195       -17.31756        -54.38546        58.26506             -200               0             -200               0
1.43564                -0.136888         -17.477        -54.18829        55.02029             -200               0             -200               0
1.44224               -0.1407225       -17.63884        -53.99467        51.86209             -200               0             -200               0
1.44884               -0.1447434       -17.80308        -53.80272        48.79123             -200               0             -200               0
1.45545               -0.1489698       -17.96968        -53.61051        45.80705             -200               0             -200               0
1.46205               -0.1534193       -18.13862        -53.41611        42.90731             -200               0             -200               0
1.46865               -0.1581082       -18.30982        -53.21761         40.0881             -200               0             -200               0
1.47525               -0.1630512       -18.48323        -53.01319        37.34376             -200               0             -200               0
1.48185               -0.1682582       -18.65876        -52.80112        34.66688             -200               0             -200               0
1.48845               -0.1737393       -18.83634        -52.57985        32.04839             -200               0             -200               0
1.49505               -0.1794997       -19.01587        -52.34806        29.47774             -200               0             -200               0
1.50165               -0.1855415       -19.19727        -52.10468        26.94309             -200               0             -200               0
1.50825               -0.1918658       -19.38046        -51.84895        24.43173             -200               0             -200               0
1.51485               -0.1984694       -19.56537        -51.58043        21.93041             -200               0             -200               0
1.52145               -0.2053472       -19.75193        -51.29901        19.42576             -200               0             -200               0
1.52805               -0.2124911       -19.94009        -51.00493        16.90476             -200               0             -200               0
1.53465               -0.2198906       -20.12981        -50.69871        14.35512             -200               0             -200               0
1.54125               -0.2275351       -20.32108        -50.38117        11.76563             -200               0             -200               0
1.54785               -0.2354108        -20.5139        -50.05332        9.126454             -200               0             -200               0
1.55446               -0.2435051       -20.70831        -49.71638        6.429283             -200               0             -200               0
1.56106               -0.2518034       -20.90434        -49.37168         3.66747             -200               0             -200               0
1.56766               -0.2602937       -21.10209        -49.02061       0.8360331             -200               0             -200               0
1.57426               -0.2689624       -21.30164        -48.66459       -2.068399             -200               0             -200               0
1.58086               -0.2778007       -21.50311        -48.30503       -5.047693             -200               0             -200               0
1.58746               -0.2867988       -21.70665        -47.94327       -8.102366             -200               0             -200               0
1.59406               -0.2959499       -21.91242        -47.58058       -11.23175             -200               0             -200               0
1.60066               -0.3052544        -22.1206        -47.21814       -14.43416             -200               0             -200               0
1.60726               -0.3147102       -22.33138        -46.85702       -17.70711             -200               0             -200               0
1.61386               -0.3243234       -22.54496        -46.49816       -21.04743             -200               0             -200               0
1.62046               -0.3341007       -22.76155         -46.1424       -24.45147             -200               0             -200               0
1.62706               -0.3440574       -22.98136        -45.79047       -27.91519             -200               0             -200               0
1.63366               -0.3542087       -23.20461        -45.44296       -31.43432             -200               0             -200               0
1.64026               -0.3645777        -23.4315         -45.1004       -35.00441             -200               0             -200               0
1.64686                -0.375187       -23.66223        -44.76319       -38.62097             -200               0             -200               0
1.65347               -0.3860681       -23.89697        -44.43164       -42.27949             -200               0             -200               0
1.66007               -0.3972533       -24.13589          -44.106        -45.9755             -200               0             -200               0
1.66667               -0.4087771       -24.37915        -43.78642       -49.70466             -200               0             -200               0
1.67327               -0.4206781       -24.62686        -43.47299        -53.4627             -200               0             -200               0
1.67987               -0.4329969       -24.87913        -43.16574       -57.24556             -200               0             -200               0
1.68647               -0.4457753       -25.13603        -42.86464       -61.04933             -200               0             -200               0
1.69307               -0.4590543        -25.3976        -42.56961       -64.87027             -200               0             -200               0
1.69967                -0.472877       -25.66386        -42.28052       -68.70486             -200               0             -200               0
1.70627               -0.4872852       -25.93482         -41.9972        -72.5498             -200               0             -200               0
1.71287               -0.5023187       -26.21044        -41.71944       -76.40201             -200               0             -200               0
1.71947               -0.5180184       -26.49066          -41.447       -80.25861             -200               0             -200               0
1.72607               -0.5344179       -26.77542        -41.17959         -84.117             -200               0             -200               0
1.73267               -0.5515526       -27.06463        -40.91692       -87.97479             -200               0             -200               0
1.73927               -0.5694527       -27.35818        -40.65865       -91.82986             -200               0             -200               0
1.74587               -0.5881455       -27.65596        -40.40444       -95.68034             -200               0             -200               0
1.75248               -0.6076543       -27.95786        -40.15391       -99.52464             -200               0             -200               0
1.75908               -0.6279993       -28.26377        -39.90667       -103.3614             -200               0             -200               0
1.76568               -0.6491947       -28.57357        -39.66233       -107.1897             -200               0             -200               0
1.77228               -0.6712546       -28.88717        -39.42047       -111.0086             -200               0             -200               0
1.77888               -0.6941864       -29.20449        -39.18069       -114.8178             -200               0             -200               0
1.78548               -0.7179986       -29.52547        -38.94257        -118.617             -200               0             -200               0
1.79208               -0.7426933       -29.85006        -38.70569       -122.4064             -200               0             -200               0
1.79868               -0.7682723       -30.17826        -38.46966       -126.1864             -200               0             -200               0
1.80528                -0.794737       -30.51009        -38.23409       -129.9577             -200               0             -200               0
1.81188               -0.8220883       -30.84561        -37.99859       -133.7212             -200               0             -200               0
1.81848                -0.850326       -31.18492        -37.76282       -137.4783             -200               0             -200               0
1.82508               -0.8794546       -31.52813        -37.52645       -141.2304             -200               0             -200               0
1.83168               -0.9094785       -31.87542        -37.28918       -144.9792             -200               0             -200               0
1.83828               -0.9404058       -32.22699        -37.05075       -148.7268             -200               0             -200               0
1.84488               -0.9722499       -32.58309        -36.81093       -152.4751             -200               0             -200               0
1.85149                 -1.00503       -32.94397        -36.56953       -156.2266             -200               0             -200               0
