! TOUCHSTONE file generated by CST MICROWAVE STUDIO
! Date and time: Tue Mar 18 00:00:43 2025
! Project name: oblique.cst
! Parameters = {Tilt=30; Fracture=1; B=10; D=160; F=5; Feed=2.85625; L=100; M=30; R=0.384908; S=1; Theta=180; length=57.125; wave=114.25}
! Header version: 2024
! Port assignment regex: !\s*Touchstone port\s*([0-9]+)\s*=\s*(CST MWS port|CST DES external port|CST DES block port)\s*(.+)\s* \(\"(.*)\"\)(\s*mode\s*([0-9]+))?.*
! Touchstone port assignment:
! Touchstone port 1 = CST MWS port 1 ("")
! Touchstone port 2 = CST MWS port 2 ("")
# GHz S DB R 50
1                    -0.02006105       -9.793497        -68.54639       -162.9569             -200               0             -200               0
1.0066               -0.02091705       -9.882087        -68.37662       -167.3391             -200               0             -200               0
1.0132               -0.02181535       -9.971039        -68.23186       -171.6635             -200               0             -200               0
1.0198               -0.02275035       -10.06034        -68.11155       -175.9199             -200               0             -200               0
1.0264                -0.0237158       -10.14998        -68.01512        179.9025             -200               0             -200               0
1.033                -0.02470631       -10.23995          -67.942        175.8154             -200               0             -200               0
1.0396               -0.02571566       -10.33027        -67.89156        171.8314             -200               0             -200               0
1.0462               -0.02673592       -10.42094        -67.86305        167.9642             -200               0             -200               0
1.05281              -0.02776252         -10.512        -67.85561        164.2287             -200               0             -200               0
1.05941              -0.02878802       -10.60346        -67.86813        160.6409             -200               0             -200               0
1.06601              -0.02980844       -10.69536        -67.89924        157.2184             -200               0             -200               0
1.07261              -0.03081908       -10.78775        -67.94716          153.98             -200               0             -200               0
1.07921              -0.03181555       -10.88068        -68.00963        150.9454             -200               0             -200               0
1.08581              -0.03279585        -10.9742        -68.08379         148.135             -200               0             -200               0
1.09241              -0.03375945       -11.06836        -68.16598        145.5692             -200               0             -200               0
1.09901              -0.03470467       -11.16323         -68.2517        143.2672             -200               0             -200               0
1.10561              -0.03563295       -11.25886        -68.33543        141.2453             -200               0             -200               0
1.11221              -0.03654667       -11.35532         -68.4106        139.5148             -200               0             -200               0
1.11881              -0.03745035       -11.45265        -68.46965        138.0796             -200               0             -200               0
1.12541              -0.03834708       -11.55091        -68.50424        136.9328             -200               0             -200               0
1.13201              -0.03924309       -11.65014        -68.50566        136.0543             -200               0             -200               0
1.13861              -0.04014537        -11.7504        -68.46547        135.4088             -200               0             -200               0
1.14521                -0.041061       -11.85171        -68.37628        134.9454             -200               0             -200               0
1.15182              -0.04199788       -11.95411        -68.23266        134.5996             -200               0             -200               0
1.15842              -0.04296362       -12.05761        -68.03177         134.298             -200               0             -200               0
1.16502              -0.04396703       -12.16222        -67.77382        133.9643             -200               0             -200               0
1.17162              -0.04501674       -12.26796        -67.46198        133.5264             -200               0             -200               0
1.17822              -0.04611954       -12.37481        -67.10193        132.9226             -200               0             -200               0
1.18482               -0.0472835       -12.48277        -66.70109        132.1052             -200               0             -200               0
1.19142              -0.04851648       -12.59181        -66.26777        131.0424             -200               0             -200               0
1.19802              -0.04982274       -12.70192        -65.81038        129.7172             -200               0             -200               0
1.20462              -0.05120684       -12.81306        -65.33685        128.1255             -200               0             -200               0
1.21122              -0.05267347        -12.9252        -64.85426        126.2733             -200               0             -200               0
1.21782               -0.0542259        -13.0383        -64.36867        124.1735             -200               0             -200               0
1.22442              -0.05586202       -13.15233        -63.88504        121.8435             -200               0             -200               0
1.23102              -0.05758518       -13.26725        -63.40738        119.3033             -200               0             -200               0
1.23762              -0.05939051       -13.38303        -62.93878        116.5737             -200               0             -200               0
1.24422               -0.0612782       -13.49964        -62.48161        113.6755             -200               0             -200               0
1.25083              -0.06324251       -13.61706        -62.03758        110.6288             -200               0             -200               0
1.25743              -0.06527775       -13.73527        -61.60794        107.4525             -200               0             -200               0
1.26403              -0.06738109       -13.85426        -61.19351        104.1643             -200               0             -200               0
1.27063              -0.06954348       -13.97402        -60.79481        100.7807             -200               0             -200               0
1.27723              -0.07175764       -14.09456        -60.41211        97.31644             -200               0             -200               0
1.28383              -0.07401857       -14.21591        -60.04547        93.78552             -200               0             -200               0
1.29043              -0.07631764       -14.33809        -59.69482        90.20054             -200               0             -200               0
1.29703              -0.07864731       -14.46113        -59.35997        86.57315             -200               0             -200               0
1.30363              -0.08100403       -14.58508        -59.04061        82.91409             -200               0             -200               0
1.31023              -0.08337895          -14.71        -58.73638         79.2333             -200               0             -200               0
1.31683              -0.08576797       -14.83596        -58.44684           75.54             -200               0             -200               0
1.32343              -0.08816955       -14.96301         -58.1715        71.84282             -200               0             -200               0
1.33003              -0.09057893       -15.09125        -57.90981        68.14981             -200               0             -200               0
1.33663              -0.09299653       -15.22076        -57.66117        64.46854             -200               0             -200               0
1.34323              -0.09542316       -15.35161        -57.42495        60.80616             -200               0             -200               0
1.34984              -0.09786037       -15.48389        -57.20043        57.16939             -200               0             -200               0
1.35644               -0.1003123        -15.6177        -56.98687        53.56455             -200               0             -200               0
1.36304               -0.1027837       -15.75311        -56.78347        49.99759             -200               0             -200               0
1.36964               -0.1052814       -15.89022        -56.58935        46.47403             -200               0             -200               0
1.37624               -0.1078148       -16.02909        -56.40359        42.99898             -200               0             -200               0
1.38284               -0.1103926        -16.1698        -56.22519        39.57709             -200               0             -200               0
1.38944               -0.1130263        -16.3124        -56.05308        36.21246             -200               0             -200               0
1.39604               -0.1157254       -16.45697        -55.88615        32.90863             -200               0             -200               0
1.40264               -0.1185024       -16.60353        -55.72318        29.66843             -200               0             -200               0
1.40924               -0.1213701       -16.75213        -55.56294        26.49394             -200               0             -200               0
1.41584               -0.1243393        -16.9028         -55.4041        23.38639             -200               0             -200               0
1.42244               -0.1274245       -17.05554        -55.24533        20.34604             -200               0             -200               0
1.42904               -0.1306357       -17.21039        -55.08526         17.3721             -200               0             -200               0
1.43564               -0.1339848       -17.36733        -54.92253        14.46266             -200               0             -200               0
1.44224               -0.1374806       -17.52636        -54.75577        11.61463             -200               0             -200               0
1.44884               -0.1411345       -17.68747        -54.58372        8.823703             -200               0             -200               0
1.45545               -0.1449513       -17.85064        -54.40514        6.084399             -200               0             -200               0
1.46205               -0.1489421       -18.01585        -54.21897        3.390105             -200               0             -200               0
1.46865               -0.1531078        -18.1831        -54.02424       0.7331913             -200               0             -200               0
1.47525               -0.1574549       -18.35235         -53.8202       -1.894831             -200               0             -200               0
1.48185               -0.1619839       -18.52359        -53.60628       -4.503103             -200               0             -200               0
1.48845               -0.1666976       -18.69682        -53.38212       -7.101179             -200               0             -200               0
1.49505               -0.1715942       -18.87203        -53.14761       -9.698766             -200               0             -200               0
1.50165               -0.1766753       -19.04922        -52.90284       -12.30545             -200               0             -200               0
1.50825               -0.1819365        -19.2284        -52.64812       -14.93044             -200               0             -200               0
1.51485               -0.1873752        -19.4096        -52.38398       -17.58231             -200               0             -200               0
1.52145               -0.1929901       -19.59285        -52.11109       -20.26883             -200               0             -200               0
1.52805               -0.1987774       -19.77821        -51.83029       -22.99678             -200               0             -200               0
1.53465               -0.2047337       -19.96572        -51.54251       -25.77185             -200               0             -200               0
1.54125               -0.2108574       -20.15547        -51.24877       -28.59862             -200               0             -200               0
1.54785               -0.2171478       -20.34754        -50.95014       -31.48047             -200               0             -200               0
1.55446               -0.2236029       -20.54202        -50.64768       -34.41971             -200               0             -200               0
1.56106               -0.2302278       -20.73902        -50.34248       -37.41754             -200               0             -200               0
1.56766               -0.2370212       -20.93866        -50.03554       -40.47424             -200               0             -200               0
1.57426               -0.2439925       -21.14106        -49.72786        -43.5892             -200               0             -200               0
1.58086               -0.2511447       -21.34635        -49.42035       -46.76104             -200               0             -200               0
1.58746               -0.2584922       -21.55467        -49.11385       -49.98776             -200               0             -200               0
1.59406                -0.266043       -21.76614        -48.80912        -53.2668             -200               0             -200               0
1.60066               -0.2738124       -21.98091        -48.50683        -56.5952             -200               0             -200               0
1.60726               -0.2818186        -22.1991        -48.20757       -59.96962             -200               0             -200               0
1.61386               -0.2900808       -22.42085        -47.91185       -63.38649             -200               0             -200               0
1.62046               -0.2986205       -22.64628        -47.62008       -66.84206             -200               0             -200               0
1.62706                -0.307459       -22.87549         -47.3326       -70.33245             -200               0             -200               0
1.63366                -0.316625       -23.10859        -47.04969       -73.85373             -200               0             -200               0
1.64026               -0.3261444       -23.34566        -46.77154       -77.40195             -200               0             -200               0
1.64686               -0.3360434       -23.58678        -46.49826       -80.97319             -200               0             -200               0
1.65347               -0.3463544       -23.83202        -46.22992       -84.56358             -200               0             -200               0
1.66007               -0.3571048       -24.08142        -45.96652       -88.16937             -200               0             -200               0
1.66667               -0.3683261       -24.33501          -45.708       -91.78689             -200               0             -200               0
1.67327               -0.3800475        -24.5928        -45.45425       -95.41264             -200               0             -200               0
1.67987               -0.3922993        -24.8548         -45.2051       -99.04327             -200               0             -200               0
1.68647               -0.4051101       -25.12101        -44.96034       -102.6756             -200               0             -200               0
1.69307               -0.4185073        -25.3914        -44.71972       -106.3067             -200               0             -200               0
1.69967               -0.4325171       -25.66594        -44.48293       -109.9339             -200               0             -200               0
1.70627               -0.4471661        -25.9446        -44.24964       -113.5545             -200               0             -200               0
1.71287                -0.462475       -26.22734        -44.01947       -117.1665             -200               0             -200               0
1.71947               -0.4784671        -26.5141        -43.79201       -120.7678             -200               0             -200               0
1.72607               -0.4951612       -26.80486        -43.56683       -124.3569             -200               0             -200               0
1.73267               -0.5125772       -27.09956        -43.34347       -127.9324             -200               0             -200               0
1.73927               -0.5307285       -27.39818        -43.12143       -131.4934             -200               0             -200               0
1.74587               -0.5496307       -27.70068        -42.90023       -135.0392             -200               0             -200               0
1.75248               -0.5692983       -28.00706        -42.67934       -138.5697             -200               0             -200               0
1.75908               -0.5897423        -28.3173        -42.45826       -142.0851             -200               0             -200               0
1.76568               -0.6109767       -28.63143        -42.23648       -145.5858             -200               0             -200               0
1.77228               -0.6330097       -28.94947        -42.01349       -149.0729             -200               0             -200               0
1.77888               -0.6558565       -29.27146        -41.78881       -152.5478             -200               0             -200               0
1.78548               -0.6795282       -29.59749        -41.56197       -156.0123             -200               0             -200               0
1.79208               -0.7040391       -29.92763        -41.33256       -159.4684             -200               0             -200               0
1.79868                -0.729405       -30.26199        -41.10017       -162.9187             -200               0             -200               0
1.80528               -0.7556424       -30.60069        -40.86447        -166.366             -200               0             -200               0
1.81188               -0.7827744       -30.94388        -40.62517       -169.8133             -200               0             -200               0
1.81848               -0.8108231       -31.29172        -40.38203       -173.2639             -200               0             -200               0
1.82508               -0.8398181       -31.64438        -40.13489       -176.7213             -200               0             -200               0
1.83168               -0.8697919       -32.00205        -39.88364        179.8108             -200               0             -200               0
1.83828               -0.9007799       -32.36492        -39.62824         176.329             -200               0             -200               0
1.84488               -0.9328255       -32.73318        -39.36872        172.8295             -200               0             -200               0
1.85149               -0.9659774       -33.10704        -39.10517        169.3089             -200               0             -200               0
