! TOUCHSTONE file generated by CST MICROWAVE STUDIO
! Date and time: Tue Mar 18 00:02:51 2025
! Project name: oblique.cst
! Parameters = {Tilt=40; Fracture=1; B=12.5; D=160; F=5; Feed=2.85625; L=100; M=50; R=0.384908; S=2; Theta=270; length=57.125; wave=114.25}
! Header version: 2024
! Port assignment regex: !\s*Touchstone port\s*([0-9]+)\s*=\s*(CST MWS port|CST DES external port|CST DES block port)\s*(.+)\s* \(\"(.*)\"\)(\s*mode\s*([0-9]+))?.*
! Touchstone port assignment:
! Touchstone port 1 = CST MWS port 1 ("")
! Touchstone port 2 = CST MWS port 2 ("")
# GHz S DB R 50
1                    -0.02194872       -9.803349        -66.35155        165.4512             -200               0             -200               0
1.0066               -0.02264188       -9.890364        -66.34186         159.582             -200               0             -200               0
1.0132               -0.02332706        -9.97803        -66.36457        153.8045             -200               0             -200               0
1.0198               -0.02400753       -10.06638        -66.42059        148.1252             -200               0             -200               0
1.0264               -0.02468645       -10.15547        -66.51102        142.5527             -200               0             -200               0
1.033                -0.02536922       -10.24532        -66.63723        137.0979             -200               0             -200               0
1.0396               -0.02605867       -10.33596        -66.80083        131.7747             -200               0             -200               0
1.0462               -0.02676414       -10.42743        -67.00369        126.6005             -200               0             -200               0
1.05281              -0.02748758       -10.51974        -67.24798        121.5977             -200               0             -200               0
1.05941              -0.02823865        -10.6129        -67.53612        116.7944             -200               0             -200               0
1.06601              -0.02902176       -10.70693        -67.87075        112.2268             -200               0             -200               0
1.07261               -0.0298426       -10.80183        -68.25465        107.9413             -200               0             -200               0
1.07921              -0.03070976       -10.89759        -68.69052        103.9981             -200               0             -200               0
1.08581              -0.03162768        -10.9942        -69.18056        100.4756             -200               0             -200               0
1.09241              -0.03260047       -11.09165        -69.72565        97.47613             -200               0             -200               0
1.09901              -0.03363561       -11.18992        -70.32396        95.13275             -200               0             -200               0
1.10561              -0.03473496       -11.28898        -70.96829        93.61529             -200               0             -200               0
1.11221              -0.03590301       -11.38881        -71.64179        93.13142             -200               0             -200               0
1.11881              -0.03714028       -11.48937        -72.31136        93.91085             -200               0             -200               0
1.12541              -0.03844887       -11.59064        -72.91991        96.15119             -200               0             -200               0
1.13201              -0.03982819       -11.69258        -73.38278        99.90094             -200               0             -200               0
1.13861              -0.04127889       -11.79516         -73.6004        104.8958             -200               0             -200               0
1.14521              -0.04279715       -11.89836        -73.49577        110.4745             -200               0             -200               0
1.15182              -0.04438075       -12.00215          -73.058        115.7477             -200               0             -200               0
1.15842              -0.04602741       -12.10651        -72.34932        119.9625             -200               0             -200               0
1.16502              -0.04773037       -12.21142        -71.46761        122.7459             -200               0             -200               0
1.17162              -0.04948582       -12.31689        -70.50377        124.0772             -200               0             -200               0
1.17822              -0.05128821       -12.42289        -69.52236        124.1283             -200               0             -200               0
1.18482              -0.05313176       -12.52944        -68.56215        123.1284             -200               0             -200               0
1.19142              -0.05500984       -12.63656        -67.64353        121.2946             -200               0             -200               0
1.19802               -0.0569171       -12.74425        -66.77565        118.8085             -200               0             -200               0
1.20462              -0.05884686       -12.85255        -65.96133        115.8137             -200               0             -200               0
1.21122              -0.06079598       -12.96149        -65.20004        112.4215             -200               0             -200               0
1.21782              -0.06275716       -13.07111        -64.48964        108.7177             -200               0             -200               0
1.22442              -0.06472874       -13.18146        -63.82729        104.7687             -200               0             -200               0
1.23102              -0.06670451       -13.29259        -63.20996         100.626             -200               0             -200               0
1.23762              -0.06868612       -13.40456        -62.63471        96.33048             -200               0             -200               0
1.24422              -0.07066912       -13.51743        -62.09877         91.9145             -200               0             -200               0
1.25083              -0.07265477       -13.63125        -61.59959        87.40437             -200               0             -200               0
1.25743              -0.07464364        -13.7461         -61.1349        82.82168             -200               0             -200               0
1.26403              -0.07663858       -13.86203        -60.70263        78.18437             -200               0             -200               0
1.27063              -0.07864262       -13.97911        -60.30097         73.5077             -200               0             -200               0
1.27723              -0.08066027       -14.09739        -59.92827        68.80476             -200               0             -200               0
1.28383              -0.08269689       -14.21693        -59.58307        64.08707             -200               0             -200               0
1.29043              -0.08475976       -14.33779        -59.26407        59.36491             -200               0             -200               0
1.29703              -0.08685404          -14.46        -58.97009        54.64762             -200               0             -200               0
1.30363              -0.08899054       -14.58361        -58.70007        49.94389             -200               0             -200               0
1.31023              -0.09117393       -14.70864        -58.45303        45.26191             -200               0             -200               0
1.31683              -0.09341434       -14.83513        -58.22807        40.60958             -200               0             -200               0
1.32343              -0.09571897       -14.96309        -58.02436        35.99458             -200               0             -200               0
1.33003              -0.09809812       -15.09253        -57.84109        31.42459             -200               0             -200               0
1.33663               -0.1005569       -15.22347        -57.67747        26.90729             -200               0             -200               0
1.34323                -0.103105       -15.35589        -57.53275        22.45051             -200               0             -200               0
1.34984                -0.105748       -15.48979        -57.40613        18.06226             -200               0             -200               0
1.35644               -0.1084933       -15.62516        -57.29677         13.7508             -200               0             -200               0
1.36304               -0.1113438       -15.76199        -57.20379          9.5247             -200               0             -200               0
1.36964               -0.1143038       -15.90026        -57.12622        5.392804             -200               0             -200               0
1.37624               -0.1173778       -16.03995        -57.06296        1.364259             -200               0             -200               0
1.38284               -0.1205657       -16.18104        -57.01278       -2.551549             -200               0             -200               0
1.38944               -0.1238709       -16.32353        -56.97426       -6.345088             -200               0             -200               0
1.39604               -0.1272896        -16.4674        -56.94575       -10.00683             -200               0             -200               0
1.40264                -0.130824       -16.61263        -56.92538       -13.52747             -200               0             -200               0
1.40924               -0.1344687       -16.75923        -56.91097       -16.89825             -200               0             -200               0
1.41584               -0.1382231        -16.9072        -56.90002       -20.11133             -200               0             -200               0
1.42244               -0.1420829       -17.05656        -56.88971       -23.16034             -200               0             -200               0
1.42904               -0.1460445       -17.20731        -56.87688       -26.04097             -200               0             -200               0
1.43564               -0.1501043        -17.3595        -56.85805       -28.75169             -200               0             -200               0
1.44224               -0.1542574       -17.51316         -56.8295       -31.29446             -200               0             -200               0
1.44884               -0.1585006       -17.66833        -56.78735       -33.67548             -200               0             -200               0
1.45545               -0.1628308       -17.82506         -56.7277       -35.90578             -200               0             -200               0
1.46205               -0.1672445       -17.98344         -56.6468       -38.00158             -200               0             -200               0
1.46865               -0.1717411       -18.14351        -56.54129       -39.98426             -200               0             -200               0
1.47525               -0.1763194       -18.30538        -56.40838       -41.87997             -200               0             -200               0
1.48185               -0.1809799       -18.46911        -56.24608       -43.71864             -200               0             -200               0
1.48845                -0.185725       -18.63481        -56.05332       -45.53263             -200               0             -200               0
1.49505               -0.1905569       -18.80256        -55.83005       -47.35503             -200               0             -200               0
1.50165               -0.1954827       -18.97246        -55.57725       -49.21794             -200               0             -200               0
1.50825               -0.2005068       -19.14461        -55.29678        -51.1508             -200               0             -200               0
1.51485                -0.205638       -19.31911        -54.99129       -53.17906             -200               0             -200               0
1.52145               -0.2108873       -19.49604        -54.66397       -55.32332             -200               0             -200               0
1.52805               -0.2162635       -19.67549        -54.31832       -57.59897             -200               0             -200               0
1.53465               -0.2217819       -19.85756          -53.958       -60.01623             -200               0             -200               0
1.54125                -0.227454       -20.04232        -53.58661       -62.58056             -200               0             -200               0
1.54785               -0.2332957       -20.22983        -53.20755       -65.29326             -200               0             -200               0
1.55446               -0.2393216       -20.42017        -52.82395       -68.15225             -200               0             -200               0
1.56106               -0.2455494       -20.61338        -52.43864       -71.15275             -200               0             -200               0
1.56766               -0.2519921       -20.80951        -52.05404       -74.28803             -200               0             -200               0
1.57426               -0.2586704        -21.0086        -51.67228       -77.54998             -200               0             -200               0
1.58086               -0.2655968       -21.21066        -51.29511       -80.92964             -200               0             -200               0
1.58746               -0.2727899       -21.41572        -50.92399       -84.41757             -200               0             -200               0
1.59406               -0.2802638       -21.62379        -50.56011       -88.00418             -200               0             -200               0
1.60066               -0.2880346       -21.83488        -50.20442       -91.67993             -200               0             -200               0
1.60726               -0.2961121       -22.04897        -49.85764        -95.4355             -200               0             -200               0
1.61386                -0.304512       -22.26607        -49.52034       -99.26189             -200               0             -200               0
1.62046               -0.3132442       -22.48617         -49.1929       -103.1505             -200               0             -200               0
1.62706               -0.3223186       -22.70925         -48.8756        -107.093             -200               0             -200               0
1.63366               -0.3317435       -22.93532        -48.56859       -111.0818             -200               0             -200               0
1.64026                -0.341525       -23.16437        -48.27193       -115.1093             -200               0             -200               0
1.64686               -0.3516693       -23.39641        -47.98561       -119.1687             -200               0             -200               0
1.65347               -0.3621813       -23.63144        -47.70954       -123.2534             -200               0             -200               0
1.66007               -0.3730646       -23.86949        -47.44357        -127.357             -200               0             -200               0
1.66667               -0.3843206       -24.11058        -47.18748       -131.4737             -200               0             -200               0
1.67327               -0.3959535       -24.35475        -46.94104       -135.5979             -200               0             -200               0
1.67987                -0.407963       -24.60207        -46.70393       -139.7243             -200               0             -200               0
1.68647               -0.4203524        -24.8526        -46.47581       -143.8479             -200               0             -200               0
1.69307                -0.433124       -25.10643        -46.25631        -147.964             -200               0             -200               0
1.69967               -0.4462793       -25.36366        -46.04499       -152.0679             -200               0             -200               0
1.70627               -0.4598254        -25.6244         -45.8414       -156.1556             -200               0             -200               0
1.71287               -0.4737654       -25.88879        -45.64502        -160.223             -200               0             -200               0
1.71947               -0.4881061       -26.15697        -45.45531       -164.2664             -200               0             -200               0
1.72607               -0.5028603       -26.42909        -45.27168       -168.2823             -200               0             -200               0
1.73267               -0.5180355       -26.70532        -45.09351       -172.2677             -200               0             -200               0
1.73927               -0.5336493       -26.98585        -44.92011       -176.2196             -200               0             -200               0
1.74587               -0.5497178       -27.27087        -44.75079        179.8642             -200               0             -200               0
1.75248               -0.5662623       -27.56056        -44.58479         175.986             -200               0             -200               0
1.75908               -0.5833064       -27.85513        -44.42132        172.1473             -200               0             -200               0
1.76568               -0.6008769       -28.15477        -44.25956        168.3492             -200               0             -200               0
1.77228               -0.6190047       -28.45968        -44.09867        164.5924             -200               0             -200               0
1.77888               -0.6377229       -28.77006        -43.93778        160.8769             -200               0             -200               0
1.78548               -0.6570711        -29.0861        -43.77601        157.2021             -200               0             -200               0
1.79208               -0.6770872       -29.40797        -43.61248        153.5668             -200               0             -200               0
1.79868               -0.6978157       -29.73587        -43.44631        149.9691             -200               0             -200               0
1.80528               -0.7193038       -30.06994        -43.27667        146.4063             -200               0             -200               0
1.81188               -0.7416002       -30.41033        -43.10276        142.8753             -200               0             -200               0
1.81848               -0.7647552       -30.75719        -42.92381        139.3721             -200               0             -200               0
1.82508                -0.788823       -31.11063        -42.73917        135.8921             -200               0             -200               0
1.83168               -0.8138592       -31.47076        -42.54822        132.4301             -200               0             -200               0
1.83828               -0.8399201       -31.83768        -42.35048        128.9806             -200               0             -200               0
1.84488                -0.867064       -32.21146        -42.14558        125.5376             -200               0             -200               0
1.85149               -0.8953484       -32.59216        -41.93324        122.0947             -200               0             -200               0
