! TOUCHSTONE file generated by CST MICROWAVE STUDIO
! Date and time: Tue Mar 18 00:03:00 2025
! Project name: oblique.cst
! Parameters = {Tilt=40; Fracture=1; B=12.5; D=160; F=25; Feed=2.85625; L=100; M=10; R=0.384908; S=1; Theta=90; length=57.125; wave=114.25}
! Header version: 2024
! Port assignment regex: !\s*Touchstone port\s*([0-9]+)\s*=\s*(CST MWS port|CST DES external port|CST DES block port)\s*(.+)\s* \(\"(.*)\"\)(\s*mode\s*([0-9]+))?.*
! Touchstone port assignment:
! Touchstone port 1 = CST MWS port 1 ("")
! Touchstone port 2 = CST MWS port 2 ("")
# GHz S DB R 50
1                    -0.02096274       -9.854607        -66.89148       -175.6437             -200               0             -200               0
1.00662              -0.02147345       -9.942781        -67.05629        179.4465             -200               0             -200               0
1.01325              -0.02197597       -10.03174         -67.2641        174.7591             -200               0             -200               0
1.01987              -0.02247512       -10.12153        -67.51663        170.3305             -200               0             -200               0
1.02649               -0.0229783       -10.21217        -67.81547        166.2072             -200               0             -200               0
1.03311              -0.02349053        -10.3037         -68.1618        162.4487             -200               0             -200               0
1.03974              -0.02402056       -10.39614        -68.55587        159.1304             -200               0             -200               0
1.04636              -0.02457371        -10.4895        -68.99602        156.3483             -200               0             -200               0
1.05298              -0.02515805       -10.58379        -69.47727         154.222             -200               0             -200               0
1.0596               -0.02578094       -10.67901        -69.98883        152.8961             -200               0             -200               0
1.06623              -0.02644982       -10.77516        -70.51056        152.5336             -200               0             -200               0
1.07285              -0.02717075       -10.87221        -71.00843        153.2926             -200               0             -200               0
1.07947              -0.02794898       -10.97016        -71.43078        155.2744             -200               0             -200               0
1.08609              -0.02878885       -11.06898         -71.7098        158.4359             -200               0             -200               0
1.09272              -0.02969643       -11.16864         -71.7747        162.4976             -200               0             -200               0
1.09934              -0.03067322       -11.26911        -71.57731        166.9294             -200               0             -200               0
1.10596              -0.03172336       -11.37035        -71.11576        171.0842             -200               0             -200               0
1.11258              -0.03284472       -11.47234        -70.43537        174.4185             -200               0             -200               0
1.11921              -0.03403897       -11.57504        -69.60598        176.6353             -200               0             -200               0
1.12583              -0.03530609       -11.67841        -68.69585        177.6788             -200               0             -200               0
1.13245               -0.0366412       -11.78244        -67.75751        177.6441             -200               0             -200               0
1.13907              -0.03804155        -11.8871        -66.82572        176.6885             -200               0             -200               0
1.1457               -0.03950464       -11.99236        -65.92104        174.9765             -200               0             -200               0
1.15232              -0.04102469       -12.09822        -65.05438        172.6554             -200               0             -200               0
1.15894               -0.0425967       -12.20468        -64.23064        169.8478             -200               0             -200               0
1.16556              -0.04421499       -12.31172        -63.45121        166.6524             -200               0             -200               0
1.17219              -0.04587448       -12.41937        -62.71551         163.148             -200               0             -200               0
1.17881              -0.04756731       -12.52763        -62.02194        159.3968             -200               0             -200               0
1.18543              -0.04928958       -12.63654        -61.36841        155.4482             -200               0             -200               0
1.19205              -0.05103595       -12.74612        -60.75267        151.3418             -200               0             -200               0
1.19868              -0.05280191       -12.85642        -60.17248        147.1094             -200               0             -200               0
1.2053               -0.05458382       -12.96748        -59.62568        142.7772             -200               0             -200               0
1.21192              -0.05637748       -13.07935        -59.11024        138.3664             -200               0             -200               0
1.21854              -0.05818209       -13.19209         -58.6243        133.8948             -200               0             -200               0
1.22517              -0.05999694       -13.30575        -58.16614        129.3776             -200               0             -200               0
1.23179               -0.0618223        -13.4204        -57.73419        124.8274             -200               0             -200               0
1.23841              -0.06366002       -13.53609        -57.32699        120.2555             -200               0             -200               0
1.24503              -0.06551073       -13.65289        -56.94322        115.6715             -200               0             -200               0
1.25166              -0.06738164       -13.77085        -56.58165        111.0839             -200               0             -200               0
1.25828              -0.06927457       -13.89002        -56.24116        106.5007             -200               0             -200               0
1.2649               -0.07119664       -14.01046        -55.92067        101.9287             -200               0             -200               0
1.27152              -0.07315594       -14.13222        -55.61919        97.37448             -200               0             -200               0
1.27815              -0.07515852       -14.25533        -55.33578        92.84413             -200               0             -200               0
1.28477               -0.0772122       -14.37982        -55.06952        88.34332             -200               0             -200               0
1.29139              -0.07932621       -14.50572        -54.81953        83.87746             -200               0             -200               0
1.29801              -0.08150737       -14.63304        -54.58495        79.45174             -200               0             -200               0
1.30464              -0.08376485        -14.7618        -54.36492        75.07114             -200               0             -200               0
1.31126              -0.08610541         -14.892        -54.15856        70.74048             -200               0             -200               0
1.31788              -0.08853783       -15.02363        -53.96501        66.46441             -200               0             -200               0
1.3245               -0.09106966       -15.15669        -53.78336        62.24742             -200               0             -200               0
1.33113              -0.09370388       -15.29116        -53.61268         58.0938             -200               0             -200               0
1.33775               -0.0964475       -15.42703        -53.45198        54.00767             -200               0             -200               0
1.34437              -0.09930466       -15.56426        -53.30025        49.99286             -200               0             -200               0
1.35099               -0.1022752       -15.70284        -53.15639        46.05291             -200               0             -200               0
1.35762               -0.1053636       -15.84275        -53.01927        42.19096             -200               0             -200               0
1.36424               -0.1085687       -15.98395        -52.88767        38.40968             -200               0             -200               0
1.37086                -0.111891       -16.12645        -52.76033        34.71119             -200               0             -200               0
1.37748               -0.1153262       -16.27021         -52.6359        31.09689             -200               0             -200               0
1.38411               -0.1188717       -16.41524        -52.51299        27.56742             -200               0             -200               0
1.39073               -0.1225256       -16.56153        -52.39017        24.12248             -200               0             -200               0
1.39735               -0.1262802       -16.70908        -52.26597        20.76074             -200               0             -200               0
1.40397               -0.1301331       -16.85792        -52.13891        17.47973             -200               0             -200               0
1.4106                -0.1340764       -17.00807        -52.00754        14.27577             -200               0             -200               0
1.41722               -0.1381068       -17.15955        -51.87045        11.14392             -200               0             -200               0
1.42384               -0.1422174       -17.31242        -51.72632        8.077963             -200               0             -200               0
1.43046               -0.1464026       -17.46673        -51.57395        5.070471             -200               0             -200               0
1.43709               -0.1506595       -17.62254        -51.41228        2.112894             -200               0             -200               0
1.44371                -0.154984       -17.77992        -51.24045      -0.8042674             -200               0             -200               0
1.45033               -0.1593744       -17.93897        -51.05781       -3.691253             -200               0             -200               0
1.45695               -0.1638261       -18.09975        -50.86396       -6.558782             -200               0             -200               0
1.46358               -0.1683429       -18.26238        -50.65873       -9.417771             -200               0             -200               0
1.4702                 -0.172924       -18.42695         -50.4422       -12.27902             -200               0             -200               0
1.47682               -0.1775724       -18.59356        -50.21471       -15.15292             -200               0             -200               0
1.48344               -0.1822933       -18.76232         -49.9768        -18.0492             -200               0             -200               0
1.49007               -0.1870939       -18.93332        -49.72921       -20.97667             -200               0             -200               0
1.49669               -0.1919805       -19.10668        -49.47284       -23.94307             -200               0             -200               0
1.50331               -0.1969648        -19.2825        -49.20871       -26.95492             -200               0             -200               0
1.50993               -0.2020542       -19.46086        -48.93793        -30.0175             -200               0             -200               0
1.51656               -0.2072642       -19.64187        -48.66167       -33.13478             -200               0             -200               0
1.52318               -0.2126056        -19.8256         -48.3811       -36.30953             -200               0             -200               0
1.5298                -0.2180937       -20.01213        -48.09738       -39.54332             -200               0             -200               0
1.53642               -0.2237433       -20.20153        -47.81165       -42.83666             -200               0             -200               0
1.54305               -0.2295697       -20.39387        -47.52497       -46.18913             -200               0             -200               0
1.54967               -0.2355871       -20.58919        -47.23834       -49.59947             -200               0             -200               0
1.55629               -0.2418116       -20.78755        -46.95268       -53.06573             -200               0             -200               0
1.56291               -0.2482586       -20.98897        -46.66882       -56.58537             -200               0             -200               0
1.56954               -0.2549437        -21.1935         -46.3875       -60.15541             -200               0             -200               0
1.57616               -0.2618798       -21.40116        -46.10938       -63.77249             -200               0             -200               0
1.58278               -0.2690807       -21.61197        -45.83501       -67.43299             -200               0             -200               0
1.5894                -0.2765587       -21.82595        -45.56486       -71.13308             -200               0             -200               0
1.59603               -0.2843255       -22.04311        -45.29933       -74.86883             -200               0             -200               0
1.60265                -0.292391       -22.26348        -45.03874       -78.63622             -200               0             -200               0
1.60927               -0.3007662       -22.48709        -44.78331       -82.43124             -200               0             -200               0
1.61589               -0.3094572       -22.71394        -44.53323       -86.24987             -200               0             -200               0
1.62252                -0.318474       -22.94409         -44.2886       -90.08814             -200               0             -200               0
1.62914               -0.3278215       -23.17755        -44.04946       -93.94219             -200               0             -200               0
1.63576               -0.3375073       -23.41439        -43.81579       -97.80824             -200               0             -200               0
1.64238               -0.3475375       -23.65466        -43.58755       -101.6826             -200               0             -200               0
1.64901               -0.3579162       -23.89843        -43.36461       -105.5618             -200               0             -200               0
1.65563               -0.3686522       -24.14578        -43.14681       -109.4425             -200               0             -200               0
1.66225               -0.3797503        -24.3968        -42.93394       -113.3214             -200               0             -200               0
1.66887               -0.3912201       -24.65161        -42.72575       -117.1956             -200               0             -200               0
1.6755                -0.4030684       -24.91031        -42.52195       -121.0622             -200               0             -200               0
1.68212               -0.4153052       -25.17306        -42.32222       -124.9188             -200               0             -200               0
1.68874               -0.4279458       -25.43998        -42.12619       -128.7628             -200               0             -200               0
1.69536               -0.4410035       -25.71123        -41.93347       -132.5923             -200               0             -200               0
1.70199               -0.4544929       -25.98698        -41.74363       -136.4053             -200               0             -200               0
1.70861               -0.4684358       -26.26739        -41.55622       -140.2004             -200               0             -200               0
1.71523               -0.4828529       -26.55265        -41.37075       -143.9764             -200               0             -200               0
1.72185               -0.4977708       -26.84293        -41.18674       -147.7324             -200               0             -200               0
1.72848               -0.5132186       -27.13841        -41.00366       -151.4677             -200               0             -200               0
1.7351                -0.5292277       -27.43928          -40.821       -155.1824             -200               0             -200               0
1.74172               -0.5458327        -27.7457        -40.63823       -158.8765             -200               0             -200               0
1.74834               -0.5630716       -28.05785        -40.45481       -162.5508             -200               0             -200               0
1.75497               -0.5809877        -28.3759        -40.27024       -166.2061             -200               0             -200               0
1.76159               -0.5996231       -28.69999        -40.08401       -169.8439             -200               0             -200               0
1.76821               -0.6190248       -29.03027        -39.89563       -173.4661             -200               0             -200               0
1.77483               -0.6392457       -29.36687        -39.70467       -177.0747             -200               0             -200               0
1.78146               -0.6603354       -29.70989        -39.51071        179.3277             -200               0             -200               0
1.78808               -0.6823483       -30.05944        -39.31338        175.7383             -200               0             -200               0
1.7947                -0.7053405       -30.41561        -39.11236        172.1539             -200               0             -200               0
1.80132               -0.7293695       -30.77845        -38.90741        168.5712             -200               0             -200               0
1.80795               -0.7544936       -31.14802        -38.69833        164.9866             -200               0             -200               0
1.81457               -0.7807727       -31.52435        -38.48498        161.3965             -200               0             -200               0
1.82119               -0.8082671       -31.90746        -38.26731         157.797             -200               0             -200               0
1.82781               -0.8370375       -32.29735        -38.04531        154.1845             -200               0             -200               0
1.83444               -0.8671433       -32.69403        -37.81906        150.5552             -200               0             -200               0
1.84106               -0.8986476       -33.09747        -37.58869        146.9055             -200               0             -200               0
1.84768               -0.9316116       -33.50765        -37.35439         143.232             -200               0             -200               0
1.8543                -0.9660958       -33.92454        -37.11641        139.5314             -200               0             -200               0
