! TOUCHSTONE file generated by CST MICROWAVE STUDIO
! Date and time: Tue Mar 18 00:01:39 2025
! Project name: oblique.cst
! Parameters = {Tilt=30; Fracture=1; B=12.5; D=160; F=15; Feed=2.85625; L=100; M=30; R=0.384908; S=2; Theta=270; length=57.125; wave=114.25}
! Header version: 2024
! Port assignment regex: !\s*Touchstone port\s*([0-9]+)\s*=\s*(CST MWS port|CST DES external port|CST DES block port)\s*(.+)\s* \(\"(.*)\"\)(\s*mode\s*([0-9]+))?.*
! Touchstone port assignment:
! Touchstone port 1 = CST MWS port 1 ("")
! Touchstone port 2 = CST MWS port 2 ("")
# GHz S DB R 50
1                    -0.02155487       -9.771866        -66.35514        171.6849             -200               0             -200               0
1.00658              -0.02216768        -9.85794        -66.41347        166.0495             -200               0             -200               0
1.01316              -0.02276635       -9.944674        -66.50854        160.5314             -200               0             -200               0
1.01974              -0.02334975       -10.03211        -66.64193         155.143             -200               0             -200               0
1.02632              -0.02392461        -10.1203        -66.81552        149.9007             -200               0             -200               0
1.03289              -0.02449561       -10.20928         -67.0315        144.8251             -200               0             -200               0
1.03947              -0.02506807       -10.29909        -67.29238        139.9428             -200               0             -200               0
1.04605              -0.02564579       -10.38976        -67.60098        135.2879             -200               0             -200               0
1.05263              -0.02623753       -10.48131        -67.96035        130.9047             -200               0             -200               0
1.05921              -0.02685117       -10.57377        -68.37361        126.8507             -200               0             -200               0
1.06579              -0.02749044       -10.66714        -68.84362        123.2017             -200               0             -200               0
1.07237              -0.02816574       -10.76143        -69.37232        120.0574             -200               0             -200               0
1.07895               -0.0288828       -10.85663        -69.95937        117.5495             -200               0             -200               0
1.08553              -0.02964868       -10.95275        -70.59986        115.8495             -200               0             -200               0
1.09211              -0.03047015       -11.04975        -71.27999        115.1738             -200               0             -200               0
1.09868              -0.03135136       -11.14763         -71.9703         115.775             -200               0             -200               0
1.10526              -0.03229679       -11.24636        -72.61639        117.8971             -200               0             -200               0
1.11184              -0.03331264       -11.34591        -73.13187        121.6599             -200               0             -200               0
1.11842               -0.0343988       -11.44624        -73.40647        126.8702             -200               0             -200               0
1.125                -0.03556012       -11.54732        -73.34414        132.8766             -200               0             -200               0
1.13158                -0.036795       -11.64912        -72.91764        138.7008             -200               0             -200               0
1.13816              -0.03810302       -11.75161        -72.18711        143.4561             -200               0             -200               0
1.14474              -0.03948483       -11.85475        -71.26065        146.6795             -200               0             -200               0
1.15132              -0.04093556       -11.95851        -70.24146        148.3283             -200               0             -200               0
1.15789              -0.04245193       -12.06288        -69.20261        148.5919             -200               0             -200               0
1.16447              -0.04403159       -12.16782        -68.18714        147.7276             -200               0             -200               0
1.17105              -0.04566763       -12.27334        -67.21701        145.9768             -200               0             -200               0
1.17763              -0.04735406       -12.37942        -66.30157         143.539             -200               0             -200               0
1.18421              -0.04908676       -12.48606        -65.44328        140.5696             -200               0             -200               0
1.19079              -0.05085914       -12.59328        -64.64109        137.1879             -200               0             -200               0
1.19737              -0.05266436       -12.70109        -63.89234        133.4844             -200               0             -200               0
1.20395              -0.05449636       -12.80952        -63.19371        129.5287             -200               0             -200               0
1.21053              -0.05635081       -12.91861        -62.54178        125.3744             -200               0             -200               0
1.21711              -0.05822104       -13.02838        -61.93327        121.0632             -200               0             -200               0
1.22368              -0.06010487        -13.1389        -61.36512        116.6285             -200               0             -200               0
1.23026              -0.06199886        -13.2502        -60.83459        112.0967             -200               0             -200               0
1.23684              -0.06389855       -13.36235        -60.33919        107.4895             -200               0             -200               0
1.24342              -0.06580595       -13.47542        -59.87672        102.8248             -200               0             -200               0
1.25                 -0.06771848       -13.58946        -59.44521        98.11771             -200               0             -200               0
1.25658              -0.06963954       -13.70453        -59.04293        93.38092             -200               0             -200               0
1.26316              -0.07156948       -13.82071        -58.66833        88.62557             -200               0             -200               0
1.26974              -0.07351484       -13.93805        -58.32001         83.8615             -200               0             -200               0
1.27632              -0.07547995       -14.05661        -57.99675        79.09751             -200               0             -200               0
1.28289              -0.07746854       -14.17645        -57.69743        74.34168             -200               0             -200               0
1.28947              -0.07949121       -14.29762        -57.42103        69.60152             -200               0             -200               0
1.29605              -0.08155212       -14.42015        -57.16664        64.88417             -200               0             -200               0
1.30263              -0.08366284        -14.5441        -56.93341         60.1965             -200               0             -200               0
1.30921              -0.08583057       -14.66947        -56.72053        55.54525             -200               0             -200               0
1.31579              -0.08806479       -14.79631        -56.52727         50.9371             -200               0             -200               0
1.32237              -0.09037347       -14.92461        -56.35287        46.37877             -200               0             -200               0
1.32895              -0.09276657       -15.05439        -56.19663        41.87708             -200               0             -200               0
1.33553              -0.09525402       -15.18564        -56.05782        37.43901             -200               0             -200               0
1.34211              -0.09784084       -15.31835        -55.93568        33.07176             -200               0             -200               0
1.34868               -0.1005347       -15.45251         -55.8294        28.78275             -200               0             -200               0
1.35526               -0.1033436       -15.58809        -55.73814        24.57967             -200               0             -200               0
1.36184               -0.1062696       -15.72508        -55.66093        20.47042             -200               0             -200               0
1.36842               -0.1093185       -15.86344        -55.59671        16.46316             -200               0             -200               0
1.375                 -0.1124909       -16.00314        -55.54428        12.56617             -200               0             -200               0
1.38158               -0.1157894       -16.14416        -55.50226          8.7878             -200               0             -200               0
1.38816               -0.1192134       -16.28648        -55.46909         5.13627             -200               0             -200               0
1.39474               -0.1227623       -16.43006        -55.44297        1.619494             -200               0             -200               0
1.40132                -0.126432        -16.5749        -55.42184       -1.755234             -200               0             -200               0
1.40789               -0.1302188       -16.72098        -55.40339       -4.981589             -200               0             -200               0
1.41447               -0.1341184        -16.8683        -55.38503        -8.05467             -200               0             -200               0
1.42105               -0.1381256       -17.01687        -55.36388       -10.97152             -200               0             -200               0
1.42763               -0.1422334       -17.16669        -55.33683       -13.73169             -200               0             -200               0
1.43421               -0.1464381        -17.3178        -55.30058       -16.33785             -200               0             -200               0
1.44079               -0.1507301       -17.47023        -55.25172       -18.79632             -200               0             -200               0
1.44737               -0.1551068       -17.62404        -55.18686       -21.11753             -200               0             -200               0
1.45395               -0.1595599       -17.77927        -55.10277       -23.31622             -200               0             -200               0
1.46053               -0.1640857       -17.93601        -54.99656       -25.41143             -200               0             -200               0
1.46711               -0.1686802       -18.09432        -54.86584        -27.4261             -200               0             -200               0
1.47368               -0.1733397        -18.2543        -54.70887       -29.38626             -200               0             -200               0
1.48026               -0.1780651       -18.41605        -54.52471       -31.31994             -200               0             -200               0
1.48684                -0.182856       -18.57965        -54.31325       -33.25591             -200               0             -200               0
1.49342               -0.1877145       -18.74524        -54.07521       -35.22217             -200               0             -200               0
1.5                   -0.1926427        -18.9129        -53.81212       -37.24468             -200               0             -200               0
1.50658               -0.1976495       -19.08277        -53.52614       -39.34629             -200               0             -200               0
1.51316               -0.2027411       -19.25494        -53.21995       -41.54588             -200               0             -200               0
1.51974               -0.2079273       -19.42953        -52.89653       -43.85805             -200               0             -200               0
1.52632               -0.2132189       -19.60664        -52.55903       -46.29305             -200               0             -200               0
1.53289               -0.2186304       -19.78637        -52.21061       -48.85698             -200               0             -200               0
1.53947               -0.2241757       -19.96882        -51.85432       -51.55228             -200               0             -200               0
1.54605                 -0.22987       -20.15407        -51.49299       -54.37824             -200               0             -200               0
1.55263                -0.235732       -20.34219        -51.12921       -57.33163             -200               0             -200               0
1.55921               -0.2417787       -20.53324        -50.76527       -60.40726             -200               0             -200               0
1.56579               -0.2480277       -20.72729        -50.40318        -63.5985             -200               0             -200               0
1.57237               -0.2544993       -20.92436        -50.04463       -66.89773             -200               0             -200               0
1.57895               -0.2612106        -21.1245        -49.69107       -70.29675             -200               0             -200               0
1.58553               -0.2681804       -21.32771        -49.34368       -73.78698             -200               0             -200               0
1.59211               -0.2754258       -21.53401        -49.00341       -77.35981             -200               0             -200               0
1.59868                -0.282965        -21.7434        -48.67103       -81.00662             -200               0             -200               0
1.60526               -0.2908129       -21.95587        -48.34712       -84.71904             -200               0             -200               0
1.61184               -0.2989835       -22.17141         -48.0321       -88.48893             -200               0             -200               0
1.61842               -0.3074901       -22.38999        -47.72628       -92.30844             -200               0             -200               0
1.625                 -0.3163436        -22.6116        -47.42983       -96.17008             -200               0             -200               0
1.63158                -0.325554       -22.83623        -47.14284       -100.0667             -200               0             -200               0
1.63816               -0.3351284       -23.06383         -46.8653       -103.9915             -200               0             -200               0
1.64474               -0.3450744       -23.29442        -46.59714        -107.938             -200               0             -200               0
1.65132               -0.3553954       -23.52797        -46.33819          -111.9             -200               0             -200               0
1.65789               -0.3660952       -23.76449        -46.08826       -115.8717             -200               0             -200               0
1.66447                -0.377176       -24.00399        -45.84706       -119.8477             -200               0             -200               0
1.67105               -0.3886388        -24.2465        -45.61427       -123.8225             -200               0             -200               0
1.67763               -0.4004845       -24.49204        -45.38953       -127.7915             -200               0             -200               0
1.68421               -0.4127111       -24.74069         -45.1724       -131.7497             -200               0             -200               0
1.69079               -0.4253203        -24.9925        -44.96241        -135.693             -200               0             -200               0
1.69737               -0.4383122       -25.24755        -44.75905       -139.6172             -200               0             -200               0
1.70395               -0.4516866       -25.50596        -44.56175       -143.5185             -200               0             -200               0
1.71053               -0.4654481       -25.76785         -44.3699       -147.3937             -200               0             -200               0
1.71711               -0.4795979       -26.03335        -44.18284       -151.2394             -200               0             -200               0
1.72368               -0.4941441       -26.30262        -43.99988       -155.0532             -200               0             -200               0
1.73026               -0.5090905       -26.57583        -43.82028       -158.8328             -200               0             -200               0
1.73684               -0.5244517       -26.85315        -43.64325       -162.5762             -200               0             -200               0
1.74342               -0.5402396       -27.13479          -43.468       -166.2824             -200               0             -200               0
1.75                  -0.5564676       -27.42094        -43.29367       -169.9504             -200               0             -200               0
1.75658               -0.5731593       -27.71181         -43.1194       -173.5801             -200               0             -200               0
1.76316               -0.5903361       -28.00763        -42.94434        -177.172             -200               0             -200               0
1.76974               -0.6080243       -28.30859         -42.7676        179.2728             -200               0             -200               0
1.77632               -0.6262553       -28.61493        -42.58834        175.7525             -200               0             -200               0
1.78289                -0.645062       -28.92686         -42.4057        172.2645             -200               0             -200               0
1.78947               -0.6644811       -29.24459        -42.21891        168.8058             -200               0             -200               0
1.79605               -0.6845562       -29.56831        -42.02722        165.3724             -200               0             -200               0
1.80263               -0.7053271       -29.89824        -41.82997        161.9598             -200               0             -200               0
1.80921               -0.7268435       -30.23455        -41.62658        158.5631             -200               0             -200               0
1.81579               -0.7491545       -30.57741        -41.41658        155.1767             -200               0             -200               0
1.82237               -0.7723124       -30.92699        -41.19959        151.7947             -200               0             -200               0
1.82895               -0.7963717       -31.28344        -40.97536         148.411             -200               0             -200               0
1.83553               -0.8213878       -31.64688        -40.74378        145.0192             -200               0             -200               0
1.84211               -0.8474202       -32.01744        -40.50483         141.613             -200               0             -200               0
1.84868               -0.8745282       -32.39524        -40.25866        138.1861             -200               0             -200               0
