! TOUCHSTONE file generated by CST MICROWAVE STUDIO
! Date and time: Tue Mar 18 00:02:25 2025
! Project name: oblique.cst
! Parameters = {Tilt=40; Fracture=1; B=10; D=160; F=25; Feed=2.85625; L=100; M=50; R=0.384908; S=1; Theta=270; length=57.125; wave=114.25}
! Header version: 2024
! Port assignment regex: !\s*Touchstone port\s*([0-9]+)\s*=\s*(CST MWS port|CST DES external port|CST DES block port)\s*(.+)\s* \(\"(.*)\"\)(\s*mode\s*([0-9]+))?.*
! Touchstone port assignment:
! Touchstone port 1 = CST MWS port 1 ("")
! Touchstone port 2 = CST MWS port 2 ("")
# GHz S DB R 50
1                    -0.02007296       -9.780477        -68.20698         152.735             -200               0             -200               0
1.00662              -0.02075056       -9.868335        -68.16503        146.9734             -200               0             -200               0
1.01325              -0.02143838       -9.956761        -68.15353        141.3174             -200               0             -200               0
1.01987              -0.02213654       -10.04577        -68.17286        135.7752             -200               0             -200               0
1.02649              -0.02284412       -10.13539        -68.22347        130.3567             -200               0             -200               0
1.03311              -0.02356121       -10.22564        -68.30596        125.0746             -200               0             -200               0
1.03974              -0.02429045       -10.31654        -68.42099        119.9442             -200               0             -200               0
1.04636               -0.0250313       -10.40811        -68.56924        114.9844             -200               0             -200               0
1.05298              -0.02578495       -10.50037        -68.75139        110.2185             -200               0             -200               0
1.0596               -0.02655342       -10.59334          -68.968        105.6746             -200               0             -200               0
1.06623              -0.02733832       -10.68705        -69.21935        101.3873             -200               0             -200               0
1.07285              -0.02814174       -10.78151        -69.50525        97.39867             -200               0             -200               0
1.07947              -0.02896643       -10.87673        -69.82462        93.75948             -200               0             -200               0
1.08609               -0.0298145       -10.97274        -70.17503        90.53069             -200               0             -200               0
1.09272              -0.03068824       -11.06955         -70.5519         87.7839             -200               0             -200               0
1.09934              -0.03159041       -11.16716         -70.9474        85.60038             -200               0             -200               0
1.10596              -0.03252382        -11.2656        -71.34905         84.0668             -200               0             -200               0
1.11258              -0.03349085       -11.36487        -71.73813        83.26517             -200               0             -200               0
1.11921              -0.03449388       -11.46496        -72.08838        83.25381             -200               0             -200               0
1.12583              -0.03553588        -11.5659        -72.36611         84.0382             -200               0             -200               0
1.13245              -0.03661884       -11.66769        -72.53329        85.53653             -200               0             -200               0
1.13907              -0.03774365       -11.77032        -72.55462         87.5557             -200               0             -200               0
1.1457               -0.03891388       -11.87379         -72.4073        89.80081             -200               0             -200               0
1.15232              -0.04012951       -11.97812        -72.08889        91.92958             -200               0             -200               0
1.15894              -0.04139248        -12.0833        -71.61815        93.63135             -200               0             -200               0
1.16556              -0.04270279       -12.18932        -71.02837        94.68945             -200               0             -200               0
1.17219              -0.04406129        -12.2962        -70.35751        95.00012             -200               0             -200               0
1.17881              -0.04546882       -12.40394        -69.64032        94.55369             -200               0             -200               0
1.18543              -0.04692475       -12.51254        -68.90448         93.4006             -200               0             -200               0
1.19205              -0.04842918         -12.622        -68.16999        91.62039             -200               0             -200               0
1.19868              -0.04998077       -12.73234        -67.45026        89.30059             -200               0             -200               0
1.2053               -0.05157901       -12.84357        -66.75371        86.52498             -200               0             -200               0
1.21192              -0.05322383        -12.9557        -66.08523        83.36835             -200               0             -200               0
1.21854              -0.05491456       -13.06875        -65.44735        79.89498             -200               0             -200               0
1.22517              -0.05664924       -13.18273        -64.84107        76.15907             -200               0             -200               0
1.23179              -0.05842855       -13.29767        -64.26641        72.20582             -200               0             -200               0
1.23841              -0.06025186        -13.4136        -63.72283        68.07284             -200               0             -200               0
1.24503              -0.06211795       -13.53054        -63.20943        63.79146             -200               0             -200               0
1.25166              -0.06402818       -13.64852        -62.72516        59.38784             -200               0             -200               0
1.25828              -0.06598166       -13.76757        -62.26888        54.88399             -200               0             -200               0
1.2649               -0.06798035       -13.88774        -61.83944        50.29854             -200               0             -200               0
1.27152              -0.07002631       -14.00905        -61.43574         45.6474             -200               0             -200               0
1.27815              -0.07212004       -14.13155        -61.05669        40.94428             -200               0             -200               0
1.28477              -0.07426487       -14.25527        -60.70129        36.20112             -200               0             -200               0
1.29139              -0.07646374       -14.38025         -60.3686        31.42845             -200               0             -200               0
1.29801              -0.07871965       -14.50653        -60.05773        26.63563             -200               0             -200               0
1.30464              -0.08103796       -14.63415        -59.76784        21.83111             -200               0             -200               0
1.31126               -0.0834223       -14.76314        -59.49818         17.0226             -200               0             -200               0
1.31788              -0.08587772       -14.89353          -59.248        12.21724             -200               0             -200               0
1.3245               -0.08840995       -15.02535        -59.01664        7.421719             -200               0             -200               0
1.33113              -0.09102565       -15.15865        -58.80344        2.642377             -200               0             -200               0
1.33775               -0.0937298       -15.29343        -58.60778       -2.114693             -200               0             -200               0
1.34437               -0.0965295       -15.42973        -58.42906       -6.843577             -200               0             -200               0
1.35099              -0.09943133       -15.56755        -58.26669       -11.53847             -200               0             -200               0
1.35762               -0.1024417       -15.70693        -58.12007       -16.19362             -200               0             -200               0
1.36424               -0.1055663       -15.84786         -57.9886        -20.8033             -200               0             -200               0
1.37086               -0.1088125       -15.99036        -57.87168       -25.36176             -200               0             -200               0
1.37748               -0.1121863       -16.13443        -57.76864       -29.86322             -200               0             -200               0
1.38411               -0.1156942       -16.28008        -57.67882       -34.30182             -200               0             -200               0
1.39073               -0.1193401        -16.4273        -57.60146       -38.67168             -200               0             -200               0
1.39735               -0.1231302       -16.57611        -57.53576       -42.96686             -200               0             -200               0
1.40397               -0.1270694       -16.72649        -57.48084       -47.18142             -200               0             -200               0
1.4106                -0.1311607       -16.87845        -57.43571       -51.30948             -200               0             -200               0
1.41722               -0.1354085       -17.03197        -57.39929       -55.34528             -200               0             -200               0
1.42384               -0.1398161       -17.18707        -57.37036        -59.2833             -200               0             -200               0
1.43046                -0.144386       -17.34374        -57.34758       -63.11836             -200               0             -200               0
1.43709               -0.1491202       -17.50198        -57.32945       -66.84584             -200               0             -200               0
1.44371               -0.1540205       -17.66179        -57.31433       -70.46185             -200               0             -200               0
1.45033               -0.1590885       -17.82319        -57.30041       -73.96348             -200               0             -200               0
1.45695               -0.1643256       -17.98619        -57.28577       -77.34904             -200               0             -200               0
1.46358               -0.1697323        -18.1508        -57.26832       -80.61839             -200               0             -200               0
1.4702                  -0.17531       -18.31704        -57.24591       -83.77315             -200               0             -200               0
1.47682                 -0.18106       -18.48494        -57.21633       -86.81705             -200               0             -200               0
1.48344               -0.1869825       -18.65452        -57.17735       -89.75605             -200               0             -200               0
1.49007               -0.1930796       -18.82583        -57.12686       -92.59856             -200               0             -200               0
1.49669               -0.1993527       -18.99889        -57.06285       -95.35541             -200               0             -200               0
1.50331               -0.2058041       -19.17376        -56.98358       -98.03972             -200               0             -200               0
1.50993               -0.2124366       -19.35047        -56.88762       -100.6667             -200               0             -200               0
1.51656               -0.2192541       -19.52908        -56.77392       -103.2531             -200               0             -200               0
1.52318               -0.2262599       -19.70964        -56.64188       -105.8167             -200               0             -200               0
1.5298                -0.2334596       -19.89221        -56.49138       -108.3759             -200               0             -200               0
1.53642               -0.2408591       -20.07684        -56.32278       -110.9486             -200               0             -200               0
1.54305               -0.2484648       -20.26358        -56.13687       -113.5519             -200               0             -200               0
1.54967               -0.2562852        -20.4525        -55.93487       -116.2012             -200               0             -200               0
1.55629               -0.2643278       -20.64366        -55.71831         -118.91             -200               0             -200               0
1.56291               -0.2726024       -20.83709          -55.489       -121.6896             -200               0             -200               0
1.56954               -0.2811192       -21.03286        -55.24889       -124.5488             -200               0             -200               0
1.57616               -0.2898883       -21.23102        -55.00004       -127.4938             -200               0             -200               0
1.58278               -0.2989228       -21.43161        -54.74451       -130.5285             -200               0             -200               0
1.5894                -0.3082328       -21.63466        -54.48431       -133.6547             -200               0             -200               0
1.59603               -0.3178317       -21.84022        -54.22138       -136.8722             -200               0             -200               0
1.60265               -0.3277322       -22.04833        -53.95749       -140.1792             -200               0             -200               0
1.60927               -0.3379476         -22.259        -53.69428       -143.5726             -200               0             -200               0
1.61589               -0.3484898       -22.47225        -53.43323        -147.048             -200               0             -200               0
1.62252               -0.3593718       -22.68811        -53.17564       -150.6004             -200               0             -200               0
1.62914               -0.3706068       -22.90659        -52.92264       -154.2242             -200               0             -200               0
1.63576               -0.3822069        -23.1277        -52.67522       -157.9131             -200               0             -200               0
1.64238                -0.394184       -23.35145        -52.43421       -161.6606             -200               0             -200               0
1.64901               -0.4065488       -23.57784        -52.20028       -165.4602             -200               0             -200               0
1.65563               -0.4193125       -23.80688        -51.97401       -169.3051             -200               0             -200               0
1.66225               -0.4324857       -24.03857        -51.75583       -173.1885             -200               0             -200               0
1.66887               -0.4460787       -24.27292        -51.54608       -177.1037             -200               0             -200               0
1.6755                -0.4600976       -24.50994        -51.34499         178.956             -200               0             -200               0
1.68212               -0.4745535       -24.74962        -51.15271        174.9972             -200               0             -200               0
1.68874               -0.4894525         -24.992        -50.96929        171.0265             -200               0             -200               0
1.69536               -0.5048023       -25.23708        -50.79471        167.0502             -200               0             -200               0
1.70199               -0.5206102       -25.48489        -50.62885        163.0747             -200               0             -200               0
1.70861               -0.5368822       -25.73548        -50.47156        159.1063             -200               0             -200               0
1.71523               -0.5536251       -25.98886        -50.32256        155.1509             -200               0             -200               0
1.72185                -0.570846       -26.24511        -50.18152        151.2145             -200               0             -200               0
1.72848               -0.5885515       -26.50426        -50.04803        147.3031             -200               0             -200               0
1.7351                -0.6067495        -26.7664        -49.92159        143.4221             -200               0             -200               0
1.74172               -0.6254476        -27.0316        -49.80162        139.5772             -200               0             -200               0
1.74834                -0.644657       -27.29993        -49.68746        135.7734             -200               0             -200               0
1.75497                -0.664386       -27.57151        -49.57833        132.0158             -200               0             -200               0
1.76159               -0.6846472       -27.84642        -49.47338        128.3087             -200               0             -200               0
1.76821               -0.7054551       -28.12479        -49.37166        124.6565             -200               0             -200               0
1.77483               -0.7268238       -28.40674        -49.27211        121.0624             -200               0             -200               0
1.78146               -0.7487708       -28.69237        -49.17359        117.5296             -200               0             -200               0
1.78808               -0.7713137       -28.98183        -49.07485        114.0599             -200               0             -200               0
1.7947                -0.7944766       -29.27524        -48.97458        110.6547             -200               0             -200               0
1.80132               -0.8182817       -29.57274        -48.87138        107.3139             -200               0             -200               0
1.80795               -0.8427549       -29.87448        -48.76384        104.0365             -200               0             -200               0
1.81457               -0.8679256       -30.18057         -48.6505        100.8201             -200               0             -200               0
1.82119               -0.8938236       -30.49116        -48.52992        97.66098             -200               0             -200               0
1.82781               -0.9204818       -30.80637         -48.4007        94.55384             -200               0             -200               0
1.83444               -0.9479372       -31.12633        -48.26154        91.49206             -200               0             -200               0
1.84106                -0.976226       -31.45117        -48.11125        88.46763             -200               0             -200               0
1.84768                -1.005389       -31.78099        -47.94884        85.47125             -200               0             -200               0
1.8543                 -1.035467       -32.11589        -47.77349        82.49262             -200               0             -200               0
