! TOUCHSTONE file generated by CST MICROWAVE STUDIO
! Date and time: Tue Mar 18 00:02:05 2025
! Project name: oblique.cst
! Parameters = {Tilt=40; Fracture=1; B=10; D=160; F=5; Feed=2.85625; L=100; M=50; R=0.384908; S=1; Theta=90; length=57.125; wave=114.25}
! Header version: 2024
! Port assignment regex: !\s*Touchstone port\s*([0-9]+)\s*=\s*(CST MWS port|CST DES external port|CST DES block port)\s*(.+)\s* \(\"(.*)\"\)(\s*mode\s*([0-9]+))?.*
! Touchstone port assignment:
! Touchstone port 1 = CST MWS port 1 ("")
! Touchstone port 2 = CST MWS port 2 ("")
# GHz S DB R 50
1                    -0.02184578       -9.789212        -67.40011        171.2069             -200               0             -200               0
1.00658              -0.02253784        -9.87599        -67.35367        165.9486             -200               0             -200               0
1.01316              -0.02323101         -9.9634        -67.33635         160.789             -200               0             -200               0
1.01974              -0.02392716       -10.05147         -67.3483        155.7372             -200               0             -200               0
1.02632              -0.02462978       -10.14024         -67.3898        150.8047             -200               0             -200               0
1.03289              -0.02534148       -10.22972        -67.46112         146.005             -200               0             -200               0
1.03947              -0.02606784       -10.31995        -67.56261        141.3539             -200               0             -200               0
1.04605              -0.02681321       -10.41093        -67.69453        136.8709             -200               0             -200               0
1.05263              -0.02758036       -10.50269        -67.85707        132.5788             -200               0             -200               0
1.05921              -0.02837584       -10.59524        -68.05017        128.5049             -200               0             -200               0
1.06579              -0.02920377       -10.68858        -68.27341        124.6816             -200               0             -200               0
1.07237              -0.03006932       -10.78271        -68.52573        121.1474             -200               0             -200               0
1.07895              -0.03097687       -10.87763        -68.80514        117.9472             -200               0             -200               0
1.08553              -0.03193086       -10.97334        -69.10821        115.1328             -200               0             -200               0
1.09211              -0.03293486       -11.06981         -69.4295        112.7624             -200               0             -200               0
1.09868              -0.03399248       -11.16705        -69.76069         110.898             -200               0             -200               0
1.10526              -0.03510595       -11.26501        -70.08968         109.601             -200               0             -200               0
1.11184              -0.03627795        -11.3637        -70.39979        108.9224             -200               0             -200               0
1.11842              -0.03750976       -11.46309        -70.66932        108.8885             -200               0             -200               0
1.125                -0.03880157       -11.56316        -70.87233        109.4815             -200               0             -200               0
1.13158               -0.0401537       -11.66388        -70.98136        110.6206             -200               0             -200               0
1.13816              -0.04156468       -11.76524        -70.97212        112.1516             -200               0             -200               0
1.14474              -0.04303368       -11.86722        -70.82926        113.8575             -200               0             -200               0
1.15132              -0.04455707       -11.96981        -70.55078        115.4923             -200               0             -200               0
1.15789              -0.04613274       -12.07299        -70.14856        116.8272             -200               0             -200               0
1.16447              -0.04775785       -12.17675        -69.64486        117.6893             -200               0             -200               0
1.17105              -0.04942792        -12.2811        -69.06666        117.9787             -200               0             -200               0
1.17763              -0.05113767       -12.38603        -68.44045         117.663             -200               0             -200               0
1.18421               -0.0528843       -12.49156        -67.78901        116.7592             -200               0             -200               0
1.19079              -0.05466271        -12.5977        -67.13016        115.3138             -200               0             -200               0
1.19737              -0.05646915       -12.70446        -66.47694        113.3874             -200               0             -200               0
1.20395              -0.05829807       -12.81188        -65.83834        111.0433             -200               0             -200               0
1.21053              -0.06014741       -12.91998        -65.22025         108.342             -200               0             -200               0
1.21711               -0.0620122       -13.02879        -64.62632        105.3382             -200               0             -200               0
1.22368              -0.06389047       -13.13837         -64.0586        102.0801             -200               0             -200               0
1.23026              -0.06578011       -13.24874        -63.51805        98.60918             -200               0             -200               0
1.23684              -0.06767942       -13.35996        -63.00492        94.96094             -200               0             -200               0
1.24342              -0.06958751       -13.47208        -62.51899         91.1658             -200               0             -200               0
1.25                 -0.07150546       -13.58514        -62.05976        87.24973             -200               0             -200               0
1.25658              -0.07343295       -13.69921        -61.62653        83.23504             -200               0             -200               0
1.26316              -0.07537307       -13.81432        -61.21853          79.141             -200               0             -200               0
1.26974              -0.07732837       -13.93053        -60.83494        74.98439             -200               0             -200               0
1.27632               -0.0793012       -14.04789        -60.47493        70.77995             -200               0             -200               0
1.28289              -0.08129728       -14.16644        -60.13765         66.5408             -200               0             -200               0
1.28947              -0.08332059       -14.28622         -59.8223        62.27869             -200               0             -200               0
1.29605              -0.08537762       -14.40728        -59.52809        58.00433             -200               0             -200               0
1.30263              -0.08747268       -14.52965        -59.25426        53.72756             -200               0             -200               0
1.30921                -0.089612       -14.65335        -59.00005        49.45756             -200               0             -200               0
1.31579              -0.09180238        -14.7784        -58.76474        45.20301             -200               0             -200               0
1.32237              -0.09404923       -14.90484        -58.54759        40.97218             -200               0             -200               0
1.32895              -0.09635901       -15.03268        -58.34788        36.77308             -200               0             -200               0
1.33553              -0.09873782       -15.16191        -58.16486        32.61352             -200               0             -200               0
1.34211               -0.1011906       -15.29256        -57.99777        28.50116             -200               0             -200               0
1.34868               -0.1037223       -15.42462        -57.84579         24.4436             -200               0             -200               0
1.35526               -0.1063369        -15.5581        -57.70808        20.44838             -200               0             -200               0
1.36184                -0.109039       -15.69299        -57.58371          16.523             -200               0             -200               0
1.36842               -0.1118312       -15.82929        -57.47167        12.67488             -200               0             -200               0
1.375                  -0.114715       -15.96699        -57.37085        8.911389             -200               0             -200               0
1.38158               -0.1176927       -16.10611        -57.28001        5.239688             -200               0             -200               0
1.38816               -0.1207646       -16.24663        -57.19778        1.666685             -200               0             -200               0
1.39474                -0.123931       -16.38856        -57.12264       -1.801134             -200               0             -200               0
1.40132                -0.127192       -16.53191         -57.0529       -5.157887             -200               0             -200               0
1.40789                -0.130545       -16.67669        -56.98667       -8.398536             -200               0             -200               0
1.41447               -0.1339887       -16.82291         -56.9219       -11.51915             -200               0             -200               0
1.42105               -0.1375224        -16.9706        -56.85637       -14.51726             -200               0             -200               0
1.42763                -0.141143       -17.11979        -56.78768       -17.39214             -200               0             -200               0
1.43421               -0.1448477        -17.2705        -56.71332       -20.14524             -200               0             -200               0
1.44079               -0.1486368       -17.42279        -56.63073       -22.78046             -200               0             -200               0
1.44737               -0.1525078       -17.57671        -56.53731       -25.30443             -200               0             -200               0
1.45395               -0.1564588       -17.73231        -56.43059       -27.72672             -200               0             -200               0
1.46053               -0.1604893       -17.88964        -56.30825        -30.0598             -200               0             -200               0
1.46711               -0.1646006       -18.04879        -56.16829       -32.31895             -200               0             -200               0
1.47368               -0.1687926       -18.20982        -56.00906       -34.52182             -200               0             -200               0
1.48026               -0.1730685       -18.37281        -55.82943       -36.68795             -200               0             -200               0
1.48684               -0.1774302       -18.53784        -55.62879       -38.83801             -200               0             -200               0
1.49342               -0.1818841         -18.705         -55.4071       -40.99296             -200               0             -200               0
1.5                   -0.1864334       -18.87436         -55.1649       -43.17321             -200               0             -200               0
1.50658               -0.1910866       -19.04602        -54.90323       -45.39782             -200               0             -200               0
1.51316               -0.1958521       -19.22006        -54.62359       -47.68382             -200               0             -200               0
1.51974               -0.2007375       -19.39655        -54.32786       -50.04568             -200               0             -200               0
1.52632               -0.2057549       -19.57558        -54.01814       -52.49506             -200               0             -200               0
1.53289               -0.2109149       -19.75723         -53.6967       -55.04066             -200               0             -200               0
1.53947                -0.216229       -19.94156        -53.36585       -57.68834             -200               0             -200               0
1.54605               -0.2217114       -20.12863        -53.02786       -60.44131             -200               0             -200               0
1.55263               -0.2273753       -20.31851        -52.68492       -63.30042             -200               0             -200               0
1.55921                -0.233235       -20.51125        -52.33908        -66.2645             -200               0             -200               0
1.56579               -0.2393044       -20.70689        -51.99217       -69.33076             -200               0             -200               0
1.57237               -0.2455987       -20.90547        -51.64588       -72.49511             -200               0             -200               0
1.57895               -0.2521315       -21.10703        -51.30167       -75.75246             -200               0             -200               0
1.58553               -0.2589176       -21.31158        -50.96079       -79.09703             -200               0             -200               0
1.59211               -0.2659696       -21.51916        -50.62433       -82.52258             -200               0             -200               0
1.59868               -0.2733012       -21.72978        -50.29319       -86.02259             -200               0             -200               0
1.60526               -0.2809252       -21.94345        -49.96811        -89.5904             -200               0             -200               0
1.61184               -0.2888528       -22.16019        -49.64968       -93.21935             -200               0             -200               0
1.61842               -0.2970941          -22.38        -49.33837       -96.90287             -200               0             -200               0
1.625                 -0.3056592        -22.6029        -49.03452       -100.6345             -200               0             -200               0
1.63158                -0.314558        -22.8289        -48.73837       -104.4081             -200               0             -200               0
1.63816                -0.323797       -23.05802        -48.45007       -108.2175             -200               0             -200               0
1.64474               -0.3333852       -23.29028        -48.16968       -112.0569             -200               0             -200               0
1.65132               -0.3433267        -23.5257        -47.89721       -115.9209             -200               0             -200               0
1.65789               -0.3536296       -23.76433        -47.63257        -119.804             -200               0             -200               0
1.66447                -0.364298        -24.0062        -47.37563       -123.7014             -200               0             -200               0
1.67105               -0.3753371       -24.25136        -47.12621       -127.6081             -200               0             -200               0
1.67763               -0.3867531        -24.4999        -46.88407       -131.5197             -200               0             -200               0
1.68421               -0.3985502       -24.75187        -46.64892       -135.4318             -200               0             -200               0
1.69079               -0.4107357       -25.00737        -46.42042       -139.3405             -200               0             -200               0
1.69737               -0.4233153       -25.26648        -46.19822       -143.2419             -200               0             -200               0
1.70395               -0.4362976       -25.52934        -45.98189       -147.1327             -200               0             -200               0
1.71053               -0.4496896       -25.79606        -45.77099       -151.0095             -200               0             -200               0
1.71711                -0.463503       -26.06676        -45.56502       -154.8695             -200               0             -200               0
1.72368               -0.4777512        -26.3416        -45.36347       -158.7101             -200               0             -200               0
1.73026               -0.4924468       -26.62073        -45.16577       -162.5289             -200               0             -200               0
1.73684               -0.5076077       -26.90431        -44.97135        -166.324             -200               0             -200               0
1.74342               -0.5232525       -27.19252        -44.77958        -170.094             -200               0             -200               0
1.75                  -0.5394026       -27.48552        -44.58983       -173.8376             -200               0             -200               0
1.75658               -0.5560814       -27.78349        -44.40145       -177.5541             -200               0             -200               0
1.76316               -0.5733195       -28.08661        -44.21377        178.7568             -200               0             -200               0
1.76974               -0.5911445       -28.39508        -44.02612        175.0948             -200               0             -200               0
1.77632               -0.6095911       -28.70905        -43.83781        171.4593             -200               0             -200               0
1.78289                -0.628695       -29.02872        -43.64818        167.8491             -200               0             -200               0
1.78947               -0.6484949       -29.35425         -43.4566        164.2626             -200               0             -200               0
1.79605               -0.6690326       -29.68581        -43.26243        160.6975             -200               0             -200               0
1.80263               -0.6903536       -30.02357        -43.06511        157.1512             -200               0             -200               0
1.80921               -0.7125039       -30.36767        -42.86409        153.6205             -200               0             -200               0
1.81579               -0.7355361       -30.71824        -42.65891         150.102             -200               0             -200               0
1.82237               -0.7594986       -31.07544        -42.44915        146.5916             -200               0             -200               0
1.82895               -0.7844486       -31.43936        -42.23449        143.0852             -200               0             -200               0
1.83553               -0.8104405       -31.81013        -42.01467        139.5784             -200               0             -200               0
1.84211               -0.8375345       -32.18785        -41.78953        136.0664             -200               0             -200               0
1.84868               -0.8657893        -32.5726        -41.55899        132.5446             -200               0             -200               0
