! TOUCHSTONE file generated by CST MICROWAVE STUDIO
! Date and time: Tue Mar 18 00:00:56 2025
! Project name: oblique.cst
! Parameters = {Tilt=30; Fracture=1; B=10; D=160; F=15; Feed=2.85625; L=100; M=50; R=0.384908; S=1; Theta=270; length=57.125; wave=114.25}
! Header version: 2024
! Port assignment regex: !\s*Touchstone port\s*([0-9]+)\s*=\s*(CST MWS port|CST DES external port|CST DES block port)\s*(.+)\s* \(\"(.*)\"\)(\s*mode\s*([0-9]+))?.*
! Touchstone port assignment:
! Touchstone port 1 = CST MWS port 1 ("")
! Touchstone port 2 = CST MWS port 2 ("")
# GHz S DB R 50
1                    -0.02127438       -9.795511        -66.85446        158.6913             -200               0             -200               0
1.00662              -0.02200838       -9.883492        -66.86501        152.5402             -200               0             -200               0
1.01325              -0.02275075       -9.972049        -66.91032        146.4777             -200               0             -200               0
1.01987              -0.02350365        -10.0612        -66.99175         140.509             -200               0             -200               0
1.02649              -0.02426562       -10.15098        -67.11092        134.6413             -200               0             -200               0
1.03311              -0.02503929        -10.2414        -67.26986        128.8843             -200               0             -200               0
1.03974              -0.02582574       -10.33248        -67.47098        123.2505             -200               0             -200               0
1.04636              -0.02662609       -10.42424        -67.71719        117.7565             -200               0             -200               0
1.05298              -0.02744354       -10.51671        -68.01195         112.424             -200               0             -200               0
1.0596               -0.02827979       -10.60989        -68.35939        107.2816             -200               0             -200               0
1.06623              -0.02913704       -10.70381        -68.76435         102.367             -200               0             -200               0
1.07285              -0.03001815       -10.79849         -69.2325        97.73116             -200               0             -200               0
1.07947              -0.03092591       -10.89392        -69.77035        93.44331             -200               0             -200               0
1.08609              -0.03186429       -10.99012        -70.38508        89.59927             -200               0             -200               0
1.09272              -0.03283321        -11.0871        -71.08398        86.33372             -200               0             -200               0
1.09934              -0.03383767       -11.18486        -71.87299        83.83838             -200               0             -200               0
1.10596              -0.03487924       -11.28341        -72.75308        82.38766             -200               0             -200               0
1.11258              -0.03596005       -11.38274        -73.71216        82.36839             -200               0             -200               0
1.11921              -0.03708323       -11.48285        -74.70834        84.29182             -200               0             -200               0
1.12583              -0.03824889       -11.58375        -75.64086        88.71029             -200               0             -200               0
1.13245              -0.03945921       -11.68543        -76.32218        95.87324             -200               0             -200               0
1.13907              -0.04071584       -11.78788        -76.51367        105.0788             -200               0             -200               0
1.1457               -0.04201742       -11.89111        -76.08451        114.4447             -200               0             -200               0
1.15232              -0.04336656       -11.99511        -75.13909        121.9937             -200               0             -200               0
1.15894               -0.0447618       -12.09987        -73.91316         126.867             -200               0             -200               0
1.16556              -0.04620213       -12.20541        -72.60476        129.2342             -200               0             -200               0
1.17219              -0.04768742       -12.31171        -71.32414        129.6366             -200               0             -200               0
1.17881              -0.04921652       -12.41879        -70.11855        128.5991             -200               0             -200               0
1.18543              -0.05078764       -12.52665        -69.00242        126.5252             -200               0             -200               0
1.19205              -0.05239985        -12.6353        -67.97564        123.7024             -200               0             -200               0
1.19868              -0.05405017       -12.74475        -67.03243        120.3325             -200               0             -200               0
1.2053               -0.05573835       -12.85501        -66.16535        116.5573             -200               0             -200               0
1.21192              -0.05746174       -12.96611        -65.36692        112.4783             -200               0             -200               0
1.21854              -0.05921825       -13.07807         -64.6303        108.1692             -200               0             -200               0
1.22517              -0.06100696       -13.19092        -63.94946        103.6849             -200               0             -200               0
1.23179              -0.06282656       -13.30467        -63.31916        99.06671             -200               0             -200               0
1.23841              -0.06467748       -13.41937         -62.7349        94.34667             -200               0             -200               0
1.24503               -0.0665571       -13.53505        -62.19281        89.54997             -200               0             -200               0
1.25166              -0.06846656       -13.65175        -61.68957        84.69684             -200               0             -200               0
1.25828              -0.07040579       -13.76949         -61.2223        79.80385             -200               0             -200               0
1.2649               -0.07237613       -13.88834        -60.78853        74.88482             -200               0             -200               0
1.27152               -0.0743784       -14.00831        -60.38608        69.95156             -200               0             -200               0
1.27815              -0.07641556       -14.12947        -60.01307        65.01433             -200               0             -200               0
1.28477              -0.07848976       -14.25184        -59.66783        60.08226             -200               0             -200               0
1.29139              -0.08060338       -14.37547        -59.34889        55.16364             -200               0             -200               0
1.29801               -0.0827624       -14.50039        -59.05493        50.26614             -200               0             -200               0
1.30464              -0.08496807       -14.62665        -58.78476        45.39704             -200               0             -200               0
1.31126              -0.08722815       -14.75428        -58.53729        40.56331             -200               0             -200               0
1.31788              -0.08954387       -14.88331        -58.31152        35.77181             -200               0             -200               0
1.3245               -0.09192371       -15.01378         -58.1065        31.02935             -200               0             -200               0
1.33113              -0.09437121        -15.1457        -57.92131        26.34278             -200               0             -200               0
1.33775              -0.09689282       -15.27912        -57.75508        21.71906             -200               0             -200               0
1.34437              -0.09949291       -15.41404        -57.60691        17.16533             -200               0             -200               0
1.35099               -0.1021788       -15.55048        -57.47587        12.68893             -200               0             -200               0
1.35762               -0.1049548       -15.68847        -57.36101        8.297428             -200               0             -200               0
1.36424               -0.1078261       -15.82802         -57.2613        3.998633             -200               0             -200               0
1.37086               -0.1107979       -15.96913        -57.17559      -0.1994391             -200               0             -200               0
1.37748                -0.113875       -16.11183        -57.10263       -4.288621             -200               0             -200               0
1.38411               -0.1170615       -16.25611        -57.04101       -8.260684             -200               0             -200               0
1.39073               -0.1203622       -16.40199        -56.98912       -12.10748             -200               0             -200               0
1.39735               -0.1237788       -16.54948        -56.94517       -15.82116             -200               0             -200               0
1.40397               -0.1273166       -16.69858         -56.9071       -19.39442             -200               0             -200               0
1.4106                -0.1309773        -16.8493        -56.87259       -22.82086             -200               0             -200               0
1.41722               -0.1347637       -17.00166        -56.83907       -26.09542             -200               0             -200               0
1.42384               -0.1386781       -17.15567        -56.80368       -29.21489             -200               0             -200               0
1.43046                -0.142721       -17.31135        -56.76333       -32.17844             -200               0             -200               0
1.43709               -0.1468949       -17.46872        -56.71471       -34.98824             -200               0             -200               0
1.44371               -0.1512003        -17.6278        -56.65441       -37.65001             -200               0             -200               0
1.45033               -0.1556404       -17.78862        -56.57902       -40.17345             -200               0             -200               0
1.45695               -0.1602169       -17.95122        -56.48526       -42.57257             -200               0             -200               0
1.46358               -0.1649287       -18.11562        -56.37014       -44.86567             -200               0             -200               0
1.4702                  -0.16978       -18.28188        -56.23116       -47.07501             -200               0             -200               0
1.47682               -0.1747717       -18.45002        -56.06643       -49.22611             -200               0             -200               0
1.48344                -0.179907       -18.62011        -55.87483       -51.34673             -200               0             -200               0
1.49007               -0.1851897        -18.7922        -55.65606       -53.46558             -200               0             -200               0
1.49669               -0.1906246       -18.96633         -55.4107       -55.61093             -200               0             -200               0
1.50331               -0.1962133       -19.14256        -55.14006       -57.80927             -200               0             -200               0
1.50993               -0.2019631       -19.32097        -54.84619       -60.08414             -200               0             -200               0
1.51656               -0.2078798        -19.5016        -54.53164       -62.45536             -200               0             -200               0
1.52318               -0.2139705       -19.68451        -54.19931        -64.9385             -200               0             -200               0
1.5298                -0.2202435       -19.86977        -53.85232       -67.54481             -200               0             -200               0
1.53642               -0.2267054       -20.05744        -53.49379       -70.28138             -200               0             -200               0
1.54305               -0.2333667       -20.24758        -53.12678       -73.15157             -200               0             -200               0
1.54967               -0.2402359       -20.44024        -52.75415       -76.15551             -200               0             -200               0
1.55629               -0.2473273       -20.63547        -52.37853       -79.29071             -200               0             -200               0
1.56291               -0.2546491       -20.83334        -52.00226       -82.55263             -200               0             -200               0
1.56954               -0.2622127       -21.03389         -51.6274       -85.93522             -200               0             -200               0
1.57616               -0.2700325       -21.23715        -51.25569       -89.43137             -200               0             -200               0
1.58278               -0.2781193       -21.44318        -50.88864       -93.03332             -200               0             -200               0
1.5894                -0.2864869         -21.652        -50.52748       -96.73293             -200               0             -200               0
1.59603               -0.2951459       -21.86367        -50.17323        -100.522             -200               0             -200               0
1.60265               -0.3041106       -22.07818         -49.8267       -104.3922             -200               0             -200               0
1.60927                -0.313393       -22.29559        -49.48853       -108.3356             -200               0             -200               0
1.61589               -0.3230057       -22.51592         -49.1592       -112.3443             -200               0             -200               0
1.62252               -0.3329604       -22.73917        -48.83907        -116.411             -200               0             -200               0
1.62914               -0.3432677       -22.96538         -48.5284       -120.5285             -200               0             -200               0
1.63576               -0.3539407       -23.19458        -48.22732       -124.6901             -200               0             -200               0
1.64238               -0.3649891       -23.42677         -47.9359       -128.8892             -200               0             -200               0
1.64901               -0.3764232       -23.66198        -47.65416       -133.1199             -200               0             -200               0
1.65563               -0.3882525       -23.90024        -47.38201       -137.3763             -200               0             -200               0
1.66225               -0.4004872       -24.14158        -47.11936       -141.6531             -200               0             -200               0
1.66887               -0.4131364       -24.38603        -46.86604       -145.9451             -200               0             -200               0
1.6755                -0.4262087       -24.63363        -46.62185       -150.2474             -200               0             -200               0
1.68212               -0.4397145       -24.88442        -46.38654       -154.5554             -200               0             -200               0
1.68874               -0.4536615       -25.13846        -46.15985       -158.8648             -200               0             -200               0
1.69536                 -0.46806        -25.3958        -45.94147       -163.1714             -200               0             -200               0
1.70199               -0.4829191       -25.65651        -45.73105       -167.4713             -200               0             -200               0
1.70861               -0.4982485       -25.92066        -45.52822       -171.7608             -200               0             -200               0
1.71523               -0.5140627       -26.18834        -45.33259       -176.0365             -200               0             -200               0
1.72185                -0.530369       -26.45962        -45.14371        179.7049             -200               0             -200               0
1.72848               -0.5471845       -26.73463        -44.96114        175.4664             -200               0             -200               0
1.7351                -0.5645228       -27.01344        -44.78436        171.2509             -200               0             -200               0
1.74172               -0.5823989       -27.29618        -44.61287        167.0608             -200               0             -200               0
1.74834               -0.6008323       -27.58296        -44.44611        162.8985             -200               0             -200               0
1.75497               -0.6198422        -27.8739         -44.2835        158.7659             -200               0             -200               0
1.76159               -0.6394504       -28.16912        -44.12442        154.6647             -200               0             -200               0
1.76821               -0.6596793       -28.46875        -43.96825        150.5963             -200               0             -200               0
1.77483               -0.6805571       -28.77292        -43.81431        146.5617             -200               0             -200               0
1.78146               -0.7021095       -29.08175        -43.66195        142.5614             -200               0             -200               0
1.78808               -0.7243701       -29.39537        -43.51046        138.5956             -200               0             -200               0
1.7947                 -0.747369        -29.7139        -43.35914        134.6641             -200               0             -200               0
1.80132               -0.7711421       -30.03746        -43.20729        130.7661             -200               0             -200               0
1.80795               -0.7957245       -30.36617        -43.05421        126.9004             -200               0             -200               0
1.81457               -0.8211573       -30.70012        -42.89922        123.0651             -200               0             -200               0
1.82119               -0.8474794       -31.03942        -42.74167        119.2581             -200               0             -200               0
1.82781               -0.8747347       -31.38417        -42.58093        115.4766             -200               0             -200               0
1.83444               -0.9029664       -31.73445        -42.41642        111.7173             -200               0             -200               0
1.84106               -0.9322199       -32.09034        -42.24762        107.9767             -200               0             -200               0
1.84768               -0.9625423        -32.4519        -42.07407        104.2506             -200               0             -200               0
1.8543                -0.9939822       -32.81919         -41.8954        100.5345             -200               0             -200               0
