! TOUCHSTONE file generated by CST MICROWAVE STUDIO
! Date and time: Sat Mar  8 13:54:40 2025
! Project name: non_fractured.cst
! Parameters = {B=2.5; D=160; F=10; Feed=2.85625; L=100; M=10; R=0.384908; S=1.5; Theta=90; length=57.125; wave=114.25}
! Header version: 2024
! Port assignment regex: !\s*Touchstone port\s*([0-9]+)\s*=\s*(CST MWS port|CST DES external port|CST DES block port)\s*(.+)\s* \(\"(.*)\"\)(\s*mode\s*([0-9]+))?.*
! Touchstone port assignment:
! Touchstone port 1 = CST MWS port 1 ("")
! Touchstone port 2 = CST MWS port 2 ("")
# GHz S DB R 50
1                    -0.01691877       -9.747046        -69.56208       -115.1042             -200               0             -200               0
1.0066               -0.01766858       -9.837017         -68.9676       -119.9982             -200               0             -200               0
1.0132               -0.01850413       -9.927373        -68.43088       -124.9395             -200               0             -200               0
1.0198               -0.01942068       -10.01805        -67.94683       -129.9086             -200               0             -200               0
1.0264               -0.02041025       -10.10899        -67.51132       -134.8892             -200               0             -200               0
1.033                -0.02146405       -10.20014        -67.12099        -139.868             -200               0             -200               0
1.0396               -0.02257248       -10.29146        -66.77307        -144.833             -200               0             -200               0
1.0462               -0.02372305       -10.38293        -66.46531       -149.7734             -200               0             -200               0
1.05281              -0.02490391       -10.47454        -66.19586       -154.6789             -200               0             -200               0
1.05941              -0.02610272       -10.56629        -65.96323       -159.5396             -200               0             -200               0
1.06601              -0.02730623        -10.6582         -65.7662       -164.3454             -200               0             -200               0
1.07261              -0.02850229       -10.75031        -65.60379       -169.0856             -200               0             -200               0
1.07921              -0.02967982       -10.84265        -65.47525       -173.7492             -200               0             -200               0
1.08581              -0.03082738        -10.9353        -65.37995       -178.3239             -200               0             -200               0
1.09241              -0.03193718       -11.02832         -65.3174        177.2039             -200               0             -200               0
1.09901              -0.03299963        -11.1218        -65.28719        172.8492             -200               0             -200               0
1.10561              -0.03401035       -11.21584        -65.28894        168.6293             -200               0             -200               0
1.11221              -0.03496646       -11.31053        -65.32221        164.5637             -200               0             -200               0
1.11881              -0.03586534       -11.40597        -65.38645        160.6751             -200               0             -200               0
1.12541              -0.03670993       -11.50228        -65.48088        156.9894             -200               0             -200               0
1.13201              -0.03750266       -11.59955         -65.6043        153.5364             -200               0             -200               0
1.13861              -0.03825022        -11.6979        -65.75492        150.3504             -200               0             -200               0
1.14521               -0.0389604        -11.7974        -65.93005        147.4698             -200               0             -200               0
1.15182              -0.03964333       -11.89815        -66.12575        144.9375             -200               0             -200               0
1.15842              -0.04031098       -12.00023        -66.33634        142.7996             -200               0             -200               0
1.16502              -0.04097768        -12.1037        -66.55388        141.1028             -200               0             -200               0
1.17162              -0.04165681        -12.2086        -66.76759        139.8902             -200               0             -200               0
1.17822              -0.04236556       -12.31498        -66.96347        139.1942             -200               0             -200               0
1.18482              -0.04311936       -12.42285        -67.12426        139.0262             -200               0             -200               0
1.19142              -0.04393391       -12.53222        -67.23022        139.3647             -200               0             -200               0
1.19802              -0.04482452       -12.64307        -67.26103        140.1445             -200               0             -200               0
1.20462              -0.04580749       -12.75537        -67.19873        141.2511             -200               0             -200               0
1.21122              -0.04689503       -12.86908        -67.03131        142.5279             -200               0             -200               0
1.21782              -0.04809977       -12.98415        -66.75541        143.7952             -200               0             -200               0
1.22442              -0.04943258       -13.10051        -66.37716        144.8786             -200               0             -200               0
1.23102              -0.05090176       -13.21808        -65.91056        145.6342             -200               0             -200               0
1.23762              -0.05251272       -13.33679        -65.37435        145.9645             -200               0             -200               0
1.24422               -0.0542693       -13.45654        -64.78852        145.8204             -200               0             -200               0
1.25083              -0.05617298       -13.57726        -64.17168        145.1934             -200               0             -200               0
1.25743              -0.05822164       -13.69884        -63.53956        144.1037             -200               0             -200               0
1.26403              -0.06041139       -13.82123        -62.90457        142.5888             -200               0             -200               0
1.27063               -0.0627359       -13.94433        -62.27596        140.6942             -200               0             -200               0
1.27723              -0.06518658        -14.0681        -61.66029        138.4673             -200               0             -200               0
1.28383              -0.06775276       -14.19247        -61.06203        135.9539             -200               0             -200               0
1.29043              -0.07042319       -14.31741        -60.48404        133.1962             -200               0             -200               0
1.29703              -0.07318402        -14.4429        -59.92801        130.2319             -200               0             -200               0
1.30363              -0.07602156       -14.56894        -59.39478        127.0943             -200               0             -200               0
1.31023              -0.07892058       -14.69554        -58.88462        123.8127             -200               0             -200               0
1.31683              -0.08186799       -14.82273        -58.39737        120.4126             -200               0             -200               0
1.32343              -0.08484894       -14.95056        -57.93258        116.9163             -200               0             -200               0
1.33003              -0.08785041        -15.0791        -57.48964        113.3431             -200               0             -200               0
1.33663              -0.09086083       -15.20844         -57.0678        109.7101             -200               0             -200               0
1.34323              -0.09387193       -15.33868        -56.66621        106.0323             -200               0             -200               0
1.34984              -0.09687367       -15.46992        -56.28399         102.323             -200               0             -200               0
1.35644               -0.0998622       -15.60229        -55.92021        98.59406             -200               0             -200               0
1.36304               -0.1028342       -15.73592         -55.5739        94.85613             -200               0             -200               0
1.36964               -0.1057903       -15.87096        -55.24409        91.11876             -200               0             -200               0
1.37624               -0.1087343       -16.00753        -54.92979         87.3906             -200               0             -200               0
1.38284               -0.1116713       -16.14577        -54.62996        83.67946             -200               0             -200               0
1.38944               -0.1146107       -16.28582        -54.34358        79.99246             -200               0             -200               0
1.39604               -0.1175647        -16.4278        -54.06957        76.33599             -200               0             -200               0
1.40264               -0.1205459       -16.57183        -53.80684        72.71582             -200               0             -200               0
1.40924               -0.1235727       -16.71801        -53.55426        69.13706             -200               0             -200               0
1.41584                -0.126663       -16.86643        -53.31068        65.60421             -200               0             -200               0
1.42244               -0.1298361       -17.01716        -53.07489        62.12105             -200               0             -200               0
1.42904               -0.1331126       -17.17026        -52.84568         58.6907             -200               0             -200               0
1.43564               -0.1365155       -17.32575        -52.62179         55.3155             -200               0             -200               0
1.44224               -0.1400654       -17.48366        -52.40194        51.99699             -200               0             -200               0
1.44884               -0.1437831       -17.64398        -52.18484        48.73588             -200               0             -200               0
1.45545               -0.1476896       -17.80669        -51.96919        45.53193             -200               0             -200               0
1.46205               -0.1518032       -17.97175         -51.7537        42.38398             -200               0             -200               0
1.46865                -0.156142       -18.13911        -51.53711        39.28986             -200               0             -200               0
1.47525               -0.1607197        -18.3087        -51.31823        36.24642             -200               0             -200               0
1.48185                -0.165549       -18.48045         -51.0959        33.24951             -200               0             -200               0
1.48845               -0.1706407       -18.65427        -50.86909        30.29409             -200               0             -200               0
1.49505               -0.1760011       -18.83007        -50.63687        27.37421             -200               0             -200               0
1.50165               -0.1816339       -19.00777        -50.39845        24.48321             -200               0             -200               0
1.50825               -0.1875398       -19.18727        -50.15321        21.61384             -200               0             -200               0
1.51485               -0.1937172       -19.36851        -49.90068        18.75838             -200               0             -200               0
1.52145               -0.2001612       -19.55141        -49.64058        15.90891             -200               0             -200               0
1.52805               -0.2068642       -19.73592        -49.37282        13.05745             -200               0             -200               0
1.53465               -0.2138169       -19.92199        -49.09747        10.19621             -200               0             -200               0
1.54125               -0.2210077       -20.10961        -48.81478        7.317729             -200               0             -200               0
1.54785               -0.2284243       -20.29877        -48.52515        4.415061             -200               0             -200               0
1.55446               -0.2360526        -20.4895        -48.22911        1.481941             -200               0             -200               0
1.56106               -0.2438805       -20.68184         -47.9273       -1.487137             -200               0             -200               0
1.56766               -0.2518933       -20.87586        -47.62046       -4.496826             -200               0             -200               0
1.57426               -0.2600789       -21.07166        -47.30938       -7.550904             -200               0             -200               0
1.58086               -0.2684263       -21.26934        -46.99488       -10.65225             -200               0             -200               0
1.58746               -0.2769271       -21.46905        -46.67781       -13.80289             -200               0             -200               0
1.59406               -0.2855757       -21.67094          -46.359         -17.004             -200               0             -200               0
1.60066               -0.2943681        -21.8752        -46.03928       -20.25604             -200               0             -200               0
1.60726               -0.3033045         -22.082        -45.71943       -23.55873             -200               0             -200               0
1.61386               -0.3123902       -22.29154        -45.40018       -26.91121             -200               0             -200               0
1.62046               -0.3216331       -22.50404        -45.08221       -30.31212             -200               0             -200               0
1.62706               -0.3310454       -22.71969        -44.76613       -33.75961             -200               0             -200               0
1.63366               -0.3406441       -22.93872        -44.45252       -37.25151             -200               0             -200               0
1.64026               -0.3504502        -23.1613        -44.14185       -40.78534             -200               0             -200               0
1.64686               -0.3604898       -23.38766        -43.83455       -44.35838             -200               0             -200               0
1.65347               -0.3707903       -23.61794        -43.53099        -47.9678             -200               0             -200               0
1.66007               -0.3813847       -23.85232        -43.23146       -51.61062             -200               0             -200               0
1.66667                -0.392309       -24.09094        -42.93621        -55.2838             -200               0             -200               0
1.67327               -0.4036006       -24.33392        -42.64542       -58.98427             -200               0             -200               0
1.67987               -0.4152989       -24.58133        -42.35921       -62.70901             -200               0             -200               0
1.68647               -0.4274444       -24.83326        -42.07767       -66.45501             -200               0             -200               0
1.69307               -0.4400809       -25.08974        -41.80083       -70.21932             -200               0             -200               0
1.69967               -0.4532483       -25.35077        -41.52868       -73.99909             -200               0             -200               0
1.70627               -0.4669862       -25.61634        -41.26116       -77.79158             -200               0             -200               0
1.71287               -0.4813369       -25.88642        -40.99818       -81.59419             -200               0             -200               0
1.71947                -0.496336       -26.16092        -40.73961       -85.40441             -200               0             -200               0
1.72607               -0.5120199       -26.43979         -40.4853       -89.21993             -200               0             -200               0
1.73267               -0.5284188        -26.7229        -40.23505       -93.03859             -200               0             -200               0
1.73927               -0.5455624       -27.01015        -39.98865        -96.8584             -200               0             -200               0
1.74587               -0.5634746       -27.30141        -39.74585       -100.6776             -200               0             -200               0
1.75248               -0.5821754       -27.59657        -39.50639       -104.4945             -200               0             -200               0
1.75908               -0.6016836       -27.89549        -39.26999       -108.3077             -200               0             -200               0
1.76568               -0.6220103       -28.19807        -39.03634       -112.1162             -200               0             -200               0
1.77228               -0.6431659        -28.5042        -38.80512       -115.9189             -200               0             -200               0
1.77888                -0.665155       -28.81379        -38.57602       -119.7151             -200               0             -200               0
1.78548                 -0.68798       -29.12679        -38.34871       -123.5043             -200               0             -200               0
1.79208               -0.7116403       -29.44314        -38.12283       -127.2863             -200               0             -200               0
1.79868               -0.7361365       -29.76285        -37.89807       -131.0611             -200               0             -200               0
1.80528               -0.7614638       -30.08594        -37.67408       -134.8289             -200               0             -200               0
1.81188                -0.787619       -30.41247        -37.45054       -138.5903             -200               0             -200               0
1.81848               -0.8146003       -30.74256        -37.22713       -142.3459             -200               0             -200               0
1.82508               -0.8424068       -31.07632        -37.00356       -146.0967             -200               0             -200               0
1.83168               -0.8710404       -31.41396        -36.77953       -149.8439             -200               0             -200               0
1.83828               -0.9005072       -31.75568        -36.55479       -153.5888             -200               0             -200               0
1.84488               -0.9308169       -32.10174        -36.32911       -157.3331             -200               0             -200               0
1.85149                -0.961986       -32.45243        -36.10228       -161.0784             -200               0             -200               0
