! TOUCHSTONE file generated by CST MICROWAVE STUDIO
! Date and time: Sat Mar  8 13:54:19 2025
! Project name: non_fractured.cst
! Parameters = {B=2.5; D=160; F=20; Feed=2.85625; L=100; M=5; R=0.384908; S=2; Theta=0; length=57.125; wave=114.25}
! Header version: 2024
! Port assignment regex: !\s*Touchstone port\s*([0-9]+)\s*=\s*(CST MWS port|CST DES external port|CST DES block port)\s*(.+)\s* \(\"(.*)\"\)(\s*mode\s*([0-9]+))?.*
! Touchstone port assignment:
! Touchstone port 1 = CST MWS port 1 ("")
! Touchstone port 2 = CST MWS port 2 ("")
# GHz S DB R 50
1                    -0.01832859        -9.74718         -68.0032       -139.7097             -200               0             -200               0
1.0066               -0.01905638       -9.835883        -67.65283         -143.28             -200               0             -200               0
1.0132               -0.01983711       -9.925038         -67.3217       -146.9044             -200               0             -200               0
1.0198               -0.02066863       -10.01462        -67.00969       -150.5695             -200               0             -200               0
1.0264               -0.02154616        -10.1046        -66.71654       -154.2628             -200               0             -200               0
1.033                -0.02246624       -10.19497        -66.44194        -157.973             -200               0             -200               0
1.0396               -0.02342174        -10.2857        -66.18548        -161.689             -200               0             -200               0
1.0462               -0.02440626       -10.37679        -65.94671       -165.4006             -200               0             -200               0
1.05281              -0.02541473       -10.46824        -65.72511       -169.0982             -200               0             -200               0
1.05941              -0.02643933       -10.56007        -65.52014       -172.7722             -200               0             -200               0
1.06601              -0.02747449       -10.65229        -65.33116       -176.4137             -200               0             -200               0
1.07261              -0.02851341       -10.74492        -65.15748        179.9862             -200               0             -200               0
1.07921              -0.02955113       -10.83801        -64.99834        176.4361             -200               0             -200               0
1.08581              -0.03058189       -10.93159        -64.85291        172.9443             -200               0             -200               0
1.09241              -0.03160181       -11.02572        -64.72025        169.5191             -200               0             -200               0
1.09901              -0.03260687       -11.12043        -64.59932        166.1682             -200               0             -200               0
1.10561              -0.03359641       -11.21579        -64.48896        162.8995             -200               0             -200               0
1.11221              -0.03456919       -11.31186        -64.38789        159.7202             -200               0             -200               0
1.11881              -0.03552448       -11.40871        -64.29465        156.6371             -200               0             -200               0
1.12541                -0.036465       -11.50638        -64.20767        153.6564             -200               0             -200               0
1.13201              -0.03739409       -11.60495        -64.12519        150.7832             -200               0             -200               0
1.13861              -0.03831505       -11.70447        -64.04529        148.0218             -200               0             -200               0
1.14521              -0.03923302         -11.805         -63.9659        145.3751             -200               0             -200               0
1.15182              -0.04015607       -11.90658        -63.88482        142.8441             -200               0             -200               0
1.15842              -0.04109059       -12.00925        -63.79975        140.4282             -200               0             -200               0
1.16502              -0.04204424       -12.11306        -63.70832        138.1244             -200               0             -200               0
1.17162              -0.04302636       -12.21803        -63.60817        135.9272             -200               0             -200               0
1.17822              -0.04404553       -12.32418        -63.49699        133.8287             -200               0             -200               0
1.18482              -0.04511218       -12.43151        -63.37267        131.8184             -200               0             -200               0
1.19142              -0.04623297       -12.54004        -63.23332        129.8833             -200               0             -200               0
1.19802              -0.04741824       -12.64976        -63.07737        128.0081             -200               0             -200               0
1.20462              -0.04867572       -12.76064        -62.90369        126.1759             -200               0             -200               0
1.21122              -0.05001325       -12.87267         -62.7116        124.3689             -200               0             -200               0
1.21782              -0.05143591       -12.98583        -62.50089        122.5686             -200               0             -200               0
1.22442              -0.05295086       -13.10007        -62.27188         120.757             -200               0             -200               0
1.23102                -0.054561       -13.21536        -62.02534        118.9169             -200               0             -200               0
1.23762              -0.05626966       -13.33166        -61.76245         117.033             -200               0             -200               0
1.24422              -0.05807762       -13.44893        -61.48472        115.0919             -200               0             -200               0
1.25083              -0.05998577       -13.56713        -61.19392        113.0826             -200               0             -200               0
1.25743              -0.06199225       -13.68622        -60.89197        110.9967             -200               0             -200               0
1.26403              -0.06409409       -13.80615        -60.58087        108.8284             -200               0             -200               0
1.27063              -0.06628757       -13.92692         -60.2626        106.5742             -200               0             -200               0
1.27723              -0.06856715       -14.04848         -59.9391        104.2327             -200               0             -200               0
1.28383              -0.07092802       -14.17083        -59.61217        101.8046             -200               0             -200               0
1.29043              -0.07336148       -14.29396        -59.28347        99.29206             -200               0             -200               0
1.29703              -0.07586143       -14.41786        -58.95449        96.69852             -200               0             -200               0
1.30363              -0.07841932       -14.54256        -58.62653        94.02845             -200               0             -200               0
1.31023              -0.08102711       -14.66808        -58.30072        91.28701             -200               0             -200               0
1.31683              -0.08367806       -14.79445          -57.978        88.47988             -200               0             -200               0
1.32343              -0.08636487       -14.92172        -57.65914        85.61306             -200               0             -200               0
1.33003              -0.08908011       -15.04994        -57.34474        82.69265             -200               0             -200               0
1.33663              -0.09181794       -15.17916        -57.03527        79.72479             -200               0             -200               0
1.34323              -0.09457573       -15.30948        -56.73106        76.71552             -200               0             -200               0
1.34984              -0.09734846       -15.44096        -56.43231        73.67071             -200               0             -200               0
1.35644               -0.1001339        -15.5737         -56.1391        70.59596             -200               0             -200               0
1.36304               -0.1029339       -15.70777        -55.85145        67.49662             -200               0             -200               0
1.36964               -0.1057479       -15.84328        -55.56925        64.37767             -200               0             -200               0
1.37624               -0.1085798       -15.98032        -55.29234        61.24376             -200               0             -200               0
1.38284               -0.1114351       -16.11897        -55.02048        58.09915             -200               0             -200               0
1.38944               -0.1143193       -16.25933        -54.75338        54.94767             -200               0             -200               0
1.39604               -0.1172405       -16.40149         -54.4907        51.79278             -200               0             -200               0
1.40264               -0.1202081       -16.54551        -54.23205        48.63746             -200               0             -200               0
1.40924               -0.1232334       -16.69149        -53.97701        45.48428             -200               0             -200               0
1.41584               -0.1263275       -16.83947        -53.72513        42.33535             -200               0             -200               0
1.42244               -0.1295026       -16.98952        -53.47595        39.19234             -200               0             -200               0
1.42904               -0.1327718       -17.14168        -53.22899        36.05646             -200               0             -200               0
1.43564               -0.1361492         -17.296        -52.98377        32.92846             -200               0             -200               0
1.44224               -0.1396475       -17.45249        -52.73982        29.80869             -200               0             -200               0
1.44884               -0.1432808       -17.61117        -52.49667        26.69704             -200               0             -200               0
1.45545               -0.1470608       -17.77206        -52.25388          23.593             -200               0             -200               0
1.46205                   -0.151       -17.93515        -52.01103        20.49568             -200               0             -200               0
1.46865               -0.1551095       -18.10043        -51.76773        17.40383             -200               0             -200               0
1.47525               -0.1593993       -18.26789        -51.52365        14.31589             -200               0             -200               0
1.48185               -0.1638778       -18.43752        -51.27847        11.23003             -200               0             -200               0
1.48845                -0.168553       -18.60928        -51.03195        8.144171             -200               0             -200               0
1.49505               -0.1734304       -18.78317         -50.7839        5.056081             -200               0             -200               0
1.50165               -0.1785138       -18.95916        -50.53416        1.963393             -200               0             -200               0
1.50825                -0.183808       -19.13723        -50.28267       -1.136328             -200               0             -200               0
1.51485               -0.1893137       -19.31737        -50.02938        -4.24553             -200               0             -200               0
1.52145               -0.1950314       -19.49958        -49.77433       -7.366619             -200               0             -200               0
1.52805               -0.2009596       -19.68386         -49.5176       -10.50191             -200               0             -200               0
1.53465                -0.207099       -19.87021        -49.25931       -13.65359             -200               0             -200               0
1.54125               -0.2134468       -20.05867        -48.99964       -16.82367             -200               0             -200               0
1.54785               -0.2199995       -20.24927         -48.7388       -20.01392             -200               0             -200               0
1.55446               -0.2267561       -20.44205        -48.47703       -23.22592             -200               0             -200               0
1.56106               -0.2337141       -20.63707         -48.2146       -26.46095             -200               0             -200               0
1.56766               -0.2408727       -20.83441        -47.95181       -29.72004             -200               0             -200               0
1.57426               -0.2482311       -21.03416        -47.68896       -33.00392             -200               0             -200               0
1.58086               -0.2557893        -21.2364        -47.42636       -36.31305             -200               0             -200               0
1.58746               -0.2635515       -21.44125        -47.16433       -39.64763             -200               0             -200               0
1.59406               -0.2715196       -21.64882        -46.90319       -43.00756             -200               0             -200               0
1.60066               -0.2797024       -21.85924        -46.64323        -46.3925             -200               0             -200               0
1.60726               -0.2881068       -22.07265        -46.38475       -49.80186             -200               0             -200               0
1.61386               -0.2967439       -22.28916        -46.12802       -53.23486             -200               0             -200               0
1.62046               -0.3056277       -22.50892        -45.87331       -56.69048             -200               0             -200               0
1.62706               -0.3147737       -22.73207        -45.62084       -60.16755             -200               0             -200               0
1.63366                -0.324201       -22.95872        -45.37082       -63.66472             -200               0             -200               0
1.64026               -0.3339306       -23.18903        -45.12344       -67.18052             -200               0             -200               0
1.64686               -0.3439864       -23.42309        -44.87886       -70.71336             -200               0             -200               0
1.65347               -0.3543921       -23.66102         -44.6372       -74.26155             -200               0             -200               0
1.66007               -0.3651767       -23.90292        -44.39855       -77.82335             -200               0             -200               0
1.66667               -0.3763688       -24.14887          -44.163       -81.39695             -200               0             -200               0
1.67327               -0.3879997       -24.39894        -43.93057       -84.98051             -200               0             -200               0
1.67987               -0.4001003       -24.65319        -43.70128       -88.57217             -200               0             -200               0
1.68647               -0.4127018       -24.91165         -43.4751       -92.17008             -200               0             -200               0
1.69307               -0.4258382       -25.17435        -43.25199       -95.77243             -200               0             -200               0
1.69967               -0.4395408       -25.44129        -43.03186       -99.37743             -200               0             -200               0
1.70627               -0.4538422       -25.71248        -42.81461       -102.9833             -200               0             -200               0
1.71287               -0.4687715       -25.98787         -42.6001       -106.5885             -200               0             -200               0
1.71947                -0.484361       -26.26745        -42.38817       -110.1914             -200               0             -200               0
1.72607               -0.5006363       -26.55117        -42.17864       -113.7906             -200               0             -200               0
1.73267               -0.5176267       -26.83897        -41.97128       -117.3847             -200               0             -200               0
1.73927               -0.5353558       -27.13079        -41.76588       -120.9725             -200               0             -200               0
1.74587               -0.5538471       -27.42658        -41.56217        -124.553             -200               0             -200               0
1.75248               -0.5731205       -27.72627        -41.35988       -128.1254             -200               0             -200               0
1.75908               -0.5931956       -28.02981        -41.15872        -131.689             -200               0             -200               0
1.76568               -0.6140898       -28.33713         -40.9584       -135.2432             -200               0             -200               0
1.77228               -0.6358164        -28.6482        -40.75859       -138.7879             -200               0             -200               0
1.77888               -0.6583914       -28.96297        -40.55898       -142.3231             -200               0             -200               0
1.78548               -0.6818267       -29.28143        -40.35924       -145.8488             -200               0             -200               0
1.79208               -0.7061318       -29.60357        -40.15906       -149.3656             -200               0             -200               0
1.79868               -0.7313212       -29.92942         -39.9581       -152.8741             -200               0             -200               0
1.80528               -0.7574028       -30.25899        -39.75607       -156.3752             -200               0             -200               0
1.81188               -0.7843906       -30.59236        -39.55266       -159.8701             -200               0             -200               0
1.81848               -0.8122958       -30.92958        -39.34759       -163.3602             -200               0             -200               0
1.82508               -0.8411354       -31.27077        -39.14061        -166.847             -200               0             -200               0
1.83168               -0.8709241       -31.61604        -38.93147       -170.3324             -200               0             -200               0
1.83828               -0.9016835       -31.96553        -38.71998       -173.8183             -200               0             -200               0
1.84488               -0.9334358       -32.31941        -38.50596       -177.3069             -200               0             -200               0
1.85149               -0.9662106       -32.67785        -38.28927        179.1996             -200               0             -200               0
