! TOUCHSTONE file generated by CST MICROWAVE STUDIO
! Date and time: Sat Mar  8 13:53:56 2025
! Project name: non_fractured.cst
! Parameters = {B=2.5; D=160; F=5; Feed=2.85625; L=100; M=5; R=0.384908; S=2; Theta=180; length=57.125; wave=114.25}
! Header version: 2024
! Port assignment regex: !\s*Touchstone port\s*([0-9]+)\s*=\s*(CST MWS port|CST DES external port|CST DES block port)\s*(.+)\s* \(\"(.*)\"\)(\s*mode\s*([0-9]+))?.*
! Touchstone port assignment:
! Touchstone port 1 = CST MWS port 1 ("")
! Touchstone port 2 = CST MWS port 2 ("")
# GHz S DB R 50
1                    -0.01943898       -9.746569        -66.48171       -92.56894             -200               0             -200               0
1.0066               -0.01994131       -9.834031        -65.88116       -98.69704             -200               0             -200               0
1.0132               -0.02046665       -9.922218        -65.33496       -104.7487             -200               0             -200               0
1.0198                -0.0210202       -10.01113        -64.83816       -110.7298             -200               0             -200               0
1.0264               -0.02160601       -10.10077        -64.38676       -116.6446             -200               0             -200               0
1.033                -0.02222749       -10.19111        -63.97746       -122.4955             -200               0             -200               0
1.0396               -0.02288879       -10.28215        -63.60756       -128.2839             -200               0             -200               0
1.0462               -0.02359155       -10.37387        -63.27483       -134.0102             -200               0             -200               0
1.05281              -0.02433796       -10.46625        -62.97745        -139.674             -200               0             -200               0
1.05941              -0.02512977       -10.55927        -62.71391       -145.2738             -200               0             -200               0
1.06601              -0.02596665       -10.65291        -62.48297       -150.8077             -200               0             -200               0
1.07261              -0.02684776       -10.74714        -62.28364       -156.2727             -200               0             -200               0
1.07921              -0.02777174       -10.84196        -62.11512       -161.6651             -200               0             -200               0
1.08581              -0.02873705       -10.93733        -61.97682       -166.9804             -200               0             -200               0
1.09241              -0.02974008       -11.03326        -61.86825       -172.2131             -200               0             -200               0
1.09901              -0.03077654       -11.12972        -61.78909       -177.3565             -200               0             -200               0
1.10561              -0.03184349       -11.22672        -61.73912        177.5972             -200               0             -200               0
1.11221              -0.03293466       -11.32426         -61.7182        172.6571             -200               0             -200               0
1.11881               -0.0340453       -11.42235        -61.72625        167.8341             -200               0             -200               0
1.12541              -0.03517126         -11.521        -61.76325        163.1409             -200               0             -200               0
1.13201              -0.03630672       -11.62023        -61.82911        158.5925             -200               0             -200               0
1.13861              -0.03744607       -11.72008        -61.92374        154.2063             -200               0             -200               0
1.14521              -0.03858611       -11.82057        -62.04686        150.0028             -200               0             -200               0
1.15182              -0.03972176       -11.92177        -62.19797        146.0058             -200               0             -200               0
1.15842               -0.0408504        -12.0237        -62.37618        142.2432             -200               0             -200               0
1.16502              -0.04196916       -12.12643        -62.58002         138.747             -200               0             -200               0
1.17162              -0.04307703       -12.23002        -62.80716        135.5537             -200               0             -200               0
1.17822              -0.04417293       -12.33452         -63.0541        132.7042             -200               0             -200               0
1.18482              -0.04525875       -12.44001        -63.31571        130.2428             -200               0             -200               0
1.19142              -0.04633629       -12.54654        -63.58471         128.215             -200               0             -200               0
1.19802              -0.04740787       -12.65418        -63.85113        126.6637             -200               0             -200               0
1.20462              -0.04847893         -12.763        -64.10185        125.6229             -200               0             -200               0
1.21122              -0.04955496       -12.87305        -64.32054         125.108             -200               0             -200               0
1.21782              -0.05064256       -12.98438        -64.48818        125.1043             -200               0             -200               0
1.22442              -0.05174956       -13.09706        -64.58475        125.5559             -200               0             -200               0
1.23102              -0.05288407       -13.21112        -64.59193        126.3589             -200               0             -200               0
1.23762              -0.05405574       -13.32661        -64.49653        127.3656             -200               0             -200               0
1.24422              -0.05527469       -13.44354        -64.29345        128.4011             -200               0             -200               0
1.25083              -0.05655167       -13.56195        -63.98693        129.2894             -200               0             -200               0
1.25743              -0.05789474       -13.68185        -63.58947        129.8804             -200               0             -200               0
1.26403               -0.0593163       -13.80325        -63.11891        130.0669             -200               0             -200               0
1.27063              -0.06082491       -13.92614        -62.59509          129.79             -200               0             -200               0
1.27723              -0.06243053       -14.05051        -62.03693        129.0329             -200               0             -200               0
1.28383              -0.06414177       -14.17635         -61.4608        127.8098             -200               0             -200               0
1.29043              -0.06596685       -14.30363        -60.87983        126.1545             -200               0             -200               0
1.29703              -0.06791236       -14.43233        -60.30397        124.1105             -200               0             -200               0
1.30363              -0.06998381       -14.56241        -59.74043        121.7242             -200               0             -200               0
1.31023              -0.07218643       -14.69384        -59.19422        119.0415             -200               0             -200               0
1.31683              -0.07452377       -14.82659        -58.66865         116.105             -200               0             -200               0
1.32343              -0.07699768       -14.96061         -58.1658        112.9529             -200               0             -200               0
1.33003              -0.07960896       -15.09588        -57.68686        109.6194             -200               0             -200               0
1.33663              -0.08235757       -15.23237        -57.23238        106.1347             -200               0             -200               0
1.34323              -0.08524283       -15.37004        -56.80247        102.5249             -200               0             -200               0
1.34984              -0.08826112       -15.50888        -56.39695        98.81332             -200               0             -200               0
1.35644              -0.09141092       -15.64887        -56.01544        95.02011             -200               0             -200               0
1.36304              -0.09468759       -15.79001        -55.65745        91.16333             -200               0             -200               0
1.36964              -0.09808762        -15.9323        -55.32236        87.25901             -200               0             -200               0
1.37624               -0.1016061       -16.07574        -55.00955        83.32161             -200               0             -200               0
1.38284               -0.1052387       -16.22036        -54.71833        79.36428             -200               0             -200               0
1.38944               -0.1089803       -16.36617        -54.44801         75.3991             -200               0             -200               0
1.39604               -0.1128293       -16.51323        -54.19786        71.43734             -200               0             -200               0
1.40264               -0.1167803       -16.66157        -53.96717        67.48957             -200               0             -200               0
1.40924               -0.1208327       -16.81124        -53.75516        63.56589             -200               0             -200               0
1.41584                -0.124985        -16.9623        -53.56105        59.67597             -200               0             -200               0
1.42244               -0.1292351        -17.1148        -53.38402        55.82921             -200               0             -200               0
1.42904               -0.1335863       -17.26883        -53.22318         52.0348             -200               0             -200               0
1.43564               -0.1380403       -17.42444         -53.0776        48.30171             -200               0             -200               0
1.44224               -0.1426008        -17.5817        -52.94624        44.63881             -200               0             -200               0
1.44884               -0.1472731       -17.74068        -52.82796        41.05476             -200               0             -200               0
1.45545               -0.1520625       -17.90145        -52.72153        37.55803             -200               0             -200               0
1.46205               -0.1569789       -18.06407        -52.62554        34.15681             -200               0             -200               0
1.46865               -0.1620286        -18.2286        -52.53845        30.85885             -200               0             -200               0
1.47525                -0.167223       -18.39508        -52.45852        27.67132             -200               0             -200               0
1.48185                -0.172572       -18.56357        -52.38384        24.60057             -200               0             -200               0
1.48845               -0.1780869       -18.73409        -52.31229        21.65186             -200               0             -200               0
1.49505               -0.1837791       -18.90668        -52.24155        18.82902             -200               0             -200               0
1.50165               -0.1896592       -19.08136        -52.16915        16.13409             -200               0             -200               0
1.50825               -0.1957396       -19.25813        -52.09242        13.56693             -200               0             -200               0
1.51485               -0.2020303       -19.43701        -52.00863        11.12484             -200               0             -200               0
1.52145                -0.208541       -19.61798        -51.91501        8.802214             -200               0             -200               0
1.52805               -0.2152825       -19.80104        -51.80882        6.590341             -200               0             -200               0
1.53465               -0.2222605       -19.98617         -51.6875         4.47727             -200               0             -200               0
1.54125               -0.2294851       -20.17335        -51.54878         2.44795             -200               0             -200               0
1.54785               -0.2369591       -20.36256        -51.39076       0.4845429             -200               0             -200               0
1.55446               -0.2446866       -20.55379        -51.21205       -1.433017             -200               0             -200               0
1.56106               -0.2526714         -20.747        -51.01182       -3.326262             -200               0             -200               0
1.56766               -0.2609136       -20.94219        -50.78986       -5.217293             -200               0             -200               0
1.57426               -0.2694128       -21.13934        -50.54657       -7.127822             -200               0             -200               0
1.58086                -0.278166       -21.33846        -50.28296       -9.078259             -200               0             -200               0
1.58746               -0.2871727       -21.53955        -50.00052       -11.08693             -200               0             -200               0
1.59406               -0.2964262       -21.74264        -49.70114       -13.16946             -200               0             -200               0
1.60066               -0.3059244       -21.94775        -49.38703       -15.33845             -200               0             -200               0
1.60726               -0.3156597       -22.15493        -49.06054       -17.60328             -200               0             -200               0
1.61386               -0.3256286       -22.36425         -48.7241       -19.97024             -200               0             -200               0
1.62046               -0.3358256       -22.57578        -48.38011       -22.44267             -200               0             -200               0
1.62706               -0.3462462       -22.78962        -48.03086       -25.02138             -200               0             -200               0
1.63366               -0.3568872       -23.00589        -47.67848       -27.70495             -200               0             -200               0
1.64026               -0.3677471        -23.2247        -47.32489       -30.49018             -200               0             -200               0
1.64686                -0.378827        -23.4462        -46.97182       -33.37247             -200               0             -200               0
1.65347               -0.3901281       -23.67055        -46.62076       -36.34617             -200               0             -200               0
1.66007               -0.4016549        -23.8979        -46.27297       -39.40489             -200               0             -200               0
1.66667               -0.4134154       -24.12844        -45.92954       -42.54176             -200               0             -200               0
1.67327               -0.4254211       -24.36235        -45.59132       -45.74964             -200               0             -200               0
1.67987               -0.4376836       -24.59982        -45.25901       -49.02131             -200               0             -200               0
1.68647                -0.450221       -24.84103        -44.93313       -52.34954             -200               0             -200               0
1.69307               -0.4630533       -25.08618        -44.61406       -55.72729             -200               0             -200               0
1.69967               -0.4762045       -25.33545        -44.30205       -59.14767             -200               0             -200               0
1.70627               -0.4897019       -25.58903        -43.99722       -62.60407             -200               0             -200               0
1.71287               -0.5035737       -25.84707        -43.69961       -66.09018             -200               0             -200               0
1.71947                -0.517856       -26.10975        -43.40915           -69.6             -200               0             -200               0
1.72607               -0.5325803       -26.37721        -43.12568       -73.12788             -200               0             -200               0
1.73267               -0.5477901       -26.64959        -42.84898       -76.66851             -200               0             -200               0
1.73927               -0.5635189       -26.92698        -42.57874       -80.21698             -200               0             -200               0
1.74587               -0.5798135       -27.20949        -42.31463       -83.76873             -200               0             -200               0
1.75248               -0.5967138       -27.49719        -42.05621       -87.31961             -200               0             -200               0
1.75908               -0.6142635       -27.79015        -41.80303       -90.86587             -200               0             -200               0
1.76568               -0.6325064       -28.08839        -41.55457       -94.40419             -200               0             -200               0
1.77228               -0.6514859       -28.39194        -41.31029       -97.93166             -200               0             -200               0
1.77888               -0.6712441       -28.70081         -41.0696       -101.4458             -200               0             -200               0
1.78548               -0.6918245       -29.01497        -40.83189       -104.9448             -200               0             -200               0
1.79208               -0.7132679        -29.3344        -40.59651        -108.427             -200               0             -200               0
1.79868               -0.7356132       -29.65908        -40.36281       -111.8915             -200               0             -200               0
1.80528               -0.7588968       -29.98895        -40.13013       -115.3379             -200               0             -200               0
1.81188               -0.7831558       -30.32396         -39.8978       -118.7662             -200               0             -200               0
1.81848               -0.8084242       -30.66407        -39.66516        -122.177             -200               0             -200               0
1.82508               -0.8347341       -31.00924        -39.43158       -125.5716             -200               0             -200               0
1.83168               -0.8621163       -31.35942        -39.19644       -128.9515             -200               0             -200               0
1.83828                -0.890599       -31.71456        -38.95916       -132.3189             -200               0             -200               0
1.84488               -0.9202101       -32.07467        -38.71921       -135.6765             -200               0             -200               0
1.85149               -0.9509772       -32.43972        -38.47612       -139.0274             -200               0             -200               0
