! TOUCHSTONE file generated by CST MICROWAVE STUDIO
! Date and time: Sat Mar  8 13:54:25 2025
! Project name: non_fractured.cst
! Parameters = {B=2.5; D=160; F=20; Feed=2.85625; L=100; M=5; R=0.384908; S=2.5; Theta=180; length=57.125; wave=114.25}
! Header version: 2024
! Port assignment regex: !\s*Touchstone port\s*([0-9]+)\s*=\s*(CST MWS port|CST DES external port|CST DES block port)\s*(.+)\s* \(\"(.*)\"\)(\s*mode\s*([0-9]+))?.*
! Touchstone port assignment:
! Touchstone port 1 = CST MWS port 1 ("")
! Touchstone port 2 = CST MWS port 2 ("")
# GHz S DB R 50
1                    -0.01835292       -9.747519        -68.86024       -135.9357             -200               0             -200               0
1.0066               -0.01908099       -9.836308        -68.38403       -139.3585             -200               0             -200               0
1.0132               -0.01986595        -9.92556        -67.93393       -142.9203             -200               0             -200               0
1.0198               -0.02070415       -10.01524        -67.50987       -146.5958             -200               0             -200               0
1.0264               -0.02159194       -10.10533        -67.11154       -150.3629             -200               0             -200               0
1.033                -0.02252448       -10.19579         -66.7385       -154.2021             -200               0             -200               0
1.0396               -0.02349673       -10.28661        -66.39017       -158.0962             -200               0             -200               0
1.0462               -0.02450189       -10.37779        -66.06596       -162.0296             -200               0             -200               0
1.05281              -0.02553299       -10.46932        -65.76522       -165.9884             -200               0             -200               0
1.05941              -0.02658485        -10.5612         -65.4873       -169.9596             -200               0             -200               0
1.06601              -0.02764948       -10.65345        -65.23152       -173.9315             -200               0             -200               0
1.07261              -0.02872016        -10.7461        -64.99722       -177.8927             -200               0             -200               0
1.07921              -0.02979147       -10.83917        -64.78371        178.1674             -200               0             -200               0
1.08581              -0.03085774       -10.93271        -64.59029        174.2591             -200               0             -200               0
1.09241              -0.03191366       -11.02675        -64.41624        170.3925             -200               0             -200               0
1.09901              -0.03295569       -11.12136        -64.26079        166.5775             -200               0             -200               0
1.10561              -0.03398075       -11.21658        -64.12314        162.8241             -200               0             -200               0
1.11221              -0.03498799       -11.31248        -64.00238        159.1422             -200               0             -200               0
1.11881              -0.03597676       -11.40911        -63.89754        155.5417             -200               0             -200               0
1.12541              -0.03694763       -11.50654        -63.80751        152.0327             -200               0             -200               0
1.13201              -0.03790288       -11.60484        -63.73104        148.6253             -200               0             -200               0
1.13861              -0.03884735       -11.70406        -63.66672        145.3294             -200               0             -200               0
1.14521              -0.03978488       -11.80426        -63.61292        142.1549             -200               0             -200               0
1.15182              -0.04072151        -11.9055        -63.56777        139.1111             -200               0             -200               0
1.15842              -0.04166406       -12.00781        -63.52915        136.2069             -200               0             -200               0
1.16502              -0.04262093       -12.11125        -63.49465        133.4499             -200               0             -200               0
1.17162              -0.04360039       -12.21583        -63.46156        130.8464             -200               0             -200               0
1.17822              -0.04461032        -12.3216        -63.42688        128.4006             -200               0             -200               0
1.18482              -0.04566099       -12.42855        -63.38734         126.114             -200               0             -200               0
1.19142              -0.04676092        -12.5367        -63.33946        123.9848             -200               0             -200               0
1.19802              -0.04791933       -12.64605        -63.27964        122.0076             -200               0             -200               0
1.20462              -0.04914478       -12.75659        -63.20428        120.1723             -200               0             -200               0
1.21122               -0.0504445       -12.86829        -63.10993        118.4644             -200               0             -200               0
1.21782              -0.05182496       -12.98114         -62.9935        116.8646             -200               0             -200               0
1.22442              -0.05329323        -13.0951        -62.85241        115.3497             -200               0             -200               0
1.23102              -0.05485303       -13.21013        -62.68476        113.8927             -200               0             -200               0
1.23762              -0.05650823       -13.32621         -62.4895        112.4649             -200               0             -200               0
1.24422              -0.05826017       -13.44329        -62.26646        111.0363             -200               0             -200               0
1.25083               -0.0601105       -13.56133        -62.01637        109.5781             -200               0             -200               0
1.25743              -0.06205756       -13.68029        -61.74079        108.0634             -200               0             -200               0
1.26403              -0.06409974       -13.80013        -61.44197        106.4687             -200               0             -200               0
1.27063              -0.06623243       -13.92083        -61.12265        104.7747             -200               0             -200               0
1.27723               -0.0684521       -14.04237        -60.78595        102.9669             -200               0             -200               0
1.28383              -0.07075308       -14.16471        -60.43511        101.0349             -200               0             -200               0
1.29043              -0.07312768       -14.28786        -60.07336        98.97303             -200               0             -200               0
1.29703              -0.07556989       -14.41181        -59.70381        96.77935             -200               0             -200               0
1.30363              -0.07807122       -14.53658        -59.32933        94.45509             -200               0             -200               0
1.31023              -0.08062481       -14.66219        -58.95252        92.00407             -200               0             -200               0
1.31683              -0.08322236       -14.78866        -58.57565        89.43208             -200               0             -200               0
1.32343              -0.08585711       -14.91604         -58.2007        86.74632             -200               0             -200               0
1.33003              -0.08852185       -15.04439        -57.82932        83.95489             -200               0             -200               0
1.33663              -0.09121156       -15.17377        -57.46288        81.06645             -200               0             -200               0
1.34323              -0.09391968       -15.30424        -57.10248        78.08989             -200               0             -200               0
1.34984              -0.09664516       -15.43589        -56.74898        75.03412             -200               0             -200               0
1.35644              -0.09938517        -15.5688        -56.40306        71.90787             -200               0             -200               0
1.36304               -0.1021382       -15.70307        -56.06519         68.7196             -200               0             -200               0
1.36964               -0.1049074       -15.83878        -55.73569        65.47742             -200               0             -200               0
1.37624               -0.1076937       -15.97603        -55.41475        62.18901             -200               0             -200               0
1.38284               -0.1105035       -16.11491        -55.10244        58.86163             -200               0             -200               0
1.38944               -0.1133416       -16.25552        -54.79875        55.50209             -200               0             -200               0
1.39604               -0.1162184       -16.39794        -54.50355        52.11671             -200               0             -200               0
1.40264               -0.1191414       -16.54226        -54.21667        48.71142             -200               0             -200               0
1.40924               -0.1221218       -16.68854        -53.93785        45.29166             -200               0             -200               0
1.41584               -0.1251728       -16.83687         -53.6668        41.86246             -200               0             -200               0
1.42244               -0.1283054       -16.98729        -53.40317        38.42842             -200               0             -200               0
1.42904               -0.1315357       -17.13985        -53.14656        34.99373             -200               0             -200               0
1.43564               -0.1348752        -17.2946        -52.89656        31.56217             -200               0             -200               0
1.44224               -0.1383404       -17.45155        -52.65272        28.13712             -200               0             -200               0
1.44884               -0.1419437       -17.61073        -52.41455        24.72156             -200               0             -200               0
1.45545               -0.1456988       -17.77215        -52.18155        21.31808             -200               0             -200               0
1.46205               -0.1496176       -17.93579         -51.9532        17.92888             -200               0             -200               0
1.46865               -0.1537139       -18.10165        -51.72898        14.55577             -200               0             -200               0
1.47525               -0.1579989       -18.26971        -51.50836        11.20015             -200               0             -200               0
1.48185                 -0.16248       -18.43996        -51.29078        7.863051             -200               0             -200               0
1.48845               -0.1671651       -18.61235        -51.07572        4.545128             -200               0             -200               0
1.49505               -0.1720624       -18.78687        -50.86264        1.246638             -200               0             -200               0
1.50165               -0.1771755       -18.96349        -50.65104       -2.032519             -200               0             -200               0
1.50825               -0.1825081       -19.14218         -50.4404       -5.292806             -200               0             -200               0
1.51485               -0.1880617       -19.32292        -50.23026       -8.535027             -200               0             -200               0
1.52145               -0.1938361        -19.5057        -50.02017        -11.7603             -200               0             -200               0
1.52805               -0.1998315       -19.69052        -49.80971       -14.97006             -200               0             -200               0
1.53465               -0.2060461       -19.87736        -49.59852       -18.16596             -200               0             -200               0
1.54125               -0.2124766       -20.06625        -49.38627       -21.34993             -200               0             -200               0
1.54785                -0.219119       -20.25722        -49.17266       -24.52406             -200               0             -200               0
1.55446               -0.2259711        -20.4503        -48.95747        -27.6906             -200               0             -200               0
1.56106               -0.2330281       -20.64555         -48.7405        -30.8519             -200               0             -200               0
1.56766               -0.2402873       -20.84304        -48.52164       -34.01036             -200               0             -200               0
1.57426               -0.2477479       -21.04285        -48.30079       -37.16838             -200               0             -200               0
1.58086               -0.2554083       -21.24507        -48.07792       -40.32836             -200               0             -200               0
1.58746               -0.2632676       -21.44981        -47.85304       -43.49259             -200               0             -200               0
1.59406               -0.2713302       -21.65719        -47.62622       -46.66326             -200               0             -200               0
1.60066               -0.2795993       -21.86735        -47.39755       -49.84239             -200               0             -200               0
1.60726               -0.2880813       -22.08041        -47.16717       -53.03183             -200               0             -200               0
1.61386                -0.296786       -22.29651        -46.93523       -56.23323             -200               0             -200               0
1.62046               -0.3057252       -22.51581        -46.70192       -59.44802             -200               0             -200               0
1.62706               -0.3149124       -22.73845        -46.46746       -62.67737             -200               0             -200               0
1.63366               -0.3243669       -22.96457        -46.23205       -65.92223             -200               0             -200               0
1.64026               -0.3341076       -23.19432        -45.99593        -69.1833             -200               0             -200               0
1.64686               -0.3441573       -23.42783        -45.75932       -72.46106             -200               0             -200               0
1.65347               -0.3545416       -23.66523        -45.52245       -75.75572             -200               0             -200               0
1.66007               -0.3652872       -23.90662        -45.28553       -79.06731             -200               0             -200               0
1.66667               -0.3764237       -24.15212        -45.04878       -82.39566             -200               0             -200               0
1.67327               -0.3879843        -24.4018        -44.81239       -85.74041             -200               0             -200               0
1.67987               -0.3999991       -24.65575        -44.57653       -89.10102             -200               0             -200               0
1.68647                -0.412504       -24.91402        -44.34135       -92.47684             -200               0             -200               0
1.69307               -0.4255316       -25.17664          -44.107        -95.8671             -200               0             -200               0
1.69967               -0.4391172       -25.44363        -43.87357       -99.27092             -200               0             -200               0
1.70627               -0.4532958         -25.715        -43.64115       -102.6874             -200               0             -200               0
1.71287               -0.4681002       -25.99075        -43.40981       -106.1155             -200               0             -200               0
1.71947               -0.4835636       -26.27082        -43.17957       -109.5542             -200               0             -200               0
1.72607               -0.4997189        -26.5552        -42.95045       -113.0025             -200               0             -200               0
1.73267               -0.5165944       -26.84383        -42.72243       -116.4594             -200               0             -200               0
1.73927               -0.5342201       -27.13664        -42.49547        -119.924             -200               0             -200               0
1.74587               -0.5526217       -27.43358        -42.26951       -123.3954             -200               0             -200               0
1.75248               -0.5718234       -27.73456        -42.04448       -126.8726             -200               0             -200               0
1.75908               -0.5918483       -28.03953        -41.82026       -130.3551             -200               0             -200               0
1.76568               -0.6127162       -28.34841        -41.59674       -133.8421             -200               0             -200               0
1.77228               -0.6344446       -28.66113        -41.37379       -137.3332             -200               0             -200               0
1.77888               -0.6570503       -28.97765        -41.15126       -140.8279             -200               0             -200               0
1.78548               -0.6805483       -29.29793          -40.929       -144.3261             -200               0             -200               0
1.79208               -0.7049527       -29.62193        -40.70684       -147.8275             -200               0             -200               0
1.79868               -0.7302752       -29.94964        -40.48461       -151.3324             -200               0             -200               0
1.80528               -0.7565289       -30.28107        -40.26216       -154.8408             -200               0             -200               0
1.81188               -0.7837249       -30.61624        -40.03929       -158.3533             -200               0             -200               0
1.81848               -0.8118775        -30.9552        -39.81587       -161.8702             -200               0             -200               0
1.82508                   -0.841       -31.29802        -39.59172       -165.3922             -200               0             -200               0
1.83168               -0.8711085       -31.64479         -39.3667       -168.9203             -200               0             -200               0
1.83828                -0.902221       -31.99563        -39.14068       -172.4553             -200               0             -200               0
1.84488               -0.9343598       -32.35066        -38.91354       -175.9983             -200               0             -200               0
1.85149               -0.9675491       -32.71004        -38.68518       -179.5505             -200               0             -200               0
