! TOUCHSTONE file generated by CST MICROWAVE STUDIO
! Date and time: Sat Mar  8 13:54:33 2025
! Project name: non_fractured.cst
! Parameters = {B=2.5; D=160; F=5; Feed=2.85625; L=100; M=10; R=0.384908; S=1.5; Theta=0; length=57.125; wave=114.25}
! Header version: 2024
! Port assignment regex: !\s*Touchstone port\s*([0-9]+)\s*=\s*(CST MWS port|CST DES external port|CST DES block port)\s*(.+)\s* \(\"(.*)\"\)(\s*mode\s*([0-9]+))?.*
! Touchstone port assignment:
! Touchstone port 1 = CST MWS port 1 ("")
! Touchstone port 2 = CST MWS port 2 ("")
# GHz S DB R 50
1                    -0.01880783       -9.738436         -67.8877       -107.4623             -200               0             -200               0
1.0066               -0.01929966       -9.826642        -67.30116       -113.4618             -200               0             -200               0
1.0132               -0.01983372        -9.91555        -66.77353       -119.4188             -200               0             -200               0
1.0198               -0.02041441       -10.00514        -66.29949       -125.3341             -200               0             -200               0
1.0264               -0.02104413       -10.09537        -65.87479        -131.208             -200               0             -200               0
1.033                -0.02172427       -10.18624        -65.49607         -137.04             -200               0             -200               0
1.0396               -0.02245579       -10.27769        -65.16061       -142.8291             -200               0             -200               0
1.0462               -0.02323595       -10.36972        -64.86628       -148.5737             -200               0             -200               0
1.05281              -0.02406515       -10.46228        -64.61139       -154.2719             -200               0             -200               0
1.05941              -0.02494004       -10.55537        -64.39469        -159.921             -200               0             -200               0
1.06601              -0.02585828       -10.64894        -64.21524       -165.5176             -200               0             -200               0
1.07261              -0.02681354       -10.74301        -64.07246        -171.058             -200               0             -200               0
1.07921              -0.02780274       -10.83754        -63.96603       -176.5373             -200               0             -200               0
1.08581               -0.0288198       -10.93254        -63.89592        178.0502             -200               0             -200               0
1.09241              -0.02985852       -11.02802        -63.86239        172.7114             -200               0             -200               0
1.09901              -0.03091341       -11.12398        -63.86594        167.4546             -200               0             -200               0
1.10561              -0.03197876       -11.22045        -63.90735        162.2898             -200               0             -200               0
1.11221              -0.03304814       -11.31745        -63.98769        157.2292             -200               0             -200               0
1.11881              -0.03411729       -11.41503        -64.10832        152.2877             -200               0             -200               0
1.12541              -0.03517988       -11.51321        -64.27089        147.4836             -200               0             -200               0
1.13201              -0.03623376       -11.61206        -64.47735        142.8398             -200               0             -200               0
1.13861              -0.03727463       -11.71163        -64.72998         138.385             -200               0             -200               0
1.14521              -0.03830062       -11.81197        -65.03128        134.1551             -200               0             -200               0
1.15182              -0.03931217       -11.91315        -65.38396        130.1966             -200               0             -200               0
1.15842              -0.04030821       -12.01524        -65.79068         126.569             -200               0             -200               0
1.16502              -0.04129267        -12.1183        -66.25369        123.3496             -200               0             -200               0
1.17162              -0.04226638        -12.2224        -66.77408        120.6392             -200               0             -200               0
1.17822              -0.04323591        -12.3276        -67.35045        118.5688             -200               0             -200               0
1.18482              -0.04420589       -12.43396        -67.97636        117.3065             -200               0             -200               0
1.19142              -0.04518407       -12.54155        -68.63627        117.0595             -200               0             -200               0
1.19802              -0.04617739        -12.6504          -69.299        118.0611             -200               0             -200               0
1.20462               -0.0471967       -12.76056        -69.90979        120.5218             -200               0             -200               0
1.21122              -0.04825085       -12.87207        -70.38556        124.5176             -200               0             -200               0
1.21782              -0.04934867       -12.98495        -70.62527        129.8231             -200               0             -200               0
1.22442              -0.05050335       -13.09922        -70.54585        135.8064             -200               0             -200               0
1.23102              -0.05172248        -13.2149        -70.12825        141.5719             -200               0             -200               0
1.23762              -0.05301851       -13.33196        -69.42979        146.3265             -200               0             -200               0
1.24422              -0.05440034       -13.45042        -68.54872         149.655             -200               0             -200               0
1.25083              -0.05587769       -13.57024        -67.57913        151.5127             -200               0             -200               0
1.25743              -0.05745866        -13.6914        -66.58887        152.0657             -200               0             -200               0
1.26403              -0.05915092       -13.81387          -65.619        151.5465             -200               0             -200               0
1.27063              -0.06096031       -13.93761        -64.69123        150.1789             -200               0             -200               0
1.27723              -0.06289192       -14.06257        -63.81533        148.1507             -200               0             -200               0
1.28383              -0.06494814       -14.18872        -62.99439        145.6109             -200               0             -200               0
1.29043              -0.06713164         -14.316        -62.22792        142.6753             -200               0             -200               0
1.29703              -0.06944275       -14.44438        -61.51373        139.4329             -200               0             -200               0
1.30363              -0.07187926        -14.5738        -60.84887         135.953             -200               0             -200               0
1.31023              -0.07443976       -14.70424        -60.23019        132.2896             -200               0             -200               0
1.31683              -0.07711958       -14.83566        -59.65458        128.4857             -200               0             -200               0
1.32343              -0.07991266       -14.96804         -59.1191        124.5757             -200               0             -200               0
1.33003              -0.08281452       -15.10136        -58.62104        120.5876             -200               0             -200               0
1.33663              -0.08581738       -15.23561        -58.15793         116.545             -200               0             -200               0
1.34323               -0.0889138       -15.37081         -57.7275        112.4675             -200               0             -200               0
1.34984              -0.09209651       -15.50697        -57.32769        108.3722             -200               0             -200               0
1.35644              -0.09535768       -15.64412        -56.95659        104.2741             -200               0             -200               0
1.36304              -0.09869048       -15.78229        -56.61244        100.1864             -200               0             -200               0
1.36964               -0.1020876       -15.92155         -56.2936        96.12144             -200               0             -200               0
1.37624               -0.1055433       -16.06195        -55.99849        92.09034             -200               0             -200               0
1.38284                -0.109054       -16.20357         -55.7256        88.10367             -200               0             -200               0
1.38944               -0.1126157       -16.34648        -55.47344         84.1714             -200               0             -200               0
1.39604               -0.1162266       -16.49077         -55.2405         80.3031             -200               0             -200               0
1.40264               -0.1198879       -16.63654        -55.02526        76.50794             -200               0             -200               0
1.40924               -0.1236004       -16.78388        -54.82615        72.79475             -200               0             -200               0
1.41584               -0.1273688       -16.93289         -54.6415        69.17199             -200               0             -200               0
1.42244               -0.1311994       -17.08366        -54.46954        65.64762             -200               0             -200               0
1.42904                -0.135099       -17.23629        -54.30836        62.22904             -200               0             -200               0
1.43564               -0.1390782       -17.39086        -54.15591        58.92288             -200               0             -200               0
1.44224               -0.1431476       -17.54747        -54.00999        55.73477             -200               0             -200               0
1.44884               -0.1473201       -17.70618        -53.86821        52.66902             -200               0             -200               0
1.45545                 -0.15161       -17.86706        -53.72802        49.72837             -200               0             -200               0
1.46205               -0.1560328       -18.03015        -53.58675        46.91353             -200               0             -200               0
1.46865               -0.1606027        -18.1955        -53.44161        44.22291             -200               0             -200               0
1.47525               -0.1653384       -18.36315        -53.28975        41.65219             -200               0             -200               0
1.48185               -0.1702535        -18.5331        -53.12837        39.19414             -200               0             -200               0
1.48845               -0.1753651       -18.70536        -52.95479        36.83839             -200               0             -200               0
1.49505               -0.1806888       -18.87991        -52.76653         34.5715             -200               0             -200               0
1.50165               -0.1862371       -19.05674        -52.56147        32.37715             -200               0             -200               0
1.50825                -0.192024       -19.23582        -52.33792        30.23656             -200               0             -200               0
1.51485               -0.1980612       -19.41711        -52.09473        28.12918             -200               0             -200               0
1.52145               -0.2043564       -19.60056        -51.83133        26.03346             -200               0             -200               0
1.52805               -0.2109199       -19.78613        -51.54775        23.92771             -200               0             -200               0
1.53465               -0.2177556       -19.97377        -51.24462         21.7911             -200               0             -200               0
1.54125                -0.224866       -20.16342         -50.9231        19.60442             -200               0             -200               0
1.54785               -0.2322537       -20.35504        -50.58481        17.35076             -200               0             -200               0
1.55446               -0.2399178       -20.54859        -50.23171        15.01601             -200               0             -200               0
1.56106               -0.2478552       -20.74405        -49.86599        12.58907             -200               0             -200               0
1.56766                -0.256062       -20.94139        -49.48997         10.0619             -200               0             -200               0
1.57426               -0.2645319        -21.1406        -49.10599        7.429405             -200               0             -200               0
1.58086               -0.2732576       -21.34171        -48.71632         4.68917             -200               0             -200               0
1.58746               -0.2822323       -21.54472        -48.32314        1.841101             -200               0             -200               0
1.59406               -0.2914471        -21.7497        -47.92843       -1.112944             -200               0             -200               0
1.60066               -0.3008947        -21.9567        -47.53399       -4.169537             -200               0             -200               0
1.60726               -0.3105663       -22.16581        -47.14142       -7.324034             -200               0             -200               0
1.61386               -0.3204579       -22.37713         -46.7521       -10.57091             -200               0             -200               0
1.62046               -0.3305633       -22.59078        -46.36721       -13.90402             -200               0             -200               0
1.62706               -0.3408802        -22.8069        -45.98775       -17.31684             -200               0             -200               0
1.63366               -0.3514077       -23.02565        -45.61453       -20.80264             -200               0             -200               0
1.64026               -0.3621491        -23.2472        -45.24821       -24.35465             -200               0             -200               0
1.64686               -0.3731106       -23.47172        -44.88929       -27.96615             -200               0             -200               0
1.65347               -0.3842994       -23.69941        -44.53816       -31.63054             -200               0             -200               0
1.66007               -0.3957311       -23.93044        -44.19509       -35.34143             -200               0             -200               0
1.66667               -0.4074197       -24.16503        -43.86024       -39.09269             -200               0             -200               0
1.67327               -0.4193881       -24.40336        -43.53369       -42.87838             -200               0             -200               0
1.67987               -0.4316597       -24.64561        -43.21544        -46.6929             -200               0             -200               0
1.68647                -0.444261       -24.89196        -42.90542       -50.53091             -200               0             -200               0
1.69307               -0.4572254       -25.14258        -42.60351       -54.38736             -200               0             -200               0
1.69967               -0.4705867       -25.39761        -42.30951       -58.25747             -200               0             -200               0
1.70627               -0.4843824       -25.65718        -42.02318       -62.13678             -200               0             -200               0
1.71287               -0.4986512       -25.92139        -41.74425       -66.02109             -200               0             -200               0
1.71947               -0.5134356       -26.19034        -41.47239       -69.90649             -200               0             -200               0
1.72607               -0.5287771       -26.46409        -41.20725       -73.78939             -200               0             -200               0
1.73267               -0.5447199       -26.74266        -40.94841       -77.66645             -200               0             -200               0
1.73927               -0.5613052       -27.02607        -40.69545       -81.53465             -200               0             -200               0
1.74587               -0.5785789        -27.3143        -40.44791       -85.39127             -200               0             -200               0
1.75248                 -0.59658       -27.60732        -40.20529       -89.23391             -200               0             -200               0
1.75908               -0.6153488       -27.90507         -39.9671        -93.0605             -200               0             -200               0
1.76568               -0.6349237       -28.20747        -39.73278       -96.86929             -200               0             -200               0
1.77228               -0.6553381       -28.51443        -39.50179       -100.6589             -200               0             -200               0
1.77888               -0.6766253       -28.82585        -39.27355       -104.4283             -200               0             -200               0
1.78548               -0.6988119        -29.1416        -39.04748       -108.1769             -200               0             -200               0
1.79208               -0.7219226       -29.46159        -38.82301       -111.9045             -200               0             -200               0
1.79868               -0.7459804       -29.78569        -38.59953       -115.6111             -200               0             -200               0
1.80528               -0.7710014        -30.1138        -38.37648       -119.2974             -200               0             -200               0
1.81188               -0.7969993       -30.44583        -38.15329       -122.9644             -200               0             -200               0
1.81848               -0.8239849       -30.78169         -37.9294       -126.6134             -200               0             -200               0
1.82508                -0.851966       -31.12134        -37.70431       -130.2463             -200               0             -200               0
1.83168               -0.8809483       -31.46474        -37.47752       -133.8652             -200               0             -200               0
1.83828               -0.9109358       -31.81191        -37.24859       -137.4726             -200               0             -200               0
1.84488               -0.9419303       -32.16286        -37.01713       -141.0715             -200               0             -200               0
1.85149               -0.9739353       -32.51769        -36.78279        -144.665             -200               0             -200               0
