! TOUCHSTONE file generated by CST MICROWAVE STUDIO
! Date and time: Sat Mar  8 13:55:13 2025
! Project name: non_fractured.cst
! Parameters = {B=2.5; D=160; F=5; Feed=2.85625; L=100; M=20; R=0.384908; S=2.5; Theta=90; length=57.125; wave=114.25}
! Header version: 2024
! Port assignment regex: !\s*Touchstone port\s*([0-9]+)\s*=\s*(CST MWS port|CST DES external port|CST DES block port)\s*(.+)\s* \(\"(.*)\"\)(\s*mode\s*([0-9]+))?.*
! Touchstone port assignment:
! Touchstone port 1 = CST MWS port 1 ("")
! Touchstone port 2 = CST MWS port 2 ("")
# GHz S DB R 50
1                    -0.01774722       -9.754139        -69.74979       -116.2091             -200               0             -200               0
1.0066               -0.01855347       -9.843834        -69.15052       -121.1297             -200               0             -200               0
1.0132               -0.01943903       -9.933885        -68.60581       -126.0713             -200               0             -200               0
1.0198               -0.02039575       -10.02424        -68.11067       -131.0182             -200               0             -200               0
1.0264               -0.02141858       -10.11484        -67.66098       -135.9575             -200               0             -200               0
1.033                -0.02249744       -10.20565        -67.25331       -140.8782             -200               0             -200               0
1.0396                 -0.023623       -10.29665        -66.88482       -145.7701             -200               0             -200               0
1.0462               -0.02478465       -10.38781        -66.55309       -150.6239             -200               0             -200               0
1.05281              -0.02596969       -10.47913        -66.25604       -155.4309             -200               0             -200               0
1.05941              -0.02716736       -10.57062        -65.99192       -160.1822             -200               0             -200               0
1.06601              -0.02836677        -10.6623        -65.75915       -164.8689             -200               0             -200               0
1.07261               -0.0295562       -10.75422        -65.55637       -169.4819             -200               0             -200               0
1.07921              -0.03072562        -10.8464        -65.38229       -174.0116             -200               0             -200               0
1.08581              -0.03186466       -10.93893        -65.23575       -178.4478             -200               0             -200               0
1.09241              -0.03296654       -11.03187         -65.1156        177.2204             -200               0             -200               0
1.09901              -0.03402441       -11.12529        -65.02066        173.0049             -200               0             -200               0
1.10561              -0.03503414       -11.21929         -64.9497        168.9185             -200               0             -200               0
1.11221              -0.03599306       -11.31396        -64.90137        164.9748             -200               0             -200               0
1.11881               -0.0368997        -11.4094         -64.8741        161.1889             -200               0             -200               0
1.12541              -0.03775849        -11.5057        -64.86605        157.5766             -200               0             -200               0
1.13201              -0.03857057       -11.60295        -64.87503        154.1546             -200               0             -200               0
1.13861              -0.03934346       -11.70125        -64.89838        150.9402             -200               0             -200               0
1.14521               -0.0400837       -11.80068        -64.93284        147.9507             -200               0             -200               0
1.15182              -0.04080132       -11.90132        -64.97451        145.2026             -200               0             -200               0
1.15842              -0.04150692       -12.00323        -65.01868        142.7103             -200               0             -200               0
1.16502              -0.04221257       -12.10648        -65.05984        140.4847             -200               0             -200               0
1.17162              -0.04293295       -12.21109        -65.09165        138.5314             -200               0             -200               0
1.17822              -0.04368023       -12.31711         -65.1071        136.8482             -200               0             -200               0
1.18482              -0.04446931       -12.42455        -65.09871         135.423             -200               0             -200               0
1.19142              -0.04531346       -12.53341        -65.05897        134.2319             -200               0             -200               0
1.19802              -0.04622582       -12.64367        -64.98094        133.2385             -200               0             -200               0
1.20462              -0.04722003       -12.75533        -64.85883        132.3941             -200               0             -200               0
1.21122              -0.04830903       -12.86833        -64.68868        131.6404             -200               0             -200               0
1.21782              -0.04949944       -12.98263        -64.46879        130.9135             -200               0             -200               0
1.22442               -0.0508023       -13.09818        -64.19997        130.1488             -200               0             -200               0
1.23102              -0.05222331       -13.21491        -63.88534        129.2863             -200               0             -200               0
1.23762              -0.05376769       -13.33276        -63.52997        128.2753             -200               0             -200               0
1.24422              -0.05543723       -13.45166        -63.14026        127.0768             -200               0             -200               0
1.25083               -0.0572332       -13.57155        -62.72325        125.6644             -200               0             -200               0
1.25743              -0.05915315       -13.69235        -62.28606         124.024             -200               0             -200               0
1.26403              -0.06119245         -13.814        -61.83542        122.1517             -200               0             -200               0
1.27063              -0.06334762       -13.93646        -61.37739        120.0522             -200               0             -200               0
1.27723              -0.06560922       -14.05967        -60.91722        117.7359             -200               0             -200               0
1.28383               -0.0679694       -14.18362        -60.45928        115.2172             -200               0             -200               0
1.29043              -0.07041786       -14.30826        -60.00714        112.5131             -200               0             -200               0
1.29703              -0.07294467       -14.43361         -59.5636        109.6412             -200               0             -200               0
1.30363              -0.07553715       -14.55967        -59.13083        106.6199             -200               0             -200               0
1.31023              -0.07818421       -14.68645        -58.71048        103.4668             -200               0             -200               0
1.31683              -0.08087562       -14.81402        -58.30371        100.1988             -200               0             -200               0
1.32343              -0.08359931       -14.94241        -57.91135         96.8319             -200               0             -200               0
1.33003              -0.08634715        -15.0717        -57.53392        93.38112             -200               0             -200               0
1.33663              -0.08911214       -15.20197        -57.17171        89.86033             -200               0             -200               0
1.34323              -0.09188614       -15.33331        -56.82481         86.2824             -200               0             -200               0
1.34984               -0.0946641       -15.46583        -56.49318        82.65926             -200               0             -200               0
1.35644              -0.09744609       -15.59963        -56.17664        79.00198             -200               0             -200               0
1.36304                -0.100233       -15.73484         -55.8749        75.32083             -200               0             -200               0
1.36964               -0.1030235       -15.87156        -55.58761        71.62537             -200               0             -200               0
1.37624               -0.1058266       -16.00992        -55.31434        67.92454             -200               0             -200               0
1.38284               -0.1086493       -16.15004        -55.05456        64.22669             -200               0             -200               0
1.38944               -0.1115001       -16.29201        -54.80774        60.53967             -200               0             -200               0
1.39604               -0.1143909       -16.43594        -54.57322        56.87087             -200               0             -200               0
1.40264               -0.1173378       -16.58192        -54.35035         53.2272             -200               0             -200               0
1.40924               -0.1203558       -16.73003        -54.13836        49.61518             -200               0             -200               0
1.41584                -0.123461       -16.88034        -53.93646        46.04089             -200               0             -200               0
1.42244               -0.1266713       -17.03289        -53.74378        42.50997             -200               0             -200               0
1.42904               -0.1300056       -17.18772        -53.55939        39.02761             -200               0             -200               0
1.43564               -0.1334837       -17.34484        -53.38228        35.59847             -200               0             -200               0
1.44224               -0.1371224       -17.50426        -53.21139         32.2267             -200               0             -200               0
1.44884               -0.1409395       -17.66597        -53.04558        28.91578             -200               0             -200               0
1.45545               -0.1449536       -17.82993        -52.88366         25.6685             -200               0             -200               0
1.46205               -0.1491771        -17.9961        -52.72436        22.48689             -200               0             -200               0
1.46865               -0.1536235       -18.16444        -52.56639        19.37207             -200               0             -200               0
1.47525               -0.1583051       -18.33488         -52.4084        16.32419             -200               0             -200               0
1.48185               -0.1632307       -18.50736        -52.24905        13.34236             -200               0             -200               0
1.48845               -0.1684043       -18.68181        -52.08697        10.42457             -200               0             -200               0
1.49505               -0.1738336       -18.85814        -51.92087         7.56764             -200               0             -200               0
1.50165               -0.1795164       -19.03631        -51.74945        4.767215             -200               0             -200               0
1.50825               -0.1854533       -19.21624        -51.57157        2.017793             -200               0             -200               0
1.51485               -0.1916397       -19.39788        -51.38615      -0.6872077             -200               0             -200               0
1.52145               -0.1980697       -19.58118        -51.19229        -3.35533             -200               0             -200               0
1.52805               -0.2047349       -19.76613        -50.98926       -5.994915             -200               0             -200               0
1.53465               -0.2116287        -19.9527        -50.77653       -8.614896             -200               0             -200               0
1.54125               -0.2187379       -20.14091        -50.55377       -11.22456             -200               0             -200               0
1.54785               -0.2260514       -20.33078        -50.32088       -13.83331             -200               0             -200               0
1.55446               -0.2335603       -20.52235        -50.07796       -16.45037             -200               0             -200               0
1.56106               -0.2412503        -20.7157        -49.82534       -19.08457             -200               0             -200               0
1.56766               -0.2491134       -20.91091        -49.56352       -21.74411             -200               0             -200               0
1.57426               -0.2571406        -21.1081        -49.29315       -24.43639             -200               0             -200               0
1.58086               -0.2653248       -21.30738        -49.01504       -27.16782             -200               0             -200               0
1.58746               -0.2736602       -21.50892        -48.73007       -29.94379             -200               0             -200               0
1.59406                -0.282146       -21.71287        -48.43921       -32.76857             -200               0             -200               0
1.60066               -0.2907833        -21.9194        -48.14348       -35.64535             -200               0             -200               0
1.60726               -0.2995763       -22.12871        -47.84386       -38.57625             -200               0             -200               0
1.61386               -0.3085334       -22.34099        -47.54138       -41.56239             -200               0             -200               0
1.62046               -0.3176671       -22.55642        -47.23697       -44.60397             -200               0             -200               0
1.62706               -0.3269923       -22.77521        -46.93156       -47.70039             -200               0             -200               0
1.63366               -0.3365303       -22.99755        -46.62599       -50.85035             -200               0             -200               0
1.64026               -0.3463042       -23.22361        -46.32101       -54.05195             -200               0             -200               0
1.64686               -0.3563406       -23.45357        -46.01733        -57.3028             -200               0             -200               0
1.65347               -0.3666702       -23.68759        -45.71554       -60.60014             -200               0             -200               0
1.66007               -0.3773258        -23.9258        -45.41616       -63.94091             -200               0             -200               0
1.66667               -0.3883435       -24.16832        -45.11964       -67.32182             -200               0             -200               0
1.67327               -0.3997609       -24.41525        -44.82633       -70.73947             -200               0             -200               0
1.67987               -0.4116172       -24.66666        -44.53651       -74.19039             -200               0             -200               0
1.68647               -0.4239514        -24.9226        -44.25039       -77.67106             -200               0             -200               0
1.69307                -0.436805       -25.18309        -43.96812       -81.17802             -200               0             -200               0
1.69967               -0.4502158       -25.44814        -43.68976       -84.70788             -200               0             -200               0
1.70627               -0.4642241       -25.71772        -43.41533       -88.25735             -200               0             -200               0
1.71287               -0.4788664       -25.99179        -43.14479       -91.82328             -200               0             -200               0
1.71947               -0.4941774       -26.27028        -42.87805        -95.4027             -200               0             -200               0
1.72607               -0.5101914       -26.55312        -42.61498       -98.99281             -200               0             -200               0
1.73267               -0.5269388       -26.84021        -42.35539        -102.591             -200               0             -200               0
1.73927               -0.5444459       -27.13145        -42.09906        -106.195             -200               0             -200               0
1.74587               -0.5627367       -27.42674        -41.84574       -109.8026             -200               0             -200               0
1.75248               -0.5818304       -27.72597        -41.59516        -113.412             -200               0             -200               0
1.75908               -0.6017467       -28.02903          -41.347       -117.0217             -200               0             -200               0
1.76568               -0.6224975       -28.33584        -41.10093       -120.6302             -200               0             -200               0
1.77228               -0.6440933        -28.6463        -40.85662       -124.2367             -200               0             -200               0
1.77888               -0.6665447       -28.96036        -40.61371       -127.8404             -200               0             -200               0
1.78548               -0.6898554       -29.27797        -40.37183        -131.441             -200               0             -200               0
1.79208                -0.714031        -29.5991        -40.13063       -135.0383             -200               0             -200               0
1.79868               -0.7390733       -29.92377        -39.88974       -138.6326             -200               0             -200               0
1.80528               -0.7649867       -30.25201        -39.64881       -142.2243             -200               0             -200               0
1.81188               -0.7917736       -30.58388         -39.4075       -145.8144             -200               0             -200               0
1.81848               -0.8194376       -30.91949        -39.16551       -149.4038             -200               0             -200               0
1.82508               -0.8479861       -31.25896        -38.92252       -152.9939             -200               0             -200               0
1.83168               -0.8774285       -31.60247        -38.67828       -156.5864             -200               0             -200               0
1.83828               -0.9077772       -31.95019        -38.43256        -160.183             -200               0             -200               0
1.84488               -0.9390506       -32.30237        -38.18514       -163.7856             -200               0             -200               0
1.85149               -0.9712718       -32.65924        -37.93589       -167.3965             -200               0             -200               0
