! TOUCHSTONE file generated by CST MICROWAVE STUDIO
! Date and time: Sat Mar  8 13:55:05 2025
! Project name: non_fractured.cst
! Parameters = {B=2.5; D=160; F=25; Feed=2.85625; L=100; M=10; R=0.384908; S=2; Theta=270; length=57.125; wave=114.25}
! Header version: 2024
! Port assignment regex: !\s*Touchstone port\s*([0-9]+)\s*=\s*(CST MWS port|CST DES external port|CST DES block port)\s*(.+)\s* \(\"(.*)\"\)(\s*mode\s*([0-9]+))?.*
! Touchstone port assignment:
! Touchstone port 1 = CST MWS port 1 ("")
! Touchstone port 2 = CST MWS port 2 ("")
# GHz S DB R 50
1                      -0.019771       -9.744271        -62.89828       -138.7375             -200               0             -200               0
1.00758              -0.02063988        -9.84442        -62.66866       -145.3773             -200               0             -200               0
1.01515              -0.02153024       -9.945224        -62.46259       -151.9153             -200               0             -200               0
1.02273              -0.02244003        -10.0467        -62.27998       -158.3553             -200               0             -200               0
1.0303               -0.02336871       -10.14887        -62.12083       -164.7001             -200               0             -200               0
1.03788              -0.02431506       -10.25177        -61.98519       -170.9511             -200               0             -200               0
1.04545              -0.02527792        -10.3554        -61.87319       -177.1089             -200               0             -200               0
1.05303              -0.02625646       -10.45981        -61.78505        176.8271             -200               0             -200               0
1.06061              -0.02725183       -10.56502        -61.72104        170.8587             -200               0             -200               0
1.06818              -0.02826369       -10.67106        -61.68154        164.9889             -200               0             -200               0
1.07576              -0.02929262       -10.77796        -61.66701        159.2219             -200               0             -200               0
1.08333              -0.03033971       -10.88575          -61.678        153.5636             -200               0             -200               0
1.09091              -0.03140702       -10.99447        -61.71514        148.0213             -200               0             -200               0
1.09848               -0.0324961       -11.10414        -61.77914        142.6044             -200               0             -200               0
1.10606              -0.03360861       -11.21479        -61.87079        137.3246             -200               0             -200               0
1.11364              -0.03474708       -11.32644        -61.99091        132.1964             -200               0             -200               0
1.12121              -0.03591623       -11.43913        -62.14037        127.2374             -200               0             -200               0
1.12879              -0.03711613       -11.55288        -62.31998        122.4692             -200               0             -200               0
1.13636              -0.03835258       -11.66771        -62.53046        117.9185             -200               0             -200               0
1.14394              -0.03962778       -11.78365        -62.77225        113.6176             -200               0             -200               0
1.15152              -0.04094504        -11.9007        -63.04536        109.6058             -200               0             -200               0
1.15909               -0.0423077       -12.01889        -63.34904         105.931             -200               0             -200               0
1.16667              -0.04371963       -12.13823        -63.68128        102.6503             -200               0             -200               0
1.17424              -0.04518421       -12.25874        -64.03816        99.83138             -200               0             -200               0
1.18182              -0.04670396       -12.38042        -64.41285        97.55145             -200               0             -200               0
1.18939              -0.04828178       -12.50329        -64.79431        95.89421             -200               0             -200               0
1.19697              -0.04992061       -12.62736        -65.16579        94.94149             -200               0             -200               0
1.20455              -0.05162246       -12.75262        -65.50345        94.75713             -200               0             -200               0
1.21212               -0.0533898        -12.8791        -65.77608        95.36118             -200               0             -200               0
1.2197               -0.05522342        -13.0068         -65.9472        96.69705             -200               0             -200               0
1.22727              -0.05712631       -13.13572        -65.98095        98.60421             -200               0             -200               0
1.23485               -0.0590977       -13.26588         -65.8511        100.8174             -200               0             -200               0
1.24242              -0.06113984       -13.39728        -65.54959         103.008             -200               0             -200               0
1.25                  -0.0632519       -13.52994        -65.08942        104.8573             -200               0             -200               0
1.25758              -0.06543496       -13.66388        -64.49997        106.1242             -200               0             -200               0
1.26515              -0.06768876        -13.7991        -63.81785        106.6759             -200               0             -200               0
1.27273              -0.07001377       -13.93564        -63.07843        106.4785             -200               0             -200               0
1.2803               -0.07240795        -14.0735        -62.31098        105.5664             -200               0             -200               0
1.28788              -0.07487352       -14.21273        -61.53729        104.0104             -200               0             -200               0
1.29545              -0.07740816       -14.35333        -60.77236        101.8947             -200               0             -200               0
1.30303              -0.08001211       -14.49535        -60.02584        99.30274             -200               0             -200               0
1.31061              -0.08268527       -14.63883        -59.30352         96.3103             -200               0             -200               0
1.31818               -0.0854277        -14.7838        -58.60857        92.98338             -200               0             -200               0
1.32576               -0.0882395       -14.93029         -57.9424        89.37792             -200               0             -200               0
1.33333              -0.09112059       -15.07837        -57.30532        85.54072             -200               0             -200               0
1.34091              -0.09407365       -15.22806        -56.69696        81.51075             -200               0             -200               0
1.34848               -0.0970988       -15.37943        -56.11653        77.32038             -200               0             -200               0
1.35606               -0.1001976       -15.53253        -55.56304        72.99661             -200               0             -200               0
1.36364                -0.103372       -15.68741        -55.03536        68.56199             -200               0             -200               0
1.37121               -0.1066263       -15.84413        -54.53237        64.03554             -200               0             -200               0
1.37879               -0.1099619       -16.00274        -54.05292        59.43333             -200               0             -200               0
1.38636               -0.1133834        -16.1633        -53.59593        54.76908             -200               0             -200               0
1.39394               -0.1168931       -16.32587        -53.16035        50.05462             -200               0             -200               0
1.40152               -0.1204985       -16.49051        -52.74521        45.30017             -200               0             -200               0
1.40909               -0.1242019       -16.65727        -52.34957        40.51473             -200               0             -200               0
1.41667               -0.1280087       -16.82624        -51.97258        35.70622             -200               0             -200               0
1.42424               -0.1319275       -16.99744        -51.61343        30.88172             -200               0             -200               0
1.43182               -0.1359633       -17.17095        -51.27136        26.04764             -200               0             -200               0
1.43939               -0.1401194       -17.34683        -50.94567        21.20979             -200               0             -200               0
1.44697               -0.1444067       -17.52513        -50.63568        16.37355             -200               0             -200               0
1.45455               -0.1488296       -17.70591        -50.34075        11.54393             -200               0             -200               0
1.46212               -0.1533952       -17.88923        -50.06029        6.725612             -200               0             -200               0
1.4697                -0.1581116       -18.07515        -49.79372        1.923077             -200               0             -200               0
1.47727               -0.1629844       -18.26372        -49.54045       -2.859397             -200               0             -200               0
1.48485               -0.1680247         -18.455        -49.29996       -7.617673             -200               0             -200               0
1.49242               -0.1732358       -18.64907        -49.07168       -12.34772             -200               0             -200               0
1.5                   -0.1786259       -18.84597        -48.85508        -17.0456             -200               0             -200               0
1.50758                -0.184206       -19.04577         -48.6496       -21.70742             -200               0             -200               0
1.51515                -0.189979       -19.24854        -48.45468       -26.32936             -200               0             -200               0
1.52273                -0.195957       -19.45434        -48.26974       -30.90763             -200               0             -200               0
1.5303                -0.2021446       -19.66325        -48.09416       -35.43847             -200               0             -200               0
1.53788                -0.208552       -19.87535        -47.92731       -39.91819             -200               0             -200               0
1.54545               -0.2151884       -20.09071        -47.76851       -44.34316             -200               0             -200               0
1.55303               -0.2220608       -20.30942        -47.61704       -48.70986             -200               0             -200               0
1.56061               -0.2291814       -20.53156        -47.47211       -53.01485             -200               0             -200               0
1.56818               -0.2365562       -20.75725         -47.3329       -57.25493             -200               0             -200               0
1.57576               -0.2441993       -20.98656         -47.1985       -61.42707             -200               0             -200               0
1.58333               -0.2521201       -21.21961        -47.06796       -65.52858             -200               0             -200               0
1.59091               -0.2603327        -21.4565        -46.94023       -69.55716             -200               0             -200               0
1.59848               -0.2688501       -21.69736         -46.8142       -73.51095             -200               0             -200               0
1.60606                -0.277686        -21.9423         -46.6887       -77.38872             -200               0             -200               0
1.61364               -0.2868573       -22.19143        -46.56249        -81.1899             -200               0             -200               0
1.62121               -0.2963802       -22.44491        -46.43428       -84.91476             -200               0             -200               0
1.62879               -0.3062734       -22.70284        -46.30271       -88.56448             -200               0             -200               0
1.63636               -0.3165585       -22.96537        -46.16644        -92.1413             -200               0             -200               0
1.64394                -0.327257       -23.23264        -46.02409       -95.64856             -200               0             -200               0
1.65152               -0.3383914       -23.50479        -45.87433        -99.0908             -200               0             -200               0
1.65909               -0.3499882       -23.78195        -45.71589       -102.4738             -200               0             -200               0
1.66667               -0.3620754       -24.06426        -45.54757       -105.8045             -200               0             -200               0
1.67424               -0.3746809       -24.35187        -45.36832        -109.091             -200               0             -200               0
1.68182               -0.3878368       -24.64491        -45.17723       -112.3425             -200               0             -200               0
1.68939               -0.4015766       -24.94352        -44.97358       -115.5689             -200               0             -200               0
1.69697               -0.4159368       -25.24784        -44.75688       -118.7809             -200               0             -200               0
1.70455               -0.4309532       -25.55799        -44.52686       -121.9893             -200               0             -200               0
1.71212               -0.4466638       -25.87411        -44.28349       -125.2053             -200               0             -200               0
1.7197                -0.4631128        -26.1963        -44.02697       -128.4396             -200               0             -200               0
1.72727               -0.4803418       -26.52469        -43.75774       -131.7028             -200               0             -200               0
1.73485               -0.4983972       -26.85939        -43.47641       -135.0045             -200               0             -200               0
1.74242               -0.5173257       -27.20049         -43.1838       -138.3536             -200               0             -200               0
1.75                  -0.5371756        -27.5481        -42.88086       -141.7576             -200               0             -200               0
1.75758               -0.5579971        -27.9023        -42.56864       -145.2232             -200               0             -200               0
1.76515               -0.5798433       -28.26318        -42.24828       -148.7559             -200               0             -200               0
1.77273               -0.6027692        -28.6308        -41.92096       -152.3597             -200               0             -200               0
1.7803                -0.6268309       -29.00523        -41.58785       -156.0377             -200               0             -200               0
1.78788               -0.6520851       -29.38653        -41.25013       -159.7919             -200               0             -200               0
1.79545               -0.6785912       -29.77475        -40.90892       -163.6234             -200               0             -200               0
1.80303               -0.7064116       -30.16993        -40.56531       -167.5322             -200               0             -200               0
1.81061                -0.735609       -30.57209         -40.2203       -171.5179             -200               0             -200               0
1.81818               -0.7662468       -30.98128        -39.87484       -175.5791             -200               0             -200               0
1.82576               -0.7983941        -31.3975        -39.52978       -179.7144             -200               0             -200               0
1.83333               -0.8321183       -31.82076        -39.18591        176.0786             -200               0             -200               0
1.84091               -0.8674903       -32.25107        -38.84392         171.802             -200               0             -200               0
1.84848                -0.904583       -32.68842        -38.50445        167.4586             -200               0             -200               0
1.85606                -0.943472       -33.13279        -38.16804         163.051             -200               0             -200               0
1.86364               -0.9842362       -33.58416        -37.83518        158.5821             -200               0             -200               0
1.87121                -1.026954       -34.04251        -37.50628        154.0548             -200               0             -200               0
1.87879                -1.071712       -34.50777        -37.18173        149.4719             -200               0             -200               0
1.88636                -1.118594       -34.97992        -36.86182        144.8364             -200               0             -200               0
1.89394                 -1.16769       -35.45887        -36.54682        140.1509             -200               0             -200               0
1.90152                -1.219094       -35.94456        -36.23696        135.4182             -200               0             -200               0
1.90909                -1.272903        -36.4369        -35.93242         130.641             -200               0             -200               0
1.91667                -1.329219       -36.93579        -35.63336        125.8217             -200               0             -200               0
1.92424                -1.388145       -37.44111         -35.3399        120.9627             -200               0             -200               0
1.93182                -1.449792       -37.95272        -35.05214        116.0664             -200               0             -200               0
1.93939                -1.514274       -38.47046        -34.77015         111.135             -200               0             -200               0
1.94697                -1.581709       -38.99417          -34.494        106.1706             -200               0             -200               0
1.95455                -1.652224       -39.52363        -34.22372        101.1751             -200               0             -200               0
1.96212                -1.725948       -40.05862        -33.95933        96.15053             -200               0             -200               0
1.9697                 -1.803017       -40.59888        -33.70087        91.09855             -200               0             -200               0
1.97727                -1.883571       -41.14411        -33.44831        86.02091             -200               0             -200               0
