! TOUCHSTONE file generated by CST MICROWAVE STUDIO
! Date and time: Sat Mar  8 13:54:49 2025
! Project name: non_fractured.cst
! Parameters = {B=2.5; D=160; F=15; Feed=2.85625; L=100; M=10; R=0.384908; S=2.5; Theta=0; length=57.125; wave=114.25}
! Header version: 2024
! Port assignment regex: !\s*Touchstone port\s*([0-9]+)\s*=\s*(CST MWS port|CST DES external port|CST DES block port)\s*(.+)\s* \(\"(.*)\"\)(\s*mode\s*([0-9]+))?.*
! Touchstone port assignment:
! Touchstone port 1 = CST MWS port 1 ("")
! Touchstone port 2 = CST MWS port 2 ("")
# GHz S DB R 50
1                    -0.01827102       -9.753553        -70.53608       -127.0357             -200               0             -200               0
1.0066               -0.01900274       -9.842409        -69.97506       -130.5931             -200               0             -200               0
1.0132               -0.01978837       -9.931719        -69.45455       -134.2924             -200               0             -200               0
1.0198               -0.02062522       -10.02146        -68.97243       -138.0991             -200               0             -200               0
1.0264               -0.02150792        -10.1116        -68.52666       -141.9848             -200               0             -200               0
1.033                -0.02243308       -10.20212         -68.1153       -145.9252             -200               0             -200               0
1.0396               -0.02339344       -10.29301        -67.73653       -149.8995             -200               0             -200               0
1.0462               -0.02438467       -10.38427        -67.38867       -153.8896             -200               0             -200               0
1.05281              -0.02539971        -10.4759        -67.07015        -157.879             -200               0             -200               0
1.05941              -0.02643265       -10.56791        -66.77949       -161.8531             -200               0             -200               0
1.06601              -0.02747651       -10.66031        -66.51528        -165.798             -200               0             -200               0
1.07261              -0.02852547       -10.75314        -66.27615       -169.7006             -200               0             -200               0
1.07921              -0.02957511       -10.84642        -66.06076       -173.5484             -200               0             -200               0
1.08581              -0.03061973        -10.9402        -65.86774       -177.3293             -200               0             -200               0
1.09241              -0.03165549       -11.03452        -65.69571        178.9689             -200               0             -200               0
1.09901              -0.03267997       -11.12943        -65.54318        175.3581             -200               0             -200               0
1.10561               -0.0336906       -11.22499        -65.40855        171.8502             -200               0             -200               0
1.11221              -0.03468672       -11.32125        -65.29007        168.4568             -200               0             -200               0
1.11881              -0.03566971       -11.41828        -65.18579        165.1895             -200               0             -200               0
1.12541               -0.0366399       -11.51612        -65.09351        162.0594             -200               0             -200               0
1.13201              -0.03760021       -11.61483        -65.01077        159.0769             -200               0             -200               0
1.13861              -0.03855567       -11.71448        -64.93477        156.2513             -200               0             -200               0
1.14521              -0.03951082       -11.81511        -64.86241        153.5902             -200               0             -200               0
1.15182              -0.04047152       -11.91676         -64.7902         151.099             -200               0             -200               0
1.15842               -0.0414442       -12.01947        -64.71439        148.7801             -200               0             -200               0
1.16502              -0.04243755       -12.12329        -64.63094         146.632             -200               0             -200               0
1.17162              -0.04345847       -12.22823        -64.53567        144.6489             -200               0             -200               0
1.17822              -0.04451512       -12.33431        -64.42438        142.8195             -200               0             -200               0
1.18482              -0.04561632       -12.44154        -64.29308        141.1272             -200               0             -200               0
1.19142              -0.04676871       -12.54992        -64.13818        139.5499             -200               0             -200               0
1.19802               -0.0479812       -12.65946        -63.95672        138.0603             -200               0             -200               0
1.20462              -0.04926074       -12.77012        -63.74663        136.6273             -200               0             -200               0
1.21122               -0.0506131       -12.88191         -63.5068        135.2175             -200               0             -200               0
1.21782              -0.05204513       -12.99479        -63.23724        133.7968             -200               0             -200               0
1.22442              -0.05355937       -13.10873        -62.93898        132.3322             -200               0             -200               0
1.23102              -0.05515981        -13.2237        -62.61406         130.794             -200               0             -200               0
1.23762              -0.05684907       -13.33968        -62.26523        129.1567             -200               0             -200               0
1.24422              -0.05862766       -13.45663        -61.89582           127.4             -200               0             -200               0
1.25083              -0.06049494       -13.57451        -61.50947        125.5092             -200               0             -200               0
1.25743              -0.06244929        -13.6933        -61.10991        123.4749             -200               0             -200               0
1.26403              -0.06448783       -13.81297        -60.70077        121.2927             -200               0             -200               0
1.27063              -0.06660736       -13.93351        -60.28548        118.9623             -200               0             -200               0
1.27723              -0.06880201        -14.0549        -59.86717        116.4868             -200               0             -200               0
1.28383              -0.07106704       -14.17713        -59.44858        113.8719             -200               0             -200               0
1.29043              -0.07339639       -14.30021         -59.0321        111.1253             -200               0             -200               0
1.29703              -0.07578356       -14.42415        -58.61975        108.2559             -200               0             -200               0
1.30363              -0.07822122       -14.54897         -58.2132        105.2733             -200               0             -200               0
1.31023              -0.08070411       -14.67471        -57.81381        102.1875             -200               0             -200               0
1.31683              -0.08322517        -14.8014        -57.42265        99.00869             -200               0             -200               0
1.32343              -0.08578032        -14.9291        -57.04055        95.74671             -200               0             -200               0
1.33003              -0.08836382       -15.05786        -56.66814         92.4112             -200               0             -200               0
1.33663              -0.09097148       -15.18775        -56.30584        89.01142             -200               0             -200               0
1.34323              -0.09360182       -15.31884        -55.95394        85.55616             -200               0             -200               0
1.34984               -0.0962528       -15.45121         -55.6126        82.05372             -200               0             -200               0
1.35644              -0.09892523       -15.58495        -55.28186        78.51195             -200               0             -200               0
1.36304               -0.1016206       -15.72013        -54.96166        74.93819             -200               0             -200               0
1.36964               -0.1043422       -15.85685        -54.65187        71.33933             -200               0             -200               0
1.37624               -0.1070951       -15.99518        -54.35228        67.72181             -200               0             -200               0
1.38284               -0.1098851       -16.13522        -54.06264        64.09164             -200               0             -200               0
1.38944               -0.1127213       -16.27704        -53.78262        60.45442             -200               0             -200               0
1.39604               -0.1156118       -16.42072        -53.51186        56.81536             -200               0             -200               0
1.40264               -0.1185669       -16.56632        -53.24997         53.1793             -200               0             -200               0
1.40924               -0.1215988        -16.7139        -52.99649        49.55069             -200               0             -200               0
1.41584               -0.1247195       -16.86352        -52.75094        45.93366             -200               0             -200               0
1.42244               -0.1279414       -17.01521        -52.51282        42.33197             -200               0             -200               0
1.42904               -0.1312776       -17.16902        -52.28157          38.749             -200               0             -200               0
1.43564               -0.1347413       -17.32496        -52.05663         35.1878             -200               0             -200               0
1.44224               -0.1383461       -17.48304        -51.83741        31.65106             -200               0             -200               0
1.44884               -0.1421033       -17.64328        -51.62328        28.14107             -200               0             -200               0
1.45545               -0.1460258       -17.80566         -51.4136        24.65973             -200               0             -200               0
1.46205                -0.150124       -17.97019        -51.20772        21.20857             -200               0             -200               0
1.46865                -0.154408       -18.13683        -51.00498        17.78866             -200               0             -200               0
1.47525               -0.1588867       -18.30557        -50.80469        14.40068             -200               0             -200               0
1.48185               -0.1635664       -18.47639        -50.60618        11.04483             -200               0             -200               0
1.48845               -0.1684552       -18.64925        -50.40878        7.720882             -200               0             -200               0
1.49505               -0.1735549       -18.82413        -50.21183        4.428153             -200               0             -200               0
1.50165               -0.1788703       -19.00101         -50.0147        1.165501             -200               0             -200               0
1.50825               -0.1844027       -19.17987        -49.81678       -2.068657             -200               0             -200               0
1.51485               -0.1901518       -19.36069        -49.61748       -5.276326             -200               0             -200               0
1.52145                -0.196116       -19.54347        -49.41628       -8.459914             -200               0             -200               0
1.52805               -0.2022957        -19.7282        -49.21269       -11.62219             -200               0             -200               0
1.53465               -0.2086863       -19.91491        -49.00631       -14.76624             -200               0             -200               0
1.54125               -0.2152854       -20.10361        -48.79677        -17.8954             -200               0             -200               0
1.54785                -0.222089       -20.29434        -48.58378       -21.01326             -200               0             -200               0
1.55446               -0.2290938       -20.48715        -48.36714       -24.12348             -200               0             -200               0
1.56106               -0.2362971        -20.6821        -48.14671       -27.22986             -200               0             -200               0
1.56766               -0.2436963       -20.87927        -47.92242       -30.33615             -200               0             -200               0
1.57426               -0.2512903       -21.07873        -47.69428       -33.44606             -200               0             -200               0
1.58086               -0.2590788        -21.2806        -47.46238       -36.56314             -200               0             -200               0
1.58746                -0.267062       -21.48497        -47.22684       -39.69078             -200               0             -200               0
1.59406               -0.2752442       -21.69197        -46.98789       -42.83211             -200               0             -200               0
1.60066               -0.2836292       -21.90171        -46.74576       -45.98997             -200               0             -200               0
1.60726                -0.292226       -22.11434        -46.50076       -49.16687             -200               0             -200               0
1.61386               -0.3010431       -22.32999        -46.25321       -52.36499             -200               0             -200               0
1.62046               -0.3100928       -22.54879        -46.00346       -55.58613             -200               0             -200               0
1.62706                -0.319389       -22.77088        -45.75189       -58.83173             -200               0             -200               0
1.63366                -0.328948        -22.9964        -45.49888       -62.10288             -200               0             -200               0
1.64026               -0.3387899       -23.22549         -45.2448       -65.40031             -200               0             -200               0
1.64686               -0.3489353       -23.45825        -44.99004       -68.72441             -200               0             -200               0
1.65347               -0.3594073       -23.69482        -44.73495       -72.07527             -200               0             -200               0
1.66007               -0.3702319        -23.9353        -44.47989       -75.45269             -200               0             -200               0
1.66667               -0.3814342       -24.17979        -44.22517       -78.85621             -200               0             -200               0
1.67327               -0.3930448       -24.42838        -43.97111       -82.28516             -200               0             -200               0
1.67987               -0.4050907       -24.68112        -43.71796       -85.73865             -200               0             -200               0
1.68647               -0.4176033        -24.9381        -43.46599       -89.21565             -200               0             -200               0
1.69307               -0.4306118       -25.19935        -43.21539       -92.71499             -200               0             -200               0
1.69967                -0.444147       -25.46491        -42.96636       -96.23539             -200               0             -200               0
1.70627               -0.4582402       -25.73479        -42.71904       -99.77552             -200               0             -200               0
1.71287               -0.4729212       -26.00903        -42.47356        -103.334             -200               0             -200               0
1.71947                -0.488218        -26.2876           -42.23       -106.9093             -200               0             -200               0
1.72607               -0.5041603       -26.57051        -41.98842       -110.5001             -200               0             -200               0
1.73267               -0.5207761       -26.85774        -41.74885       -114.1049             -200               0             -200               0
1.73927                -0.538091       -27.14928        -41.51131       -117.7225             -200               0             -200               0
1.74587               -0.5561298       -27.44512        -41.27575       -121.3515             -200               0             -200               0
1.75248               -0.5749178       -27.74522        -41.04215       -124.9906             -200               0             -200               0
1.75908               -0.5944771       -28.04957        -40.81043       -128.6386             -200               0             -200               0
1.76568               -0.6148299       -28.35816         -40.5805       -132.2947             -200               0             -200               0
1.77228                -0.635998       -28.67099        -40.35227       -135.9577             -200               0             -200               0
1.77888               -0.6579996       -28.98805        -40.12561       -139.6269             -200               0             -200               0
1.78548               -0.6808562       -29.30936        -39.90039       -143.3016             -200               0             -200               0
1.79208               -0.7045889       -29.63494        -39.67647       -146.9812             -200               0             -200               0
1.79868               -0.7292174       -29.96482        -39.45368       -150.6654             -200               0             -200               0
1.80528               -0.7547628       -30.29908        -39.23189       -154.3537             -200               0             -200               0
1.81188               -0.7812479       -30.63775        -39.01092       -158.0461             -200               0             -200               0
1.81848               -0.8086967       -30.98093        -38.79061       -161.7427             -200               0             -200               0
1.82508               -0.8371357        -31.3287        -38.57081       -165.4434             -200               0             -200               0
1.83168               -0.8665937       -31.68117        -38.35136       -169.1488             -200               0             -200               0
1.83828               -0.8971024       -32.03845         -38.1321       -172.8592             -200               0             -200               0
1.84488               -0.9286981       -32.40068        -37.91291       -176.5751             -200               0             -200               0
1.85149               -0.9614193       -32.76799        -37.69365        179.7028             -200               0             -200               0
