! TOUCHSTONE file generated by CST MICROWAVE STUDIO
! Date and time: Sat Mar  8 13:54:23 2025
! Project name: non_fractured.cst
! Parameters = {B=2.5; D=160; F=20; Feed=2.85625; L=100; M=5; R=0.384908; S=2; Theta=270; length=57.125; wave=114.25}
! Header version: 2024
! Port assignment regex: !\s*Touchstone port\s*([0-9]+)\s*=\s*(CST MWS port|CST DES external port|CST DES block port)\s*(.+)\s* \(\"(.*)\"\)(\s*mode\s*([0-9]+))?.*
! Touchstone port assignment:
! Touchstone port 1 = CST MWS port 1 ("")
! Touchstone port 2 = CST MWS port 2 ("")
# GHz S DB R 50
1                    -0.01832707       -9.747177        -68.00292       -139.7056             -200               0             -200               0
1.0066               -0.01905436       -9.835879        -67.65254       -143.2762             -200               0             -200               0
1.0132                -0.0198356       -9.925036        -67.32142       -146.9008             -200               0             -200               0
1.0198                -0.0206671       -10.01462        -67.00942       -150.5661             -200               0             -200               0
1.0264               -0.02154513        -10.1046        -66.71627       -154.2597             -200               0             -200               0
1.033                -0.02246421       -10.19496        -66.44167       -157.9701             -200               0             -200               0
1.0396               -0.02341919       -10.28569        -66.18522       -161.6863             -200               0             -200               0
1.0462               -0.02440422       -10.37678        -65.94646       -165.3981             -200               0             -200               0
1.05281              -0.02541266       -10.46824        -65.72488       -169.0959             -200               0             -200               0
1.05941              -0.02643778       -10.56007        -65.51991       -172.7701             -200               0             -200               0
1.06601               -0.0274724       -10.65229        -65.33094       -176.4117             -200               0             -200               0
1.07261              -0.02851137       -10.74492        -65.15726        179.9881             -200               0             -200               0
1.07921              -0.02954904       -10.83801        -64.99814        176.4378             -200               0             -200               0
1.08581               -0.0305798       -10.93159        -64.85272        172.9459             -200               0             -200               0
1.09241              -0.03159972       -11.02571        -64.72007        169.5205             -200               0             -200               0
1.09901              -0.03260526       -11.12043        -64.59915        166.1695             -200               0             -200               0
1.10561               -0.0335948       -11.21579        -64.48881        162.9007             -200               0             -200               0
1.11221              -0.03456711       -11.31186        -64.38774        159.7213             -200               0             -200               0
1.11881              -0.03552287       -11.40871        -64.29452        156.6381             -200               0             -200               0
1.12541              -0.03646339       -11.50638        -64.20756        153.6572             -200               0             -200               0
1.13201              -0.03739248       -11.60495        -64.12509        150.7839             -200               0             -200               0
1.13861              -0.03831238       -11.70447         -64.0452        148.0224             -200               0             -200               0
1.14521              -0.03923136         -11.805        -63.96583        145.3756             -200               0             -200               0
1.15182              -0.04015443       -11.90658        -63.88477        142.8445             -200               0             -200               0
1.15842              -0.04108898       -12.00925        -63.79972        140.4285             -200               0             -200               0
1.16502               -0.0420426       -12.11306         -63.7083        138.1246             -200               0             -200               0
1.17162               -0.0430247       -12.21803        -63.60816        135.9274             -200               0             -200               0
1.17822               -0.0440444       -12.32418        -63.49701        133.8289             -200               0             -200               0
1.18482              -0.04511006       -12.43151         -63.3727        131.8186             -200               0             -200               0
1.19142              -0.04623083       -12.54004        -63.23337        129.8834             -200               0             -200               0
1.19802               -0.0474166       -12.64976        -63.07744        128.0082             -200               0             -200               0
1.20462              -0.04867405       -12.76064        -62.90378         126.176             -200               0             -200               0
1.21122              -0.05001054       -12.87268         -62.7117        124.3691             -200               0             -200               0
1.21782              -0.05143477       -12.98583        -62.50101        122.5688             -200               0             -200               0
1.22442              -0.05294874       -13.10007        -62.27201        120.7572             -200               0             -200               0
1.23102              -0.05455933       -13.21536        -62.02548        118.9172             -200               0             -200               0
1.23762              -0.05626796       -13.33167         -61.7626        117.0333             -200               0             -200               0
1.24422              -0.05807595       -13.44893        -61.48488        115.0922             -200               0             -200               0
1.25083              -0.05998359       -13.56713        -61.19408        113.0829             -200               0             -200               0
1.25743              -0.06199057       -13.68622        -60.89214        110.9971             -200               0             -200               0
1.26403              -0.06409188       -13.80616        -60.58104        108.8289             -200               0             -200               0
1.27063              -0.06628583       -13.92692        -60.26278        106.5747             -200               0             -200               0
1.27723              -0.06856541       -14.04848        -59.93928        104.2332             -200               0             -200               0
1.28383              -0.07092577       -14.17083        -59.61235        101.8052             -200               0             -200               0
1.29043              -0.07335919       -14.29396        -59.28365        99.29268             -200               0             -200               0
1.29703              -0.07585861       -14.41787        -58.95467        96.69917             -200               0             -200               0
1.30363              -0.07841694       -14.54257        -58.62671        94.02913             -200               0             -200               0
1.31023              -0.08102483       -14.66809         -58.3009        91.28772             -200               0             -200               0
1.31683              -0.08367577       -14.79446        -57.97817        88.48062             -200               0             -200               0
1.32343              -0.08636252       -14.92172        -57.65931        85.61381             -200               0             -200               0
1.33003              -0.08907782       -15.04994        -57.34491        82.69342             -200               0             -200               0
1.33663              -0.09181602       -15.17917        -57.03544        79.72558             -200               0             -200               0
1.34323               -0.0945738       -15.30949        -56.73122        76.71633             -200               0             -200               0
1.34984              -0.09734596       -15.44097        -56.43246        73.67152             -200               0             -200               0
1.35644               -0.1001325       -15.57371        -56.13926        70.59678             -200               0             -200               0
1.36304               -0.1029318       -15.70778         -55.8516        67.49744             -200               0             -200               0
1.36964               -0.1057464       -15.84329         -55.5694         64.3785             -200               0             -200               0
1.37624               -0.1085784       -15.98033        -55.29248        61.24459             -200               0             -200               0
1.38284               -0.1114332       -16.11898        -55.02062        58.09998             -200               0             -200               0
1.38944               -0.1143178       -16.25934        -54.75352        54.94851             -200               0             -200               0
1.39604               -0.1172395        -16.4015        -54.49083        51.79361             -200               0             -200               0
1.40264               -0.1202071       -16.54552        -54.23218        48.63829             -200               0             -200               0
1.40924               -0.1232319       -16.69149        -53.97713        45.48511             -200               0             -200               0
1.41584               -0.1263261       -16.83948        -53.72524        42.33617             -200               0             -200               0
1.42244               -0.1295011       -16.98953        -53.47606        39.19315             -200               0             -200               0
1.42904               -0.1327704       -17.14169         -53.2291        36.05726             -200               0             -200               0
1.43564               -0.1361477       -17.29601        -52.98388        32.92926             -200               0             -200               0
1.44224               -0.1396465        -17.4525        -52.73992        29.80948             -200               0             -200               0
1.44884               -0.1432794       -17.61118        -52.49677        26.69782             -200               0             -200               0
1.45545               -0.1470589       -17.77207        -52.25397        23.59377             -200               0             -200               0
1.46205               -0.1509987       -17.93515        -52.01112        20.49643             -200               0             -200               0
1.46865               -0.1551082       -18.10043        -51.76782        17.40457             -200               0             -200               0
1.47525                -0.159398        -18.2679        -51.52372        14.31661             -200               0             -200               0
1.48185               -0.1638766       -18.43752        -51.27854        11.23073             -200               0             -200               0
1.48845               -0.1685513       -18.60928        -51.03202        8.144861             -200               0             -200               0
1.49505               -0.1734285       -18.78317        -50.78396        5.056753             -200               0             -200               0
1.50165               -0.1785125       -18.95916        -50.53423        1.964047             -200               0             -200               0
1.50825               -0.1838069       -19.13723        -50.28273       -1.135694             -200               0             -200               0
1.51485                -0.189312       -19.31737        -50.02944       -4.244915             -200               0             -200               0
1.52145               -0.1950291       -19.49958        -49.77438       -7.366025             -200               0             -200               0
1.52805               -0.2009584       -19.68386        -49.51765       -10.50134             -200               0             -200               0
1.53465               -0.2070972       -19.87021        -49.25936       -13.65304             -200               0             -200               0
1.54125               -0.2134433       -20.05867        -48.99968       -16.82314             -200               0             -200               0
1.54785               -0.2199966       -20.24927        -48.73884       -20.01341             -200               0             -200               0
1.55446               -0.2267531       -20.44205        -48.47706       -23.22543             -200               0             -200               0
1.56106               -0.2337121       -20.63708        -48.21463       -26.46049             -200               0             -200               0
1.56766               -0.2408701       -20.83442        -47.95184       -29.71959             -200               0             -200               0
1.57426               -0.2482284       -21.03416        -47.68899        -33.0035             -200               0             -200               0
1.58086               -0.2557866       -21.23641        -47.42639       -36.31265             -200               0             -200               0
1.58746               -0.2635475       -21.44126        -47.16436       -39.64726             -200               0             -200               0
1.59406               -0.2715162       -21.64883        -46.90321       -43.00721             -200               0             -200               0
1.60066               -0.2796988       -21.85926        -46.64325       -46.39217             -200               0             -200               0
1.60726               -0.2881032       -22.07266        -46.38477       -49.80155             -200               0             -200               0
1.61386               -0.2967403       -22.28917        -46.12804       -53.23457             -200               0             -200               0
1.62046               -0.3056238       -22.50894        -45.87332       -56.69021             -200               0             -200               0
1.62706               -0.3147703       -22.73208        -45.62085        -60.1673             -200               0             -200               0
1.63366               -0.3241974       -22.95875        -45.37083       -63.66449             -200               0             -200               0
1.64026               -0.3339277       -23.18905        -45.12346        -67.1803             -200               0             -200               0
1.64686               -0.3439825       -23.42311        -44.87887       -70.71316             -200               0             -200               0
1.65347               -0.3543889       -23.66105        -44.63721       -74.26137             -200               0             -200               0
1.66007               -0.3651734       -23.90294        -44.39856       -77.82319             -200               0             -200               0
1.66667               -0.3763665        -24.1489        -44.16301        -81.3968             -200               0             -200               0
1.67327               -0.3879969       -24.39897        -43.93058       -84.98037             -200               0             -200               0
1.67987                -0.400098       -24.65321        -43.70129       -88.57205             -200               0             -200               0
1.68647               -0.4126998       -24.91168        -43.47511       -92.16997             -200               0             -200               0
1.69307               -0.4258362       -25.17438          -43.252       -95.77234             -200               0             -200               0
1.69967               -0.4395394       -25.44132        -43.03187       -99.37735             -200               0             -200               0
1.70627               -0.4538396        -25.7125        -42.81462       -102.9833             -200               0             -200               0
1.71287               -0.4687696        -25.9879        -42.60011       -106.5885             -200               0             -200               0
1.71947               -0.4843589       -26.26748        -42.38818       -110.1914             -200               0             -200               0
1.72607                -0.500635       -26.55119        -42.17864       -113.7905             -200               0             -200               0
1.73267               -0.5176246       -26.83899        -41.97129       -117.3846             -200               0             -200               0
1.73927               -0.5353549       -27.13082        -41.76588       -120.9725             -200               0             -200               0
1.74587               -0.5538455       -27.42661        -41.56217        -124.553             -200               0             -200               0
1.75248               -0.5731196        -27.7263        -41.35988       -128.1254             -200               0             -200               0
1.75908               -0.5931946       -28.02983        -41.15873        -131.689             -200               0             -200               0
1.76568               -0.6140889       -28.33715         -40.9584       -135.2432             -200               0             -200               0
1.77228               -0.6358155       -28.64822        -40.75859        -138.788             -200               0             -200               0
1.77888               -0.6583905       -28.96299        -40.55898       -142.3231             -200               0             -200               0
1.78548               -0.6818257       -29.28146        -40.35925       -145.8488             -200               0             -200               0
1.79208               -0.7061313        -29.6036        -40.15906       -149.3656             -200               0             -200               0
1.79868               -0.7313202       -29.92944        -39.95811       -152.8741             -200               0             -200               0
1.80528               -0.7574019       -30.25902        -39.75607       -156.3753             -200               0             -200               0
1.81188               -0.7843899       -30.59238        -39.55266       -159.8702             -200               0             -200               0
1.81848               -0.8122957       -30.92961         -39.3476       -163.3603             -200               0             -200               0
1.82508               -0.8411346        -31.2708        -39.14061       -166.8471             -200               0             -200               0
1.83168               -0.8709238       -31.61607        -38.93147       -170.3325             -200               0             -200               0
1.83828               -0.9016828       -31.96556        -38.71998       -173.8184             -200               0             -200               0
1.84488               -0.9334351       -32.31944        -38.50596       -177.3069             -200               0             -200               0
1.85149               -0.9662097       -32.67787        -38.28928        179.1996             -200               0             -200               0
