! TOUCHSTONE file generated by CST MICROWAVE STUDIO
! Date and time: Sat Mar  8 13:55:17 2025
! Project name: non_fractured.cst
! Parameters = {B=2.5; D=160; F=10; Feed=2.85625; L=100; M=20; R=0.384908; S=2; Theta=90; length=57.125; wave=114.25}
! Header version: 2024
! Port assignment regex: !\s*Touchstone port\s*([0-9]+)\s*=\s*(CST MWS port|CST DES external port|CST DES block port)\s*(.+)\s* \(\"(.*)\"\)(\s*mode\s*([0-9]+))?.*
! Touchstone port assignment:
! Touchstone port 1 = CST MWS port 1 ("")
! Touchstone port 2 = CST MWS port 2 ("")
# GHz S DB R 50
1                    -0.01805945       -9.742292        -69.54495       -126.2072             -200               0             -200               0
1.00658              -0.01892737       -9.831013        -69.07094       -130.5296             -200               0             -200               0
1.01316              -0.01986069       -9.920018        -68.63513       -134.8775             -200               0             -200               0
1.01974              -0.02084927       -10.00927          -68.235       -139.2345             -200               0             -200               0
1.02632               -0.0218849       -10.09874        -67.86833        -143.586             -200               0             -200               0
1.03289              -0.02295956        -10.1884        -67.53314       -147.9193             -200               0             -200               0
1.03947              -0.02406074       -10.27825        -67.22764       -152.2223             -200               0             -200               0
1.04605              -0.02518193       -10.36829        -66.95021       -156.4839             -200               0             -200               0
1.05263              -0.02630988       -10.45854        -66.69932       -160.6934             -200               0             -200               0
1.05921              -0.02743474       -10.54903        -66.47352       -164.8404             -200               0             -200               0
1.06579              -0.02854722       -10.63979        -66.27141       -168.9146             -200               0             -200               0
1.07237              -0.02963885       -10.73088        -66.09159       -172.9056             -200               0             -200               0
1.07895              -0.03070276       -10.82236         -65.9326       -176.8031             -200               0             -200               0
1.08553              -0.03173084        -10.9143        -65.79294        179.4034             -200               0             -200               0
1.09211              -0.03272156       -11.00677        -65.67098        175.7246             -200               0             -200               0
1.09868              -0.03366941       -11.09986        -65.56493         172.171             -200               0             -200               0
1.10526              -0.03457445       -11.19365         -65.4728         168.753             -200               0             -200               0
1.11184              -0.03543726       -11.28823        -65.39238        165.4807             -200               0             -200               0
1.11842              -0.03626255       -11.38369        -65.32117        162.3635             -200               0             -200               0
1.125                -0.03705292        -11.4801        -65.25636        159.4097             -200               0             -200               0
1.13158              -0.03781584       -11.57754        -65.19482         156.626             -200               0             -200               0
1.13816              -0.03855944        -11.6761        -65.13307        154.0165             -200               0             -200               0
1.14474              -0.03929301       -11.77582        -65.06736        151.5826             -200               0             -200               0
1.15132              -0.04002735       -11.87676        -64.99371        149.3218             -200               0             -200               0
1.15789              -0.04077343       -11.97896        -64.90799         147.227             -200               0             -200               0
1.16447              -0.04154587       -12.08245        -64.80614         145.286             -200               0             -200               0
1.17105              -0.04235465       -12.18726        -64.68427        143.4812             -200               0             -200               0
1.17763              -0.04321424       -12.29337          -64.539        141.7899             -200               0             -200               0
1.18421              -0.04413555       -12.40079        -64.36756        140.1844             -200               0             -200               0
1.19079              -0.04513056        -12.5095        -64.16806        138.6337             -200               0             -200               0
1.19737              -0.04620945       -12.61946        -63.93963        137.1045             -200               0             -200               0
1.20395              -0.04738172       -12.73064        -63.68243        135.5634             -200               0             -200               0
1.21053              -0.04865679       -12.84298        -63.39767        133.9784             -200               0             -200               0
1.21711              -0.05003943       -12.95643        -63.08745         132.321             -200               0             -200               0
1.22368              -0.05153369       -13.07094         -62.7546        130.5666             -200               0             -200               0
1.23026              -0.05314369       -13.18644        -62.40246        128.6963             -200               0             -200               0
1.23684              -0.05486844       -13.30286        -62.03462        126.6963             -200               0             -200               0
1.24342              -0.05670785       -13.42016        -61.65477        124.5581             -200               0             -200               0
1.25                 -0.05865809       -13.53827        -61.26647        122.2781             -200               0             -200               0
1.25658              -0.06071347       -13.65714        -60.87309        119.8565             -200               0             -200               0
1.26316              -0.06286984       -13.77674        -60.47765        117.2968             -200               0             -200               0
1.26974              -0.06511662       -13.89703        -60.08283        114.6053             -200               0             -200               0
1.27632              -0.06744676       -14.01799        -59.69097        111.7896             -200               0             -200               0
1.28289              -0.06985033       -14.13962        -59.30402         108.859             -200               0             -200               0
1.28947              -0.07231658       -14.26192         -58.9236        105.8233             -200               0             -200               0
1.29605              -0.07483575        -14.3849        -58.55103        102.6926             -200               0             -200               0
1.30263              -0.07739677       -14.50861        -58.18735        99.47731             -200               0             -200               0
1.30921               -0.0799904       -14.63309        -57.83335        96.18751             -200               0             -200               0
1.31579              -0.08260698        -14.7584        -57.48962        92.83311             -200               0             -200               0
1.32237              -0.08524102       -14.88461        -57.15658        89.42365             -200               0             -200               0
1.32895              -0.08788449       -15.01181        -56.83447        85.96826             -200               0             -200               0
1.33553              -0.09053346       -15.14007        -56.52342        82.47564             -200               0             -200               0
1.34211              -0.09318599       -15.26951        -56.22342        78.95405             -200               0             -200               0
1.34868              -0.09584076       -15.40021        -55.93438        75.41131             -200               0             -200               0
1.35526              -0.09849912        -15.5323         -55.6561         71.8548             -200               0             -200               0
1.36184               -0.1011667       -15.66587        -55.38833        68.29151             -200               0             -200               0
1.36842               -0.1038475       -15.80102        -55.13072        64.72799             -200               0             -200               0
1.375                 -0.1065516       -15.93785        -54.88287        61.17043             -200               0             -200               0
1.38158                -0.109287       -16.07646        -54.64431         57.6246             -200               0             -200               0
1.38816               -0.1120658       -16.21693        -54.41451        54.09591             -200               0             -200               0
1.39474                -0.114902       -16.35933        -54.19288        50.58936             -200               0             -200               0
1.40132               -0.1178083       -16.50372        -53.97881        47.10956             -200               0             -200               0
1.40789               -0.1208006       -16.65015        -53.77158        43.66069             -200               0             -200               0
1.41447               -0.1238943       -16.79865        -53.57047        40.24649             -200               0             -200               0
1.42105                -0.127105       -16.94924        -53.37469        36.87023             -200               0             -200               0
1.42763               -0.1304488       -17.10194        -53.18342        33.53467             -200               0             -200               0
1.43421               -0.1339392       -17.25674        -52.99577          30.242             -200               0             -200               0
1.44079               -0.1375915       -17.41363        -52.81086        26.99385             -200               0             -200               0
1.44737               -0.1414174       -17.57256        -52.62775         23.7912             -200               0             -200               0
1.45395               -0.1454281       -17.73351         -52.4455        20.63434             -200               0             -200               0
1.46053               -0.1496324       -17.89643        -52.26317        17.52289             -200               0             -200               0
1.46711               -0.1540381       -18.06128        -52.07981        14.45572             -200               0             -200               0
1.47368               -0.1586503       -18.22799        -51.89451        11.43094             -200               0             -200               0
1.48026               -0.1634725       -18.39653        -51.70639        8.445939             -200               0             -200               0
1.48684               -0.1685043       -18.56684        -51.51463        5.497389             -200               0             -200               0
1.49342               -0.1737454       -18.73888        -51.31848        2.581276             -200               0             -200               0
1.5                   -0.1791924       -18.91261        -51.11727      -0.3070211             -200               0             -200               0
1.50658               -0.1848403       -19.08802        -50.91045       -3.172648             -200               0             -200               0
1.51316                -0.190683       -19.26508        -50.69756       -6.021168             -200               0             -200               0
1.51974               -0.1967123       -19.44381        -50.47829       -8.858439             -200               0             -200               0
1.52632               -0.2029201       -19.62421        -50.25244       -11.69049             -200               0             -200               0
1.53289               -0.2092978       -19.80633        -50.01995       -14.52337             -200               0             -200               0
1.53947               -0.2158363       -19.99022        -49.78088         -17.363             -200               0             -200               0
1.54605               -0.2225267       -20.17595        -49.53543       -20.21507             -200               0             -200               0
1.55263               -0.2293618       -20.36361        -49.28388       -23.08491             -200               0             -200               0
1.55921               -0.2363359       -20.55331        -49.02663       -25.97736             -200               0             -200               0
1.56579               -0.2434443       -20.74517        -48.76418       -28.89672             -200               0             -200               0
1.57237               -0.2506842       -20.93933        -48.49706       -31.84669             -200               0             -200               0
1.57895               -0.2580555       -21.13593        -48.22586       -34.83031             -200               0             -200               0
1.58553               -0.2655634       -21.33513        -47.95124       -37.84997             -200               0             -200               0
1.59211               -0.2732108       -21.53711        -47.67381       -40.90742             -200               0             -200               0
1.59868               -0.2810071       -21.74203        -47.39424       -44.00375             -200               0             -200               0
1.60526                -0.288968       -21.95007        -47.11316       -47.13949             -200               0             -200               0
1.61184               -0.2971053       -22.16139        -46.83118        -50.3146             -200               0             -200               0
1.61842               -0.3054399       -22.37616        -46.54887       -53.52855             -200               0             -200               0
1.625                 -0.3139927       -22.59455        -46.26678       -56.78038             -200               0             -200               0
1.63158               -0.3227882       -22.81668         -45.9854       -60.06877             -200               0             -200               0
1.63816               -0.3318564       -23.04271        -45.70517       -63.39207             -200               0             -200               0
1.64474               -0.3412242       -23.27275        -45.42647       -66.74837             -200               0             -200               0
1.65132               -0.3509239       -23.50689        -45.14964       -70.13557             -200               0             -200               0
1.65789               -0.3609883       -23.74523        -44.87497       -73.55142             -200               0             -200               0
1.66447               -0.3714522       -23.98781        -44.60267       -76.99358             -200               0             -200               0
1.67105               -0.3823484       -24.23469        -44.33293       -80.45962             -200               0             -200               0
1.67763               -0.3937121       -24.48588        -44.06586       -83.94712             -200               0             -200               0
1.68421               -0.4055766       -24.74139        -43.80155       -87.45368             -200               0             -200               0
1.69079               -0.4179745       -25.00121        -43.54001       -90.97691             -200               0             -200               0
1.69737               -0.4309377        -25.2653        -43.28123       -94.51456             -200               0             -200               0
1.70395               -0.4444947       -25.53362        -43.02516       -98.06444             -200               0             -200               0
1.71053               -0.4586733       -25.80611        -42.77171       -101.6245             -200               0             -200               0
1.71711               -0.4734981       -26.08271        -42.52074       -105.1928             -200               0             -200               0
1.72368               -0.4889913       -26.36336        -42.27209       -108.7677             -200               0             -200               0
1.73026               -0.5051725       -26.64797        -42.02557       -112.3475             -200               0             -200               0
1.73684               -0.5220599        -26.9365        -41.78098        -115.931             -200               0             -200               0
1.74342               -0.5396673       -27.22887        -41.53808        -119.517             -200               0             -200               0
1.75                  -0.5580068       -27.52504        -41.29663       -123.1046             -200               0             -200               0
1.75658               -0.5770878       -27.82497        -41.05634       -126.6931             -200               0             -200               0
1.76316               -0.5969199       -28.12865        -40.81696       -130.2821             -200               0             -200               0
1.76974               -0.6175093       -28.43608         -40.5782       -133.8714             -200               0             -200               0
1.77632               -0.6388616       -28.74727        -40.33979        -137.461             -200               0             -200               0
1.78289               -0.6609842       -29.06227        -40.10145       -141.0512             -200               0             -200               0
1.78947               -0.6838825       -29.38118        -39.86291       -144.6425             -200               0             -200               0
1.79605               -0.7075662       -29.70407        -39.62392       -148.2358             -200               0             -200               0
1.80263               -0.7320434       -30.03108        -39.38424       -151.8319             -200               0             -200               0
1.80921               -0.7573269       -30.36236        -39.14364       -155.4321             -200               0             -200               0
1.81579               -0.7834331       -30.69809        -38.90194       -159.0377             -200               0             -200               0
1.82237               -0.8103801       -31.03847        -38.65896       -162.6502             -200               0             -200               0
1.82895               -0.8381935       -31.38372        -38.41455       -166.2714             -200               0             -200               0
1.83553               -0.8669029       -31.73408        -38.16862       -169.9029             -200               0             -200               0
1.84211               -0.8965448       -32.08979        -37.92108       -173.5468             -200               0             -200               0
1.84868               -0.9271603       -32.45112         -37.6719       -177.2048             -200               0             -200               0
