! TOUCHSTONE file generated by CST MICROWAVE STUDIO
! Date and time: Sat Mar  8 13:55:12 2025
! Project name: non_fractured.cst
! Parameters = {B=2.5; D=160; F=5; Feed=2.85625; L=100; M=20; R=0.384908; S=2.5; Theta=0; length=57.125; wave=114.25}
! Header version: 2024
! Port assignment regex: !\s*Touchstone port\s*([0-9]+)\s*=\s*(CST MWS port|CST DES external port|CST DES block port)\s*(.+)\s* \(\"(.*)\"\)(\s*mode\s*([0-9]+))?.*
! Touchstone port assignment:
! Touchstone port 1 = CST MWS port 1 ("")
! Touchstone port 2 = CST MWS port 2 ("")
# GHz S DB R 50
1                    -0.01774711       -9.754144        -69.74964       -116.2108             -200               0             -200               0
1.0066                -0.0185544       -9.843839        -69.15035       -121.1314             -200               0             -200               0
1.0132               -0.01943889        -9.93389        -68.60563       -126.0729             -200               0             -200               0
1.0198                -0.0203967       -10.02424        -68.11047       -131.0197             -200               0             -200               0
1.0264               -0.02141954       -10.11484        -67.66077        -135.959             -200               0             -200               0
1.033                -0.02249839       -10.20566        -67.25309       -140.8796             -200               0             -200               0
1.0396               -0.02362342       -10.29665        -66.88459       -145.7715             -200               0             -200               0
1.0462               -0.02478558       -10.38781        -66.55286       -150.6254             -200               0             -200               0
1.05281              -0.02597123       -10.47913        -66.25581       -155.4323             -200               0             -200               0
1.05941              -0.02716833       -10.57062        -65.99168       -160.1835             -200               0             -200               0
1.06601              -0.02836775       -10.66231        -65.75891       -164.8702             -200               0             -200               0
1.07261              -0.02955776       -10.75422        -65.55613       -169.4832             -200               0             -200               0
1.07921              -0.03072667       -10.84641        -65.38206       -174.0129             -200               0             -200               0
1.08581              -0.03186621       -10.93893        -65.23552       -178.4491             -200               0             -200               0
1.09241              -0.03296763       -11.03186        -65.11536        177.2191             -200               0             -200               0
1.09901              -0.03402553       -11.12529        -65.02042        173.0036             -200               0             -200               0
1.10561              -0.03503529       -11.21929        -64.94947        168.9171             -200               0             -200               0
1.11221              -0.03599421       -11.31396        -64.90114        164.9735             -200               0             -200               0
1.11881              -0.03690141        -11.4094        -64.87387        161.1875             -200               0             -200               0
1.12541               -0.0377602        -11.5057        -64.86583        157.5752             -200               0             -200               0
1.13201              -0.03857231       -11.60295        -64.87483        154.1532             -200               0             -200               0
1.13861              -0.03934364       -11.70125        -64.89818        150.9388             -200               0             -200               0
1.14521              -0.04008496       -11.80068        -64.93265        147.9492             -200               0             -200               0
1.15182              -0.04080156       -11.90131        -64.97433         145.201             -200               0             -200               0
1.15842               -0.0415077       -12.00323        -65.01851        142.7087             -200               0             -200               0
1.16502              -0.04221392       -12.10647        -65.05969        140.4831             -200               0             -200               0
1.17162              -0.04293371       -12.21109        -65.09152        138.5298             -200               0             -200               0
1.17822              -0.04368048        -12.3171        -65.10699        136.8466             -200               0             -200               0
1.18482              -0.04446959       -12.42454        -65.09861        135.4213             -200               0             -200               0
1.19142              -0.04531321        -12.5334         -65.0589        134.2303             -200               0             -200               0
1.19802              -0.04622613       -12.64367        -64.98089        133.2369             -200               0             -200               0
1.20462              -0.04722083       -12.75532         -64.8588        132.3926             -200               0             -200               0
1.21122              -0.04830822       -12.86832        -64.68867         131.639             -200               0             -200               0
1.21782              -0.04949809       -12.98262         -64.4688        130.9122             -200               0             -200               0
1.22442              -0.05080146       -13.09817        -64.19999        130.1475             -200               0             -200               0
1.23102              -0.05222239       -13.21491        -63.88537        129.2852             -200               0             -200               0
1.23762              -0.05376677       -13.33276        -63.53002        128.2743             -200               0             -200               0
1.24422              -0.05543627       -13.45166        -63.14031        127.0759             -200               0             -200               0
1.25083              -0.05723171       -13.57155        -62.72331        125.6636             -200               0             -200               0
1.25743              -0.05915115       -13.69234        -62.28611        124.0233             -200               0             -200               0
1.26403              -0.06119141         -13.814        -61.83547        122.1511             -200               0             -200               0
1.27063              -0.06334651       -13.93646        -61.37744        120.0517             -200               0             -200               0
1.27723              -0.06560805       -14.05968        -60.91727        117.7355             -200               0             -200               0
1.28383              -0.06796924       -14.18362        -60.45933        115.2169             -200               0             -200               0
1.29043              -0.07041766       -14.30827        -60.00718        112.5127             -200               0             -200               0
1.29703              -0.07294438       -14.43362        -59.56363         109.641             -200               0             -200               0
1.30363              -0.07553685       -14.55967        -59.13086        106.6197             -200               0             -200               0
1.31023              -0.07818388       -14.68646         -58.7105        103.4666             -200               0             -200               0
1.31683              -0.08087529       -14.81403        -58.30373        100.1986             -200               0             -200               0
1.32343              -0.08359961       -14.94242        -57.91136        96.83174             -200               0             -200               0
1.33003              -0.08634839       -15.07171        -57.53393        93.38098             -200               0             -200               0
1.33663              -0.08911216       -15.20198        -57.17171         89.8602             -200               0             -200               0
1.34323              -0.09188572       -15.33332        -56.82481        86.28227             -200               0             -200               0
1.34984              -0.09466527       -15.46584        -56.49318        82.65914             -200               0             -200               0
1.35644              -0.09744726       -15.59964        -56.17663        79.00186             -200               0             -200               0
1.36304               -0.1002336       -15.73485        -55.87489        75.32071             -200               0             -200               0
1.36964               -0.1030257       -15.87157         -55.5876        71.62525             -200               0             -200               0
1.37624               -0.1058288       -16.00994        -55.31431        67.92441             -200               0             -200               0
1.38284               -0.1086511       -16.15005        -55.05454        64.22655             -200               0             -200               0
1.38944               -0.1115012       -16.29202        -54.80771        60.53953             -200               0             -200               0
1.39604               -0.1143932       -16.43595        -54.57319        56.87071             -200               0             -200               0
1.40264                 -0.11734       -16.58193        -54.35031        53.22703             -200               0             -200               0
1.40924               -0.1203582       -16.73004        -54.13832          49.615             -200               0             -200               0
1.41584               -0.1234633       -16.88035        -53.93642        46.04069             -200               0             -200               0
1.42244               -0.1266733       -17.03289        -53.74374        42.50975             -200               0             -200               0
1.42904               -0.1300088       -17.18772        -53.55935        39.02737             -200               0             -200               0
1.43564               -0.1334863       -17.34484        -53.38224        35.59821             -200               0             -200               0
1.44224               -0.1371258       -17.50426        -53.21134        32.22641             -200               0             -200               0
1.44884               -0.1409435       -17.66597        -53.04553        28.91547             -200               0             -200               0
1.45545               -0.1449564       -17.82993        -52.88361        25.66818             -200               0             -200               0
1.46205               -0.1491795        -17.9961        -52.72431        22.48654             -200               0             -200               0
1.46865               -0.1536265       -18.16444        -52.56634        19.37169             -200               0             -200               0
1.47525               -0.1583081       -18.33488        -52.40835        16.32379             -200               0             -200               0
1.48185               -0.1632334       -18.50736          -52.249        13.34193             -200               0             -200               0
1.48845               -0.1684075        -18.6818        -52.08693        10.42412             -200               0             -200               0
1.49505               -0.1738358       -18.85813        -51.92082        7.567164             -200               0             -200               0
1.50165               -0.1795194       -19.03629        -51.74941        4.766714             -200               0             -200               0
1.50825               -0.1854562       -19.21623        -51.57152        2.017269             -200               0             -200               0
1.51485               -0.1916423       -19.39786         -51.3861      -0.6877518             -200               0             -200               0
1.52145               -0.1980716       -19.58117        -51.19225       -3.355894             -200               0             -200               0
1.52805               -0.2047379       -19.76612        -50.98922       -5.995496             -200               0             -200               0
1.53465               -0.2116308       -19.95269        -50.77649       -8.615491             -200               0             -200               0
1.54125               -0.2187395       -20.14089        -50.55374       -11.22517             -200               0             -200               0
1.54785               -0.2260529       -20.33076        -50.32085       -13.83392             -200               0             -200               0
1.55446                -0.233561       -20.52233        -50.07794       -16.45099             -200               0             -200               0
1.56106               -0.2412509       -20.71568        -49.82532        -19.0852             -200               0             -200               0
1.56766               -0.2491145       -20.91089         -49.5635       -21.74474             -200               0             -200               0
1.57426                -0.257142       -21.10807        -49.29314       -24.43701             -200               0             -200               0
1.58086               -0.2653249       -21.30736        -49.01503       -27.16844             -200               0             -200               0
1.58746               -0.2736604        -21.5089        -48.73006       -29.94439             -200               0             -200               0
1.59406               -0.2821462       -21.71285        -48.43921       -32.76917             -200               0             -200               0
1.60066               -0.2907829       -21.91938        -48.14347       -35.64595             -200               0             -200               0
1.60726                -0.299577       -22.12869        -47.84387       -38.57683             -200               0             -200               0
1.61386               -0.3085334       -22.34097        -47.54138       -41.56295             -200               0             -200               0
1.62046               -0.3176662        -22.5564        -47.23698       -44.60452             -200               0             -200               0
1.62706               -0.3269923       -22.77519        -46.93157       -47.70093             -200               0             -200               0
1.63366               -0.3365304       -22.99753          -46.626       -50.85087             -200               0             -200               0
1.64026                -0.346303       -23.22359        -46.32102       -54.05245             -200               0             -200               0
1.64686               -0.3563395       -23.45355        -46.01734       -57.30329             -200               0             -200               0
1.65347               -0.3666684       -23.68757        -45.71555       -60.60062             -200               0             -200               0
1.66007                -0.377324       -23.92578        -45.41618       -63.94136             -200               0             -200               0
1.66667               -0.3883421        -24.1683        -45.11965       -67.32225             -200               0             -200               0
1.67327               -0.3997595       -24.41523        -44.82634       -70.73989             -200               0             -200               0
1.67987               -0.4116158       -24.66664        -44.53653       -74.19079             -200               0             -200               0
1.68647                 -0.42395       -24.92258        -44.25041       -77.67144             -200               0             -200               0
1.69307                -0.436803       -25.18308        -43.96814       -81.17838             -200               0             -200               0
1.69967               -0.4502143       -25.44813        -43.68978       -84.70823             -200               0             -200               0
1.70627               -0.4642223       -25.71771        -43.41535       -88.25768             -200               0             -200               0
1.71287               -0.4788638       -25.99178        -43.14481        -91.8236             -200               0             -200               0
1.71947               -0.4941768       -26.27027        -42.87807         -95.403             -200               0             -200               0
1.72607               -0.5101908       -26.55311          -42.615        -98.9931             -200               0             -200               0
1.73267               -0.5269369        -26.8402         -42.3554       -102.5913             -200               0             -200               0
1.73927                -0.544444       -27.13144        -42.09907       -106.1953             -200               0             -200               0
1.74587               -0.5627347       -27.42673        -41.84576       -109.8029             -200               0             -200               0
1.75248               -0.5818294       -27.72596        -41.59517       -113.4123             -200               0             -200               0
1.75908               -0.6017453       -28.02903        -41.34701       -117.0219             -200               0             -200               0
1.76568                -0.622496       -28.33583        -41.10095       -120.6304             -200               0             -200               0
1.77228               -0.6440931        -28.6463        -40.85663       -124.2369             -200               0             -200               0
1.77888               -0.6665429       -28.96036        -40.61372       -127.8406             -200               0             -200               0
1.78548               -0.6898547       -29.27796        -40.37184       -131.4412             -200               0             -200               0
1.79208                 -0.71403        -29.5991        -40.13064       -135.0385             -200               0             -200               0
1.79868               -0.7390731       -29.92377        -39.88975       -138.6327             -200               0             -200               0
1.80528                -0.764986         -30.252        -39.64882       -142.2245             -200               0             -200               0
1.81188               -0.7917725       -30.58387        -39.40751       -145.8145             -200               0             -200               0
1.81848               -0.8194374       -30.91948        -39.16551       -149.4039             -200               0             -200               0
1.82508               -0.8479855       -31.25895        -38.92253       -152.9941             -200               0             -200               0
1.83168               -0.8774286       -31.60246        -38.67829       -156.5865             -200               0             -200               0
1.83828               -0.9077765       -31.95018        -38.43256       -160.1831             -200               0             -200               0
1.84488               -0.9390499       -32.30236        -38.18515       -163.7858             -200               0             -200               0
1.85149               -0.9712706       -32.65923        -37.93589       -167.3966             -200               0             -200               0
