! TOUCHSTONE file generated by CST MICROWAVE STUDIO
! Date and time: Sat Mar  8 13:55:00 2025
! Project name: non_fractured.cst
! Parameters = {B=2.5; D=160; F=20; Feed=2.85625; L=100; M=10; R=0.384908; S=2.5; Theta=180; length=57.125; wave=114.25}
! Header version: 2024
! Port assignment regex: !\s*Touchstone port\s*([0-9]+)\s*=\s*(CST MWS port|CST DES external port|CST DES block port)\s*(.+)\s* \(\"(.*)\"\)(\s*mode\s*([0-9]+))?.*
! Touchstone port assignment:
! Touchstone port 1 = CST MWS port 1 ("")
! Touchstone port 2 = CST MWS port 2 ("")
# GHz S DB R 50
1                    -0.01834088       -9.754063        -69.82695       -139.4722             -200               0             -200               0
1.0066               -0.01912933       -9.843082         -69.4214       -142.8649             -200               0             -200               0
1.0132                -0.0199731        -9.93252        -69.04007       -146.3251             -200               0             -200               0
1.0198               -0.02086807       -10.02235        -68.68231       -149.8337             -200               0             -200               0
1.0264               -0.02180885       -10.11254        -68.34733       -153.3732             -200               0             -200               0
1.033                -0.02278994       -10.20307        -68.03428       -156.9281             -200               0             -200               0
1.0396               -0.02380607       -10.29395        -67.74223       -160.4838             -200               0             -200               0
1.0462               -0.02484921       -10.38516         -67.4702       -164.0272             -200               0             -200               0
1.05281              -0.02591212       -10.47672        -67.21711       -167.5458             -200               0             -200               0
1.05941              -0.02698942       -10.56864        -66.98185        -171.028             -200               0             -200               0
1.06601              -0.02807496       -10.66094        -66.76321       -174.4629             -200               0             -200               0
1.07261              -0.02916123       -10.75365        -66.55989       -177.8403             -200               0             -200               0
1.07921              -0.03024304       -10.84681        -66.37048        178.8497             -200               0             -200               0
1.08581              -0.03131626       -10.94047        -66.19346        175.6158             -200               0             -200               0
1.09241              -0.03237737       -11.03467        -66.02719        172.4666             -200               0             -200               0
1.09901              -0.03342332       -11.12948        -65.86985        169.4093             -200               0             -200               0
1.10561              -0.03445243       -11.22494        -65.71949        166.4504             -200               0             -200               0
1.11221              -0.03546552       -11.32113        -65.57401         163.595             -200               0             -200               0
1.11881               -0.0364629       -11.41809        -65.43116        160.8467             -200               0             -200               0
1.12541               -0.0374485       -11.51589        -65.28854        158.2073             -200               0             -200               0
1.13201              -0.03842308       -11.61459        -65.14367        155.6765             -200               0             -200               0
1.13861              -0.03939224       -11.71424        -64.99402        153.2516             -200               0             -200               0
1.14521              -0.04036273       -11.81488        -64.83707        150.9274             -200               0             -200               0
1.15182              -0.04134198       -11.91657        -64.67037        148.6959             -200               0             -200               0
1.15842              -0.04233547       -12.01933        -64.49165        146.5462             -200               0             -200               0
1.16502              -0.04335101        -12.1232        -64.29892        144.4651             -200               0             -200               0
1.17162              -0.04439879        -12.2282        -64.09054        142.4369             -200               0             -200               0
1.17822              -0.04548496       -12.33433        -63.86528        140.4441             -200               0             -200               0
1.18482              -0.04661923       -12.44161        -63.62243        138.4681             -200               0             -200               0
1.19142              -0.04780985       -12.55003        -63.36181        136.4899             -200               0             -200               0
1.19802              -0.04906175       -12.65958        -63.08373        134.4907             -200               0             -200               0
1.20462              -0.05038471       -12.77024        -62.78902         132.453             -200               0             -200               0
1.21122              -0.05178373         -12.882        -62.47894        130.3609             -200               0             -200               0
1.21782              -0.05326094       -12.99481        -62.15507        128.2006             -200               0             -200               0
1.22442              -0.05482367       -13.10866        -61.81928         125.961             -200               0             -200               0
1.23102                -0.056472        -13.2235         -61.4736        123.6335             -200               0             -200               0
1.23762                -0.058208       -13.33931        -61.12011        121.2122             -200               0             -200               0
1.24422               -0.0600327       -13.45604        -60.76092        118.6938             -200               0             -200               0
1.25083               -0.0619413       -13.57368        -60.39804        116.0769             -200               0             -200               0
1.25743              -0.06393422       -13.69219        -60.03338        113.3625             -200               0             -200               0
1.26403              -0.06600691       -13.81154        -59.66871        110.5527             -200               0             -200               0
1.27063               -0.0681539       -13.93174        -59.30559        107.6513             -200               0             -200               0
1.27723              -0.07037067       -14.05276        -58.94545        104.6631             -200               0             -200               0
1.28383              -0.07264963       -14.17461        -58.58948        101.5934             -200               0             -200               0
1.29043              -0.07498615       -14.29729        -58.23876        98.44815             -200               0             -200               0
1.29703               -0.0773735       -14.42083        -57.89414        95.23371             -200               0             -200               0
1.30363              -0.07980325       -14.54525        -57.55636        91.95654             -200               0             -200               0
1.31023              -0.08227071        -14.6706        -57.22599        88.62317             -200               0             -200               0
1.31683              -0.08476821       -14.79692        -56.90348        85.24009             -200               0             -200               0
1.32343              -0.08729233       -14.92427        -56.58919        81.81371             -200               0             -200               0
1.33003              -0.08983932        -15.0527        -56.28333        78.35028             -200               0             -200               0
1.33663              -0.09240487       -15.18231        -55.98604        74.85586             -200               0             -200               0
1.34323              -0.09498868       -15.31314        -55.69739         71.3363             -200               0             -200               0
1.34984              -0.09758812       -15.44531        -55.41736        67.79722             -200               0             -200               0
1.35644               -0.1002068       -15.57887        -55.14586          64.244             -200               0             -200               0
1.36304               -0.1028479       -15.71393        -54.88273        60.68177             -200               0             -200               0
1.36964               -0.1055127       -15.85056        -54.62779        57.11544             -200               0             -200               0
1.37624               -0.1082106       -15.98885        -54.38077        53.54964             -200               0             -200               0
1.38284               -0.1109468       -16.12887        -54.14136        49.98874             -200               0             -200               0
1.38944               -0.1137311        -16.2707        -53.90921        46.43686             -200               0             -200               0
1.39604               -0.1165726       -16.41441        -53.68394        42.89785             -200               0             -200               0
1.40264               -0.1194831       -16.56006         -53.4651        39.37526             -200               0             -200               0
1.40924               -0.1224731        -16.7077        -53.25223        35.87238             -200               0             -200               0
1.41584               -0.1255544       -16.85736         -53.0448        32.39217             -200               0             -200               0
1.42244               -0.1287411       -17.00909        -52.84228        28.93726             -200               0             -200               0
1.42904               -0.1320449       -17.16291        -52.64409        25.50994             -200               0             -200               0
1.43564               -0.1354782       -17.31883        -52.44963        22.11213             -200               0             -200               0
1.44224               -0.1390527       -17.47686        -52.25826        18.74538             -200               0             -200               0
1.44884               -0.1427793       -17.63699        -52.06935         15.4108             -200               0             -200               0
1.45545               -0.1466678       -17.79921        -51.88222        12.10908             -200               0             -200               0
1.46205               -0.1507277       -17.96352        -51.69622        8.840445             -200               0             -200               0
1.46865                -0.154967       -18.12988        -51.51067        5.604668             -200               0             -200               0
1.47525               -0.1593904       -18.29828         -51.3249         2.40103             -200               0             -200               0
1.48185               -0.1640062        -18.4687        -51.13827      -0.7716654             -200               0             -200               0
1.48845               -0.1688139       -18.64111        -50.95016       -3.915089             -200               0             -200               0
1.49505               -0.1738192       -18.81549        -50.75998       -7.031382             -200               0             -200               0
1.50165               -0.1790201       -18.99182        -50.56718       -10.12311             -200               0             -200               0
1.50825               -0.1844163       -19.17011        -50.37129       -13.19326             -200               0             -200               0
1.51485               -0.1900067       -19.35034        -50.17186       -16.24514             -200               0             -200               0
1.52145               -0.1957868       -19.53254        -49.96853       -19.28239             -200               0             -200               0
1.52805               -0.2017545       -19.71672        -49.76103       -22.30886             -200               0             -200               0
1.53465               -0.2079052       -19.90291        -49.54915       -25.32856             -200               0             -200               0
1.54125               -0.2142354       -20.09116        -49.33275       -28.34559             -200               0             -200               0
1.54785               -0.2207388       -20.28154         -49.1118       -31.36405             -200               0             -200               0
1.55446               -0.2274151        -20.4741        -48.88633       -34.38795             -200               0             -200               0
1.56106               -0.2342573       -20.66895        -48.65645       -37.42117             -200               0             -200               0
1.56766               -0.2412682       -20.86619        -48.42235       -40.46736             -200               0             -200               0
1.57426               -0.2484434       -21.06591        -48.18428       -43.52991             -200               0             -200               0
1.58086               -0.2557874       -21.26825        -47.94252       -46.61185             -200               0             -200               0
1.58746               -0.2633028       -21.47334        -47.69745       -49.71588             -200               0             -200               0
1.59406               -0.2709931       -21.68132        -47.44942       -52.84429             -200               0             -200               0
1.60066               -0.2788691       -21.89234        -47.19886       -55.99897             -200               0             -200               0
1.60726               -0.2869404       -22.10655        -46.94619       -59.18139             -200               0             -200               0
1.61386                -0.295219        -22.3241        -46.69185       -62.39264             -200               0             -200               0
1.62046               -0.3037218       -22.54514        -46.43627       -65.63338             -200               0             -200               0
1.62706               -0.3124664       -22.76983        -46.17988       -68.90395             -200               0             -200               0
1.63366               -0.3214742        -22.9983        -45.92309       -72.20428             -200               0             -200               0
1.64026               -0.3307683       -23.23071        -45.66629       -75.53406             -200               0             -200               0
1.64686               -0.3403742       -23.46717        -45.40985       -78.89264             -200               0             -200               0
1.65347               -0.3503185        -23.7078         -45.1541       -82.27916             -200               0             -200               0
1.66007               -0.3606312       -23.95272        -44.89935       -85.69252             -200               0             -200               0
1.66667               -0.3713438       -24.20201        -44.64587       -89.13147             -200               0             -200               0
1.67327               -0.3824871       -24.45576        -44.39391       -92.59461             -200               0             -200               0
1.67987               -0.3940943       -24.71403        -44.14366       -96.08041             -200               0             -200               0
1.68647               -0.4062002       -24.97687        -43.89528       -99.58728             -200               0             -200               0
1.69307               -0.4188362       -25.24432        -43.64892       -103.1136             -200               0             -200               0
1.69967               -0.4320382       -25.51641        -43.40466       -106.6576             -200               0             -200               0
1.70627               -0.4458366       -25.79315        -43.16258       -110.2178             -200               0             -200               0
1.71287               -0.4602674       -26.07452         -42.9227       -113.7923             -200               0             -200               0
1.71947               -0.4753604       -26.36053        -42.68502       -117.3797             -200               0             -200               0
1.72607               -0.4911452       -26.65116        -42.44952       -120.9784             -200               0             -200               0
1.73267               -0.5076545       -26.94638        -42.21613       -124.5868             -200               0             -200               0
1.73927               -0.5249148       -27.24616        -41.98479       -128.2038             -200               0             -200               0
1.74587               -0.5429525       -27.55048        -41.75539       -131.8279             -200               0             -200               0
1.75248                -0.561796        -27.8593         -41.5278        -135.458             -200               0             -200               0
1.75908               -0.5814669       -28.17259        -41.30188       -139.0932             -200               0             -200               0
1.76568               -0.6019911       -28.49035        -41.07748       -142.7326             -200               0             -200               0
1.77228               -0.6233904       -28.81254        -40.85442       -146.3755             -200               0             -200               0
1.77888               -0.6456889       -29.13917        -40.63253       -150.0213             -200               0             -200               0
1.78548               -0.6689084       -29.47025        -40.41161       -153.6696             -200               0             -200               0
1.79208               -0.6930704       -29.80577        -40.19147       -157.3203             -200               0             -200               0
1.79868               -0.7181986       -30.14578        -39.97192       -160.9733             -200               0             -200               0
1.80528               -0.7443166       -30.49032        -39.75275       -164.6287             -200               0             -200               0
1.81188               -0.7714511       -30.83944        -39.53379       -168.2867             -200               0             -200               0
1.81848               -0.7996284        -31.1932        -39.31484        -171.948             -200               0             -200               0
1.82508               -0.8288778        -31.5517        -39.09572        -175.613             -200               0             -200               0
1.83168               -0.8592318       -31.91501        -38.87628       -179.2825             -200               0             -200               0
1.83828               -0.8907252       -32.28323        -38.65636        177.0426             -200               0             -200               0
1.84488               -0.9233982       -32.65647        -38.43583        173.3613             -200               0             -200               0
1.85149                -0.957291       -33.03485        -38.21457        169.6724             -200               0             -200               0
