! TOUCHSTONE file generated by CST MICROWAVE STUDIO
! Date and time: Sat Mar  8 13:55:27 2025
! Project name: non_fractured.cst
! Parameters = {B=2.5; D=160; F=20; Feed=2.85625; L=100; M=20; R=0.384908; S=1; Theta=90; length=57.125; wave=114.25}
! Header version: 2024
! Port assignment regex: !\s*Touchstone port\s*([0-9]+)\s*=\s*(CST MWS port|CST DES external port|CST DES block port)\s*(.+)\s* \(\"(.*)\"\)(\s*mode\s*([0-9]+))?.*
! Touchstone port assignment:
! Touchstone port 1 = CST MWS port 1 ("")
! Touchstone port 2 = CST MWS port 2 ("")
# GHz S DB R 50
1                     -0.0192113       -9.792144        -67.91951       -156.2149             -200               0             -200               0
1.0066               -0.02009636       -9.880431        -67.89308        -160.299             -200               0             -200               0
1.0132               -0.02101293       -9.969017        -67.88961       -164.2051             -200               0             -200               0
1.0198               -0.02195137        -10.0579        -67.90746       -167.9147             -200               0             -200               0
1.0264               -0.02290499       -10.14709        -67.94462       -171.4079             -200               0             -200               0
1.033                -0.02386688        -10.2366        -67.99846       -174.6627             -200               0             -200               0
1.0396               -0.02482966       -10.32646        -68.06565       -177.6566             -200               0             -200               0
1.0462                 -0.025787       -10.41671        -68.14194        179.6335             -200               0             -200               0
1.05281              -0.02673472       -10.50737        -68.22199        177.2292             -200               0             -200               0
1.05941              -0.02766532       -10.59851        -68.29921        175.1488             -200               0             -200               0
1.06601              -0.02857637       -10.69018        -68.36573        173.4043             -200               0             -200               0
1.07261              -0.02946466       -10.78244        -68.41244         171.998             -200               0             -200               0
1.07921              -0.03033052       -10.87536         -68.4293        170.9187             -200               0             -200               0
1.08581              -0.03117213       -10.96899        -68.40599        170.1378             -200               0             -200               0
1.09241              -0.03199221       -11.06341        -68.33273        169.6072             -200               0             -200               0
1.09901              -0.03279411       -11.15867        -68.20144        169.2603             -200               0             -200               0
1.10561              -0.03358118       -11.25485        -68.00681        169.0149             -200               0             -200               0
1.11221              -0.03435995       -11.35199        -67.74708        168.7812             -200               0             -200               0
1.11881              -0.03513766       -11.45016        -67.42431        168.4698             -200               0             -200               0
1.12541              -0.03592172       -11.54939          -67.044        168.0011             -200               0             -200               0
1.13201              -0.03672082       -11.64971        -66.61426        167.3115             -200               0             -200               0
1.13861              -0.03754492       -11.75117        -66.14465        166.3569             -200               0             -200               0
1.14521              -0.03840326       -11.85377        -65.64517        165.1121             -200               0             -200               0
1.15182               -0.0393053       -11.95753        -65.12531        163.5689             -200               0             -200               0
1.15842              -0.04026093       -12.06243         -64.5936        161.7322             -200               0             -200               0
1.16502               -0.0412802       -12.16848        -64.05727         159.616             -200               0             -200               0
1.17162              -0.04237042       -12.27566        -63.52226        157.2402             -200               0             -200               0
1.17822               -0.0435397       -12.38393        -62.99322        154.6275             -200               0             -200               0
1.18482              -0.04479477       -12.49326        -62.47375        151.8019             -200               0             -200               0
1.19142              -0.04614156       -12.60361        -61.96651        148.7872             -200               0             -200               0
1.19802              -0.04758257       -12.71495        -61.47342        145.6061             -200               0             -200               0
1.20462              -0.04912185       -12.82721        -60.99582        142.2797             -200               0             -200               0
1.21122              -0.05075997       -12.94036        -60.53458        138.8276             -200               0             -200               0
1.21782              -0.05249583       -13.05435         -60.0902        135.2676             -200               0             -200               0
1.22442              -0.05432826       -13.16913        -59.66295        131.6157             -200               0             -200               0
1.23102              -0.05625286       -13.28468        -59.25285        127.8867             -200               0             -200               0
1.23762              -0.05826557       -13.40094        -58.85979        124.0937             -200               0             -200               0
1.24422              -0.06035988       -13.51791        -58.48354        120.2488             -200               0             -200               0
1.25083              -0.06252902       -13.63556        -58.12378        116.3628             -200               0             -200               0
1.25743              -0.06476583       -13.75388        -57.78014        112.4456             -200               0             -200               0
1.26403              -0.06706271       -13.87289        -57.45217        108.5064             -200               0             -200               0
1.27063              -0.06940963       -13.99259        -57.13941        104.5535             -200               0             -200               0
1.27723              -0.07179966       -14.11302        -56.84134        100.5947             -200               0             -200               0
1.28383              -0.07422488        -14.2342        -56.55742        96.63729             -200               0             -200               0
1.29043              -0.07667812       -14.35619        -56.28709        92.68788             -200               0             -200               0
1.29703              -0.07915314       -14.47905        -56.02975        88.75284             -200               0             -200               0
1.30363              -0.08164407       -14.60284        -55.78479        84.83812             -200               0             -200               0
1.31023              -0.08414811       -14.72763        -55.55154        80.94931             -200               0             -200               0
1.31683              -0.08666274       -14.85351        -55.32933         77.0917             -200               0             -200               0
1.32343              -0.08918708       -14.98056        -55.11743        73.27025             -200               0             -200               0
1.33003              -0.09172234       -15.10886        -54.91508        69.48962             -200               0             -200               0
1.33663              -0.09427133        -15.2385        -54.72148        65.75412             -200               0             -200               0
1.34323               -0.0968381       -15.36958        -54.53577        62.06772             -200               0             -200               0
1.34984              -0.09942972       -15.50216        -54.35706        58.43402             -200               0             -200               0
1.35644                -0.102053       -15.63633         -54.1844        54.85616             -200               0             -200               0
1.36304               -0.1047176       -15.77216         -54.0168        51.33682             -200               0             -200               0
1.36964               -0.1074346        -15.9097        -53.85321        47.87812             -200               0             -200               0
1.37624               -0.1102141       -16.04902        -53.69255        44.48157             -200               0             -200               0
1.38284               -0.1130693       -16.19016        -53.53369        41.14798             -200               0             -200               0
1.38944               -0.1160115       -16.33315        -53.37549        37.87744             -200               0             -200               0
1.39604               -0.1190545         -16.478        -53.21679        34.66917             -200               0             -200               0
1.40264               -0.1222096       -16.62473        -53.05642        31.52154             -200               0             -200               0
1.40924               -0.1254889       -16.77334        -52.89325        28.43201             -200               0             -200               0
1.41584                -0.128903       -16.92381        -52.72617        25.39708             -200               0             -200               0
1.42244               -0.1324626       -17.07614        -52.55415        22.41233             -200               0             -200               0
1.42904               -0.1361764       -17.23028        -52.37624        19.47243             -200               0             -200               0
1.43564               -0.1400501       -17.38622        -52.19159        16.57127             -200               0             -200               0
1.44224               -0.1440911       -17.54391         -51.9995        13.70199             -200               0             -200               0
1.44884                -0.148302       -17.70332        -51.79941        10.85719             -200               0             -200               0
1.45545                -0.152685       -17.86442        -51.59094        8.029052             -200               0             -200               0
1.46205               -0.1572402       -18.02716        -51.37386        5.209532             -200               0             -200               0
1.46865               -0.1619656       -18.19153        -51.14815        2.390586             -200               0             -200               0
1.47525               -0.1668583        -18.3575        -50.91393      -0.4356552             -200               0             -200               0
1.48185               -0.1719141       -18.52506        -50.67151       -3.276691             -200               0             -200               0
1.48845               -0.1771272       -18.69421        -50.42134        -6.13948             -200               0             -200               0
1.49505               -0.1824906       -18.86497        -50.16401         -9.0303             -200               0             -200               0
1.50165               -0.1879967       -19.03736         -49.9002       -11.95464             -200               0             -200               0
1.50825               -0.1936381       -19.21142        -49.63069       -14.91711             -200               0             -200               0
1.51485               -0.1994082       -19.38721        -49.35631       -17.92144             -200               0             -200               0
1.52145               -0.2052994       -19.56481        -49.07794       -20.97044             -200               0             -200               0
1.52805               -0.2113055        -19.7443        -48.79645       -24.06602             -200               0             -200               0
1.53465               -0.2174214       -19.92577        -48.51272       -27.20925             -200               0             -200               0
1.54125               -0.2236448       -20.10936         -48.2276       -30.40043             -200               0             -200               0
1.54785               -0.2299741       -20.29519         -47.9419       -33.63912             -200               0             -200               0
1.55446               -0.2364104       -20.48339        -47.65638        -36.9243             -200               0             -200               0
1.56106               -0.2429573       -20.67411        -47.37174       -40.25435             -200               0             -200               0
1.56766               -0.2496202       -20.86749        -47.08863       -43.62724             -200               0             -200               0
1.57426               -0.2564087       -21.06371        -46.80761       -47.04052             -200               0             -200               0
1.58086                -0.263334       -21.26289        -46.52918       -50.49145             -200               0             -200               0
1.58746               -0.2704109       -21.46521        -46.25378       -53.97704             -200               0             -200               0
1.59406               -0.2776557       -21.67079        -45.98176       -57.49412             -200               0             -200               0
1.60066                -0.285088       -21.87979        -45.71343       -61.03941             -200               0             -200               0
1.60726                -0.292731       -22.09232          -45.449       -64.60955             -200               0             -200               0
1.61386               -0.3006076       -22.30851        -45.18864       -68.20113             -200               0             -200               0
1.62046               -0.3087442       -22.52844        -44.93246       -71.81075             -200               0             -200               0
1.62706               -0.3171674       -22.75222        -44.68051       -75.43507             -200               0             -200               0
1.63366                -0.325905       -22.97991        -44.43277       -79.07078             -200               0             -200               0
1.64026               -0.3349854       -23.21156        -44.18917        -82.7147             -200               0             -200               0
1.64686               -0.3444381       -23.44721        -43.94962       -86.36374             -200               0             -200               0
1.65347               -0.3542885       -23.68687        -43.71393       -90.01498             -200               0             -200               0
1.66007               -0.3645671       -23.93055        -43.48192       -93.66564             -200               0             -200               0
1.66667               -0.3752969       -24.17825        -43.25333       -97.31313             -200               0             -200               0
1.67327               -0.3865055       -24.42994        -43.02788       -100.9551             -200               0             -200               0
1.67987               -0.3982127       -24.68559        -42.80524       -104.5894             -200               0             -200               0
1.68647               -0.4104408       -24.94516        -42.58504       -108.2141             -200               0             -200               0
1.69307               -0.4232073       -25.20863        -42.36691       -111.8276             -200               0             -200               0
1.69967                -0.436528       -25.47594        -42.15042       -115.4287             -200               0             -200               0
1.70627               -0.4504161       -25.74707        -41.93513       -119.0162             -200               0             -200               0
1.71287                -0.464884       -26.02199         -41.7206       -122.5896             -200               0             -200               0
1.71947               -0.4799403       -26.30067        -41.50633       -126.1484             -200               0             -200               0
1.72607               -0.4955906       -26.58311        -41.29187       -129.6928             -200               0             -200               0
1.73267               -0.5118426       -26.86932        -41.07672       -133.2231             -200               0             -200               0
1.73927               -0.5287007       -27.15935        -40.86042       -136.7402             -200               0             -200               0
1.74587               -0.5461666       -27.45323         -40.6425       -140.2452             -200               0             -200               0
1.75248                -0.564247       -27.75105        -40.42252       -143.7398             -200               0             -200               0
1.75908               -0.5829443       -28.05292        -40.20006       -147.2257             -200               0             -200               0
1.76568               -0.6022652       -28.35896        -39.97475       -150.7052             -200               0             -200               0
1.77228               -0.6222164       -28.66932        -39.74623        -154.181             -200               0             -200               0
1.77888               -0.6428086        -28.9842        -39.51422       -157.6557             -200               0             -200               0
1.78548               -0.6640548       -29.30379        -39.27848       -161.1326             -200               0             -200               0
1.79208               -0.6859722       -29.62832        -39.03881       -164.6149             -200               0             -200               0
1.79868                -0.708583       -29.95805        -38.79509       -168.1059             -200               0             -200               0
1.80528               -0.7319134       -30.29325        -38.54727       -171.6091             -200               0             -200               0
1.81188               -0.7559977       -30.63418        -38.29532       -175.1281             -200               0             -200               0
1.81848                -0.780874       -30.98115        -38.03932       -178.6663             -200               0             -200               0
1.82508               -0.8065871       -31.33444        -37.77939         177.773             -200               0             -200               0
1.83168               -0.8331897       -31.69435         -37.5157        174.1865             -200               0             -200               0
1.83828                -0.860741       -32.06117        -37.24848        170.5711             -200               0             -200               0
1.84488               -0.8893069       -32.43517        -36.97801         166.924             -200               0             -200               0
1.85149               -0.9189609       -32.81663         -36.7046        163.2426             -200               0             -200               0
