! TOUCHSTONE file generated by CST MICROWAVE STUDIO
! Date and time: Sat Mar  8 13:54:31 2025
! Project name: non_fractured.cst
! Parameters = {B=2.5; D=160; F=25; Feed=2.85625; L=100; M=5; R=0.384908; S=2.5; Theta=90; length=57.125; wave=114.25}
! Header version: 2024
! Port assignment regex: !\s*Touchstone port\s*([0-9]+)\s*=\s*(CST MWS port|CST DES external port|CST DES block port)\s*(.+)\s* \(\"(.*)\"\)(\s*mode\s*([0-9]+))?.*
! Touchstone port assignment:
! Touchstone port 1 = CST MWS port 1 ("")
! Touchstone port 2 = CST MWS port 2 ("")
# GHz S DB R 50
1                    -0.01826319       -9.754197        -68.76905       -146.0745             -200               0             -200               0
1.00658              -0.01907333       -9.843129        -68.36963       -149.4399             -200               0             -200               0
1.01316              -0.01994386        -9.93245        -67.99064       -152.9047             -200               0             -200               0
1.01974              -0.02087027       -10.02213        -67.63231       -156.4505             -200               0             -200               0
1.02632              -0.02184858       -10.11212        -67.29465       -160.0603             -200               0             -200               0
1.03289              -0.02286909       -10.20241        -66.97752       -163.7186             -200               0             -200               0
1.03947              -0.02392732         -10.293        -66.68064       -167.4112             -200               0             -200               0
1.04605              -0.02501486       -10.38386        -66.40365       -171.1249             -200               0             -200               0
1.05263              -0.02612234       -10.47501        -66.14611       -174.8475             -200               0             -200               0
1.05921              -0.02724083       -10.56646        -65.90752       -178.5671             -200               0             -200               0
1.06579              -0.02836566       -10.65823        -65.68732        177.7271             -200               0             -200               0
1.07237              -0.02948618       -10.75037        -65.48488        174.0458             -200               0             -200               0
1.07895              -0.03059769        -10.8429        -65.29951        170.3993             -200               0             -200               0
1.08553               -0.0316926        -10.9359        -65.13044        166.7976             -200               0             -200               0
1.09211               -0.0327689        -11.0294        -64.97683        163.2503             -200               0             -200               0
1.09868              -0.03382065       -11.12347        -64.83774        159.7671             -200               0             -200               0
1.10526              -0.03484694       -11.21819        -64.71212        156.3573             -200               0             -200               0
1.11184              -0.03584722       -11.31362        -64.59876        153.0302             -200               0             -200               0
1.11842              -0.03682215       -11.40982        -64.49635        149.7945             -200               0             -200               0
1.125                -0.03777463       -11.50688        -64.40336        146.6586             -200               0             -200               0
1.13158              -0.03870841       -11.60485        -64.31811        143.6305             -200               0             -200               0
1.13816               -0.0396292       -11.70381        -64.23871        140.7171             -200               0             -200               0
1.14474              -0.04054353        -11.8038        -64.16306        137.9245             -200               0             -200               0
1.15132              -0.04145851       -11.90488        -64.08884         135.257             -200               0             -200               0
1.15789              -0.04238411       -12.00709        -64.01354        132.7176             -200               0             -200               0
1.16447              -0.04332906       -12.11047        -63.93449        130.3067             -200               0             -200               0
1.17105              -0.04430286       -12.21503        -63.84889        128.0223             -200               0             -200               0
1.17763              -0.04531575        -12.3208        -63.75389        125.8593             -200               0             -200               0
1.18421               -0.0463785       -12.42778        -63.64667        123.8095             -200               0             -200               0
1.19079              -0.04749994       -12.53596        -63.52458        121.8613             -200               0             -200               0
1.19737              -0.04868879       -12.64533        -63.38519        119.9998             -200               0             -200               0
1.20395              -0.04995452       -12.75586        -63.22651         118.207             -200               0             -200               0
1.21053              -0.05130376       -12.86753        -63.04701        116.4626             -200               0             -200               0
1.21711              -0.05274346       -12.98029        -62.84576        114.7447             -200               0             -200               0
1.22368              -0.05427645        -13.0941        -62.62247        113.0304             -200               0             -200               0
1.23026              -0.05590745       -13.20893        -62.37749        111.2973             -200               0             -200               0
1.23684              -0.05763733       -13.32472        -62.11179        109.5241             -200               0             -200               0
1.24342              -0.05946767       -13.44142        -61.82687        107.6917             -200               0             -200               0
1.25                 -0.06139484         -13.559        -61.52466        105.7836             -200               0             -200               0
1.25658              -0.06341653       -13.67741        -61.20743        103.7866             -200               0             -200               0
1.26316              -0.06552907       -13.79661        -60.87759        101.6906             -200               0             -200               0
1.26974              -0.06772508       -13.91659        -60.53767        99.48902             -200               0             -200               0
1.27632              -0.06999937       -14.03731        -60.19016        97.17805             -200               0             -200               0
1.28289              -0.07234333       -14.15877        -59.83744        94.75671             -200               0             -200               0
1.28947              -0.07474923       -14.28098        -59.48172        92.22626             -200               0             -200               0
1.29605              -0.07720755       -14.40395        -59.12502        89.58983             -200               0             -200               0
1.30263              -0.07970981       -14.52769        -58.76915        86.85203             -200               0             -200               0
1.30921              -0.08224788       -14.65226        -58.41566        84.01853             -200               0             -200               0
1.31579               -0.0848129       -14.77769        -58.06591        81.09575             -200               0             -200               0
1.32237              -0.08739842       -14.90404        -57.72101        78.09062             -200               0             -200               0
1.32895              -0.08999756       -15.03139        -57.38192        75.01032             -200               0             -200               0
1.33553              -0.09260576       -15.15981        -57.04937        71.86214             -200               0             -200               0
1.34211              -0.09522006       -15.28939        -56.72395        68.65332             -200               0             -200               0
1.34868              -0.09783768       -15.42023        -56.40612        65.39097             -200               0             -200               0
1.35526               -0.1004599       -15.55241        -56.09619        62.08198             -200               0             -200               0
1.36184               -0.1030869       -15.68603        -55.79436          58.733             -200               0             -200               0
1.36842               -0.1057237        -15.8212        -55.50074         55.3504             -200               0             -200               0
1.375                 -0.1083762       -15.95802        -55.21534        51.94019             -200               0             -200               0
1.38158               -0.1110511       -16.09656         -54.9381        48.50813             -200               0             -200               0
1.38816               -0.1137572       -16.23694         -54.6689        45.05961             -200               0             -200               0
1.39474               -0.1165065       -16.37921        -54.40755         41.5997             -200               0             -200               0
1.40132               -0.1193099       -16.52346        -54.15382        38.13315             -200               0             -200               0
1.40789               -0.1221811       -16.66975         -53.9074        34.66439             -200               0             -200               0
1.41447               -0.1251331       -16.81813        -53.66797        31.19751             -200               0             -200               0
1.42105               -0.1281805       -16.96864        -53.43516         27.7363             -200               0             -200               0
1.42763               -0.1313382        -17.1213        -53.20857        24.28419             -200               0             -200               0
1.43421                 -0.13462       -17.27614        -52.98776         20.8443             -200               0             -200               0
1.44079               -0.1380391       -17.43315        -52.77226        17.41943             -200               0             -200               0
1.44737               -0.1416097       -17.59234        -52.56158        14.01201             -200               0             -200               0
1.45395                -0.145343       -17.75369        -52.35523        10.62415             -200               0             -200               0
1.46053               -0.1492506       -17.91718        -52.15266        7.257583             -200               0             -200               0
1.46711               -0.1533407       -18.08277        -51.95335        3.913694             -200               0             -200               0
1.47368               -0.1576217       -18.25044        -51.75673        0.593499             -200               0             -200               0
1.48026               -0.1620984       -18.42015        -51.56227       -2.702365             -200               0             -200               0
1.48684               -0.1667754       -18.59186        -51.36942       -5.973632             -200               0             -200               0
1.49342               -0.1716542       -18.76555        -51.17762       -9.220417             -200               0             -200               0
1.5                   -0.1767355       -18.94119        -50.98635       -12.44321             -200               0             -200               0
1.50658                -0.182018       -19.11875         -50.7951       -15.64284             -200               0             -200               0
1.51316                -0.187498       -19.29823        -50.60338       -18.82053             -200               0             -200               0
1.51974               -0.1931726       -19.47962        -50.41075       -21.97778             -200               0             -200               0
1.52632               -0.1990344       -19.66294        -50.21677       -25.11643             -200               0             -200               0
1.53289               -0.2050797       -19.84822        -50.02108       -28.23857             -200               0             -200               0
1.53947               -0.2113008        -20.0355        -49.82336       -31.34652             -200               0             -200               0
1.54605               -0.2176909       -20.22483        -49.62331       -34.44281             -200               0             -200               0
1.55263                -0.224245       -20.41631        -49.42072       -37.53007             -200               0             -200               0
1.55921                -0.230958       -20.61001        -49.21542       -40.61107             -200               0             -200               0
1.56579               -0.2378268       -20.80605         -49.0073       -43.68858             -200               0             -200               0
1.57237               -0.2448479       -21.00456        -48.79631       -46.76538             -200               0             -200               0
1.57895               -0.2520234       -21.20567        -48.58243       -49.84417             -200               0             -200               0
1.58553               -0.2593531       -21.40952        -48.36573       -52.92756             -200               0             -200               0
1.59211               -0.2668419       -21.61629        -48.14629         -56.018             -200               0             -200               0
1.59868               -0.2745003       -21.82614        -47.92425       -59.11775             -200               0             -200               0
1.60526               -0.2823372       -22.03924        -47.69978       -62.22886             -200               0             -200               0
1.61184               -0.2903682       -22.25577         -47.4731       -65.35313             -200               0             -200               0
1.61842               -0.2986094        -22.4759        -47.24441       -68.49209             -200               0             -200               0
1.625                 -0.3070825        -22.6998        -47.01398       -71.64703             -200               0             -200               0
1.63158               -0.3158121       -22.92763        -46.78205       -74.81895             -200               0             -200               0
1.63816               -0.3248237       -23.15955        -46.54889       -78.00857             -200               0             -200               0
1.64474               -0.3341477       -23.39569        -46.31475       -81.21637             -200               0             -200               0
1.65132               -0.3438179       -23.63619        -46.07989       -84.44255             -200               0             -200               0
1.65789               -0.3538671       -23.88115        -45.84455       -87.68713             -200               0             -200               0
1.66447               -0.3643325       -24.13067        -45.60895       -90.94986             -200               0             -200               0
1.67105                -0.375252       -24.38481        -45.37332       -94.23036             -200               0             -200               0
1.67763                -0.386664       -24.64362        -45.13782       -97.52804             -200               0             -200               0
1.68421               -0.3986081       -24.90713        -44.90264       -100.8422             -200               0             -200               0
1.69079                -0.411122       -25.17536         -44.6679        -104.172             -200               0             -200               0
1.69737               -0.4242465       -25.44829        -44.43371       -107.5166             -200               0             -200               0
1.70395               -0.4380174       -25.72588        -44.20017        -110.875             -200               0             -200               0
1.71053               -0.4524723       -26.00809        -43.96733       -114.2463             -200               0             -200               0
1.71711               -0.4676451       -26.29486        -43.73522       -117.6293             -200               0             -200               0
1.72368               -0.4835685       -26.58611        -43.50384       -121.0232             -200               0             -200               0
1.73026               -0.5002737       -26.88175        -43.27317        -124.427             -200               0             -200               0
1.73684               -0.5177877       -27.18169        -43.04318       -127.8398             -200               0             -200               0
1.74342               -0.5361362       -27.48583        -42.81378       -131.2608             -200               0             -200               0
1.75                  -0.5553409       -27.79407         -42.5849       -134.6892             -200               0             -200               0
1.75658                -0.575423       -28.10632        -42.35644       -138.1246             -200               0             -200               0
1.76316               -0.5963994        -28.4225        -42.12826       -141.5663             -200               0             -200               0
1.76974               -0.6182844       -28.74252        -41.90024       -145.0141             -200               0             -200               0
1.77632                -0.641093       -29.06633        -41.67224       -148.4677             -200               0             -200               0
1.78289               -0.6648345       -29.39386         -41.4441       -151.9272             -200               0             -200               0
1.78947               -0.6895219        -29.7251        -41.21567       -155.3925             -200               0             -200               0
1.79605               -0.7151644       -30.06004        -40.98681       -158.8639             -200               0             -200               0
1.80263               -0.7417716       -30.39869        -40.75736       -162.3419             -200               0             -200               0
1.80921               -0.7693541        -30.7411        -40.52716       -165.8271             -200               0             -200               0
1.81579               -0.7979235       -31.08732         -40.2961         -169.32             -200               0             -200               0
1.82237               -0.8274932       -31.43744        -40.06403       -172.8217             -200               0             -200               0
1.82895               -0.8580791       -31.79158        -39.83085       -176.3331             -200               0             -200               0
1.83553                -0.889701       -32.14986        -39.59647       -179.8553             -200               0             -200               0
1.84211               -0.9223819       -32.51245         -39.3608        176.6105             -200               0             -200               0
1.84868               -0.9561487       -32.87951        -39.12378        173.0631             -200               0             -200               0
