! TOUCHSTONE file generated by CST MICROWAVE STUDIO
! Date and time: Sat Mar  8 13:54:36 2025
! Project name: non_fractured.cst
! Parameters = {B=2.5; D=160; F=5; Feed=2.85625; L=100; M=10; R=0.384908; S=2; Theta=270; length=57.125; wave=114.25}
! Header version: 2024
! Port assignment regex: !\s*Touchstone port\s*([0-9]+)\s*=\s*(CST MWS port|CST DES external port|CST DES block port)\s*(.+)\s* \(\"(.*)\"\)(\s*mode\s*([0-9]+))?.*
! Touchstone port assignment:
! Touchstone port 1 = CST MWS port 1 ("")
! Touchstone port 2 = CST MWS port 2 ("")
# GHz S DB R 50
1                    -0.01846549       -9.740728        -68.52729       -113.5261             -200               0             -200               0
1.0066               -0.01901091       -9.829316        -67.96112       -118.9262             -200               0             -200               0
1.0132               -0.01960689       -9.918543        -67.45095       -124.3384             -200               0             -200               0
1.0198               -0.02025758       -10.00838        -66.99205       -129.7523             -200               0             -200               0
1.0264               -0.02096248       -10.09879        -66.58058        -135.159             -200               0             -200               0
1.033                -0.02172113       -10.18974        -66.21347        -140.551             -200               0             -200               0
1.0396               -0.02253142        -10.2812        -65.88824       -145.9214             -200               0             -200               0
1.0462               -0.02339073       -10.37314         -65.6029       -151.2635             -200               0             -200               0
1.05281              -0.02429568       -10.46553        -65.35591       -156.5711             -200               0             -200               0
1.05941               -0.0252403       -10.55837        -65.14606       -161.8377             -200               0             -200               0
1.06601              -0.02622092       -10.65163        -64.97246       -167.0564             -200               0             -200               0
1.07261              -0.02722959        -10.7453         -64.8345       -172.2201             -200               0             -200               0
1.07921              -0.02826278        -10.8394        -64.73182       -177.3207             -200               0             -200               0
1.08581              -0.02931148       -10.93393        -64.66431        177.6506             -200               0             -200               0
1.09241              -0.03036805        -11.0289        -64.63206         172.704             -200               0             -200               0
1.09901              -0.03143024       -11.12435        -64.63538        167.8513             -200               0             -200               0
1.10561               -0.0324877       -11.22031        -64.67473        163.1061             -200               0             -200               0
1.11221               -0.0335371       -11.31683         -64.7508        158.4848             -200               0             -200               0
1.11881              -0.03457339       -11.41395        -64.86437        154.0065             -200               0             -200               0
1.12541              -0.03559275       -11.51173        -65.01637        149.6945             -200               0             -200               0
1.13201              -0.03659275       -11.61023        -65.20775        145.5771             -200               0             -200               0
1.13861              -0.03757233       -11.70952        -65.43938        141.6885             -200               0             -200               0
1.14521              -0.03853141       -11.80967        -65.71191        138.0709             -200               0             -200               0
1.15182               -0.0394718       -11.91074        -66.02547        134.7759             -200               0             -200               0
1.15842              -0.04039541        -12.0128         -66.3792        131.8671             -200               0             -200               0
1.16502              -0.04130763       -12.11593        -66.77056        129.4217             -200               0             -200               0
1.17162              -0.04221311       -12.22018        -67.19422        127.5319             -200               0             -200               0
1.17822              -0.04312003       -12.32562        -67.64047        126.3045             -200               0             -200               0
1.18482               -0.0440353       -12.43229        -68.09307         125.854             -200               0             -200               0
1.19142               -0.0449686       -12.54025         -68.5267        126.2876             -200               0             -200               0
1.19802              -0.04592936       -12.64954        -68.90518        127.6735             -200               0             -200               0
1.20462              -0.04692833       -12.76017        -69.18226         129.993             -200               0             -200               0
1.21122              -0.04797598       -12.87218        -69.30816        133.0888             -200               0             -200               0
1.21782              -0.04908324       -12.98556        -69.24261        136.6433             -200               0             -200               0
1.22442              -0.05026018       -13.10033        -68.96961        140.2261             -200               0             -200               0
1.23102              -0.05151839       -13.21647         -68.5043        143.4053             -200               0             -200               0
1.23762              -0.05286764       -13.33396        -67.88633        145.8608             -200               0             -200               0
1.24422              -0.05431487       -13.45277        -67.16513        147.4324             -200               0             -200               0
1.25083              -0.05586929       -13.57289        -66.38677        148.0998             -200               0             -200               0
1.25743              -0.05753643       -13.69425        -65.58737        147.9305             -200               0             -200               0
1.26403              -0.05932338       -13.81682        -64.79209         147.032             -200               0             -200               0
1.27063              -0.06123113       -13.94055        -64.01698        145.5197             -200               0             -200               0
1.27723              -0.06326388       -14.06539        -63.27148        143.5014             -200               0             -200               0
1.28383              -0.06542059        -14.1913        -62.56058        141.0709             -200               0             -200               0
1.29043              -0.06769966       -14.31823        -61.88644        138.3069             -200               0             -200               0
1.29703                -0.070101       -14.44614        -61.24948        135.2744             -200               0             -200               0
1.30363              -0.07261839       -14.57499        -60.64908        132.0268             -200               0             -200               0
1.31023              -0.07524587       -14.70476        -60.08404        128.6082             -200               0             -200               0
1.31683              -0.07798041       -14.83542        -59.55288        125.0547             -200               0             -200               0
1.32343               -0.0808116       -14.96697        -59.05397        121.3966             -200               0             -200               0
1.33003              -0.08373224       -15.09941        -58.58564        117.6594             -200               0             -200               0
1.33663               -0.0867353       -15.23275        -58.14625        113.8646             -200               0             -200               0
1.34323              -0.08981151       -15.36702        -57.73419        110.0308             -200               0             -200               0
1.34984              -0.09295313       -15.50226        -57.34792        106.1743             -200               0             -200               0
1.35644              -0.09615274       -15.63851        -56.98595        102.3095             -200               0             -200               0
1.36304              -0.09940327       -15.77584        -56.64683        98.44913             -200               0             -200               0
1.36964                -0.102701       -15.91432        -56.32914        94.60485             -200               0             -200               0
1.37624               -0.1060415       -16.05402        -56.03151        90.78728             -200               0             -200               0
1.38284               -0.1094207       -16.19504        -55.75253        87.00621             -200               0             -200               0
1.38944               -0.1128379       -16.33747        -55.49082        83.27072             -200               0             -200               0
1.39604               -0.1162965       -16.48141        -55.24496        79.58927             -200               0             -200               0
1.40264               -0.1197972       -16.62696        -55.01348        75.96969             -200               0             -200               0
1.40924               -0.1233471       -16.77421        -54.79486        72.41921             -200               0             -200               0
1.41584               -0.1269517       -16.92327        -54.58751        68.94438             -200               0             -200               0
1.42244               -0.1306205       -17.07423        -54.38976        65.55106             -200               0             -200               0
1.42904                -0.134365       -17.22717        -54.19984        62.24421             -200               0             -200               0
1.43564               -0.1381974       -17.38219         -54.0159        59.02784             -200               0             -200               0
1.44224               -0.1421319       -17.53934        -53.83598        55.90478             -200               0             -200               0
1.44884               -0.1461816        -17.6987        -53.65807        52.87651             -200               0             -200               0
1.45545               -0.1503647       -17.86029        -53.48008        49.94297             -200               0             -200               0
1.46205               -0.1546965       -18.02417        -53.29989        47.10238             -200               0             -200               0
1.46865               -0.1591942       -18.19035        -53.11538        44.35107             -200               0             -200               0
1.47525               -0.1638735       -18.35884         -52.9245        41.68338             -200               0             -200               0
1.48185                -0.168749       -18.52964        -52.72531        39.09162             -200               0             -200               0
1.48845               -0.1738391       -18.70273        -52.51603        36.56611             -200               0             -200               0
1.49505               -0.1791542       -18.87808        -52.29512        34.09539             -200               0             -200               0
1.50165               -0.1847091       -19.05566        -52.06134        31.66644             -200               0             -200               0
1.50825               -0.1905146       -19.23543        -51.81377        29.26506             -200               0             -200               0
1.51485               -0.1965772       -19.41733        -51.55188        26.87635             -200               0             -200               0
1.52145               -0.2029063       -19.60132        -51.27552        24.48522             -200               0             -200               0
1.52805               -0.2095049       -19.78733        -50.98494        22.07687             -200               0             -200               0
1.53465                -0.216377       -19.97533        -50.68073        19.63733             -200               0             -200               0
1.54125               -0.2235228       -20.16527        -50.36381        17.15389             -200               0             -200               0
1.54785               -0.2309398        -20.3571        -50.03536        14.61541             -200               0             -200               0
1.55446               -0.2386261       -20.55081        -49.69678        12.01255             -200               0             -200               0
1.56106               -0.2465765       -20.74637        -49.34958        9.337907             -200               0             -200               0
1.56766               -0.2547838       -20.94378        -48.99538        6.586038             -200               0             -200               0
1.57426               -0.2632417       -21.14305        -48.63578        3.753358             -200               0             -200               0
1.58086               -0.2719419       -21.34422        -48.27239       0.8380089             -200               0             -200               0
1.58746               -0.2808783       -21.54733        -47.90674       -2.160314             -200               0             -200               0
1.59406               -0.2900409       -21.75246        -47.54024       -5.240587             -200               0             -200               0
1.60066               -0.2994248       -21.95968         -47.1742       -8.400668             -200               0             -200               0
1.60726               -0.3090228       -22.16911        -46.80983       -11.63751             -200               0             -200               0
1.61386               -0.3188325       -22.38086        -46.44816       -14.94737             -200               0             -200               0
1.62046               -0.3288519       -22.59508        -46.09011       -18.32595             -200               0             -200               0
1.62706               -0.3390819        -22.8119        -45.73647       -21.76859             -200               0             -200               0
1.63366               -0.3495244       -23.03151         -45.3879        -25.2704             -200               0             -200               0
1.64026               -0.3601889       -23.25407        -45.04494       -28.82632             -200               0             -200               0
1.64686               -0.3710837       -23.47976        -44.70803       -32.43127             -200               0             -200               0
1.65347               -0.3822238       -23.70877        -44.37752       -36.08016             -200               0             -200               0
1.66007               -0.3936253       -23.94126        -44.05363         -39.768             -200               0             -200               0
1.66667               -0.4053109       -24.17744        -43.73656       -43.48989             -200               0             -200               0
1.67327               -0.4173035       -24.41745        -43.42637       -47.24109             -200               0             -200               0
1.67987                -0.429631       -24.66147        -43.12311       -51.01703             -200               0             -200               0
1.68647               -0.4423256       -24.90963        -42.82673       -54.81334             -200               0             -200               0
1.69307               -0.4554201       -25.16207        -42.53714       -58.62583             -200               0             -200               0
1.69967               -0.4689519        -25.4189        -42.25419       -62.45053             -200               0             -200               0
1.70627               -0.4829551        -25.6802         -41.9777       -66.28369             -200               0             -200               0
1.71287               -0.4974723       -25.94605        -41.70744        -70.1218             -200               0             -200               0
1.71947               -0.5125427       -26.21648        -41.44313       -73.96157             -200               0             -200               0
1.72607               -0.5282062       -26.49152        -41.18446       -77.79997             -200               0             -200               0
1.73267               -0.5445023       -26.77116        -40.93111        -81.6342             -200               0             -200               0
1.73927               -0.5614701       -27.05538        -40.68269       -85.46175             -200               0             -200               0
1.74587               -0.5791473       -27.34414        -40.43881       -89.28034             -200               0             -200               0
1.75248               -0.5975683       -27.63736        -40.19904       -93.08802             -200               0             -200               0
1.75908               -0.6167671       -27.93497        -39.96295        -96.8831             -200               0             -200               0
1.76568                -0.636773       -28.23688        -39.73006       -100.6642             -200               0             -200               0
1.77228               -0.6576135       -28.54299         -39.4999       -104.4303             -200               0             -200               0
1.77888               -0.6793126        -28.8532        -39.27198       -108.1806             -200               0             -200               0
1.78548               -0.7018894       -29.16741         -39.0458       -111.9147             -200               0             -200               0
1.79208               -0.7253617       -29.48551        -38.82087       -115.6327             -200               0             -200               0
1.79868               -0.7497412       -29.80743        -38.59668       -119.3347             -200               0             -200               0
1.80528                -0.775039       -30.13309        -38.37275       -123.0215             -200               0             -200               0
1.81188               -0.8012625       -30.46244        -38.14861       -126.6941             -200               0             -200               0
1.81848               -0.8284169       -30.79546         -37.9238       -130.3538             -200               0             -200               0
1.82508               -0.8565046       -31.13215        -37.69789       -134.0022             -200               0             -200               0
1.83168               -0.8855294       -31.47253         -37.4705       -137.6414             -200               0             -200               0
1.83828               -0.9154916        -31.8167        -37.24125       -141.2737             -200               0             -200               0
1.84488                -0.946395       -32.16473        -37.00984       -144.9015             -200               0             -200               0
1.85149               -0.9782436       -32.51679          -36.776       -148.5277             -200               0             -200               0
