! TOUCHSTONE file generated by CST MICROWAVE STUDIO
! Date and time: Sat Mar  8 13:54:05 2025
! Project name: non_fractured.cst
! Parameters = {B=2.5; D=160; F=10; Feed=2.85625; L=100; M=5; R=0.384908; S=2; Theta=90; length=57.125; wave=114.25}
! Header version: 2024
! Port assignment regex: !\s*Touchstone port\s*([0-9]+)\s*=\s*(CST MWS port|CST DES external port|CST DES block port)\s*(.+)\s* \(\"(.*)\"\)(\s*mode\s*([0-9]+))?.*
! Touchstone port assignment:
! Touchstone port 1 = CST MWS port 1 ("")
! Touchstone port 2 = CST MWS port 2 ("")
# GHz S DB R 50
1                    -0.01844838       -9.753898        -66.66893       -104.0007             -200               0             -200               0
1.00662               -0.0191099        -9.84286          -66.095       -109.6649             -200               0             -200               0
1.01325              -0.01982307       -9.932357        -65.57298       -115.3011             -200               0             -200               0
1.01987               -0.0205863       -10.02236        -65.09834       -120.9055             -200               0             -200               0
1.02649              -0.02139794       -10.11284        -64.66742       -126.4746             -200               0             -200               0
1.03311               -0.0222542       -10.20376        -64.27717       -132.0048             -200               0             -200               0
1.03974               -0.0231522       -10.29512        -63.92512       -137.4925             -200               0             -200               0
1.04636              -0.02408583        -10.3869        -63.60918       -142.9338             -200               0             -200               0
1.05298              -0.02505141       -10.47908        -63.32766       -148.3247             -200               0             -200               0
1.0596                -0.0260424       -10.57166        -63.07914       -153.6607             -200               0             -200               0
1.06623              -0.02705266       -10.66465        -62.86244       -158.9371             -200               0             -200               0
1.07285              -0.02807579       -10.75805        -62.67661       -164.1483             -200               0             -200               0
1.07947              -0.02910565        -10.8519        -62.52085       -169.2883             -200               0             -200               0
1.08609              -0.03013684       -10.94621        -62.39454       -174.3503             -200               0             -200               0
1.09272              -0.03116334       -11.04101        -62.29714       -179.3266             -200               0             -200               0
1.09934              -0.03217928       -11.13637        -62.22822        175.7917             -200               0             -200               0
1.10596              -0.03318273       -11.23231        -62.18742        171.0145             -200               0             -200               0
1.11258              -0.03416753       -11.32889        -62.17441        166.3532             -200               0             -200               0
1.11921               -0.0351329       -11.42617        -62.18885         161.821             -200               0             -200               0
1.12583              -0.03607739       -11.52422        -62.23034         157.433             -200               0             -200               0
1.13245              -0.03700169        -11.6231        -62.29836        153.2062             -200               0             -200               0
1.13907              -0.03790624       -11.72287         -62.3922        149.1605             -200               0             -200               0
1.1457               -0.03879359        -11.8236        -62.51085        145.3182             -200               0             -200               0
1.15232              -0.03966786       -11.92534        -62.65285        141.7047             -200               0             -200               0
1.15894              -0.04053425       -12.02817         -62.8161        138.3484             -200               0             -200               0
1.16556              -0.04139908       -12.13214        -62.99767        135.2804             -200               0             -200               0
1.17219              -0.04226939       -12.23729        -63.19347        132.5341             -200               0             -200               0
1.17881               -0.0431533       -12.34368        -63.39799        130.1434             -200               0             -200               0
1.18543               -0.0440598       -12.45135         -63.6039        128.1409             -200               0             -200               0
1.19205              -0.04499802       -12.56031        -63.80181        126.5534             -200               0             -200               0
1.19868              -0.04597689        -12.6706        -63.98014        125.3972             -200               0             -200               0
1.2053               -0.04700762       -12.78223        -64.12534        124.6705             -200               0             -200               0
1.21192              -0.04809869        -12.8952        -64.22262        124.3471             -200               0             -200               0
1.21854              -0.04926133       -13.00952        -64.25734        124.3698             -200               0             -200               0
1.22517              -0.05050294       -13.12516        -64.21692        124.6493             -200               0             -200               0
1.23179              -0.05183279       -13.24211        -64.09294        125.0692             -200               0             -200               0
1.23841              -0.05325765       -13.36035        -63.88273        125.4984             -200               0             -200               0
1.24503              -0.05478524       -13.47985        -63.58995        125.8072             -200               0             -200               0
1.25166              -0.05641961       -13.60057        -63.22376        125.8842             -200               0             -200               0
1.25828              -0.05816492       -13.72248        -62.79708        125.6462             -200               0             -200               0
1.2649               -0.06002508       -13.84554        -62.32452        125.0428             -200               0             -200               0
1.27152              -0.06200127       -13.96971        -61.82046        124.0536             -200               0             -200               0
1.27815              -0.06409411       -14.09495        -61.29788        122.6816             -200               0             -200               0
1.28477              -0.06630215       -14.22122        -60.76769        120.9464             -200               0             -200               0
1.29139              -0.06862421        -14.3485        -60.23858        118.8773             -200               0             -200               0
1.29801              -0.07105637       -14.47677        -59.71721        116.5084             -200               0             -200               0
1.30464              -0.07359393       -14.60599        -59.20851        113.8748             -200               0             -200               0
1.31126              -0.07623336       -14.73617        -58.71596        111.0111             -200               0             -200               0
1.31788              -0.07896829        -14.8673        -58.24197        107.9493             -200               0             -200               0
1.3245               -0.08179305       -14.99938        -57.78808        104.7189             -200               0             -200               0
1.33113              -0.08470197       -15.13243        -57.35522        101.3467             -200               0             -200               0
1.33775              -0.08769018       -15.26648        -56.94387         97.8565             -200               0             -200               0
1.34437              -0.09074895       -15.40155        -56.55415        94.26984             -200               0             -200               0
1.35099              -0.09387633       -15.53769        -56.18595        90.60594             -200               0             -200               0
1.35762              -0.09706665       -15.67496          -55.839        86.88214             -200               0             -200               0
1.36424               -0.1003166        -15.8134        -55.51289         83.1141             -200               0             -200               0
1.37086               -0.1036243       -15.95308         -55.2071        79.31613             -200               0             -200               0
1.37748               -0.1069881       -16.09408        -54.92106        75.50137             -200               0             -200               0
1.38411               -0.1104081       -16.23647        -54.65415        71.68204             -200               0             -200               0
1.39073                -0.113887       -16.38032        -54.40566        67.86955             -200               0             -200               0
1.39735               -0.1174268       -16.52571        -54.17488        64.07468             -200               0             -200               0
1.40397               -0.1210315       -16.67271        -53.96099        60.30771             -200               0             -200               0
1.4106                -0.1247093       -16.82141        -53.76315        56.57848             -200               0             -200               0
1.41722               -0.1284647       -16.97187        -53.58043        52.89647             -200               0             -200               0
1.42384               -0.1323084       -17.12416        -53.41183        49.27082             -200               0             -200               0
1.43046               -0.1362487       -17.27834        -53.25623        45.71037             -200               0             -200               0
1.43709               -0.1402964       -17.43445        -53.11244        42.22361             -200               0             -200               0
1.44371               -0.1444622       -17.59256         -52.9791         38.8186             -200               0             -200               0
1.45033               -0.1487577       -17.75268        -52.85474        35.50291             -200               0             -200               0
1.45695               -0.1531947       -17.91486        -52.73772        32.28347             -200               0             -200               0
1.46358               -0.1577845       -18.07911        -52.62625        29.16636             -200               0             -200               0
1.4702                -0.1625385       -18.24544        -52.51836        26.15659             -200               0             -200               0
1.47682               -0.1674678       -18.41386        -52.41192        23.25787             -200               0             -200               0
1.48344               -0.1725821       -18.58435        -52.30466        20.47224             -200               0             -200               0
1.49007               -0.1778915       -18.75692        -52.19416        17.79983             -200               0             -200               0
1.49669               -0.1834027       -18.93155        -52.07794         15.2385             -200               0             -200               0
1.50331               -0.1891232       -19.10822        -51.95349         12.7836             -200               0             -200               0
1.50993               -0.1950575        -19.2869        -51.81835        10.42776             -200               0             -200               0
1.51656               -0.2012104       -19.46759        -51.67018        8.160813             -200               0             -200               0
1.52318               -0.2075847       -19.65027        -51.50688        5.969914             -200               0             -200               0
1.5298                -0.2141803       -19.83492        -51.32667        3.839725             -200               0             -200               0
1.53642               -0.2209972       -20.02153        -51.12818        1.752886             -200               0             -200               0
1.54305               -0.2280358       -20.21012        -50.91052      -0.3093944             -200               0             -200               0
1.54967               -0.2352909       -20.40068        -50.67332       -2.366627             -200               0             -200               0
1.55629               -0.2427618       -20.59324        -50.41674       -4.438245             -200               0             -200               0
1.56291               -0.2504433       -20.78784        -50.14148       -6.542842             -200               0             -200               0
1.56954               -0.2583311       -20.98452        -49.84867       -8.697467             -200               0             -200               0
1.57616               -0.2664221       -21.18334        -49.53983       -10.91707             -200               0             -200               0
1.58278               -0.2747126       -21.38438        -49.21679       -13.21414             -200               0             -200               0
1.5894                -0.2831991       -21.58773        -48.88158       -15.59844             -200               0             -200               0
1.59603               -0.2918797        -21.7935         -48.5363       -18.07707             -200               0             -200               0
1.60265               -0.3007551       -22.00179        -48.18311        -20.6545             -200               0             -200               0
1.60927               -0.3098257       -22.21275        -47.82408       -23.33286             -200               0             -200               0
1.61589               -0.3190959       -22.42651         -47.4612       -26.11217             -200               0             -200               0
1.62252               -0.3285712       -22.64322         -47.0963       -28.99071             -200               0             -200               0
1.62914               -0.3382599       -22.86305        -46.73103       -31.96536             -200               0             -200               0
1.63576               -0.3481729       -23.08616        -46.36686       -35.03185             -200               0             -200               0
1.64238               -0.3583262       -23.31272        -46.00509       -38.18513             -200               0             -200               0
1.64901               -0.3687356       -23.54289        -45.64681       -41.41951             -200               0             -200               0
1.65563                -0.379421       -23.77684        -45.29295         -44.729             -200               0             -200               0
1.66225               -0.3904067       -24.01472        -44.94425       -48.10736             -200               0             -200               0
1.66887               -0.4017195       -24.25671        -44.60134        -51.5483             -200               0             -200               0
1.6755                -0.4133884       -24.50293        -44.26469       -55.04557             -200               0             -200               0
1.68212               -0.4254441       -24.75352        -43.93465       -58.59303             -200               0             -200               0
1.68874               -0.4379213        -25.0086        -43.61145       -62.18472             -200               0             -200               0
1.69536               -0.4508559       -25.26826        -43.29525       -65.81493             -200               0             -200               0
1.70199               -0.4642861        -25.5326         -42.9861       -69.47817             -200               0             -200               0
1.70861               -0.4782508       -25.80167        -42.68399       -73.16923             -200               0             -200               0
1.71523               -0.4927894       -26.07551        -42.38881       -76.88319             -200               0             -200               0
1.72185               -0.5079418       -26.35417        -42.10043       -80.61544             -200               0             -200               0
1.72848               -0.5237495       -26.63763        -41.81864       -84.36165             -200               0             -200               0
1.7351                -0.5402517       -26.92589        -41.54319       -88.11782             -200               0             -200               0
1.74172               -0.5574864       -27.21892        -41.27379       -91.88024             -200               0             -200               0
1.74834               -0.5754931       -27.51666        -41.01009       -95.64555             -200               0             -200               0
1.75497               -0.5943087       -27.81907        -40.75173       -99.41067             -200               0             -200               0
1.76159                -0.613966       -28.12605        -40.49831       -103.1729             -200               0             -200               0
1.76821                -0.634498       -28.43754        -40.24939       -106.9298             -200               0             -200               0
1.77483               -0.6559344       -28.75342        -40.00454       -110.6793             -200               0             -200               0
1.78146               -0.6783029       -29.07363        -39.76327       -114.4197             -200               0             -200               0
1.78808               -0.7016284       -29.39805        -39.52509       -118.1497             -200               0             -200               0
1.7947                -0.7259349        -29.7266        -39.28953       -121.8683             -200               0             -200               0
1.80132               -0.7512416       -30.05919        -39.05605       -125.5747             -200               0             -200               0
1.80795               -0.7775675       -30.39575        -38.82418       -129.2689             -200               0             -200               0
1.81457                -0.804929       -30.73621        -38.59339       -132.9508             -200               0             -200               0
1.82119               -0.8333411       -31.08051        -38.36321        -136.621             -200               0             -200               0
1.82781               -0.8628155       -31.42865        -38.13315       -140.2803             -200               0             -200               0
1.83444                -0.893368        -31.7806        -37.90277         -143.93             -200               0             -200               0
1.84106               -0.9250097       -32.13638        -37.67163       -147.5714             -200               0             -200               0
1.84768               -0.9577541       -32.49603        -37.43935       -151.2066             -200               0             -200               0
1.8543                -0.9916162       -32.85961        -37.20556       -154.8377             -200               0             -200               0
