! TOUCHSTONE file generated by CST MICROWAVE STUDIO
! Date and time: Sat Mar  8 13:55:39 2025
! Project name: non_fractured.cst
! Parameters = {B=2.5; D=160; F=25; Feed=2.85625; L=100; M=20; R=0.384908; S=1.5; Theta=90; length=57.125; wave=114.25}
! Header version: 2024
! Port assignment regex: !\s*Touchstone port\s*([0-9]+)\s*=\s*(CST MWS port|CST DES external port|CST DES block port)\s*(.+)\s* \(\"(.*)\"\)(\s*mode\s*([0-9]+))?.*
! Touchstone port assignment:
! Touchstone port 1 = CST MWS port 1 ("")
! Touchstone port 2 = CST MWS port 2 ("")
# GHz S DB R 50
1                     -0.0197095       -9.752798        -66.03923       -176.8812             -200               0             -200               0
1.00662              -0.02041502       -9.840514        -66.13029        178.1717             -200               0             -200               0
1.01325              -0.02113851       -9.928767        -66.25456        173.4103             -200               0             -200               0
1.01987              -0.02187881       -10.01757        -66.41239        168.8585             -200               0             -200               0
1.02649              -0.02263573       -10.10693        -66.60396        164.5456             -200               0             -200               0
1.03311              -0.02340903       -10.19687        -66.82903         160.507             -200               0             -200               0
1.03974              -0.02419787        -10.2874        -67.08672        156.7855             -200               0             -200               0
1.04636              -0.02500246       -10.37854         -67.3751         153.432             -200               0             -200               0
1.05298               -0.0258229       -10.47031        -67.69059        150.5065             -200               0             -200               0
1.0596               -0.02666041       -10.56273        -68.02722        148.0772             -200               0             -200               0
1.06623              -0.02751453       -10.65581        -68.37553        146.2186             -200               0             -200               0
1.07285               -0.0283874       -10.74958        -68.72129        145.0047             -200               0             -200               0
1.07947              -0.02927913       -10.84405        -69.04441        144.4974             -200               0             -200               0
1.08609              -0.03019181       -10.93924        -69.31831        144.7258             -200               0             -200               0
1.09272              -0.03112709       -11.03517        -69.51121        145.6604             -200               0             -200               0
1.09934              -0.03208661       -11.13186        -69.59004        147.1872             -200               0             -200               0
1.10596              -0.03307361       -11.22931        -69.52743        149.0986             -200               0             -200               0
1.11258              -0.03408822       -11.32756        -69.30941        151.1151             -200               0             -200               0
1.11921               -0.0351343        -11.4266        -68.94003        152.9397             -200               0             -200               0
1.12583              -0.03621512       -11.52645        -68.43992        154.3206             -200               0             -200               0
1.13245              -0.03733041       -11.62711        -67.83976        155.0917             -200               0             -200               0
1.13907              -0.03848524        -11.7286         -67.1725        155.1802             -200               0             -200               0
1.1457               -0.03968031       -11.83093        -66.46763        154.5871             -200               0             -200               0
1.15232              -0.04091874       -11.93409        -65.74858        153.3599             -200               0             -200               0
1.15894              -0.04220191       -12.03809        -65.03241        151.5686             -200               0             -200               0
1.16556              -0.04353285       -12.14293        -64.33075        149.2897             -200               0             -200               0
1.17219              -0.04491202       -12.24862        -63.65108        146.5965             -200               0             -200               0
1.17881              -0.04634096       -12.35515        -62.99786        143.5549             -200               0             -200               0
1.18543              -0.04782115       -12.46252        -62.37351        140.2223             -200               0             -200               0
1.19205               -0.0493531       -12.57075        -61.77911        136.6476             -200               0             -200               0
1.19868              -0.05093823       -12.67981        -61.21482         132.872             -200               0             -200               0
1.2053               -0.05257545       -12.78973        -60.68027        128.9303             -200               0             -200               0
1.21192              -0.05426662        -12.9005        -60.17479        124.8516             -200               0             -200               0
1.21854              -0.05600958       -13.01212        -59.69748        120.6606             -200               0             -200               0
1.22517              -0.05780593       -13.12461        -59.24739        116.3783             -200               0             -200               0
1.23179              -0.05965338       -13.23797        -58.82352        112.0226             -200               0             -200               0
1.23841              -0.06155193        -13.3522        -58.42489         107.609             -200               0             -200               0
1.24503              -0.06350104       -13.46733        -58.05055         103.151             -200               0             -200               0
1.25166              -0.06550008       -13.58337        -57.69957        98.66053             -200               0             -200               0
1.25828              -0.06754782       -13.70032        -57.37111        94.14828             -200               0             -200               0
1.2649               -0.06964333       -13.81822        -57.06434        89.62381             -200               0             -200               0
1.27152              -0.07178724       -13.93709         -56.7785        85.09593             -200               0             -200               0
1.27815              -0.07397751       -14.05694        -56.51284        80.57279             -200               0             -200               0
1.28477              -0.07621602        -14.1778        -56.26668        76.06207             -200               0             -200               0
1.29139              -0.07850104        -14.2997        -56.03935        71.57107             -200               0             -200               0
1.29801              -0.08083438       -14.42268         -55.8302        67.10683             -200               0             -200               0
1.30464              -0.08321616       -14.54675        -55.63859        62.67623             -200               0             -200               0
1.31126               -0.0856471       -14.67195        -55.46388        58.28605             -200               0             -200               0
1.31788              -0.08812927       -14.79831        -55.30544        53.94301             -200               0             -200               0
1.3245               -0.09066387       -14.92585        -55.16258        49.65389             -200               0             -200               0
1.33113              -0.09325338       -15.05463        -55.03462        45.42548             -200               0             -200               0
1.33775              -0.09589999       -15.18465        -54.92079        41.26467             -200               0             -200               0
1.34437               -0.0986059       -15.31595        -54.82029        37.17839             -200               0             -200               0
1.35099               -0.1013751       -15.44857        -54.73223        33.17367             -200               0             -200               0
1.35762               -0.1042094       -15.58252        -54.65561        29.25755             -200               0             -200               0
1.36424               -0.1071126       -15.71784        -54.58932        25.43706             -200               0             -200               0
1.37086               -0.1100873       -15.85454        -54.53213        21.71909             -200               0             -200               0
1.37748               -0.1131365       -15.99266        -54.48264        18.11029             -200               0             -200               0
1.38411               -0.1162643        -16.1322        -54.43928        14.61688             -200               0             -200               0
1.39073               -0.1194731        -16.2732        -54.40029        11.24445             -200               0             -200               0
1.39735                -0.122766       -16.41567        -54.36374        7.997666             -200               0             -200               0
1.40397               -0.1261449       -16.55964        -54.32749            4.88             -200               0             -200               0
1.4106                -0.1296124       -16.70511         -54.2892        1.893334             -200               0             -200               0
1.41722               -0.1331711       -16.85212         -54.2464      -0.9623892             -200               0             -200               0
1.42384               -0.1368216       -17.00067         -54.1965       -3.689554             -200               0             -200               0
1.43046               -0.1405667        -17.1508        -54.13684       -6.293208             -200               0             -200               0
1.43709               -0.1444057       -17.30252        -54.06478        -8.78133             -200               0             -200               0
1.44371               -0.1483408       -17.45586        -53.97783       -11.16497             -200               0             -200               0
1.45033               -0.1523721       -17.61084         -53.8737       -13.45819             -200               0             -200               0
1.45695               -0.1564993       -17.76751        -53.75045       -15.67789             -200               0             -200               0
1.46358               -0.1607228        -17.9259        -53.60659       -17.84325             -200               0             -200               0
1.4702                -0.1650427       -18.08604        -53.44116       -19.97516             -200               0             -200               0
1.47682               -0.1694581       -18.24798        -53.25376       -22.09534             -200               0             -200               0
1.48344               -0.1739704       -18.41178        -53.04463       -24.22547             -200               0             -200               0
1.49007               -0.1785788       -18.57749        -52.81456       -26.38627             -200               0             -200               0
1.49669               -0.1832842       -18.74517        -52.56486        -28.5967             -200               0             -200               0
1.50331               -0.1880879       -18.91489        -52.29729       -30.87331             -200               0             -200               0
1.50993               -0.1929909       -19.08672        -52.01392        -33.2298             -200               0             -200               0
1.51656               -0.1979948       -19.26074        -51.71704       -35.67682             -200               0             -200               0
1.52318               -0.2031034       -19.43702        -51.40903       -38.22194             -200               0             -200               0
1.5298                -0.2083196       -19.61567        -51.09231        -40.8698             -200               0             -200               0
1.53642               -0.2136498       -19.79677        -50.76918        -43.6224             -200               0             -200               0
1.54305               -0.2190992       -19.98041        -50.44185       -46.47942             -200               0             -200               0
1.54967                -0.224673        -20.1667        -50.11234       -49.43864             -200               0             -200               0
1.55629               -0.2303811       -20.35573        -49.78245       -52.49631             -200               0             -200               0
1.56291               -0.2362325       -20.54759        -49.45379       -55.64748             -200               0             -200               0
1.56954               -0.2422378       -20.74241        -49.12776       -58.88635             -200               0             -200               0
1.57616               -0.2484086       -20.94026        -48.80554       -62.20651             -200               0             -200               0
1.58278                -0.254758       -21.14125        -48.48813       -65.60119             -200               0             -200               0
1.5894                -0.2613007       -21.34548        -48.17634       -69.06341             -200               0             -200               0
1.59603               -0.2680519       -21.55304        -47.87082       -72.58616             -200               0             -200               0
1.60265               -0.2750272       -21.76401        -47.57207       -76.16248             -200               0             -200               0
1.60927               -0.2822453       -21.97849        -47.28046       -79.78551             -200               0             -200               0
1.61589               -0.2897233       -22.19654        -46.99625       -83.44861             -200               0             -200               0
1.62252               -0.2974815       -22.41825        -46.71958       -87.14536             -200               0             -200               0
1.62914               -0.3055384       -22.64368         -46.4505        -90.8696             -200               0             -200               0
1.63576               -0.3139144        -22.8729        -46.18899       -94.61541             -200               0             -200               0
1.64238               -0.3226302       -23.10595        -45.93493        -98.3772             -200               0             -200               0
1.64901               -0.3317056        -23.3429        -45.68815       -102.1496             -200               0             -200               0
1.65563               -0.3411626       -23.58377         -45.4484       -105.9277             -200               0             -200               0
1.66225               -0.3510204       -23.82863        -45.21539       -109.7066             -200               0             -200               0
1.66887               -0.3613005       -24.07749        -44.98875       -113.4821             -200               0             -200               0
1.6755                -0.3720238        -24.3304        -44.76808       -117.2499             -200               0             -200               0
1.68212               -0.3832087       -24.58738        -44.55292       -121.0064             -200               0             -200               0
1.68874               -0.3948751       -24.84846        -44.34277       -124.7481             -200               0             -200               0
1.69536               -0.4070432       -25.11368        -44.13709       -128.4719             -200               0             -200               0
1.70199               -0.4197304       -25.38305        -43.93528       -132.1753             -200               0             -200               0
1.70861               -0.4329554       -25.65661        -43.73674        -135.856             -200               0             -200               0
1.71523               -0.4467364       -25.93438         -43.5408       -139.5121             -200               0             -200               0
1.72185               -0.4610903       -26.21641        -43.34679       -143.1422             -200               0             -200               0
1.72848               -0.4760354       -26.50275          -43.154       -146.7457             -200               0             -200               0
1.7351                -0.4915882       -26.79343        -42.96173        -150.322             -200               0             -200               0
1.74172               -0.5077669        -27.0885        -42.76924       -153.8714             -200               0             -200               0
1.74834               -0.5245888       -27.38805        -42.57583       -157.3947             -200               0             -200               0
1.75497               -0.5420721       -27.69212        -42.38079       -160.8931             -200               0             -200               0
1.76159               -0.5602362       -28.00082        -42.18343       -164.3685             -200               0             -200               0
1.76821               -0.5791011       -28.31423        -41.98311       -167.8234             -200               0             -200               0
1.77483               -0.5986861       -28.63244        -41.77922       -171.2607             -200               0             -200               0
1.78146               -0.6190162       -28.95557        -41.57123       -174.6838             -200               0             -200               0
1.78808               -0.6401147       -29.28375        -41.35865       -178.0967             -200               0             -200               0
1.7947                 -0.662008        -29.6171        -41.14108        178.4964             -200               0             -200               0
1.80132               -0.6847248       -29.95577        -40.91821        175.0908             -200               0             -200               0
1.80795               -0.7082966        -30.2999        -40.68982        171.6818             -200               0             -200               0
1.81457               -0.7327569       -30.64964        -40.45578        168.2645             -200               0             -200               0
1.82119               -0.7581446       -31.00516        -40.21605        164.8338             -200               0             -200               0
1.82781                -0.784499       -31.36662        -39.97071        161.3848             -200               0             -200               0
1.83444               -0.8118655       -31.73419         -39.7199        157.9128             -200               0             -200               0
1.84106               -0.8402903       -32.10804        -39.46386        154.4131             -200               0             -200               0
1.84768               -0.8698269       -32.48834        -39.20293        150.8814             -200               0             -200               0
1.8543                -0.9005313       -32.87526        -38.93747         147.314             -200               0             -200               0
