! TOUCHSTONE file generated by CST MICROWAVE STUDIO
! Date and time: Sat Mar  8 13:55:37 2025
! Project name: non_fractured.cst
! Parameters = {B=2.5; D=160; F=25; Feed=2.85625; L=100; M=20; R=0.384908; S=1; Theta=90; length=57.125; wave=114.25}
! Header version: 2024
! Port assignment regex: !\s*Touchstone port\s*([0-9]+)\s*=\s*(CST MWS port|CST DES external port|CST DES block port)\s*(.+)\s* \(\"(.*)\"\)(\s*mode\s*([0-9]+))?.*
! Touchstone port assignment:
! Touchstone port 1 = CST MWS port 1 ("")
! Touchstone port 2 = CST MWS port 2 ("")
# GHz S DB R 50
1                    -0.02096985       -9.751916          -64.903       -172.7121             -200               0             -200               0
1.0066               -0.02160446       -9.838046        -64.99652        -178.233             -200               0             -200               0
1.0132               -0.02221934       -9.924789        -65.12758        176.3961             -200               0             -200               0
1.0198               -0.02281642        -10.0122        -65.29792         171.193             -200               0             -200               0
1.0264               -0.02339916       -10.10032        -65.50953        166.1804             -200               0             -200               0
1.033                -0.02397048        -10.1892        -65.76456        161.3878             -200               0             -200               0
1.0396               -0.02453502       -10.27888        -66.06532        156.8526             -200               0             -200               0
1.0462                -0.0250985       -10.36942        -66.41408        152.6231             -200               0             -200               0
1.05281              -0.02566629       -10.46082        -66.81282        148.7617             -200               0             -200               0
1.05941              -0.02624481       -10.55314        -67.26269         145.349             -200               0             -200               0
1.06601              -0.02684184       -10.64638        -67.76306         142.489             -200               0             -200               0
1.07261              -0.02746475       -10.74056         -68.3099        140.3142             -200               0             -200               0
1.07921              -0.02812059        -10.8357        -68.89301        138.9888             -200               0             -200               0
1.08581              -0.02881611       -10.93178        -69.49165        138.7042             -200               0             -200               0
1.09241              -0.02955981       -11.02881        -70.06875        139.6548             -200               0             -200               0
1.09901              -0.03035676       -11.12677        -70.56533         141.975             -200               0             -200               0
1.10561              -0.03121377       -11.22565        -70.90132        145.6278             -200               0             -200               0
1.11221              -0.03213619       -11.32541        -70.99216        150.2799             -200               0             -200               0
1.11881              -0.03312756       -11.42603        -70.78298         155.284             -200               0             -200               0
1.12541              -0.03419196       -11.52748        -70.27876        159.8677             -200               0             -200               0
1.13201              -0.03533202       -11.62973        -69.54135        163.4258             -200               0             -200               0
1.13861              -0.03654781       -11.73274        -68.65629        165.6776             -200               0             -200               0
1.14521              -0.03783999       -11.83648        -67.70072        166.6221             -200               0             -200               0
1.15182              -0.03920701        -11.9409        -66.72975        166.4101             -200               0             -200               0
1.15842               -0.0406478         -12.046        -65.77725         165.239             -200               0             -200               0
1.16502              -0.04215756       -12.15173         -64.8617        163.2978             -200               0             -200               0
1.17162              -0.04373389       -12.25807        -63.99185        160.7469             -200               0             -200               0
1.17822              -0.04537058       -12.36502         -63.1708        157.7154             -200               0             -200               0
1.18482              -0.04706378       -12.47255        -62.39854        154.3046             -200               0             -200               0
1.19142              -0.04880569       -12.58069        -61.67345        150.5935             -200               0             -200               0
1.19802               -0.0505915       -12.68941        -60.99318        146.6442             -200               0             -200               0
1.20462              -0.05241488       -12.79875        -60.35512         142.505             -200               0             -200               0
1.21122              -0.05426881       -12.90873        -59.75665        138.2146             -200               0             -200               0
1.21782              -0.05614897       -13.01938        -59.19526        133.8037             -200               0             -200               0
1.22442               -0.0580488       -13.13073        -58.66863        129.2975             -200               0             -200               0
1.23102                -0.059964       -13.24283        -58.17462        124.7165             -200               0             -200               0
1.23762              -0.06189197       -13.35574        -57.71131        120.0777             -200               0             -200               0
1.24422              -0.06382855       -13.46951        -57.27696        115.3957             -200               0             -200               0
1.25083              -0.06577287        -13.5842        -56.87001        110.6827             -200               0             -200               0
1.25743              -0.06772443       -13.69987        -56.48903        105.9494             -200               0             -200               0
1.26403               -0.0696849        -13.8166        -56.13276        101.2053             -200               0             -200               0
1.27063              -0.07165506       -13.93445        -55.80005        96.45881             -200               0             -200               0
1.27723              -0.07363918       -14.05348        -55.48985        91.71762             -200               0             -200               0
1.28383              -0.07564234       -14.17376        -55.20119        86.98882             -200               0             -200               0
1.29043              -0.07766929       -14.29535         -54.9332        82.27908             -200               0             -200               0
1.29703              -0.07972719       -14.41829        -54.68505        77.59478             -200               0             -200               0
1.30363              -0.08182469       -14.54264        -54.45596        72.94205             -200               0             -200               0
1.31023              -0.08396933       -14.66844        -54.24521        68.32691             -200               0             -200               0
1.31683              -0.08617082       -14.79572        -54.05208        63.75534             -200               0             -200               0
1.32343              -0.08843777       -14.92452        -53.87586        59.23329             -200               0             -200               0
1.33003               -0.0907791       -15.05483        -53.71584        54.76678             -200               0             -200               0
1.33663              -0.09320614       -15.18668        -53.57132         50.3619             -200               0             -200               0
1.34323              -0.09572615       -15.32007        -53.44153        46.02488             -200               0             -200               0
1.34984               -0.0983491       -15.45499        -53.32568        41.76202             -200               0             -200               0
1.35644               -0.1010814       -15.59143        -53.22292        37.57977             -200               0             -200               0
1.36304               -0.1039313       -15.72937         -53.1323        33.48467             -200               0             -200               0
1.36964               -0.1069033       -15.86877        -53.05279        29.48327             -200               0             -200               0
1.37624                -0.110002       -16.00963        -52.98325        25.58215             -200               0             -200               0
1.38284               -0.1132317       -16.15191        -52.92238        21.78772             -200               0             -200               0
1.38944               -0.1165937       -16.29557        -52.86875        18.10614             -200               0             -200               0
1.39604               -0.1200889       -16.44059        -52.82075         14.5431             -200               0             -200               0
1.40264                -0.123716       -16.58695         -52.7766        11.10365             -200               0             -200               0
1.40924               -0.1274738       -16.73462        -52.73431        7.791857             -200               0             -200               0
1.41584                -0.131357       -16.88358        -52.69172        4.610533             -200               0             -200               0
1.42244               -0.1353633       -17.03382         -52.6465        1.560872             -200               0             -200               0
1.42904               -0.1394859       -17.18535        -52.59616       -1.357924             -200               0             -200               0
1.43564               -0.1437198       -17.33818        -52.53813       -4.149003             -200               0             -200               0
1.44224               -0.1480577       -17.49232        -52.46978       -6.818175             -200               0             -200               0
1.44884               -0.1524924        -17.6478        -52.38856       -9.374158             -200               0             -200               0
1.45545               -0.1570185       -17.80467        -52.29203       -11.82866             -200               0             -200               0
1.46205               -0.1616265       -17.96298        -52.17801       -14.19631             -200               0             -200               0
1.46865               -0.1663133        -18.1228        -52.04469       -16.49438             -200               0             -200               0
1.47525               -0.1710711        -18.2842         -51.8907       -18.74227             -200               0             -200               0
1.48185                -0.175898       -18.44727        -51.71521       -20.96088             -200               0             -200               0
1.48845               -0.1807885        -18.6121        -51.51796       -23.17174             -200               0             -200               0
1.49505               -0.1857423       -18.77881        -51.29927       -25.39612             -200               0             -200               0
1.50165                -0.190759       -18.94751        -51.06005       -27.65423             -200               0             -200               0
1.50825                -0.195842       -19.11831        -50.80166       -29.96438             -200               0             -200               0
1.51485               -0.2009923       -19.29134        -50.52589       -32.34249             -200               0             -200               0
1.52145               -0.2062184       -19.46671        -50.23481       -34.80159             -200               0             -200               0
1.52805               -0.2115267       -19.64457        -49.93071       -37.35173             -200               0             -200               0
1.53465               -0.2169273       -19.82502        -49.61594       -39.99998             -200               0             -200               0
1.54125               -0.2224316       -20.00819        -49.29284       -42.75057             -200               0             -200               0
1.54785               -0.2280526       -20.19419        -48.96368       -45.60521             -200               0             -200               0
1.55446               -0.2338071       -20.38313        -48.63059       -48.56342             -200               0             -200               0
1.56106               -0.2397099       -20.57512        -48.29553       -51.62291             -200               0             -200               0
1.56766               -0.2457798       -20.77024        -47.96026       -54.77992             -200               0             -200               0
1.57426               -0.2520353       -20.96857        -47.62634       -58.02961             -200               0             -200               0
1.58086               -0.2584956       -21.17019         -47.2951       -61.36632             -200               0             -200               0
1.58746               -0.2651812       -21.37516         -46.9677       -64.78383             -200               0             -200               0
1.59406               -0.2721115       -21.58353        -46.64509       -68.27561             -200               0             -200               0
1.60066               -0.2793075       -21.79534        -46.32808       -71.83492             -200               0             -200               0
1.60726               -0.2867889       -22.01062        -46.01729       -75.45503             -200               0             -200               0
1.61386               -0.2945741       -22.22939        -45.71321       -79.12924             -200               0             -200               0
1.62046               -0.3026815       -22.45167        -45.41622         -82.851             -200               0             -200               0
1.62706               -0.3111288       -22.67746        -45.12657       -86.61392             -200               0             -200               0
1.63366               -0.3199326       -22.90678        -44.84441       -90.41189             -200               0             -200               0
1.64026               -0.3291072       -23.13962        -44.56981       -94.23899             -200               0             -200               0
1.64686                -0.338666       -23.37598        -44.30276       -98.08959             -200               0             -200               0
1.65347               -0.3486222       -23.61588        -44.04318       -101.9584             -200               0             -200               0
1.66007               -0.3589859       -23.85931        -43.79092       -105.8402             -200               0             -200               0
1.66667               -0.3697688        -24.1063        -43.54577       -109.7303             -200               0             -200               0
1.67327               -0.3809791       -24.35685        -43.30747       -113.6241             -200               0             -200               0
1.67987               -0.3926232       -24.61101        -43.07571       -117.5175             -200               0             -200               0
1.68647               -0.4047116        -24.8688        -42.85014       -121.4064             -200               0             -200               0
1.69307                -0.417248        -25.1303        -42.63035       -125.2872             -200               0             -200               0
1.69967               -0.4302424       -25.39556         -42.4159       -129.1567             -200               0             -200               0
1.70627               -0.4437009       -25.66466        -42.20632       -133.0117             -200               0             -200               0
1.71287               -0.4576322       -25.93771        -42.00109       -136.8497             -200               0             -200               0
1.71947               -0.4720458        -26.2148        -41.79967       -140.6682             -200               0             -200               0
1.72607               -0.4869512       -26.49608        -41.60146       -144.4653             -200               0             -200               0
1.73267               -0.5023613       -26.78167        -41.40587       -148.2396             -200               0             -200               0
1.73927               -0.5182931       -27.07174        -41.21228       -151.9898             -200               0             -200               0
1.74587               -0.5347597       -27.36645        -41.02004       -155.7152             -200               0             -200               0
1.75248               -0.5517854       -27.66597        -40.82849       -159.4155             -200               0             -200               0
1.75908               -0.5693908        -27.9705        -40.63699       -163.0911             -200               0             -200               0
1.76568               -0.5876045       -28.28022        -40.44488       -166.7427             -200               0             -200               0
1.77228               -0.6064547       -28.59533        -40.25152       -170.3713             -200               0             -200               0
1.77888               -0.6259767       -28.91603        -40.05629       -173.9789             -200               0             -200               0
1.78548               -0.6462085       -29.24252        -39.85861       -177.5674             -200               0             -200               0
1.79208               -0.6671911       -29.57499        -39.65792        178.8604             -200               0             -200               0
1.79868               -0.6889708       -29.91363        -39.45372        175.3014             -200               0             -200               0
1.80528               -0.7115975       -30.25861        -39.24559        171.7522             -200               0             -200               0
1.81188               -0.7351233       -30.61012        -39.03314        168.2089             -200               0             -200               0
1.81848                -0.759606       -30.96831        -38.81607        164.6675             -200               0             -200               0
1.82508               -0.7851047       -31.33331        -38.59418        161.1237             -200               0             -200               0
1.83168               -0.8116832       -31.70526        -38.36731         157.573             -200               0             -200               0
1.83828               -0.8394084       -32.08427        -38.13542        154.0109             -200               0             -200               0
1.84488               -0.8683487       -32.47041        -37.89853         150.433             -200               0             -200               0
1.85149               -0.8985766       -32.86378        -37.65677        146.8349             -200               0             -200               0
