! TOUCHSTONE file generated by CST MICROWAVE STUDIO
! Date and time: Sat Mar  8 13:55:54 2025
! Project name: non_fractured.cst
! Parameters = {B=2.5; D=160; F=10; Feed=2.85625; L=100; M=30; R=0.384908; S=1; Theta=0; length=57.125; wave=114.25}
! Header version: 2024
! Port assignment regex: !\s*Touchstone port\s*([0-9]+)\s*=\s*(CST MWS port|CST DES external port|CST DES block port)\s*(.+)\s* \(\"(.*)\"\)(\s*mode\s*([0-9]+))?.*
! Touchstone port assignment:
! Touchstone port 1 = CST MWS port 1 ("")
! Touchstone port 2 = CST MWS port 2 ("")
# GHz S DB R 50
1                    -0.01818317       -9.786101        -68.59574       -124.6491             -200               0             -200               0
1.00658               -0.0191899       -9.875603         -68.0419       -130.4887             -200               0             -200               0
1.01316              -0.02027143       -9.965245        -67.54211       -136.2778             -200               0             -200               0
1.01974              -0.02141543       -10.05498        -67.09184       -142.0159             -200               0             -200               0
1.02632              -0.02260862       -10.14476        -66.68743       -147.7013             -200               0             -200               0
1.03289              -0.02383846       -10.23458        -66.32592       -153.3321             -200               0             -200               0
1.03947               -0.0250892       -10.32442        -66.00492       -158.9054             -200               0             -200               0
1.04605              -0.02634897       -10.41431        -65.72249       -164.4178             -200               0             -200               0
1.05263              -0.02760049       -10.50427        -65.47706       -169.8652             -200               0             -200               0
1.05921               -0.0288313       -10.59435        -65.26739       -175.2426             -200               0             -200               0
1.06579              -0.03002847       -10.68461        -65.09251        179.4558             -200               0             -200               0
1.07237              -0.03118168       -10.77512        -64.95168         174.237             -200               0             -200               0
1.07895              -0.03228178       -10.86598        -64.84437        169.1091             -200               0             -200               0
1.08553              -0.03332079       -10.95728         -64.7702        164.0815             -200               0             -200               0
1.09211              -0.03429469       -11.04914        -64.72894        159.1654             -200               0             -200               0
1.09868              -0.03520119       -11.14166        -64.72045        154.3738             -200               0             -200               0
1.10526              -0.03604162       -11.23495        -64.74465        149.7222             -200               0             -200               0
1.11184              -0.03681722       -11.32914        -64.80146        145.2287             -200               0             -200               0
1.11842              -0.03753551       -11.42433        -64.89074        140.9148             -200               0             -200               0
1.125                -0.03820315       -11.52062        -65.01218        136.8058             -200               0             -200               0
1.13158              -0.03883167       -11.61811        -65.16514        132.9315             -200               0             -200               0
1.13816              -0.03943349       -11.71688        -65.34847        129.3269             -200               0             -200               0
1.14474              -0.04002281       -11.81701        -65.56022        126.0329             -200               0             -200               0
1.15132              -0.04061505       -11.91854        -65.79723         123.096             -200               0             -200               0
1.15789              -0.04122646       -12.02151        -66.05464        120.5687             -200               0             -200               0
1.16447              -0.04187381       -12.12594         -66.3252         118.507             -200               0             -200               0
1.17105              -0.04257568       -12.23185        -66.59848        116.9673             -200               0             -200               0
1.17763              -0.04334738        -12.3392        -66.86017        115.9987             -200               0             -200               0
1.18421              -0.04420384       -12.44797        -67.09158         115.632             -200               0             -200               0
1.19079              -0.04516048       -12.55811        -67.27005        115.8639             -200               0             -200               0
1.19737              -0.04622965       -12.66956        -67.37069        116.6401             -200               0             -200               0
1.20395              -0.04742249       -12.78224        -67.36992        117.8438             -200               0             -200               0
1.21053              -0.04874591       -12.89608        -67.25025        119.2973             -200               0             -200               0
1.21711              -0.05020703       -13.01099        -67.00469        120.7839             -200               0             -200               0
1.22368              -0.05180801       -13.12686        -66.63873        122.0852             -200               0             -200               0
1.23026              -0.05354938       -13.24361        -66.16866        123.0185             -200               0             -200               0
1.23684              -0.05542824       -13.36115        -65.61737        123.4606             -200               0             -200               0
1.24342              -0.05744019       -13.47938        -65.00949         123.352             -200               0             -200               0
1.25                 -0.05957657       -13.59824        -64.36767        122.6854             -200               0             -200               0
1.25658              -0.06182774       -13.71766        -63.71069        121.4897             -200               0             -200               0
1.26316              -0.06418146       -13.83758        -63.05292        119.8136             -200               0             -200               0
1.26974              -0.06662435       -13.95797        -62.40475        117.7137             -200               0             -200               0
1.27632              -0.06914089       -14.07882        -61.77331        115.2476             -200               0             -200               0
1.28289               -0.0717162       -14.20011        -61.16324        112.4691             -200               0             -200               0
1.28947              -0.07433422       -14.32188        -60.57736        109.4268             -200               0             -200               0
1.29605              -0.07697809       -14.44417        -60.01723        106.1635             -200               0             -200               0
1.30263              -0.07963464       -14.56702         -59.4835        102.7163             -200               0             -200               0
1.30921              -0.08228852       -14.69053        -58.97626        99.11718             -200               0             -200               0
1.31579              -0.08492825       -14.81479        -58.49519        95.39386             -200               0             -200               0
1.32237              -0.08754364       -14.93991        -58.03971         91.5702             -200               0             -200               0
1.32895              -0.09012794       -15.06601        -57.60909        87.66693             -200               0             -200               0
1.33553              -0.09267493       -15.19324        -57.20252        83.70219             -200               0             -200               0
1.34211              -0.09518312       -15.32173        -56.81911        79.69195             -200               0             -200               0
1.34868              -0.09765374       -15.45162        -56.45795        75.65042             -200               0             -200               0
1.35526               -0.1000933       -15.58307        -56.11814        71.59034             -200               0             -200               0
1.36184               -0.1025067       -15.71622        -55.79875        67.52328             -200               0             -200               0
1.36842               -0.1049053       -15.85121        -55.49884        63.45985             -200               0             -200               0
1.375                 -0.1073029       -15.98815        -55.21748        59.40982             -200               0             -200               0
1.38158               -0.1097153       -16.12718        -54.95372        55.38235             -200               0             -200               0
1.38816               -0.1121608       -16.26838         -54.7066        51.38601             -200               0             -200               0
1.39474               -0.1146601       -16.41185         -54.4751        47.42892             -200               0             -200               0
1.40132               -0.1172339       -16.55764        -54.25819        43.51878             -200               0             -200               0
1.40789               -0.1199047        -16.7058        -54.05479        39.66286             -200               0             -200               0
1.41447                -0.122695       -16.85636        -53.86374        35.86808             -200               0             -200               0
1.42105               -0.1256271       -17.00931        -53.68381         32.1409             -200               0             -200               0
1.42763               -0.1287223       -17.16463        -53.51371        28.48732             -200               0             -200               0
1.43421               -0.1320015        -17.3223        -53.35203        24.91278             -200               0             -200               0
1.44079               -0.1354825       -17.48226        -53.19728        21.42205             -200               0             -200               0
1.44737               -0.1391817       -17.64443        -53.04786         18.0191             -200               0             -200               0
1.45395               -0.1431122       -17.80874        -52.90208        14.70696             -200               0             -200               0
1.46053               -0.1472857        -17.9751        -52.75816         11.4875             -200               0             -200               0
1.46711               -0.1517097       -18.14341        -52.61422        8.361294             -200               0             -200               0
1.47368               -0.1563889       -18.31358        -52.46834        5.327412             -200               0             -200               0
1.48026               -0.1613244        -18.4855         -52.3186        2.383265             -200               0             -200               0
1.48684               -0.1665131       -18.65909        -52.16307       -0.475544             -200               0             -200               0
1.49342               -0.1719525       -18.83428        -51.99989       -3.255277             -200               0             -200               0
1.5                   -0.1776317       -19.01098        -51.82733       -5.964071             -200               0             -200               0
1.50658               -0.1835414       -19.18915        -51.64384       -8.611856             -200               0             -200               0
1.51316               -0.1896709       -19.36876        -51.44811       -11.21016             -200               0             -200               0
1.51974               -0.1960038       -19.54979         -51.2391       -13.77183             -200               0             -200               0
1.52632               -0.2025263       -19.73226        -51.01611       -16.31065             -200               0             -200               0
1.53289               -0.2092226        -19.9162        -50.77879       -18.84092             -200               0             -200               0
1.53947               -0.2160778       -20.10167        -50.52717       -21.37693             -200               0             -200               0
1.54605               -0.2230762       -20.28877         -50.2616       -23.93255             -200               0             -200               0
1.55263               -0.2302056        -20.4776        -49.98279       -26.52073             -200               0             -200               0
1.55921               -0.2374543        -20.6683        -49.69171       -29.15315             -200               0             -200               0
1.56579               -0.2448135       -20.86102        -49.38958       -31.83993             -200               0             -200               0
1.57237               -0.2522777       -21.05595        -49.07777       -34.58947             -200               0             -200               0
1.57895               -0.2598452       -21.25326         -48.7578       -37.40828             -200               0             -200               0
1.58553               -0.2675179       -21.45317        -48.43121       -40.30111             -200               0             -200               0
1.59211               -0.2753015       -21.65588        -48.09957       -43.27093             -200               0             -200               0
1.59868               -0.2832063       -21.86161         -47.7644        -46.3191             -200               0             -200               0
1.60526               -0.2912474       -22.07058        -47.42718       -49.44558             -200               0             -200               0
1.61184               -0.2994441       -22.28298        -47.08924       -52.64907             -200               0             -200               0
1.61842               -0.3078196       -22.49903        -46.75185       -55.92726             -200               0             -200               0
1.625                 -0.3164017       -22.71891        -46.41613       -59.27699             -200               0             -200               0
1.63158               -0.3252198       -22.94279        -46.08306       -62.69446             -200               0             -200               0
1.63816               -0.3343108       -23.17082        -45.75353       -66.17535             -200               0             -200               0
1.64474               -0.3437111       -23.40312        -45.42826       -69.71502             -200               0             -200               0
1.65132               -0.3534572        -23.6398        -45.10789       -73.30856             -200               0             -200               0
1.65789               -0.3635917       -23.88092        -44.79293       -76.95096             -200               0             -200               0
1.66447               -0.3741551       -24.12654        -44.48378       -80.63712             -200               0             -200               0
1.67105               -0.3851894       -24.37667        -44.18074       -84.36199             -200               0             -200               0
1.67763               -0.3967333       -24.63129        -43.88405       -88.12054             -200               0             -200               0
1.68421                -0.408828       -24.89038        -43.59383       -91.90789             -200               0             -200               0
1.69079               -0.4215088       -25.15388        -43.31015       -95.71925             -200               0             -200               0
1.69737               -0.4348123       -25.42169        -43.03301       -99.55003             -200               0             -200               0
1.70395               -0.4487691       -25.69373        -42.76233       -103.3958             -200               0             -200               0
1.71053               -0.4634081       -25.96988        -42.49799       -107.2523             -200               0             -200               0
1.71711               -0.4787541       -26.25002         -42.2398       -111.1155             -200               0             -200               0
1.72368               -0.4948278       -26.53402        -41.98753       -114.9817             -200               0             -200               0
1.73026               -0.5116453       -26.82175         -41.7409       -118.8473             -200               0             -200               0
1.73684               -0.5292207       -27.11309        -41.49959       -122.7089             -200               0             -200               0
1.74342               -0.5475605       -27.40793        -41.26323       -126.5636             -200               0             -200               0
1.75                  -0.5666731       -27.70617        -41.03142       -130.4085             -200               0             -200               0
1.75658               -0.5865596       -28.00774        -40.80371       -134.2412             -200               0             -200               0
1.76316               -0.6072184       -28.31259        -40.57965       -138.0596             -200               0             -200               0
1.76974               -0.6286474       -28.62068        -40.35871       -141.8618             -200               0             -200               0
1.77632               -0.6508428       -28.93202        -40.14039       -145.6464             -200               0             -200               0
1.78289               -0.6737999       -29.24666        -39.92414       -149.4123             -200               0             -200               0
1.78947               -0.6975158       -29.56467         -39.7094       -153.1587             -200               0             -200               0
1.79605               -0.7219858       -29.88615        -39.49558       -156.8855             -200               0             -200               0
1.80263               -0.7472085       -30.21126        -39.28213       -160.5927             -200               0             -200               0
1.80921               -0.7731869       -30.54017        -39.06846       -164.2809             -200               0             -200               0
1.81579               -0.7999269       -30.87311        -38.85402        -167.951             -200               0             -200               0
1.82237               -0.8274389       -31.21031        -38.63825       -171.6046             -200               0             -200               0
1.82895               -0.8557376       -31.55205        -38.42065       -175.2434             -200               0             -200               0
1.83553               -0.8848478       -31.89864        -38.20072       -178.8698             -200               0             -200               0
1.84211               -0.9147963       -32.25036        -37.97804        177.5137             -200               0             -200               0
1.84868               -0.9456215       -32.60758        -37.75219        173.9041             -200               0             -200               0
