! TOUCHSTONE file generated by CST MICROWAVE STUDIO
! Date and time: Sat Mar  8 13:55:08 2025
! Project name: non_fractured.cst
! Parameters = {B=2.5; D=160; F=5; Feed=2.85625; L=100; M=20; R=0.384908; S=1; Theta=90; length=57.125; wave=114.25}
! Header version: 2024
! Port assignment regex: !\s*Touchstone port\s*([0-9]+)\s*=\s*(CST MWS port|CST DES external port|CST DES block port)\s*(.+)\s* \(\"(.*)\"\)(\s*mode\s*([0-9]+))?.*
! Touchstone port assignment:
! Touchstone port 1 = CST MWS port 1 ("")
! Touchstone port 2 = CST MWS port 2 ("")
# GHz S DB R 50
1                    -0.01838833       -9.728616        -69.79535       -96.71611             -200               0             -200               0
1.0066                -0.0189967       -9.817199        -69.05728       -103.2378             -200               0             -200               0
1.0132               -0.01966334       -9.906351        -68.39328       -109.6075             -200               0             -200               0
1.0198               -0.02038576       -9.996037        -67.79481       -115.8479             -200               0             -200               0
1.0264               -0.02116458       -10.08622        -67.25514       -121.9751             -200               0             -200               0
1.033                -0.02199826       -10.17687        -66.76886       -128.0004             -200               0             -200               0
1.0396               -0.02288052       -10.26796        -66.33162       -133.9313             -200               0             -200               0
1.0462                -0.0238092       -10.35946        -65.93988       -139.7729             -200               0             -200               0
1.05281              -0.02477922       -10.45135        -65.59078       -145.5281             -200               0             -200               0
1.05941               -0.0257839       -10.54362        -65.28197       -151.1979             -200               0             -200               0
1.06601               -0.0268179       -10.63627        -65.01154        -156.782             -200               0             -200               0
1.07261              -0.02787343        -10.7293        -64.77794       -162.2784             -200               0             -200               0
1.07921              -0.02894467       -10.82272        -64.57994       -167.6841             -200               0             -200               0
1.08581              -0.03002402       -10.91655        -64.41657       -172.9943             -200               0             -200               0
1.09241              -0.03110662       -11.01082        -64.28704       -178.2031             -200               0             -200               0
1.09901               -0.0321853       -11.10556        -64.19078        176.6971             -200               0             -200               0
1.10561              -0.03325373       -11.20081        -64.12734        171.7156             -200               0             -200               0
1.11221              -0.03430951       -11.29663         -64.0964        166.8636             -200               0             -200               0
1.11881              -0.03534838       -11.39306        -64.09767        162.1547             -200               0             -200               0
1.12541              -0.03636706       -11.49017        -64.13089        157.6048             -200               0             -200               0
1.13201              -0.03736407       -11.58802        -64.19573        153.2332             -200               0             -200               0
1.13861              -0.03834059       -11.68667        -64.29171        149.0625             -200               0             -200               0
1.14521               -0.0392987       -11.78619        -64.41806        145.1191             -200               0             -200               0
1.15182               -0.0402388       -11.88664        -64.57355        141.4343             -200               0             -200               0
1.15842               -0.0411656       -11.98809        -64.75623         138.044             -200               0             -200               0
1.16502              -0.04208432        -12.0906        -64.96312        134.9894             -200               0             -200               0
1.17162              -0.04299979       -12.19421        -65.18976        132.3161             -200               0             -200               0
1.17822              -0.04392173       -12.29899        -65.42969        130.0731             -200               0             -200               0
1.18482              -0.04485633       -12.40497         -65.6738        128.3095             -200               0             -200               0
1.19142               -0.0458126       -12.51219        -65.90972        127.0689             -200               0             -200               0
1.19802               -0.0467993       -12.62067        -66.12148        126.3802             -200               0             -200               0
1.20462                -0.047826       -12.73044        -66.28964        126.2462             -200               0             -200               0
1.21122              -0.04890193       -12.84151        -66.39253         126.629             -200               0             -200               0
1.21782              -0.05003618       -12.95388        -66.40882        127.4395             -200               0             -200               0
1.22442              -0.05123803       -13.06754        -66.32118        128.5359             -200               0             -200               0
1.23102              -0.05251546       -13.18248        -66.12014         129.736             -200               0             -200               0
1.23762              -0.05387574       -13.29869        -65.80645        130.8446             -200               0             -200               0
1.24422              -0.05532476       -13.41613        -65.39084        131.6853             -200               0             -200               0
1.25083              -0.05686793       -13.53478        -64.89129        132.1248             -200               0             -200               0
1.25743              -0.05851149       -13.65461        -64.32909        132.0839             -200               0             -200               0
1.26403              -0.06025587       -13.77557        -63.72533         131.533             -200               0             -200               0
1.27063              -0.06210432       -13.89765        -63.09855         130.481             -200               0             -200               0
1.27723              -0.06405664        -14.0208        -62.46372         128.961             -200               0             -200               0
1.28383              -0.06611016       -14.14498         -61.8322        127.0188             -200               0             -200               0
1.29043              -0.06826578       -14.27019        -61.21221         124.705             -200               0             -200               0
1.29703              -0.07051913       -14.39639        -60.60937        122.0692             -200               0             -200               0
1.30363              -0.07286547       -14.52357        -60.02738        119.1578             -200               0             -200               0
1.31023               -0.0753005       -14.65172        -59.46851        116.0125             -200               0             -200               0
1.31683              -0.07781755       -14.78085        -58.93401        112.6701             -200               0             -200               0
1.32343              -0.08041442       -14.91096        -58.42443        109.1629             -200               0             -200               0
1.33003              -0.08308096       -15.04208        -57.93982        105.5188             -200               0             -200               0
1.33663               -0.0858135       -15.17424         -57.4799        101.7622             -200               0             -200               0
1.34323              -0.08860621       -15.30748         -57.0442        97.91418             -200               0             -200               0
1.34984              -0.09145532       -15.44184        -56.63209        93.99323             -200               0             -200               0
1.35644              -0.09435618       -15.57738        -56.24287        90.01565             -200               0             -200               0
1.36304              -0.09730563       -15.71418         -55.8758        85.99587             -200               0             -200               0
1.36964               -0.1003016        -15.8523        -55.53009        81.94681             -200               0             -200               0
1.37624               -0.1033446       -15.99182        -55.20496        77.88014             -200               0             -200               0
1.38284               -0.1064357       -16.13282         -54.8996        73.80648             -200               0             -200               0
1.38944               -0.1095786       -16.27538        -54.61323        69.73564             -200               0             -200               0
1.39604               -0.1127758        -16.4196        -54.34502        65.67671             -200               0             -200               0
1.40264               -0.1160363       -16.56554        -54.09418        61.63827             -200               0             -200               0
1.40924               -0.1193653        -16.7133        -53.85986        57.62839             -200               0             -200               0
1.41584               -0.1227729       -16.86294         -53.6412        53.65477             -200               0             -200               0
1.42244               -0.1262686       -17.01453        -53.43733        49.72481             -200               0             -200               0
1.42904               -0.1298673       -17.16814         -53.2473        45.84559             -200               0             -200               0
1.43564               -0.1335781       -17.32383        -53.07015        42.02392             -200               0             -200               0
1.44224               -0.1374156       -17.48162        -52.90481         38.2663             -200               0             -200               0
1.44884               -0.1413953       -17.64156        -52.75017        34.57894             -200               0             -200               0
1.45545               -0.1455295       -17.80367        -52.60502        30.96766             -200               0             -200               0
1.46205               -0.1498348       -17.96796        -52.46805        27.43781             -200               0             -200               0
1.46865                -0.154322       -18.13443        -52.33788        23.99419             -200               0             -200               0
1.47525                -0.159006       -18.30307        -52.21298        20.64092             -200               0             -200               0
1.48185               -0.1638992       -18.47387        -52.09174        17.38124             -200               0             -200               0
1.48845               -0.1690127       -18.64679        -51.97244         14.2174             -200               0             -200               0
1.49505               -0.1743557       -18.82181        -51.85329         11.1504             -200               0             -200               0
1.50165                -0.179937       -18.99889        -51.73239        8.179867             -200               0             -200               0
1.50825               -0.1857638       -19.17798        -51.60784        5.303816             -200               0             -200               0
1.51485               -0.1918404       -19.35906        -51.47771        2.518533             -200               0             -200               0
1.52145               -0.1981704       -19.54206        -51.34013      -0.1815496             -200               0             -200               0
1.52805               -0.2047554       -19.72696         -51.1933       -2.803888             -200               0             -200               0
1.53465               -0.2115947       -19.91373         -51.0356       -5.357783             -200               0             -200               0
1.54125               -0.2186861       -20.10234        -50.86561       -7.854244             -200               0             -200               0
1.54785                -0.226027       -20.29278        -50.68217       -10.30573             -200               0             -200               0
1.55446               -0.2336118       -20.48504        -50.48445       -12.72584             -200               0             -200               0
1.56106               -0.2414367       -20.67912        -50.27195       -15.12884             -200               0             -200               0
1.56766               -0.2494946       -20.87506        -50.04453       -17.52923             -200               0             -200               0
1.57426               -0.2577802       -21.07289        -49.80245       -19.94127             -200               0             -200               0
1.58086               -0.2662852       -21.27267        -49.54625       -22.37847             -200               0             -200               0
1.58746               -0.2750037       -21.47446        -49.27683       -24.85319             -200               0             -200               0
1.59406               -0.2839324       -21.67836        -48.99531       -27.37635             -200               0             -200               0
1.60066               -0.2930677       -21.88445        -48.70304       -29.95712             -200               0             -200               0
1.60726                -0.302405       -22.09287        -48.40148       -32.60288             -200               0             -200               0
1.61386               -0.3119438       -22.30373        -48.09218       -35.31914             -200               0             -200               0
1.62046                -0.321688       -22.51719        -47.77672       -38.10959             -200               0             -200               0
1.62706               -0.3316412       -22.73339        -47.45665       -40.97624             -200               0             -200               0
1.63366               -0.3418103       -22.95249        -47.13347        -43.9196             -200               0             -200               0
1.64026               -0.3522064       -23.17465        -46.80859       -46.93884             -200               0             -200               0
1.64686               -0.3628401       -23.40005        -46.48329         -50.032             -200               0             -200               0
1.65347               -0.3737293       -23.62885        -46.15874       -53.19622             -200               0             -200               0
1.66007               -0.3848932       -23.86121        -45.83599        -56.4279             -200               0             -200               0
1.66667               -0.3963542       -24.09729        -45.51594        -59.7229             -200               0             -200               0
1.67327               -0.4081369       -24.33723        -45.19937       -63.07667             -200               0             -200               0
1.67987               -0.4202702       -24.58119        -44.88694       -66.48439             -200               0             -200               0
1.68647               -0.4327836       -24.82927        -44.57917       -69.94107             -200               0             -200               0
1.69307               -0.4457096        -25.0816        -44.27649       -73.44168             -200               0             -200               0
1.69967                -0.459083       -25.33826        -43.97922       -76.98115             -200               0             -200               0
1.70627               -0.4729395       -25.59932        -43.68758       -80.55452             -200               0             -200               0
1.71287               -0.4873149       -25.86486        -43.40171       -84.15691             -200               0             -200               0
1.71947                -0.502245       -26.13489        -43.12168       -87.78361             -200               0             -200               0
1.72607               -0.5177705       -26.40944        -42.84746       -91.43006             -200               0             -200               0
1.73267               -0.5339236       -26.68852        -42.57898       -95.09196             -200               0             -200               0
1.73927               -0.5507435       -26.97209        -42.31609       -98.76517             -200               0             -200               0
1.74587                -0.568263       -27.26014         -42.0586       -102.4458             -200               0             -200               0
1.75248               -0.5865155       -27.55261        -41.80625       -106.1304             -200               0             -200               0
1.75908               -0.6055324       -27.84945        -41.55875       -109.8154             -200               0             -200               0
1.76568               -0.6253423        -28.1506        -41.31576        -113.498             -200               0             -200               0
1.77228               -0.6459724       -28.45598        -41.07689       -117.1753             -200               0             -200               0
1.77888                -0.667447       -28.76552        -40.84174       -120.8449             -200               0             -200               0
1.78548               -0.6897872       -29.07915        -40.60985       -124.5049             -200               0             -200               0
1.79208               -0.7130144        -29.3968        -40.38076       -128.1534             -200               0             -200               0
1.79868               -0.7371454       -29.71844        -40.15397       -131.7891             -200               0             -200               0
1.80528               -0.7621951       -30.04399        -39.92897        -135.411             -200               0             -200               0
1.81188               -0.7881783       -30.37344        -39.70524       -139.0186             -200               0             -200               0
1.81848               -0.8151075       -30.70678        -39.48225       -142.6118             -200               0             -200               0
1.82508               -0.8429946       -31.04401        -39.25948       -146.1906             -200               0             -200               0
1.83168               -0.8718516       -31.38516         -39.0364       -149.7558             -200               0             -200               0
1.83828               -0.9016896        -31.7303        -38.81251       -153.3085             -200               0             -200               0
1.84488               -0.9325241        -32.0795        -38.58734       -156.8501             -200               0             -200               0
1.85149               -0.9643674       -32.43288        -38.36042       -160.3825             -200               0             -200               0
