! TOUCHSTONE file generated by CST MICROWAVE STUDIO
! Date and time: Sat Mar  8 13:55:24 2025
! Project name: non_fractured.cst
! Parameters = {B=2.5; D=160; F=15; Feed=2.85625; L=100; M=20; R=0.384908; S=2; Theta=90; length=57.125; wave=114.25}
! Header version: 2024
! Port assignment regex: !\s*Touchstone port\s*([0-9]+)\s*=\s*(CST MWS port|CST DES external port|CST DES block port)\s*(.+)\s* \(\"(.*)\"\)(\s*mode\s*([0-9]+))?.*
! Touchstone port assignment:
! Touchstone port 1 = CST MWS port 1 ("")
! Touchstone port 2 = CST MWS port 2 ("")
# GHz S DB R 50
1                    -0.01894282       -9.742574        -68.67383       -145.7398             -200               0             -200               0
1.00658              -0.01973821       -9.830416        -68.44104       -149.6142             -200               0             -200               0
1.01316              -0.02057391       -9.918649        -68.22798       -153.4307             -200               0             -200               0
1.01974              -0.02144477       -10.00726        -68.03348       -157.1799             -200               0             -200               0
1.02632               -0.0223466       -10.09624        -67.85632       -160.8523             -200               0             -200               0
1.03289              -0.02327338       -10.18559        -67.69517       -164.4389             -200               0             -200               0
1.03947              -0.02421899       -10.27531        -67.54862       -167.9304             -200               0             -200               0
1.04605              -0.02517911       -10.36542        -67.41509        -171.318             -200               0             -200               0
1.05263              -0.02614867       -10.45594        -67.29286       -174.5932             -200               0             -200               0
1.05921              -0.02712101       -10.54689           -67.18        -177.748             -200               0             -200               0
1.06579              -0.02809317       -10.63831        -67.07437        179.2249             -200               0             -200               0
1.07237              -0.02906066       -10.73023        -66.97362        176.3316             -200               0             -200               0
1.07895              -0.03002028       -10.82269        -66.87515        173.5766             -200               0             -200               0
1.08553              -0.03096972       -10.91575        -66.77614        170.9626             -200               0             -200               0
1.09211              -0.03190817       -11.00945         -66.6736        168.4898             -200               0             -200               0
1.09868              -0.03283568       -11.10385        -66.56438        166.1556             -200               0             -200               0
1.10526              -0.03375236       -11.19899         -66.4453        163.9537             -200               0             -200               0
1.11184              -0.03466077       -11.29494         -66.3132        161.8744             -200               0             -200               0
1.11842               -0.0355636       -11.39173        -66.16512        159.9041             -200               0             -200               0
1.125                -0.03646566       -11.48942        -65.99843        158.0253             -200               0             -200               0
1.13158              -0.03737127       -11.58804        -65.81095        156.2174             -200               0             -200               0
1.13816              -0.03828642       -11.68765         -65.6011        154.4569             -200               0             -200               0
1.14474              -0.03921631       -11.78827          -65.368        152.7188             -200               0             -200               0
1.15132              -0.04016985       -11.88994        -65.11152        150.9774             -200               0             -200               0
1.15789              -0.04115205       -11.99266        -64.83226        149.2077             -200               0             -200               0
1.16447              -0.04217334       -12.09646         -64.5315        147.3863             -200               0             -200               0
1.17105               -0.0432386       -12.20133        -64.21114        145.4928             -200               0             -200               0
1.17763              -0.04435553       -12.30729        -63.87349        143.5098             -200               0             -200               0
1.18421              -0.04553155       -12.41433         -63.5212        141.4241             -200               0             -200               0
1.19079              -0.04677224       -12.52242        -63.15705        139.2259             -200               0             -200               0
1.19737              -0.04808377       -12.63156        -62.78389        136.9093             -200               0             -200               0
1.20395              -0.04947055       -12.74172        -62.40444        134.4716             -200               0             -200               0
1.21053              -0.05093642       -12.85287        -62.02131        131.9131             -200               0             -200               0
1.21711              -0.05248384       -12.96499        -61.63688        129.2363             -200               0             -200               0
1.22368              -0.05411534       -13.07805        -61.25327        126.4458             -200               0             -200               0
1.23026              -0.05583083       -13.19201        -60.87237        123.5472             -200               0             -200               0
1.23684              -0.05762963       -13.30686         -60.4958        120.5476             -200               0             -200               0
1.24342              -0.05951036       -13.42256        -60.12492        117.4544             -200               0             -200               0
1.25                 -0.06147065       -13.53909        -59.76088        114.2756             -200               0             -200               0
1.25658              -0.06350801       -13.65643        -59.40463        111.0193             -200               0             -200               0
1.26316              -0.06561625       -13.77459        -59.05691        107.6936             -200               0             -200               0
1.26974              -0.06779177       -13.89354         -58.7183        104.3065             -200               0             -200               0
1.27632              -0.07002909        -14.0133        -58.38924        100.8659             -200               0             -200               0
1.28289              -0.07232241       -14.13388        -58.07005        97.37927             -200               0             -200               0
1.28947              -0.07466668       -14.25528        -57.76093        93.85401             -200               0             -200               0
1.29605              -0.07705637       -14.37756        -57.46197        90.29713             -200               0             -200               0
1.30263              -0.07948675       -14.50073         -57.1732        86.71535             -200               0             -200               0
1.30921              -0.08195229       -14.62484        -56.89455        83.11512             -200               0             -200               0
1.31579               -0.0844502       -14.74994         -56.6259        79.50256             -200               0             -200               0
1.32237              -0.08697689       -14.87609        -56.36706        75.88354             -200               0             -200               0
1.32895              -0.08953014       -15.00334        -56.11778        72.26364             -200               0             -200               0
1.33553              -0.09210904       -15.13177        -55.87775        68.64818             -200               0             -200               0
1.34211              -0.09471471       -15.26143        -55.64664         65.0422             -200               0             -200               0
1.34868              -0.09734835        -15.3924        -55.42403        61.45048             -200               0             -200               0
1.35526               -0.1000127       -15.52475        -55.20949        57.87754             -200               0             -200               0
1.36184               -0.1027116       -15.65855        -55.00251        54.32763             -200               0             -200               0
1.36842                -0.105449       -15.79386        -54.80256        50.80469             -200               0             -200               0
1.375                 -0.1082335       -15.93075        -54.60905        47.31238             -200               0             -200               0
1.38158               -0.1110693       -16.06926        -54.42136          43.854             -200               0             -200               0
1.38816               -0.1139673       -16.20947         -54.2388        40.43252             -200               0             -200               0
1.39474               -0.1169347       -16.35141        -54.06067        37.05051             -200               0             -200               0
1.40132                -0.119981       -16.49512        -53.88621        33.71011             -200               0             -200               0
1.40789                -0.123116       -16.64064        -53.71465        30.41299             -200               0             -200               0
1.41447               -0.1263476       -16.78799        -53.54515        27.16033             -200               0             -200               0
1.42105                -0.129687       -16.93719         -53.3769        23.95274             -200               0             -200               0
1.42763               -0.1331413       -17.08825        -53.20902        20.79025             -200               0             -200               0
1.43421               -0.1367208       -17.24118        -53.04067         17.6723             -200               0             -200               0
1.44079               -0.1404328       -17.39597        -52.87101        14.59765             -200               0             -200               0
1.44737               -0.1442852       -17.55263         -52.6992        11.56443             -200               0             -200               0
1.45395               -0.1482802       -17.71115        -52.52444        8.570095             -200               0             -200               0
1.46053               -0.1524278       -17.87151          -52.346        5.611498             -200               0             -200               0
1.46711               -0.1567277       -18.03372        -52.16318        2.684863             -200               0             -200               0
1.47368               -0.1611842       -18.19775        -51.97539      -0.2141171             -200               0             -200               0
1.48026               -0.1657991       -18.36361        -51.78211       -3.090228             -200               0             -200               0
1.48684               -0.1705727       -18.53129        -51.58293       -5.948637             -200               0             -200               0
1.49342                -0.175505        -18.7008        -51.37754       -8.794783             -200               0             -200               0
1.5                   -0.1805941       -18.87216        -51.16575       -11.63428             -200               0             -200               0
1.50658               -0.1858372       -19.04537         -50.9475       -14.47276             -200               0             -200               0
1.51316               -0.1912318       -19.22046        -50.72282       -17.31579             -200               0             -200               0
1.51974               -0.1967771       -19.39749        -50.49188       -20.16874             -200               0             -200               0
1.52632               -0.2024675       -19.57649        -50.25494       -23.03665             -200               0             -200               0
1.53289               -0.2083031       -19.75753        -50.01234       -25.92417             -200               0             -200               0
1.53947                 -0.21428       -19.94067        -49.76453       -28.83548             -200               0             -200               0
1.54605               -0.2203978       -20.12599        -49.51199        -31.7742             -200               0             -200               0
1.55263               -0.2266543        -20.3136        -49.25528       -34.74337             -200               0             -200               0
1.55921                -0.233053       -20.50359        -48.99498       -37.74546             -200               0             -200               0
1.56579               -0.2395943       -20.69606        -48.73169        -40.7823             -200               0             -200               0
1.57237               -0.2462824       -20.89114        -48.46602       -43.85515             -200               0             -200               0
1.57895               -0.2531237       -21.08895        -48.19858       -46.96473             -200               0             -200               0
1.58553               -0.2601259       -21.28961        -47.92994       -50.11121             -200               0             -200               0
1.59211               -0.2672969       -21.49326        -47.66067       -53.29429             -200               0             -200               0
1.59868               -0.2746514       -21.70002         -47.3913       -56.51325             -200               0             -200               0
1.60526               -0.2822008       -21.91003        -47.12231       -59.76699             -200               0             -200               0
1.61184               -0.2899621        -22.1234        -46.85413       -63.05409             -200               0             -200               0
1.61842               -0.2979536       -22.34027        -46.58717       -66.37285             -200               0             -200               0
1.625                 -0.3061937       -22.56074        -46.32177       -69.72138             -200               0             -200               0
1.63158               -0.3147055       -22.78493        -46.05822        -73.0976             -200               0             -200               0
1.63816               -0.3235112       -23.01293        -45.79676       -76.49931             -200               0             -200               0
1.64474               -0.3326335       -23.24484        -45.53758       -79.92424             -200               0             -200               0
1.65132               -0.3420993       -23.48073        -45.28083       -83.37005             -200               0             -200               0
1.65789                -0.351934       -23.72068        -45.02661       -86.83443             -200               0             -200               0
1.66447               -0.3621648       -23.96473        -44.77495       -90.31505             -200               0             -200               0
1.67105               -0.3728168       -24.21294        -44.52588       -93.80966             -200               0             -200               0
1.67763               -0.3839172       -24.46535        -44.27936       -97.31609             -200               0             -200               0
1.68421               -0.3954924       -24.72198        -44.03531       -100.8323             -200               0             -200               0
1.69079               -0.4075688       -24.98286        -43.79362       -104.3563             -200               0             -200               0
1.69737               -0.4201695       -25.24798        -43.55416       -107.8862             -200               0             -200               0
1.70395               -0.4333212       -25.51737        -43.31675       -111.4206             -200               0             -200               0
1.71053               -0.4470467       -25.79102        -43.08119       -114.9578             -200               0             -200               0
1.71711                -0.461367       -26.06894        -42.84727       -118.4967             -200               0             -200               0
1.72368               -0.4763051       -26.35112        -42.61473       -122.0363             -200               0             -200               0
1.73026               -0.4918809       -26.63758        -42.38332       -125.5756             -200               0             -200               0
1.73684               -0.5081136       -26.92831        -42.15276       -129.1141             -200               0             -200               0
1.74342               -0.5250218       -27.22334        -41.92278       -132.6514             -200               0             -200               0
1.75                  -0.5426242       -27.52268        -41.69309       -136.1875             -200               0             -200               0
1.75658               -0.5609392       -27.82637         -41.4634       -139.7225             -200               0             -200               0
1.76316               -0.5799823       -28.13445        -41.23343       -143.2567             -200               0             -200               0
1.76974               -0.5997749       -28.44697        -41.00291       -146.7909             -200               0             -200               0
1.77632               -0.6203353         -28.764        -40.77157       -150.3257             -200               0             -200               0
1.78289                -0.641682       -29.08563        -40.53916       -153.8624             -200               0             -200               0
1.78947               -0.6638377       -29.41195        -40.30547       -157.4022             -200               0             -200               0
1.79605               -0.6868259       -29.74305        -40.07029       -160.9466             -200               0             -200               0
1.80263               -0.7106722       -30.07907        -39.83345       -164.4972             -200               0             -200               0
1.80921               -0.7354052       -30.42014        -39.59481       -168.0559             -200               0             -200               0
1.81579               -0.7610566       -30.76639        -39.35424       -171.6244             -200               0             -200               0
1.82237               -0.7876615       -31.11798        -39.11169       -175.2049             -200               0             -200               0
1.82895               -0.8152588       -31.47506        -38.86711       -178.7994             -200               0             -200               0
1.83553               -0.8438918        -31.8378        -38.62049        177.5901             -200               0             -200               0
1.84211               -0.8736068       -32.20633        -38.37187        173.9615             -200               0             -200               0
1.84868               -0.9044578       -32.58084        -38.12132        170.3127             -200               0             -200               0
