! TOUCHSTONE file generated by CST MICROWAVE STUDIO
! Date and time: Sat Mar  8 13:54:57 2025
! Project name: non_fractured.cst
! Parameters = {B=2.5; D=160; F=20; Feed=2.85625; L=100; M=10; R=0.384908; S=2; Theta=0; length=57.125; wave=114.25}
! Header version: 2024
! Port assignment regex: !\s*Touchstone port\s*([0-9]+)\s*=\s*(CST MWS port|CST DES external port|CST DES block port)\s*(.+)\s* \(\"(.*)\"\)(\s*mode\s*([0-9]+))?.*
! Touchstone port assignment:
! Touchstone port 1 = CST MWS port 1 ("")
! Touchstone port 2 = CST MWS port 2 ("")
# GHz S DB R 50
1                    -0.01862393       -9.753767        -69.86953       -134.7689             -200               0             -200               0
1.00658              -0.01938734       -9.842042        -69.41371       -138.2718             -200               0             -200               0
1.01316              -0.02019286        -9.93075        -68.98762       -141.8605             -200               0             -200               0
1.01974              -0.02103743       -10.01988        -68.59013       -145.5118             -200               0             -200               0
1.02632              -0.02191688       -10.10942        -68.22009       -149.2053             -200               0             -200               0
1.03289              -0.02282637       -10.19936        -67.87631        -152.923             -200               0             -200               0
1.03947              -0.02376139       -10.28971         -67.5576       -156.6486             -200               0             -200               0
1.04605              -0.02471781       -10.38047        -67.26274       -160.3673             -200               0             -200               0
1.05263              -0.02568971       -10.47166        -66.99052       -164.0656             -200               0             -200               0
1.05921              -0.02667259       -10.56329        -66.73972       -167.7305             -200               0             -200               0
1.06579              -0.02766271        -10.6554        -66.50905       -171.3502             -200               0             -200               0
1.07237              -0.02865576       -10.74801        -66.29719        -174.913             -200               0             -200               0
1.07895              -0.02964928       -10.84116        -66.10274        -178.408             -200               0             -200               0
1.08553              -0.03064014       -10.93488        -65.92419        178.1752             -200               0             -200               0
1.09211              -0.03162714       -11.02923        -65.75993        174.8468             -200               0             -200               0
1.09868              -0.03260909       -11.12424        -65.60819        171.6161             -200               0             -200               0
1.10526              -0.03358621       -11.21997        -65.46703        168.4919             -200               0             -200               0
1.11184              -0.03456071       -11.31646        -65.33435         165.482             -200               0             -200               0
1.11842              -0.03553334       -11.41376        -65.20781        162.5931             -200               0             -200               0
1.125                -0.03650749        -11.5119         -65.0849        159.8304             -200               0             -200               0
1.13158              -0.03748749       -11.61094         -64.9629        157.1971             -200               0             -200               0
1.13816              -0.03847746        -11.7109        -64.83895        154.6942             -200               0             -200               0
1.14474              -0.03948301       -11.81183        -64.71002          152.32             -200               0             -200               0
1.15132              -0.04050998       -11.91374        -64.57309        150.0697             -200               0             -200               0
1.15789              -0.04156334       -12.01667        -64.42512         147.935             -200               0             -200               0
1.16447              -0.04265026       -12.12063        -64.26327        145.9041             -200               0             -200               0
1.17105              -0.04377761       -12.22563        -64.08494        143.9619             -200               0             -200               0
1.17763              -0.04495041       -12.33167        -63.88797        142.0899             -200               0             -200               0
1.18421              -0.04617584       -12.43876        -63.67069        140.2671             -200               0             -200               0
1.19079              -0.04745825       -12.54687        -63.43209        138.4707             -200               0             -200               0
1.19737              -0.04880359       -12.65602        -63.17178        136.6772             -200               0             -200               0
1.20395              -0.05021601       -12.76617        -62.89009        134.8632             -200               0             -200               0
1.21053              -0.05169811       -12.87731        -62.58799        133.0067             -200               0             -200               0
1.21711              -0.05325367       -12.98943          -62.267        131.0878             -200               0             -200               0
1.22368              -0.05488379       -13.10248         -61.9291        129.0896             -200               0             -200               0
1.23026              -0.05658871       -13.21647         -61.5766        126.9983             -200               0             -200               0
1.23684              -0.05836904       -13.33135        -61.21201        124.8038             -200               0             -200               0
1.24342              -0.06022272       -13.44712        -60.83791        122.4991             -200               0             -200               0
1.25                 -0.06214811       -13.56376        -60.45685        120.0806             -200               0             -200               0
1.25658              -0.06414182       -13.68126        -60.07126        117.5474             -200               0             -200               0
1.26316              -0.06620077       -13.79961        -59.68342        114.9008             -200               0             -200               0
1.26974              -0.06832067        -13.9188        -59.29537        112.1442             -200               0             -200               0
1.27632              -0.07049726       -14.03887        -58.90894        109.2824             -200               0             -200               0
1.28289              -0.07272374       -14.15979        -58.52573        106.3213             -200               0             -200               0
1.28947              -0.07499785       -14.28162        -58.14709        103.2675             -200               0             -200               0
1.29605              -0.07731362       -14.40437        -57.77417        100.1281             -200               0             -200               0
1.30263              -0.07966607       -14.52808        -57.40792        96.91048             -200               0             -200               0
1.30921              -0.08205179       -14.65279        -57.04909        93.62212             -200               0             -200               0
1.31579              -0.08446723       -14.77856        -56.69828         90.2704             -200               0             -200               0
1.32237              -0.08690991       -14.90543        -56.35595        86.86257             -200               0             -200               0
1.32895              -0.08937849       -15.03348        -56.02242        83.40566             -200               0             -200               0
1.33553              -0.09187145       -15.16276        -55.69791        79.90647             -200               0             -200               0
1.34211              -0.09439021       -15.29335        -55.38254        76.37146             -200               0             -200               0
1.34868               -0.0969356       -15.42532        -55.07633        72.80682             -200               0             -200               0
1.35526              -0.09951153       -15.55873        -54.77926        69.21844             -200               0             -200               0
1.36184               -0.1021218       -15.69366         -54.4912        65.61188             -200               0             -200               0
1.36842               -0.1047713       -15.83017          -54.212         61.9924             -200               0             -200               0
1.375                 -0.1074672       -15.96834        -53.94144        58.36495             -200               0             -200               0
1.38158               -0.1102163       -16.10822        -53.67926         54.7342             -200               0             -200               0
1.38816                -0.113028       -16.24987        -53.42515        51.10452             -200               0             -200               0
1.39474               -0.1159105       -16.39334        -53.17876        47.47998             -200               0             -200               0
1.40132               -0.1188728       -16.53867        -52.93971        43.86438             -200               0             -200               0
1.40789               -0.1219262       -16.68591        -52.70759        40.26123             -200               0             -200               0
1.41447               -0.1250803       -16.83508        -52.48195        36.67373             -200               0             -200               0
1.42105               -0.1283459        -16.9862        -52.26231         33.1048             -200               0             -200               0
1.42763               -0.1317328       -17.13929        -52.04818        29.55705             -200               0             -200               0
1.43421               -0.1352503       -17.29436        -51.83903        26.03279             -200               0             -200               0
1.44079               -0.1389077       -17.45142        -51.63432        22.53399             -200               0             -200               0
1.44737               -0.1427136       -17.61045        -51.43347        19.06226             -200               0             -200               0
1.45395               -0.1466756       -17.77147         -51.2359        15.61891             -200               0             -200               0
1.46053               -0.1507998       -17.93444        -51.04103        12.20483             -200               0             -200               0
1.46711               -0.1550918       -18.09938        -50.84825        8.820579             -200               0             -200               0
1.47368                -0.159557       -18.26626        -50.65698        5.466297             -200               0             -200               0
1.48026                -0.164198       -18.43508         -50.4666        2.141745             -200               0             -200               0
1.48684               -0.1690168       -18.60583        -50.27654       -1.153715             -200               0             -200               0
1.49342                -0.174015        -18.7785        -50.08623        -4.42111             -200               0             -200               0
1.5                   -0.1791922       -18.95311        -49.89513       -7.661859             -200               0             -200               0
1.50658               -0.1845498       -19.12966        -49.70273       -10.87774             -200               0             -200               0
1.51316                -0.190085       -19.30816        -49.50854       -14.07088             -200               0             -200               0
1.51974               -0.1957966       -19.48865        -49.31215       -17.24373             -200               0             -200               0
1.52632               -0.2016819       -19.67116        -49.11317         -20.399             -200               0             -200               0
1.53289               -0.2077407       -19.85572        -48.91127       -23.53964             -200               0             -200               0
1.53947               -0.2139702       -20.04241         -48.7062       -26.66878             -200               0             -200               0
1.54605               -0.2203683       -20.23128        -48.49775       -29.78969             -200               0             -200               0
1.55263               -0.2269368       -20.42241        -48.28578        -32.9057             -200               0             -200               0
1.55921               -0.2336731       -20.61588        -48.07022       -36.02013             -200               0             -200               0
1.56579               -0.2405808       -20.81179        -47.85106       -39.13628             -200               0             -200               0
1.57237               -0.2476616       -21.01025        -47.62834       -42.25733             -200               0             -200               0
1.57895               -0.2549201       -21.21135        -47.40218       -45.38633             -200               0             -200               0
1.58553               -0.2623611       -21.41522        -47.17273       -48.52609             -200               0             -200               0
1.59211               -0.2699942       -21.62198        -46.94018       -51.67923             -200               0             -200               0
1.59868               -0.2778275       -21.83174        -46.70479       -54.84806             -200               0             -200               0
1.60526               -0.2858736       -22.04464        -46.46681       -58.03461             -200               0             -200               0
1.61184               -0.2941449        -22.2608        -46.22655       -61.24062             -200               0             -200               0
1.61842               -0.3026574       -22.48033        -45.98432       -64.46749             -200               0             -200               0
1.625                 -0.3114291       -22.70336        -45.74044       -67.71633             -200               0             -200               0
1.63158               -0.3204768       -22.93001        -45.49522       -70.98795             -200               0             -200               0
1.63816               -0.3298237       -23.16037          -45.249       -74.28285             -200               0             -200               0
1.64474               -0.3394892       -23.39455        -45.00208       -77.60127             -200               0             -200               0
1.65132               -0.3494989       -23.63264        -44.75476        -80.9432             -200               0             -200               0
1.65789               -0.3598763       -23.87473        -44.50733       -84.30839             -200               0             -200               0
1.66447               -0.3706473        -24.1209        -44.26004       -87.69639             -200               0             -200               0
1.67105               -0.3818361        -24.3712        -44.01313       -91.10661             -200               0             -200               0
1.67763               -0.3934719        -24.6257        -43.76682       -94.53826             -200               0             -200               0
1.68421               -0.4055789       -24.88444         -43.5213       -97.99048             -200               0             -200               0
1.69079               -0.4181849       -25.14747        -43.27671       -101.4623             -200               0             -200               0
1.69737               -0.4313156       -25.41482        -43.03321       -104.9526             -200               0             -200               0
1.70395                -0.444999       -25.68651        -42.79087       -108.4604             -200               0             -200               0
1.71053               -0.4592587       -25.96257         -42.5498       -111.9846             -200               0             -200               0
1.71711               -0.4741215       -26.24302        -42.31004        -115.524             -200               0             -200               0
1.72368               -0.4896125       -26.52788        -42.07161       -119.0777             -200               0             -200               0
1.73026                -0.505755       -26.81715        -41.83452       -122.6444             -200               0             -200               0
1.73684               -0.5225742       -27.11087        -41.59875       -126.2234             -200               0             -200               0
1.74342               -0.5400919       -27.40904        -41.36427       -129.8136             -200               0             -200               0
1.75                  -0.5583327        -27.7117        -41.13101       -133.4142             -200               0             -200               0
1.75658               -0.5773196       -28.01887        -40.89891       -137.0245             -200               0             -200               0
1.76316               -0.5970763       -28.33058        -40.66789       -140.6439             -200               0             -200               0
1.76974                -0.617626       -28.64689        -40.43784       -144.2718             -200               0             -200               0
1.77632               -0.6389933       -28.96784        -40.20865       -147.9079             -200               0             -200               0
1.78289               -0.6612036        -29.2935        -39.98022       -151.5519             -200               0             -200               0
1.78947               -0.6842837       -29.62393        -39.75244       -155.2036             -200               0             -200               0
1.79605               -0.7082611        -29.9592        -39.52516       -158.8631             -200               0             -200               0
1.80263               -0.7331676        -30.2994         -39.2983       -162.5304             -200               0             -200               0
1.80921               -0.7590342       -30.64463        -39.07171       -166.2057             -200               0             -200               0
1.81579               -0.7858964       -30.99499         -38.8453       -169.8894             -200               0             -200               0
1.82237               -0.8137935       -31.35057        -38.61896       -173.5819             -200               0             -200               0
1.82895               -0.8427648       -31.71149        -38.39259       -177.2839             -200               0             -200               0
1.83553               -0.8728549       -32.07784        -38.16611         179.004             -200               0             -200               0
1.84211               -0.9041129       -32.44974        -37.93944        175.2812             -200               0             -200               0
1.84868                -0.936589       -32.82728        -37.71254        171.5467             -200               0             -200               0
