! TOUCHSTONE file generated by CST MICROWAVE STUDIO
! Date and time: Sat Mar  8 13:55:48 2025
! Project name: non_fractured.cst
! Parameters = {B=2.5; D=160; F=5; Feed=2.85625; L=100; M=30; R=0.384908; S=2; Theta=90; length=57.125; wave=114.25}
! Header version: 2024
! Port assignment regex: !\s*Touchstone port\s*([0-9]+)\s*=\s*(CST MWS port|CST DES external port|CST DES block port)\s*(.+)\s* \(\"(.*)\"\)(\s*mode\s*([0-9]+))?.*
! Touchstone port assignment:
! Touchstone port 1 = CST MWS port 1 ("")
! Touchstone port 2 = CST MWS port 2 ("")
# GHz S DB R 50
1                    -0.01861748       -9.762414        -69.40627       -134.9118             -200               0             -200               0
1.00658              -0.01952677       -9.851414        -68.90717       -139.5267             -200               0             -200               0
1.01316              -0.02050314       -9.940671         -68.4514       -144.1874             -200               0             -200               0
1.01974              -0.02153871       -10.03014        -68.03611        -148.876             -200               0             -200               0
1.02632              -0.02262479        -10.1198        -67.65888       -153.5771             -200               0             -200               0
1.03289              -0.02375039       -10.20961        -67.31766       -158.2772             -200               0             -200               0
1.03947              -0.02490415       -10.29956        -67.01065       -162.9641             -200               0             -200               0
1.04605              -0.02607581       -10.38967        -66.73634       -167.6265             -200               0             -200               0
1.05263              -0.02725276       -10.47995        -66.49341       -172.2535             -200               0             -200               0
1.05921               -0.0284245       -10.57043         -66.2807       -176.8344             -200               0             -200               0
1.06579              -0.02958015       -10.66115        -66.09718        178.6412             -200               0             -200               0
1.07237              -0.03071108       -10.75216        -65.94193        174.1845             -200               0             -200               0
1.07895              -0.03180723       -10.84354        -65.81408        169.8069             -200               0             -200               0
1.08553              -0.03286392       -10.93535         -65.7128        165.5204             -200               0             -200               0
1.09211              -0.03387468       -11.02769        -65.63724         161.338             -200               0             -200               0
1.09868              -0.03483799       -11.12064        -65.58649        157.2738             -200               0             -200               0
1.10526              -0.03575062       -11.21429        -65.55952         153.343             -200               0             -200               0
1.11184                -0.036615       -11.30873        -65.55512        149.5621             -200               0             -200               0
1.11842              -0.03743449       -11.40407        -65.57182         145.949             -200               0             -200               0
1.125                -0.03821366       -11.50039         -65.6078         142.523             -200               0             -200               0
1.13158               -0.0389602       -11.59777        -65.66074        139.3045             -200               0             -200               0
1.13816              -0.03968266       -11.69628        -65.72773        136.3149             -200               0             -200               0
1.14474              -0.04039177       -11.79601        -65.80512        133.5756             -200               0             -200               0
1.15132              -0.04109867       -11.89699        -65.88833         131.107             -200               0             -200               0
1.15789              -0.04181741       -11.99928        -65.97177        128.9271             -200               0             -200               0
1.16447              -0.04256043        -12.1029        -66.04875        127.0492             -200               0             -200               0
1.17105              -0.04334161       -12.20787        -66.11151        125.4791             -200               0             -200               0
1.17763              -0.04417528       -12.31419        -66.15138        124.2121             -200               0             -200               0
1.18421              -0.04507407       -12.42185        -66.15923        123.2297             -200               0             -200               0
1.19079              -0.04605062       -12.53083        -66.12608        122.4976             -200               0             -200               0
1.19737              -0.04711642       -12.64109        -66.04395        121.9647             -200               0             -200               0
1.20395              -0.04828077       -12.75258        -65.90679        121.5653             -200               0             -200               0
1.21053               -0.0495532       -12.86525        -65.71128        121.2232             -200               0             -200               0
1.21711              -0.05093994       -12.97902        -65.45726        120.8588             -200               0             -200               0
1.22368              -0.05244436       -13.09384        -65.14777        120.3961             -200               0             -200               0
1.23026              -0.05406983       -13.20963        -64.78858        119.7694             -200               0             -200               0
1.23684              -0.05581668       -13.32632        -64.38732        118.9283             -200               0             -200               0
1.24342              -0.05768208       -13.44385        -63.95263        117.8386             -200               0             -200               0
1.25                 -0.05966143       -13.56214         -63.4933        116.4825             -200               0             -200               0
1.25658              -0.06174992       -13.68115         -63.0176        114.8557             -200               0             -200               0
1.26316              -0.06393882       -13.80082        -62.53288        112.9643             -200               0             -200               0
1.26974              -0.06621835       -13.92112        -62.04543        110.8222             -200               0             -200               0
1.27632              -0.06857819       -14.04203        -61.56037        108.4477             -200               0             -200               0
1.28289              -0.07100612       -14.16354        -61.08179        105.8619             -200               0             -200               0
1.28947               -0.0734901       -14.28566        -60.61286        103.0866             -200               0             -200               0
1.29605              -0.07601816        -14.4084        -60.15593        100.1437             -200               0             -200               0
1.30263              -0.07857849       -14.53182        -59.71273        97.05403             -200               0             -200               0
1.30921              -0.08115837       -14.65595        -59.28444         93.8374             -200               0             -200               0
1.31579              -0.08374835       -14.78088        -58.87185        90.51217             -200               0             -200               0
1.32237              -0.08633805       -14.90668        -58.47541        87.09529             -200               0             -200               0
1.32895              -0.08892168       -15.03344        -58.09531        83.60229             -200               0             -200               0
1.33553              -0.09149184       -15.16129        -57.73154        80.04745             -200               0             -200               0
1.34211              -0.09404764       -15.29032        -57.38394        76.44379             -200               0             -200               0
1.34868              -0.09658526       -15.42065        -57.05222        72.80332             -200               0             -200               0
1.35526              -0.09910947       -15.55242        -56.73599        69.13704             -200               0             -200               0
1.36184               -0.1016215       -15.68574        -56.43478        65.45511             -200               0             -200               0
1.36842               -0.1041291       -15.82073        -56.14804        61.76695             -200               0             -200               0
1.375                 -0.1066416       -15.95751        -55.87515        58.08126             -200               0             -200               0
1.38158               -0.1091704       -16.09618        -55.61546        54.40617             -200               0             -200               0
1.38816               -0.1117284       -16.23685        -55.36824        50.74921             -200               0             -200               0
1.39474               -0.1143305       -16.37959        -55.13269         47.1174             -200               0             -200               0
1.40132                -0.116995       -16.52449        -54.90799        43.51725             -200               0             -200               0
1.40789               -0.1197367        -16.6716        -54.69323        39.95474             -200               0             -200               0
1.41447               -0.1225759       -16.82097        -54.48745        36.43537             -200               0             -200               0
1.42105               -0.1255305       -16.97261        -54.28963        32.96403             -200               0             -200               0
1.42763               -0.1286194       -17.12654        -54.09868        29.54507             -200               0             -200               0
1.43421               -0.1318605       -17.28276        -53.91347        26.18215             -200               0             -200               0
1.44079               -0.1352694       -17.44124        -53.73279        22.87822             -200               0             -200               0
1.44737               -0.1388627       -17.60195        -53.55538        19.63545             -200               0             -200               0
1.45395               -0.1426539       -17.76485        -53.37995        16.45512             -200               0             -200               0
1.46053               -0.1466553       -17.92988        -53.20517        13.33753             -200               0             -200               0
1.46711               -0.1508752       -18.09698         -53.0297        10.28196             -200               0             -200               0
1.47368               -0.1553206       -18.26608        -52.85221        7.286613             -200               0             -200               0
1.48026               -0.1599978       -18.43713        -52.67139        4.348523             -200               0             -200               0
1.48684               -0.1649084       -18.61005          -52.486        1.463593             -200               0             -200               0
1.49342                -0.170051       -18.78478        -52.29488       -1.373395             -200               0             -200               0
1.5                   -0.1754241       -18.96127        -52.09698       -4.168713             -200               0             -200               0
1.50658               -0.1810221       -19.13949        -51.89141       -6.929578             -200               0             -200               0
1.51316               -0.1868391       -19.31939        -51.67742       -9.663986             -200               0             -200               0
1.51974               -0.1928663       -19.50097        -51.45449       -12.38053             -200               0             -200               0
1.52632               -0.1990942       -19.68423        -51.22227       -15.08817             -200               0             -200               0
1.53289               -0.2055123        -19.8692        -50.98065         -17.796             -200               0             -200               0
1.53947                 -0.21211        -20.0559        -50.72969       -20.51296             -200               0             -200               0
1.54605               -0.2188788       -20.24442         -50.4697       -23.24767             -200               0             -200               0
1.55263                -0.225807       -20.43483        -50.20113       -26.00814             -200               0             -200               0
1.55921               -0.2328871       -20.62722        -49.92461       -28.80163             -200               0             -200               0
1.56579               -0.2401115       -20.82172        -49.64092       -31.63448             -200               0             -200               0
1.57237               -0.2474767       -21.01848         -49.3509       -34.51204             -200               0             -200               0
1.57895                 -0.25498       -21.21763        -49.05551       -37.43861             -200               0             -200               0
1.58553               -0.2626225       -21.41936        -48.75572       -40.41742             -200               0             -200               0
1.59211               -0.2704084       -21.62382        -48.45252       -43.45064             -200               0             -200               0
1.59868               -0.2783449       -21.83122        -48.14691        -46.5395             -200               0             -200               0
1.60526               -0.2864436       -22.04172        -47.83984        -49.6843             -200               0             -200               0
1.61184               -0.2947186       -22.25552        -47.53222       -52.88453             -200               0             -200               0
1.61842               -0.3031876        -22.4728         -47.2249       -56.13898             -200               0             -200               0
1.625                 -0.3118744       -22.69374        -46.91868       -59.44583             -200               0             -200               0
1.63158                -0.320803       -22.91849        -46.61425       -62.80275             -200               0             -200               0
1.63816               -0.3300019       -23.14721        -46.31224         -66.207             -200               0             -200               0
1.64474               -0.3395015       -23.38003        -46.01322       -69.65553             -200               0             -200               0
1.65132               -0.3493359       -23.61707        -45.71764       -73.14504             -200               0             -200               0
1.65789               -0.3595395       -23.85844        -45.42591       -76.67204             -200               0             -200               0
1.66447               -0.3701496       -24.10419        -45.13833       -80.23296             -200               0             -200               0
1.67105               -0.3812031       -24.35439        -44.85517       -83.82416             -200               0             -200               0
1.67763               -0.3927375       -24.60906         -44.5766       -87.44198             -200               0             -200               0
1.68421               -0.4047891       -24.86822        -44.30273        -91.0828             -200               0             -200               0
1.69079               -0.4173963       -25.13184        -44.03362       -94.74307             -200               0             -200               0
1.69737               -0.4305936       -25.39991        -43.76927       -98.41931             -200               0             -200               0
1.70395               -0.4444143       -25.67236        -43.50963       -102.1082             -200               0             -200               0
1.71053               -0.4588899       -25.94913        -43.25458       -105.8065             -200               0             -200               0
1.71711               -0.4740487       -26.23016        -43.00399       -109.5111             -200               0             -200               0
1.72368               -0.4899181       -26.51534        -42.75764       -113.2193             -200               0             -200               0
1.73026               -0.5065204        -26.8046         -42.5153       -116.9283             -200               0             -200               0
1.73684               -0.5238762       -27.09784        -42.27671       -120.6357             -200               0             -200               0
1.74342               -0.5420036       -27.39499        -42.04156       -124.3394             -200               0             -200               0
1.75                  -0.5609161       -27.69595         -41.8095       -128.0372             -200               0             -200               0
1.75658               -0.5806261       -28.00066        -41.58017       -131.7276             -200               0             -200               0
1.76316               -0.6011438       -28.30907        -41.35318       -135.4092             -200               0             -200               0
1.76974               -0.6224769       -28.62114        -41.12812       -139.0808             -200               0             -200               0
1.77632               -0.6446308       -28.93686        -40.90458       -142.7416             -200               0             -200               0
1.78289               -0.6676119       -29.25623         -40.6821       -146.3912             -200               0             -200               0
1.78947               -0.6914243        -29.5793        -40.46024       -150.0295             -200               0             -200               0
1.79605               -0.7160761       -29.90613        -40.23858       -153.6566             -200               0             -200               0
1.80263               -0.7415724        -30.2368        -40.01666       -157.2731             -200               0             -200               0
1.80921               -0.7679218       -30.57143        -39.79406         -160.88             -200               0             -200               0
1.81579               -0.7951368       -30.91018        -39.57038       -164.4783             -200               0             -200               0
1.82237                -0.823232        -31.2532        -39.34522       -168.0697             -200               0             -200               0
1.82895               -0.8522255        -31.6007        -39.11823       -171.6561             -200               0             -200               0
1.83553               -0.8821431       -31.95289         -38.8891       -175.2394             -200               0             -200               0
1.84211               -0.9130124       -32.31001        -38.65752       -178.8222             -200               0             -200               0
1.84868               -0.9448695        -32.6723        -38.42328        177.5929             -200               0             -200               0
