! TOUCHSTONE file generated by CST MICROWAVE STUDIO
! Date and time: Sat Mar  8 13:55:32 2025
! Project name: non_fractured.cst
! Parameters = {B=2.5; D=160; F=20; Feed=2.85625; L=100; M=20; R=0.384908; S=1.5; Theta=90; length=57.125; wave=114.25}
! Header version: 2024
! Port assignment regex: !\s*Touchstone port\s*([0-9]+)\s*=\s*(CST MWS port|CST DES external port|CST DES block port)\s*(.+)\s* \(\"(.*)\"\)(\s*mode\s*([0-9]+))?.*
! Touchstone port assignment:
! Touchstone port 1 = CST MWS port 1 ("")
! Touchstone port 2 = CST MWS port 2 ("")
# GHz S DB R 50
1                     -0.0197726       -9.753225        -67.03509       -163.3417             -200               0             -200               0
1.00658              -0.02049134       -9.840435        -67.03538       -167.8139             -200               0             -200               0
1.01316              -0.02122827       -9.928144         -67.0621       -172.1194             -200               0             -200               0
1.01974              -0.02198065       -10.01636        -67.11446       -176.2397             -200               0             -200               0
1.02632              -0.02274731        -10.1051         -67.1914        179.8463             -200               0             -200               0
1.03289               -0.0235279       -10.19439        -67.29143        176.1628             -200               0             -200               0
1.03947              -0.02431958       -10.28422        -67.41244        172.7368             -200               0             -200               0
1.04605               -0.0251229       -10.37464        -67.55153        169.5983             -200               0             -200               0
1.05263              -0.02593637       -10.46566        -67.70467        166.7793             -200               0             -200               0
1.05921              -0.02676099        -10.5573        -67.86643        164.3128             -200               0             -200               0
1.06579               -0.0275947       -10.64959        -68.02967        162.2303             -200               0             -200               0
1.07237              -0.02844097       -10.74255        -68.18519        160.5582             -200               0             -200               0
1.07895               -0.0292981       -10.83622         -68.3217        159.3126             -200               0             -200               0
1.08553              -0.03016915        -10.9306        -68.42592        158.4928             -200               0             -200               0
1.09211              -0.03105602       -11.02573        -68.48331        158.0742             -200               0             -200               0
1.09868               -0.0319597       -11.12164        -68.47934        158.0026             -200               0             -200               0
1.10526              -0.03288316       -11.21833        -68.40136         158.192             -200               0             -200               0
1.11184               -0.0338295       -11.31584        -68.24063        158.5293             -200               0             -200               0
1.11842              -0.03480134       -11.41418        -67.99392        158.8857             -200               0             -200               0
1.125                 -0.0358019       -11.51336        -67.66422        159.1322             -200               0             -200               0
1.13158              -0.03683539        -11.6134        -67.26003        159.1561             -200               0             -200               0
1.13816              -0.03790418        -11.7143        -66.79373        158.8721             -200               0             -200               0
1.14474              -0.03901108       -11.81609        -66.27956        158.2262             -200               0             -200               0
1.15132              -0.04016119       -11.91875        -65.73176        157.1947             -200               0             -200               0
1.15789              -0.04135647       -12.02229        -65.16326        155.7775             -200               0             -200               0
1.16447              -0.04259896       -12.12672        -64.58503        153.9915             -200               0             -200               0
1.17105               -0.0438928       -12.23202         -64.0059        151.8639             -200               0             -200               0
1.17763              -0.04523916       -12.33821        -63.43265        149.4272             -200               0             -200               0
1.18421              -0.04663967       -12.44527        -62.87031        146.7151             -200               0             -200               0
1.19079              -0.04809653        -12.5532        -62.32249         143.761             -200               0             -200               0
1.19737              -0.04960987       -12.66199        -61.79168        140.5959             -200               0             -200               0
1.20395              -0.05118027       -12.77164         -61.2795        137.2484             -200               0             -200               0
1.21053              -0.05280828       -12.88216        -60.78694        133.7442             -200               0             -200               0
1.21711              -0.05449449       -12.99352        -60.31453         130.106             -200               0             -200               0
1.22368              -0.05623564       -13.10574        -59.86246        126.3544             -200               0             -200               0
1.23026              -0.05803371       -13.21882        -59.43067        122.5071             -200               0             -200               0
1.23684              -0.05988526       -13.33276        -59.01894        118.5804             -200               0             -200               0
1.24342              -0.06178932       -13.44757        -58.62693        114.5883             -200               0             -200               0
1.25                 -0.06374383       -13.56327        -58.25421        110.5435             -200               0             -200               0
1.25658               -0.0657487       -13.67986        -57.90032        106.4574             -200               0             -200               0
1.26316              -0.06780039       -13.79736        -57.56475        102.3405             -200               0             -200               0
1.26974              -0.06989952        -13.9158        -57.24699        98.20195             -200               0             -200               0
1.27632              -0.07204286       -14.03521        -56.94647        94.05051             -200               0             -200               0
1.28289              -0.07422977        -14.1556        -56.66266        89.89413             -200               0             -200               0
1.28947              -0.07645864       -14.27702          -56.395        85.74025             -200               0             -200               0
1.29605              -0.07873173       -14.39949        -56.14293         81.5959             -200               0             -200               0
1.30263              -0.08104571       -14.52305        -55.90586        77.46771             -200               0             -200               0
1.30921              -0.08340412       -14.64774         -55.6832        73.36202             -200               0             -200               0
1.31579              -0.08580618        -14.7736        -55.47435        69.28495             -200               0             -200               0
1.32237              -0.08825519       -14.90067        -55.27867        65.24236             -200               0             -200               0
1.32895              -0.09075137       -15.02898         -55.0955        61.23996             -200               0             -200               0
1.33553              -0.09329843       -15.15859        -54.92414        57.28328             -200               0             -200               0
1.34211              -0.09589927       -15.28951        -54.76385         53.3777             -200               0             -200               0
1.34868              -0.09855661        -15.4218        -54.61383        49.52839             -200               0             -200               0
1.35526               -0.1012764       -15.55549        -54.47322        45.74035             -200               0             -200               0
1.36184               -0.1040617        -15.6906        -54.34111        42.01833             -200               0             -200               0
1.36842               -0.1069169       -15.82718         -54.2165        38.36678             -200               0             -200               0
1.375                 -0.1098475       -15.96524        -54.09833         34.7898             -200               0             -200               0
1.38158               -0.1128579       -16.10482        -53.98543        31.29099             -200               0             -200               0
1.38816               -0.1159521       -16.24593        -53.87657        27.87345             -200               0             -200               0
1.39474               -0.1191366        -16.3886        -53.77041        24.53956             -200               0             -200               0
1.40132               -0.1224137       -16.53283        -53.66557         21.2909             -200               0             -200               0
1.40789               -0.1257901       -16.67866        -53.56057         18.1281             -200               0             -200               0
1.41447               -0.1292673       -16.82608        -53.45388         15.0507             -200               0             -200               0
1.42105               -0.1328505       -16.97512        -53.34395        12.05701             -200               0             -200               0
1.42763               -0.1365425       -17.12579        -53.22921           9.144             -200               0             -200               0
1.43421                -0.140345        -17.2781        -53.10814        6.307243             -200               0             -200               0
1.44079               -0.1442607       -17.43206        -52.97927        3.540849             -200               0             -200               0
1.44737                -0.148291       -17.58769        -52.84124       0.8374984             -200               0             -200               0
1.45395               -0.1524363         -17.745        -52.69285       -1.811469             -200               0             -200               0
1.46053               -0.1567004       -17.90403        -52.53307         -4.4159             -200               0             -200               0
1.46711               -0.1610795       -18.06479        -52.36113       -6.986607             -200               0             -200               0
1.47368               -0.1655768       -18.22731         -52.1765       -9.535083             -200               0             -200               0
1.48026               -0.1701891       -18.39163        -51.97892       -12.07317             -200               0             -200               0
1.48684               -0.1749196       -18.55778        -51.76841       -14.61273             -200               0             -200               0
1.49342               -0.1797654       -18.72582        -51.54529       -17.16525             -200               0             -200               0
1.5                   -0.1847283        -18.8958         -51.3101       -19.74156             -200               0             -200               0
1.50658               -0.1898081       -19.06776        -51.06363       -22.35152             -200               0             -200               0
1.51316               -0.1950031       -19.24179        -50.80685       -25.00381             -200               0             -200               0
1.51974               -0.2003181       -19.41794        -50.54088       -27.70578             -200               0             -200               0
1.52632               -0.2057516        -19.5963        -50.26694       -30.46334             -200               0             -200               0
1.53289               -0.2113087       -19.77694        -49.98631       -33.28096             -200               0             -200               0
1.53947                -0.216992       -19.95997         -49.7003       -36.16171             -200               0             -200               0
1.54605                -0.222806       -20.14545        -49.41019       -39.10733             -200               0             -200               0
1.55263               -0.2287564       -20.33349        -49.11722       -42.11835             -200               0             -200               0
1.55921               -0.2348507       -20.52419        -48.82258       -45.19424             -200               0             -200               0
1.56579               -0.2410957       -20.71765        -48.52737       -48.33353             -200               0             -200               0
1.57237               -0.2475015       -20.91397        -48.23258         -51.534             -200               0             -200               0
1.57895               -0.2540798       -21.11324        -47.93912       -54.79277             -200               0             -200               0
1.58553               -0.2608409       -21.31557        -47.64779       -58.10649             -200               0             -200               0
1.59211               -0.2677978       -21.52105        -47.35927       -61.47141             -200               0             -200               0
1.59868               -0.2749674       -21.72978        -47.07416       -64.88349             -200               0             -200               0
1.60526               -0.2823608       -21.94185        -46.79295       -68.33855             -200               0             -200               0
1.61184               -0.2899983       -22.15736        -46.51604       -71.83224             -200               0             -200               0
1.61842               -0.2978949       -22.37638        -46.24374       -75.36021             -200               0             -200               0
1.625                 -0.3060707       -22.59899        -45.97628       -78.91811             -200               0             -200               0
1.63158               -0.3145409       -22.82527        -45.71381       -82.50164             -200               0             -200               0
1.63816               -0.3233282       -23.05529        -45.45641       -86.10658             -200               0             -200               0
1.64474               -0.3324508       -23.28911        -45.20409       -89.72885             -200               0             -200               0
1.65132               -0.3419294       -23.52678        -44.95681        -93.3645             -200               0             -200               0
1.65789               -0.3517827       -23.76838        -44.71445       -97.00977             -200               0             -200               0
1.66447               -0.3620328       -24.01393        -44.47686       -100.6611             -200               0             -200               0
1.67105               -0.3726986        -24.2635        -44.24383        -104.315             -200               0             -200               0
1.67763               -0.3838003       -24.51713        -44.01509       -107.9685             -200               0             -200               0
1.68421               -0.3953586       -24.77486        -43.79034       -111.6186             -200               0             -200               0
1.69079               -0.4073923       -25.03673        -43.56925       -115.2627             -200               0             -200               0
1.69737               -0.4199226       -25.30279        -43.35144       -118.8984             -200               0             -200               0
1.70395               -0.4329674       -25.57308         -43.1365       -122.5237             -200               0             -200               0
1.71053               -0.4465464       -25.84764        -42.92397       -126.1369             -200               0             -200               0
1.71711               -0.4606795       -26.12652        -42.71341       -129.7364             -200               0             -200               0
1.72368               -0.4753859       -26.40979        -42.50433       -133.3214             -200               0             -200               0
1.73026               -0.4906853       -26.69749        -42.29621       -136.8912             -200               0             -200               0
1.73684               -0.5065969       -26.98968        -42.08856       -140.4453             -200               0             -200               0
1.74342               -0.5231435       -27.28645        -41.88085        -143.984             -200               0             -200               0
1.75                  -0.5403452       -27.58786        -41.67258       -147.5078             -200               0             -200               0
1.75658               -0.5582239         -27.894        -41.46324       -151.0176             -200               0             -200               0
1.76316               -0.5768036       -28.20497        -41.25235       -154.5146             -200               0             -200               0
1.76974               -0.5961088       -28.52084        -41.03943       -158.0007             -200               0             -200               0
1.77632               -0.6161663       -28.84174        -40.82408       -161.4778             -200               0             -200               0
1.78289                -0.637005       -29.16778        -40.60588       -164.9484             -200               0             -200               0
1.78947               -0.6586549       -29.49906        -40.38451       -168.4152             -200               0             -200               0
1.79605               -0.6811492       -29.83571        -40.15966       -171.8812             -200               0             -200               0
1.80263               -0.7045221       -30.17786        -39.93111       -175.3496             -200               0             -200               0
1.80921               -0.7288129       -30.52564        -39.69867       -178.8239             -200               0             -200               0
1.81579               -0.7540627       -30.87917        -39.46224        177.6924             -200               0             -200               0
1.82237               -0.7803136       -31.23857        -39.22176        174.1958             -200               0             -200               0
1.82895               -0.8076147       -31.60399        -38.97727        170.6827             -200               0             -200               0
1.83553               -0.8360159       -31.97554        -38.72884        167.1496             -200               0             -200               0
1.84211               -0.8655708       -32.35334        -38.47662        163.5931             -200               0             -200               0
1.84868               -0.8963364        -32.7375        -38.22081          160.01             -200               0             -200               0
