! TOUCHSTONE file generated by CST MICROWAVE STUDIO
! Date and time: Sat Mar  8 13:55:13 2025
! Project name: non_fractured.cst
! Parameters = {B=2.5; D=160; F=5; Feed=2.85625; L=100; M=20; R=0.384908; S=2.5; Theta=270; length=57.125; wave=114.25}
! Header version: 2024
! Port assignment regex: !\s*Touchstone port\s*([0-9]+)\s*=\s*(CST MWS port|CST DES external port|CST DES block port)\s*(.+)\s* \(\"(.*)\"\)(\s*mode\s*([0-9]+))?.*
! Touchstone port assignment:
! Touchstone port 1 = CST MWS port 1 ("")
! Touchstone port 2 = CST MWS port 2 ("")
# GHz S DB R 50
1                    -0.01776747        -9.75413        -69.74577       -116.1306             -200               0             -200               0
1.00658              -0.01857061       -9.843523        -69.14766       -121.0427             -200               0             -200               0
1.01316              -0.01945114        -9.93327        -68.60389        -125.975             -200               0             -200               0
1.01974              -0.02040353       -10.02332        -68.10948       -130.9122             -200               0             -200               0
1.02632               -0.0214211       -10.11362        -67.66033       -135.8417             -200               0             -200               0
1.03289              -0.02249532       -10.20413        -67.25305       -140.7524             -200               0             -200               0
1.03947              -0.02361486       -10.29482        -66.88478       -145.6345             -200               0             -200               0
1.04605              -0.02477055       -10.38568        -66.55313       -150.4787             -200               0             -200               0
1.05263              -0.02595037       -10.47669        -66.25603       -155.2763             -200               0             -200               0
1.05921               -0.0271434       -10.56788        -65.99171       -160.0188             -200               0             -200               0
1.06579              -0.02833784       -10.65926        -65.75864       -164.6972             -200               0             -200               0
1.07237              -0.02952253       -10.75087        -65.55543       -169.3027             -200               0             -200               0
1.07895              -0.03068795       -10.84275        -65.38084       -173.8257             -200               0             -200               0
1.08553              -0.03182372       -10.93496        -65.23368       -178.2562             -200               0             -200               0
1.09211              -0.03292374       -11.02758        -65.11283        177.4166             -200               0             -200               0
1.09868              -0.03398014       -11.12068        -65.01713        173.2044             -200               0             -200               0
1.10526              -0.03498932       -11.21435        -64.94537        169.1197             -200               0             -200               0
1.11184              -0.03594807       -11.30868        -64.89622        165.1761             -200               0             -200               0
1.11842              -0.03685567       -11.40377        -64.86814        161.3884             -200               0             -200               0
1.125                -0.03771484        -11.4997        -64.85936        157.7722             -200               0             -200               0
1.13158              -0.03852794       -11.59658        -64.86772        154.3441             -200               0             -200               0
1.13816              -0.03930142       -11.69449        -64.89062        151.1213             -200               0             -200               0
1.14474               -0.0400424       -11.79351         -64.9249        148.1209             -200               0             -200               0
1.15132              -0.04075981       -11.89373        -64.96674        145.3595             -200               0             -200               0
1.15789              -0.04146487       -11.99521        -65.01155        142.8516             -200               0             -200               0
1.16447              -0.04217018       -12.09801        -65.05393        140.6087             -200               0             -200               0
1.17105              -0.04288716       -12.20217        -65.08768        138.6369             -200               0             -200               0
1.17763              -0.04363069       -12.30771        -65.10585        136.9349             -200               0             -200               0
1.18421              -0.04441407       -12.41466        -65.10106        135.4918             -200               0             -200               0
1.19079              -0.04525051       -12.52303        -65.06583        134.2854             -200               0             -200               0
1.19737              -0.04615462       -12.63279        -64.99313        133.2806             -200               0             -200               0
1.20395              -0.04713799       -12.74393        -64.87707        132.4305             -200               0             -200               0
1.21053               -0.0482129       -12.85642        -64.71344        131.6779             -200               0             -200               0
1.21711              -0.04938912        -12.9702         -64.5003        130.9597             -200               0             -200               0
1.22368              -0.05067506       -13.08523        -64.23813        130.2113             -200               0             -200               0
1.23026              -0.05207829       -13.20144        -63.92979        129.3724             -200               0             -200               0
1.23684              -0.05360319       -13.31877        -63.58013        128.3911             -200               0             -200               0
1.24342              -0.05525188       -13.43715        -63.19537         127.227             -200               0             -200               0
1.25                 -0.05702566       -13.55651        -62.78246        125.8524             -200               0             -200               0
1.25658              -0.05892306        -13.6768        -62.34851        124.2517             -200               0             -200               0
1.26316              -0.06093994       -13.79794        -61.90029          122.42             -200               0             -200               0
1.26974              -0.06307242       -13.91988        -61.44393        120.3607             -200               0             -200               0
1.27632              -0.06531154       -14.04259        -60.98476        118.0835             -200               0             -200               0
1.28289              -0.06765068       -14.16602        -60.52724        115.6026             -200               0             -200               0
1.28947              -0.07007835       -14.29016        -60.07503        112.9342             -200               0             -200               0
1.29605              -0.07258439       -14.41499        -59.63102        110.0962             -200               0             -200               0
1.30263              -0.07515765       -14.54053        -59.19746        107.1065             -200               0             -200               0
1.30921              -0.07778781       -14.66679        -58.77604        103.9829             -200               0             -200               0
1.31579              -0.08046354       -14.79382        -58.36799        100.7423             -200               0             -200               0
1.32237               -0.0831731       -14.92166        -57.97418        97.40076             -200               0             -200               0
1.32895              -0.08590828       -15.05038        -57.59517        93.97331             -200               0             -200               0
1.33553              -0.08866071       -15.18006        -57.23128         90.4739             -200               0             -200               0
1.34211              -0.09142372       -15.31078        -56.88263        86.91549             -200               0             -200               0
1.34868              -0.09419257       -15.44267        -56.54919        83.31008             -200               0             -200               0
1.35526              -0.09696609       -15.57581        -56.23081        79.66878             -200               0             -200               0
1.36184              -0.09974197       -15.71032        -55.92723        76.00191             -200               0             -200               0
1.36842               -0.1025239       -15.84631         -55.6381         72.3191             -200               0             -200               0
1.375                 -0.1053155       -15.98392          -55.363         68.6293             -200               0             -200               0
1.38158               -0.1081255       -16.12324        -55.10144         64.9409             -200               0             -200               0
1.38816               -0.1109618       -16.26438        -54.85287        61.26179             -200               0             -200               0
1.39474               -0.1138359       -16.40746         -54.6167        57.59937             -200               0             -200               0
1.40132               -0.1167627       -16.55255        -54.39224        53.96059             -200               0             -200               0
1.40789               -0.1197563       -16.69974        -54.17878        50.35199             -200               0             -200               0
1.41447               -0.1228331        -16.8491        -53.97554        46.77969             -200               0             -200               0
1.42105               -0.1260113       -17.00068        -53.78166        43.24938             -200               0             -200               0
1.42763                -0.129309       -17.15451        -53.59623        39.76629             -200               0             -200               0
1.43421               -0.1327447       -17.31062        -53.41828        36.33518             -200               0             -200               0
1.44079               -0.1363359       -17.46901        -53.24677        32.96028             -200               0             -200               0
1.44737               -0.1401016       -17.62967        -53.08058         29.6452             -200               0             -200               0
1.45395               -0.1440578       -17.79258        -52.91854        26.39289             -200               0             -200               0
1.46053               -0.1482184        -17.9577        -52.75941        23.20552             -200               0             -200               0
1.46711                -0.152599       -18.12498        -52.60192        20.08444             -200               0             -200               0
1.47368               -0.1572103       -18.29437        -52.44475        17.03006             -200               0             -200               0
1.48026               -0.1620606       -18.46579        -52.28655        14.04173             -200               0             -200               0
1.48684               -0.1671579       -18.63918        -52.12598        11.11776             -200               0             -200               0
1.49342               -0.1725064       -18.81448        -51.96172        8.255294             -200               0             -200               0
1.5                   -0.1781072        -18.9916         -51.7925        5.450301             -200               0             -200               0
1.50658               -0.1839608        -19.1705        -51.61713         2.69762             -200               0             -200               0
1.51316                -0.190063        -19.3511        -51.43452    -0.009007379             -200               0             -200               0
1.51974               -0.1964096       -19.53337        -51.24374       -2.676826             -200               0             -200               0
1.52632               -0.2029919       -19.71728        -51.04402       -5.313915             -200               0             -200               0
1.53289               -0.2098016        -19.9028        -50.83476       -7.929003             -200               0             -200               0
1.53947               -0.2168296       -20.08995        -50.61558       -10.53124             -200               0             -200               0
1.54605               -0.2240646       -20.27874        -50.38633       -13.12993             -200               0             -200               0
1.55263               -0.2314951       -20.46922        -50.14706       -15.73432             -200               0             -200               0
1.55921               -0.2391101       -20.66143        -49.89801        -18.3533             -200               0             -200               0
1.56579               -0.2468999       -20.85547        -49.63964        -20.9952             -200               0             -200               0
1.57237               -0.2548544       -21.05144        -49.37256       -23.66762             -200               0             -200               0
1.57895               -0.2629662       -21.24946        -49.09752       -26.37722             -200               0             -200               0
1.58553               -0.2712306       -21.44967        -48.81539       -29.12964             -200               0             -200               0
1.59211               -0.2796445       -21.65223         -48.5271       -31.92947             -200               0             -200               0
1.59868               -0.2882076        -21.8573        -48.23365       -34.78019             -200               0             -200               0
1.60526               -0.2969248       -22.06508        -47.93603       -37.68421             -200               0             -200               0
1.61184               -0.3058021       -22.27574        -47.63525       -40.64295             -200               0             -200               0
1.61842               -0.3148506       -22.48949        -47.33227       -43.65688             -200               0             -200               0
1.625                 -0.3240842       -22.70651          -47.028       -46.72564             -200               0             -200               0
1.63158               -0.3335231       -22.92698        -46.72331       -49.84814             -200               0             -200               0
1.63816               -0.3431887       -23.15111        -46.41898       -53.02269             -200               0             -200               0
1.64474               -0.3531057       -23.37905        -46.11572       -56.24705             -200               0             -200               0
1.65132               -0.3633047       -23.61098        -45.81416        -59.5186             -200               0             -200               0
1.65789               -0.3738167       -23.84702        -45.51483       -62.83438             -200               0             -200               0
1.66447               -0.3846763       -24.08731        -45.21821       -66.19121             -200               0             -200               0
1.67105               -0.3959205       -24.33195        -44.92467       -69.58575             -200               0             -200               0
1.67763               -0.4075875       -24.58102        -44.63452       -73.01455             -200               0             -200               0
1.68421               -0.4197162       -24.83457        -44.34799       -76.47416             -200               0             -200               0
1.69079               -0.4323467       -25.09265        -44.06523        -79.9611             -200               0             -200               0
1.69737               -0.4455177       -25.35524        -43.78636       -83.47199             -200               0             -200               0
1.70395               -0.4592682       -25.62235        -43.51139       -87.00353             -200               0             -200               0
1.71053               -0.4736356       -25.89393        -43.24032       -90.55255             -200               0             -200               0
1.71711               -0.4886556       -26.16993        -42.97307       -94.11602             -200               0             -200               0
1.72368               -0.5043624       -26.45028        -42.70952        -97.6911             -200               0             -200               0
1.73026                -0.520785       -26.73489         -42.4495       -101.2752             -200               0             -200               0
1.73684               -0.5379542       -27.02366        -42.19281       -104.8658             -200               0             -200               0
1.74342               -0.5558932       -27.31649        -41.93922       -108.4608             -200               0             -200               0
1.75                  -0.5746234       -27.61327        -41.68846       -112.0582             -200               0             -200               0
1.75658                -0.594163        -27.9139        -41.44023       -115.6565             -200               0             -200               0
1.76316               -0.6145279       -28.21828        -41.19421       -119.2541             -200               0             -200               0
1.76974               -0.6357288       -28.52633        -40.95007       -122.8499             -200               0             -200               0
1.77632               -0.6577757       -28.83798        -40.70747       -126.4433             -200               0             -200               0
1.78289               -0.6806737       -29.15316        -40.46603       -130.0336             -200               0             -200               0
1.78947                 -0.70443       -29.47185        -40.22542       -133.6207             -200               0             -200               0
1.79605                -0.729047       -29.79405        -39.98526       -137.2046             -200               0             -200               0
1.80263               -0.7545274       -30.11978         -39.7452       -140.7857             -200               0             -200               0
1.80921               -0.7808739        -30.4491         -39.5049       -144.3648             -200               0             -200               0
1.81579               -0.8080915       -30.78208        -39.26405       -147.9427             -200               0             -200               0
1.82237               -0.8361835       -31.11884        -39.02233       -151.5208             -200               0             -200               0
1.82895               -0.8651596       -31.45954        -38.77948       -155.1004             -200               0             -200               0
1.83553               -0.8950313       -31.80435        -38.53524       -158.6834             -200               0             -200               0
1.84211                -0.925813       -32.15348         -38.2894       -162.2715             -200               0             -200               0
1.84868               -0.9575257       -32.50718         -38.0418       -165.8669             -200               0             -200               0
