! TOUCHSTONE file generated by CST MICROWAVE STUDIO
! Date and time: Sat Mar  8 13:55:17 2025
! Project name: non_fractured.cst
! Parameters = {B=2.5; D=160; F=10; Feed=2.85625; L=100; M=20; R=0.384908; S=2; Theta=0; length=57.125; wave=114.25}
! Header version: 2024
! Port assignment regex: !\s*Touchstone port\s*([0-9]+)\s*=\s*(CST MWS port|CST DES external port|CST DES block port)\s*(.+)\s* \(\"(.*)\"\)(\s*mode\s*([0-9]+))?.*
! Touchstone port assignment:
! Touchstone port 1 = CST MWS port 1 ("")
! Touchstone port 2 = CST MWS port 2 ("")
# GHz S DB R 50
1                    -0.01804493       -9.742264        -69.54944        -126.358             -200               0             -200               0
1.00658              -0.01891387       -9.830985        -69.07725       -130.6694             -200               0             -200               0
1.01316              -0.01984612       -9.919991        -68.64304       -135.0063             -200               0             -200               0
1.01974              -0.02083465       -10.00924         -68.2443       -139.3524             -200               0             -200               0
1.02632              -0.02187029       -10.09871        -67.87885       -143.6932             -200               0             -200               0
1.03289               -0.0229449       -10.18837        -67.54471       -148.0158             -200               0             -200               0
1.03947              -0.02404765       -10.27823        -67.24013       -152.3082             -200               0             -200               0
1.04605              -0.02516828       -10.36827        -66.96348       -156.5592             -200               0             -200               0
1.05263              -0.02629626       -10.45852        -66.71324       -160.7582             -200               0             -200               0
1.05921              -0.02742112         -10.549        -66.48797       -164.8946             -200               0             -200               0
1.06579              -0.02853365       -10.63977        -66.28627       -168.9582             -200               0             -200               0
1.07237              -0.02962579       -10.73086        -66.10673       -172.9386             -200               0             -200               0
1.07895              -0.03068925       -10.82233         -65.9479       -176.8254             -200               0             -200               0
1.08553              -0.03171845       -10.91427        -65.80827        179.3919             -200               0             -200               0
1.09211              -0.03270814       -11.00674         -65.6862        175.7237             -200               0             -200               0
1.09868              -0.03365599       -11.09983        -65.57989        172.1807             -200               0             -200               0
1.10526              -0.03456109       -11.19362        -65.48736        168.7732             -200               0             -200               0
1.11184              -0.03542451        -11.2882        -65.40638        165.5113             -200               0             -200               0
1.11842               -0.0362493       -11.38365        -65.33443        162.4041             -200               0             -200               0
1.125                -0.03703974       -11.48006         -65.2687        159.4599             -200               0             -200               0
1.13158               -0.0378022       -11.57751        -65.20606        156.6851             -200               0             -200               0
1.13816              -0.03854528       -11.67606        -65.14304        154.0838             -200               0             -200               0
1.14474              -0.03927894       -11.77578        -65.07588        151.6571             -200               0             -200               0
1.15132              -0.04001278       -11.87672        -65.00062        149.4021             -200               0             -200               0
1.15789              -0.04075941       -11.97892        -64.91316        147.3117             -200               0             -200               0
1.16447              -0.04153075       -12.08241        -64.80947        145.3734             -200               0             -200               0
1.17105              -0.04233962       -12.18721        -64.68572        143.5694             -200               0             -200               0
1.17763              -0.04319816       -12.29333        -64.53856        141.8769             -200               0             -200               0
1.18421              -0.04411945       -12.40075        -64.36529        140.2683             -200               0             -200               0
1.19079              -0.04511391       -12.50946         -64.1641        138.7126             -200               0             -200               0
1.19737              -0.04619326       -12.61942        -63.93414        137.1768             -200               0             -200               0
1.20395              -0.04736554       -12.73059        -63.67563        135.6277             -200               0             -200               0
1.21053              -0.04863999       -12.84294        -63.38982        134.0337             -200               0             -200               0
1.21711              -0.05002159       -12.95639        -63.07881        132.3665             -200               0             -200               0
1.22368              -0.05151581        -13.0709        -62.74545        130.6023             -200               0             -200               0
1.23026              -0.05312579        -13.1864        -62.39304        128.7221             -200               0             -200               0
1.23684              -0.05485046       -13.30283        -62.02517        126.7126             -200               0             -200               0
1.24342              -0.05668975       -13.42013         -61.6455        124.5656             -200               0             -200               0
1.25                 -0.05863994       -13.53824        -61.25755        122.2774             -200               0             -200               0
1.25658              -0.06069539       -13.65711        -60.86465        119.8485             -200               0             -200               0
1.26316              -0.06285166       -13.77671        -60.46979        117.2825             -200               0             -200               0
1.26974              -0.06509949         -13.897        -60.07565        114.5854             -200               0             -200               0
1.27632              -0.06743009       -14.01797        -59.68451        111.7652             -200               0             -200               0
1.28289              -0.06983367       -14.13959        -59.29832        108.8308             -200               0             -200               0
1.28947              -0.07229992       -14.26189        -58.91867        105.7922             -200               0             -200               0
1.29605              -0.07481855       -14.38488        -58.54686        102.6593             -200               0             -200               0
1.30263              -0.07738008       -14.50859        -58.18394        99.44244             -200               0             -200               0
1.30921              -0.07997328       -14.63306        -57.83067        96.15171             -200               0             -200               0
1.31579                -0.082591       -14.75837        -57.48766        92.79692             -200               0             -200               0
1.32237              -0.08522455       -14.88458         -57.1553        89.38755             -200               0             -200               0
1.32895              -0.08786759       -15.01177        -56.83383         85.9327             -200               0             -200               0
1.33553              -0.09051657       -15.14003        -56.52338          82.441             -200               0             -200               0
1.34211              -0.09316924       -15.26947        -56.22394        78.92067             -200               0             -200               0
1.34868              -0.09582358       -15.40017        -55.93542        75.37948             -200               0             -200               0
1.35526              -0.09848253       -15.53226        -55.65762         71.8248             -200               0             -200               0
1.36184               -0.1011497       -15.66582        -55.39028        68.26355             -200               0             -200               0
1.36842               -0.1038307       -15.80097        -55.13306        64.70228             -200               0             -200               0
1.375                 -0.1065343        -15.9378        -54.88555        61.14713             -200               0             -200               0
1.38158               -0.1092687       -16.07641        -54.64728        57.60385             -200               0             -200               0
1.38816               -0.1120475       -16.21688        -54.41772        54.07781             -200               0             -200               0
1.39474               -0.1148828       -16.35927         -54.1963        50.57401             -200               0             -200               0
1.40132                -0.117789       -16.50366        -53.98238        47.09701             -200               0             -200               0
1.40789                -0.120781       -16.65008        -53.77526        43.65097             -200               0             -200               0
1.41447               -0.1238741       -16.79859        -53.57421        40.23961             -200               0             -200               0
1.42105               -0.1270843       -16.94918        -53.37845        36.86616             -200               0             -200               0
1.42763               -0.1304268       -17.10188        -53.18715        33.53336             -200               0             -200               0
1.43421               -0.1339173       -17.25669        -52.99943        30.24338             -200               0             -200               0
1.44079               -0.1375685       -17.41356         -52.8144         26.9978             -200               0             -200               0
1.44737               -0.1413937        -17.5725        -52.63114        23.79758             -200               0             -200               0
1.45395               -0.1454037       -17.73345        -52.44869        20.64301             -200               0             -200               0
1.46053               -0.1496081       -17.89637        -52.26613        17.53365             -200               0             -200               0
1.46711               -0.1540137       -18.06122        -52.08251        14.46834             -200               0             -200               0
1.47368               -0.1586252       -18.22794        -51.89693        11.44519             -200               0             -200               0
1.48026               -0.1634466       -18.39648         -51.7085         8.46157             -200               0             -200               0
1.48684               -0.1684784       -18.56679        -51.51641        5.514119             -200               0             -200               0
1.49342               -0.1737192       -18.73883        -51.31992         2.59882             -200               0             -200               0
1.5                   -0.1791666       -18.91257        -51.11837      -0.2889558             -200               0             -200               0
1.50658               -0.1848143       -19.08798         -50.9112       -3.154352             -200               0             -200               0
1.51316               -0.1906569       -19.26504        -50.69798       -6.002931             -200               0             -200               0
1.51974               -0.1966867       -19.44377        -50.47838       -8.840536             -200               0             -200               0
1.52632               -0.2028944       -19.62418        -50.25222       -11.67318             -200               0             -200               0
1.53289                -0.209272        -19.8063        -50.01943       -14.50688             -200               0             -200               0
1.53947               -0.2158104       -19.99019         -49.7801       -17.34755             -200               0             -200               0
1.54605               -0.2225013       -20.17592         -49.5344       -20.20084             -200               0             -200               0
1.55263               -0.2293369       -20.36358        -49.28265       -23.07204             -200               0             -200               0
1.55921                -0.236311       -20.55328        -49.02523       -25.96597             -200               0             -200               0
1.56579                 -0.24342       -20.74514        -48.76264       -28.88689             -200               0             -200               0
1.57237               -0.2506599       -20.93929        -48.49541       -31.83846             -200               0             -200               0
1.57895               -0.2580319       -21.13589        -48.22415       -34.82371             -200               0             -200               0
1.58553               -0.2655387       -21.33509        -47.94948       -37.84498             -200               0             -200               0
1.59211               -0.2731868       -21.53707        -47.67205         -40.904             -200               0             -200               0
1.59868               -0.2809844       -21.74199         -47.3925       -44.00185             -200               0             -200               0
1.60526               -0.2889437       -21.95002        -47.11147       -47.13901             -200               0             -200               0
1.61184               -0.2970811       -22.16134        -46.82955       -50.31546             -200               0             -200               0
1.61842                -0.305415       -22.37611        -46.54733       -53.53064             -200               0             -200               0
1.625                 -0.3139679       -22.59449        -46.26535       -56.78359             -200               0             -200               0
1.63158               -0.3227641       -22.81662        -45.98408       -60.07297             -200               0             -200               0
1.63816               -0.3318312       -23.04265        -45.70398       -63.39713             -200               0             -200               0
1.64474               -0.3411991       -23.27268        -45.42542       -66.75416             -200               0             -200               0
1.65132               -0.3508975       -23.50682        -45.14874       -70.14197             -200               0             -200               0
1.65789                -0.360962       -23.74515        -44.87421        -73.5583             -200               0             -200               0
1.66447               -0.3714249       -23.98773        -44.60207       -77.00081             -200               0             -200               0
1.67105               -0.3823207       -24.23461        -44.33247        -80.4671             -200               0             -200               0
1.67763               -0.3936838        -24.4858        -44.06555       -83.95473             -200               0             -200               0
1.68421               -0.4055477       -24.74131        -43.80138        -87.4613             -200               0             -200               0
1.69079               -0.4179456       -25.00113        -43.53998       -90.98447             -200               0             -200               0
1.69737               -0.4309072       -25.26522        -43.28134       -94.52195             -200               0             -200               0
1.70395               -0.4444629       -25.53353         -43.0254       -98.07157             -200               0             -200               0
1.71053                -0.458641       -25.80602        -42.77206       -101.6313             -200               0             -200               0
1.71711               -0.4734646       -26.08262        -42.52119       -105.1992             -200               0             -200               0
1.72368                -0.488957       -26.36327        -42.27264       -108.7736             -200               0             -200               0
1.73026               -0.5051382       -26.64788        -42.02622        -112.353             -200               0             -200               0
1.73684               -0.5220245       -26.93641        -41.78171       -115.9359             -200               0             -200               0
1.74342               -0.5396316       -27.22878        -41.53887       -119.5214             -200               0             -200               0
1.75                  -0.5579701       -27.52495        -41.29747       -123.1083             -200               0             -200               0
1.75658               -0.5770506       -27.82488        -41.05723       -126.6962             -200               0             -200               0
1.76316               -0.5968812       -28.12856        -40.81788       -130.2846             -200               0             -200               0
1.76974               -0.6174701       -28.43598        -40.57914       -133.8732             -200               0             -200               0
1.77632               -0.6388215       -28.74718        -40.34074       -137.4622             -200               0             -200               0
1.78289               -0.6609433       -29.06218         -40.1024       -141.0518             -200               0             -200               0
1.78947               -0.6838419       -29.38109        -39.86386       -144.6425             -200               0             -200               0
1.79605               -0.7075245       -29.70398        -39.62485       -148.2352             -200               0             -200               0
1.80263               -0.7320007       -30.03099        -39.38514       -151.8308             -200               0             -200               0
1.80921               -0.7572839       -30.36227        -39.14451       -155.4305             -200               0             -200               0
1.81579               -0.7833883       -30.69799        -38.90277       -159.0356             -200               0             -200               0
1.82237               -0.8103352       -31.03837        -38.65974       -162.6477             -200               0             -200               0
1.82895               -0.8381482       -31.38362        -38.41529       -166.2685             -200               0             -200               0
1.83553                -0.866857       -31.73398         -38.1693       -169.8997             -200               0             -200               0
1.84211               -0.8964974       -32.08969         -37.9217       -173.5433             -200               0             -200               0
1.84868               -0.9271117       -32.45102        -37.67246        -177.201             -200               0             -200               0
