! TOUCHSTONE file generated by CST MICROWAVE STUDIO
! Date and time: Sat Mar  8 13:54:42 2025
! Project name: non_fractured.cst
! Parameters = {B=2.5; D=160; F=10; Feed=2.85625; L=100; M=10; R=0.384908; S=2; Theta=180; length=57.125; wave=114.25}
! Header version: 2024
! Port assignment regex: !\s*Touchstone port\s*([0-9]+)\s*=\s*(CST MWS port|CST DES external port|CST DES block port)\s*(.+)\s* \(\"(.*)\"\)(\s*mode\s*([0-9]+))?.*
! Touchstone port assignment:
! Touchstone port 1 = CST MWS port 1 ("")
! Touchstone port 2 = CST MWS port 2 ("")
# GHz S DB R 50
1                     -0.0176829       -9.747455        -70.05648       -120.7884             -200               0             -200               0
1.00658               -0.0184155       -9.836364        -69.49493        -125.041             -200               0             -200               0
1.01316              -0.01921467       -9.925686        -68.98322       -129.3887             -200               0             -200               0
1.01974              -0.02007556       -10.01538        -68.51775       -133.8034             -200               0             -200               0
1.02632              -0.02099169        -10.1054        -68.09546       -138.2621             -200               0             -200               0
1.03289              -0.02195787       -10.19572        -67.71375       -142.7456             -200               0             -200               0
1.03947              -0.02296567       -10.28632        -67.37037        -147.237             -200               0             -200               0
1.04605              -0.02400626       -10.37718        -67.06343       -151.7214             -200               0             -200               0
1.05263              -0.02507064       -10.46831        -66.79131       -156.1849             -200               0             -200               0
1.05921              -0.02615039       -10.55971         -66.5526       -160.6146             -200               0             -200               0
1.06579              -0.02723489       -10.65141        -66.34608       -164.9977             -200               0             -200               0
1.07237              -0.02831707       -10.74342        -66.17069       -169.3215             -200               0             -200               0
1.07895              -0.02938767       -10.83581        -66.02547       -173.5731             -200               0             -200               0
1.08553              -0.03044065       -10.92861        -65.90953       -177.7386             -200               0             -200               0
1.09211              -0.03146812       -11.02189        -65.82199        178.1962             -200               0             -200               0
1.09868              -0.03246664       -11.11571        -65.76197        174.2471             -200               0             -200               0
1.10526              -0.03343254       -11.21015        -65.72848         170.431             -200               0             -200               0
1.11184              -0.03436456       -11.30529        -65.72039        166.7665             -200               0             -200               0
1.11842               -0.0352614        -11.4012         -65.7363        163.2738             -200               0             -200               0
1.125                -0.03612621       -11.49797        -65.77446        159.9751             -200               0             -200               0
1.13158              -0.03696227       -11.59567        -65.83264        156.8943             -200               0             -200               0
1.13816              -0.03777395       -11.69437        -65.90791        154.0569             -200               0             -200               0
1.14474              -0.03856883       -11.79416        -65.99652        151.4894             -200               0             -200               0
1.15132              -0.03935512       -11.89509        -66.09363        149.2179             -200               0             -200               0
1.15789               -0.0401424       -11.99723        -66.19315        147.2669             -200               0             -200               0
1.16447              -0.04093997        -12.1006        -66.28757        145.6561             -200               0             -200               0
1.17105              -0.04176101       -12.20526        -66.36788        144.3975             -200               0             -200               0
1.17763              -0.04261609       -12.31122        -66.42378        143.4906             -200               0             -200               0
1.18421              -0.04351757       -12.41851        -66.44409        142.9182             -200               0             -200               0
1.19079              -0.04447764       -12.52711        -66.41758        142.6427             -200               0             -200               0
1.19737              -0.04550748       -12.63702        -66.33408        142.6043             -200               0             -200               0
1.20395              -0.04661805       -12.74822        -66.18582        142.7231             -200               0             -200               0
1.21053              -0.04781904       -12.86067        -65.96859        142.9049             -200               0             -200               0
1.21711              -0.04911945       -12.97434         -65.6824         143.051             -200               0             -200               0
1.22368              -0.05052707       -13.08918        -65.33143        143.0683             -200               0             -200               0
1.23026              -0.05204573       -13.20514        -64.92333        142.8788             -200               0             -200               0
1.23684              -0.05368148       -13.32215        -64.46798        142.4249             -200               0             -200               0
1.24342              -0.05543524       -13.44016         -63.9762        141.6713             -200               0             -200               0
1.25                 -0.05730795       -13.55911        -63.45867        140.6028             -200               0             -200               0
1.25658              -0.05929749       -13.67895        -62.92509        139.2206             -200               0             -200               0
1.26316               -0.0614009       -13.79962         -62.3838        137.5375             -200               0             -200               0
1.26974              -0.06361256       -13.92107        -61.84164        135.5743             -200               0             -200               0
1.27632              -0.06592694       -14.04326        -61.30401        133.3555             -200               0             -200               0
1.28289              -0.06833509       -14.16618        -60.77503        130.9078             -200               0             -200               0
1.28947               -0.0708287       -14.28979        -60.25774        128.2574             -200               0             -200               0
1.29605              -0.07339782       -14.41411        -59.75428        125.4296             -200               0             -200               0
1.30263              -0.07603201       -14.53912        -59.26612        122.4483             -200               0             -200               0
1.30921              -0.07872189       -14.66486        -58.79416        119.3351             -200               0             -200               0
1.31579               -0.0814568       -14.79136        -58.33889        116.1098             -200               0             -200               0
1.32237              -0.08422685       -14.91867        -57.90051        112.7902             -200               0             -200               0
1.32895              -0.08702334       -15.04685        -57.47893        109.3926             -200               0             -200               0
1.33553              -0.08983933       -15.17597        -57.07391        105.9312             -200               0             -200               0
1.34211              -0.09266774       -15.30613        -56.68508        102.4192             -200               0             -200               0
1.34868              -0.09550537       -15.43741        -56.31194         98.8682             -200               0             -200               0
1.35526              -0.09834818        -15.5699        -55.95392        95.28873             -200               0             -200               0
1.36184               -0.1011964       -15.70373        -55.61038        91.69033             -200               0             -200               0
1.36842               -0.1040506       -15.83899        -55.28065        88.08158             -200               0             -200               0
1.375                 -0.1069172        -15.9758          -54.964        84.47027             -200               0             -200               0
1.38158               -0.1097992       -16.11427        -54.65966        80.86345             -200               0             -200               0
1.38816               -0.1127067       -16.25449        -54.36684        77.26745             -200               0             -200               0
1.39474                -0.115649       -16.39658        -54.08471        73.68799             -200               0             -200               0
1.40132               -0.1186382       -16.54061        -53.81241        70.13017             -200               0             -200               0
1.40789               -0.1216885       -16.68668        -53.54906         66.5985             -200               0             -200               0
1.41447                -0.124814       -16.83484        -53.29374         63.0969             -200               0             -200               0
1.42105               -0.1280303       -16.98516        -53.04554        59.62869             -200               0             -200               0
1.42763               -0.1313565       -17.13768        -52.80349        56.19662             -200               0             -200               0
1.43421               -0.1348072       -17.29243        -52.56663         52.8028             -200               0             -200               0
1.44079               -0.1384008       -17.44943        -52.33397         49.4487             -200               0             -200               0
1.44737               -0.1421528       -17.60867        -52.10454        46.13513             -200               0             -200               0
1.45395               -0.1460804       -17.77015        -51.87734        42.86226             -200               0             -200               0
1.46053               -0.1501976       -17.93384        -51.65141        39.62953             -200               0             -200               0
1.46711               -0.1545184       -18.09971        -51.42582        36.43569             -200               0             -200               0
1.47368               -0.1590546       -18.26772        -51.19965        33.27882             -200               0             -200               0
1.48026               -0.1638166       -18.43782        -50.97205        30.15632             -200               0             -200               0
1.48684               -0.1688114       -18.60994        -50.74223        27.06492             -200               0             -200               0
1.49342               -0.1740466       -18.78404        -50.50947        24.00081             -200               0             -200               0
1.5                   -0.1795245       -18.96006        -50.27316        20.95963             -200               0             -200               0
1.50658               -0.1852476       -19.13795        -50.03276        17.93658             -200               0             -200               0
1.51316                -0.191215       -19.31765        -49.78786        14.92654             -200               0             -200               0
1.51974               -0.1974252       -19.49914        -49.53817        11.92415             -200               0             -200               0
1.52632               -0.2038725       -19.68238        -49.28349        8.923967             -200               0             -200               0
1.53289               -0.2105524       -19.86735        -49.02378        5.920521             -200               0             -200               0
1.53947               -0.2174572       -20.05404        -48.75908        2.908494             -200               0             -200               0
1.54605               -0.2245813       -20.24249        -48.48956      -0.1172006             -200               0             -200               0
1.55263               -0.2319149       -20.43271        -48.21547       -3.161309             -200               0             -200               0
1.55921               -0.2394504       -20.62474        -47.93716        -6.22816             -200               0             -200               0
1.56579               -0.2471808       -20.81867        -47.65506       -9.321594             -200               0             -200               0
1.57237               -0.2550982       -21.01455        -47.36964       -12.44492             -200               0             -200               0
1.57895               -0.2631981       -21.21251        -47.08144       -15.60087             -200               0             -200               0
1.58553               -0.2714764       -21.41264          -46.791       -18.79161             -200               0             -200               0
1.59211               -0.2799316       -21.61509         -46.4989       -22.01875             -200               0             -200               0
1.59868               -0.2885626       -21.81998        -46.20571       -25.28332             -200               0             -200               0
1.60526                -0.297376       -22.02747        -45.91201       -28.58585             -200               0             -200               0
1.61184               -0.3063755       -22.23772        -45.61835       -31.92637             -200               0             -200               0
1.61842               -0.3155707       -22.45088        -45.32526       -35.30449             -200               0             -200               0
1.625                 -0.3249741       -22.66713        -45.03323        -38.7194             -200               0             -200               0
1.63158               -0.3346015       -22.88662        -44.74272       -42.16996             -200               0             -200               0
1.63816               -0.3444717       -23.10952        -44.45414       -45.65476             -200               0             -200               0
1.64474               -0.3546059       -23.33596        -44.16788       -49.17211             -200               0             -200               0
1.65132               -0.3650296        -23.5661        -43.88426       -52.72014             -200               0             -200               0
1.65789               -0.3757686       -23.80005        -43.60357       -56.29681             -200               0             -200               0
1.66447               -0.3868525       -24.03793        -43.32604       -59.89996             -200               0             -200               0
1.67105               -0.3983124       -24.27984        -43.05188       -63.52737             -200               0             -200               0
1.67763               -0.4101816       -24.52585        -42.78123       -67.17675             -200               0             -200               0
1.68421               -0.4224923       -24.77602        -42.51421       -70.84579             -200               0             -200               0
1.69079               -0.4352791        -25.0304        -42.25088        -74.5322             -200               0             -200               0
1.69737               -0.4485751       -25.28899        -41.99128       -78.23371             -200               0             -200               0
1.70395               -0.4624143        -25.5518         -41.7354       -81.94809             -200               0             -200               0
1.71053                -0.476828       -25.81882         -41.4832       -85.67321             -200               0             -200               0
1.71711               -0.4918484       -26.09001        -41.23462       -89.40699             -200               0             -200               0
1.72368               -0.5075047       -26.36533        -40.98955       -93.14749             -200               0             -200               0
1.73026               -0.5238235       -26.64473        -40.74785       -96.89287             -200               0             -200               0
1.73684               -0.5408296       -26.92814        -40.50938       -100.6414             -200               0             -200               0
1.74342               -0.5585461       -27.21549        -40.27394       -104.3916             -200               0             -200               0
1.75                  -0.5769932       -27.50671        -40.04135       -108.1419             -200               0             -200               0
1.75658               -0.5961884       -27.80174        -39.81138       -111.8912             -200               0             -200               0
1.76316               -0.6161455       -28.10052        -39.58379       -115.6384             -200               0             -200               0
1.76974               -0.6368762         -28.403        -39.35833       -119.3826             -200               0             -200               0
1.77632               -0.6583932       -28.70914        -39.13474       -123.1232             -200               0             -200               0
1.78289                -0.680704       -29.01893        -38.91275       -126.8596             -200               0             -200               0
1.78947               -0.7038153       -29.33235        -38.69207       -130.5915             -200               0             -200               0
1.79605               -0.7277346       -29.64945        -38.47243       -134.3189             -200               0             -200               0
1.80263               -0.7524681       -29.97025        -38.25355        -138.042             -200               0             -200               0
1.80921               -0.7780215       -30.29485        -38.03516        -141.761             -200               0             -200               0
1.81579               -0.8044042       -30.62333        -37.81699       -145.4764             -200               0             -200               0
1.82237               -0.8316244       -30.95583        -37.59878       -149.1891             -200               0             -200               0
1.82895               -0.8596965        -31.2925        -37.38029          -152.9             -200               0             -200               0
1.83553               -0.8886351       -31.63353        -37.16129       -156.6101             -200               0             -200               0
1.84211               -0.9184593       -31.97912        -36.94158       -160.3207             -200               0             -200               0
1.84868               -0.9491952       -32.32949        -36.72099       -164.0334             -200               0             -200               0
