! TOUCHSTONE file generated by CST MICROWAVE STUDIO
! Date and time: Sat Mar  8 13:55:07 2025
! Project name: non_fractured.cst
! Parameters = {B=2.5; D=160; F=25; Feed=2.85625; L=100; M=10; R=0.384908; S=2.5; Theta=180; length=57.125; wave=114.25}
! Header version: 2024
! Port assignment regex: !\s*Touchstone port\s*([0-9]+)\s*=\s*(CST MWS port|CST DES external port|CST DES block port)\s*(.+)\s* \(\"(.*)\"\)(\s*mode\s*([0-9]+))?.*
! Touchstone port assignment:
! Touchstone port 1 = CST MWS port 1 ("")
! Touchstone port 2 = CST MWS port 2 ("")
# GHz S DB R 50
1                    -0.01872484       -9.745366          -69.316       -149.6803             -200               0             -200               0
1.0066               -0.01954865       -9.833843        -69.00594       -153.1199             -200               0             -200               0
1.0132                -0.0204204        -9.92271        -68.71379       -156.5692             -200               0             -200               0
1.0198               -0.02133619       -10.01195        -68.43886       -160.0163             -200               0             -200               0
1.0264               -0.02228941       -10.10154        -68.18037       -163.4501             -200               0             -200               0
1.033                -0.02327636       -10.19148        -67.93745         -166.86             -200               0             -200               0
1.0396                 -0.024289       -10.28177        -67.70917       -170.2363             -200               0             -200               0
1.0462               -0.02532368       -10.37241        -67.49447       -173.5696             -200               0             -200               0
1.05281              -0.02637308       -10.46342        -67.29222       -176.8514             -200               0             -200               0
1.05941              -0.02743159       -10.55481        -67.10117        179.9263             -200               0             -200               0
1.06601              -0.02849279       -10.64662        -66.91996        176.7709             -200               0             -200               0
1.07261              -0.02955282       -10.73888        -66.74711         173.689             -200               0             -200               0
1.07921              -0.03060804       -10.83163        -66.58104        170.6861             -200               0             -200               0
1.08581              -0.03165422       -10.92492        -66.42002        167.7671             -200               0             -200               0
1.09241              -0.03268936       -11.01879        -66.26222        164.9352             -200               0             -200               0
1.09901              -0.03371206        -11.1133        -66.10572        162.1924             -200               0             -200               0
1.10561              -0.03472241       -11.20851        -65.94852        159.5391             -200               0             -200               0
1.11221              -0.03572129       -11.30446        -65.78856         156.974             -200               0             -200               0
1.11881               -0.0367103       -11.40122        -65.62379        154.4935             -200               0             -200               0
1.12541              -0.03769407       -11.49883        -65.45221        152.0922             -200               0             -200               0
1.13201              -0.03867532       -11.59733        -65.27194        149.7626             -200               0             -200               0
1.13861              -0.03966083       -11.69679        -65.08125        147.4949             -200               0             -200               0
1.14521              -0.04065465       -11.79724        -64.87867        145.2778             -200               0             -200               0
1.15182              -0.04166502        -11.8987        -64.66301        143.0982             -200               0             -200               0
1.15842              -0.04269831        -12.0012        -64.43345        140.9417             -200               0             -200               0
1.16502              -0.04376265       -12.10478        -64.18953        138.7936             -200               0             -200               0
1.17162              -0.04486433       -12.20942        -63.93122        136.6387             -200               0             -200               0
1.17822                -0.046012       -12.31515        -63.65884        134.4624             -200               0             -200               0
1.18482              -0.04721237       -12.42196         -63.3731        132.2507             -200               0             -200               0
1.19142              -0.04847189       -12.52984        -63.07503        129.9913             -200               0             -200               0
1.19802              -0.04979725       -12.63878         -62.7659        127.6732             -200               0             -200               0
1.20462              -0.05119316       -12.74875        -62.44721        125.2875             -200               0             -200               0
1.21122              -0.05266403       -12.85973        -62.12057        122.8274             -200               0             -200               0
1.21782              -0.05421285       -12.97169        -61.78767        120.2878             -200               0             -200               0
1.22442              -0.05584254       -13.08461         -61.4502        117.6656             -200               0             -200               0
1.23102              -0.05755406       -13.19845        -61.10982        114.9597             -200               0             -200               0
1.23762              -0.05934682       -13.31319         -60.7681        112.1702             -200               0             -200               0
1.24422              -0.06122012       -13.42879        -60.42653        109.2989             -200               0             -200               0
1.25083              -0.06317108       -13.54524        -60.08645        106.3483             -200               0             -200               0
1.25743              -0.06519655       -13.66251        -59.74909        103.3223             -200               0             -200               0
1.26403              -0.06729323        -13.7806        -59.41552         100.225             -200               0             -200               0
1.27063              -0.06945503       -13.89949        -59.08669        97.06139             -200               0             -200               0
1.27723              -0.07167705       -14.01918         -58.7634         93.8367             -200               0             -200               0
1.28383              -0.07395401       -14.13969        -58.44634        90.55642             -200               0             -200               0
1.29043              -0.07627885       -14.26103        -58.13606        87.22619             -200               0             -200               0
1.29703              -0.07864611       -14.38323        -57.83301        83.85171             -200               0             -200               0
1.30363              -0.08105097       -14.50633        -57.53754        80.43867             -200               0             -200               0
1.31023              -0.08348751       -14.63036        -57.24991        76.99271             -200               0             -200               0
1.31683              -0.08595121       -14.75537        -56.97029        73.51937             -200               0             -200               0
1.32343              -0.08843833       -14.88143        -56.69876        70.02407             -200               0             -200               0
1.33003              -0.09094673       -15.00859        -56.43534        66.51208             -200               0             -200               0
1.33663              -0.09347507       -15.13693        -56.17999        62.98852             -200               0             -200               0
1.34323              -0.09602224       -15.26651         -55.9326        59.45831             -200               0             -200               0
1.34984              -0.09858893       -15.39741        -55.69299        55.92621             -200               0             -200               0
1.35644               -0.1011789       -15.52971        -55.46096        52.39678             -200               0             -200               0
1.36304               -0.1037946       -15.66347        -55.23621        48.87436             -200               0             -200               0
1.36964               -0.1064416       -15.79878        -55.01842        45.36307             -200               0             -200               0
1.37624               -0.1091257        -15.9357        -54.80723        41.86683             -200               0             -200               0
1.38284               -0.1118548        -16.0743        -54.60221        38.38928             -200               0             -200               0
1.38944               -0.1146359       -16.21463         -54.4029         34.9338             -200               0             -200               0
1.39604               -0.1174798       -16.35675        -54.20878        31.50348             -200               0             -200               0
1.40264               -0.1203944        -16.5007        -54.01932        28.10112             -200               0             -200               0
1.40924               -0.1233912       -16.64653        -53.83392        24.72914             -200               0             -200               0
1.41584               -0.1264793       -16.79426        -53.65195        21.38962             -200               0             -200               0
1.42244               -0.1296686       -16.94392        -53.47278        18.08423             -200               0             -200               0
1.42904               -0.1329699       -17.09551         -53.2957         14.8142             -200               0             -200               0
1.43564               -0.1363922       -17.24906        -53.12002         11.5803             -200               0             -200               0
1.44224               -0.1399444       -17.40456        -52.94503        8.382795             -200               0             -200               0
1.44884               -0.1436335       -17.56201           -52.77        5.221449             -200               0             -200               0
1.45545               -0.1474668       -17.72139         -52.5942        2.095474             -200               0             -200               0
1.46205               -0.1514501       -17.88271        -52.41694      -0.9964556             -200               0             -200               0
1.46865               -0.1555874       -18.04595        -52.23753       -4.056223             -200               0             -200               0
1.47525               -0.1598821        -18.2111        -52.05532       -7.086237             -200               0             -200               0
1.48185               -0.1643364       -18.37816        -51.86972       -10.08943             -200               0             -200               0
1.48845               -0.1689506       -18.54712        -51.68019        -13.0692             -200               0             -200               0
1.49505               -0.1737251       -18.71798        -51.48625       -16.02936             -200               0             -200               0
1.50165               -0.1786579       -18.89075         -51.2875       -18.97408             -200               0             -200               0
1.50825               -0.1837459       -19.06545        -51.08366       -21.90781             -200               0             -200               0
1.51485               -0.1889879       -19.24211         -50.8745       -24.83519             -200               0             -200               0
1.52145               -0.1943796       -19.42077        -50.65991       -27.76093             -200               0             -200               0
1.52805               -0.1999171       -19.60147        -50.43987       -30.68978             -200               0             -200               0
1.53465               -0.2055988       -19.78427        -50.21444       -33.62635             -200               0             -200               0
1.54125               -0.2114208       -19.96926        -49.98379        -36.5751             -200               0             -200               0
1.54785               -0.2173809       -20.15652        -49.74816       -39.54018             -200               0             -200               0
1.55446                -0.223479       -20.34615        -49.50787       -42.52544             -200               0             -200               0
1.56106               -0.2297147       -20.53826         -49.2633        -45.5343             -200               0             -200               0
1.56766               -0.2360897       -20.73296        -49.01488       -48.56975             -200               0             -200               0
1.57426               -0.2426081       -20.93039        -48.76309        -51.6343             -200               0             -200               0
1.58086               -0.2492751       -21.13069        -48.50842       -54.72999             -200               0             -200               0
1.58746               -0.2560995       -21.33399        -48.25139       -57.85833             -200               0             -200               0
1.59406               -0.2630911       -21.54044        -47.99253        -61.0204             -200               0             -200               0
1.60066               -0.2702629       -21.75019        -47.73235       -64.21678             -200               0             -200               0
1.60726               -0.2776295       -21.96338        -47.47137       -67.44765             -200               0             -200               0
1.61386               -0.2852095       -22.18016        -47.21005       -70.71276             -200               0             -200               0
1.62046               -0.2930223       -22.40067        -46.94888       -74.01154             -200               0             -200               0
1.62706               -0.3010905       -22.62503        -46.68827       -77.34305             -200               0             -200               0
1.63366               -0.3094382       -22.85339        -46.42861       -80.70613             -200               0             -200               0
1.64026               -0.3180932       -23.08584        -46.17026       -84.09933             -200               0             -200               0
1.64686               -0.3270824        -23.3225        -45.91353       -87.52105             -200               0             -200               0
1.65347               -0.3364363       -23.56345        -45.65871        -90.9695             -200               0             -200               0
1.66007                -0.346184       -23.80877          -45.406        -94.4428             -200               0             -200               0
1.66667               -0.3563587       -24.05852        -45.15562       -97.93895             -200               0             -200               0
1.67327               -0.3669916       -24.31275         -44.9077       -101.4559             -200               0             -200               0
1.67987               -0.3781145       -24.57149        -44.66235       -104.9917             -200               0             -200               0
1.68647               -0.3897601       -24.83477        -44.41965       -108.5441             -200               0             -200               0
1.69307               -0.4019622        -25.1026        -44.17962       -112.1112             -200               0             -200               0
1.69967               -0.4147486       -25.37496        -43.94226        -115.691             -200               0             -200               0
1.70627               -0.4281499       -25.65185        -43.70753       -119.2815             -200               0             -200               0
1.71287               -0.4421961       -25.93325        -43.47538        -122.881             -200               0             -200               0
1.71947               -0.4569165       -26.21913        -43.24568       -126.4877             -200               0             -200               0
1.72607               -0.4723344       -26.50946        -43.01833          -130.1             -200               0             -200               0
1.73267               -0.4884781        -26.8042        -42.79317       -133.7165             -200               0             -200               0
1.73927               -0.5053682       -27.10333        -42.57003       -137.3359             -200               0             -200               0
1.74587               -0.5230292        -27.4068        -42.34871       -140.9569             -200               0             -200               0
1.75248                -0.541482        -27.7146          -42.129       -144.5787             -200               0             -200               0
1.75908               -0.5607469       -28.02671        -41.91068       -148.2004             -200               0             -200               0
1.76568               -0.5808437       -28.34312        -41.69351       -151.8214             -200               0             -200               0
1.77228               -0.6017898       -28.66383        -41.47724       -155.4414             -200               0             -200               0
1.77888               -0.6236067       -28.98885        -41.26162       -159.0601             -200               0             -200               0
1.78548               -0.6463127        -29.3182         -41.0464       -162.6775             -200               0             -200               0
1.79208               -0.6699277       -29.65193        -40.83133        -166.294             -200               0             -200               0
1.79868               -0.6944731       -29.99009        -40.61617       -169.9097             -200               0             -200               0
1.80528               -0.7199706       -30.33275        -40.40066       -173.5255             -200               0             -200               0
1.81188                -0.746446       -30.67999        -40.18459       -177.1422             -200               0             -200               0
1.81848               -0.7739251       -31.03191        -39.96775        179.2394             -200               0             -200               0
1.82508               -0.8024393        -31.3886        -39.74994         175.618             -200               0             -200               0
1.83168                -0.832021        -31.7502        -39.53099        171.9924             -200               0             -200               0
1.83828               -0.8627059        -32.1168        -39.31076         168.361             -200               0             -200               0
1.84488               -0.8945363       -32.48855        -39.08911        164.7222             -200               0             -200               0
1.85149               -0.9275565       -32.86558        -38.86596        161.0745             -200               0             -200               0
