! TOUCHSTONE file generated by CST MICROWAVE STUDIO
! Date and time: Sat Mar  8 13:54:41 2025
! Project name: non_fractured.cst
! Parameters = {B=2.5; D=160; F=10; Feed=2.85625; L=100; M=10; R=0.384908; S=1.5; Theta=270; length=57.125; wave=114.25}
! Header version: 2024
! Port assignment regex: !\s*Touchstone port\s*([0-9]+)\s*=\s*(CST MWS port|CST DES external port|CST DES block port)\s*(.+)\s* \(\"(.*)\"\)(\s*mode\s*([0-9]+))?.*
! Touchstone port assignment:
! Touchstone port 1 = CST MWS port 1 ("")
! Touchstone port 2 = CST MWS port 2 ("")
# GHz S DB R 50
1                    -0.01691753       -9.747033        -69.56176       -115.1056             -200               0             -200               0
1.0066               -0.01766731       -9.837005        -68.96731       -119.9996             -200               0             -200               0
1.0132               -0.01850285       -9.927362        -68.43061       -124.9408             -200               0             -200               0
1.0198               -0.01941886       -10.01804        -67.94657       -129.9098             -200               0             -200               0
1.0264               -0.02040892       -10.10898        -67.51108       -134.8904             -200               0             -200               0
1.033                -0.02146268       -10.20013        -67.12076       -139.8691             -200               0             -200               0
1.0396               -0.02257058       -10.29145        -66.77285        -144.834             -200               0             -200               0
1.0462               -0.02372113       -10.38293         -66.4651       -149.7743             -200               0             -200               0
1.05281              -0.02490143       -10.47454        -66.19566       -154.6798             -200               0             -200               0
1.05941              -0.02610068       -10.56629        -65.96304       -159.5405             -200               0             -200               0
1.06601              -0.02730417        -10.6582        -65.76601       -164.3461             -200               0             -200               0
1.07261              -0.02850018       -10.75031        -65.60362       -169.0864             -200               0             -200               0
1.07921               -0.0296777       -10.84265        -65.47508       -173.7499             -200               0             -200               0
1.08581               -0.0308257        -10.9353        -65.37978       -178.3245             -200               0             -200               0
1.09241              -0.03193499       -11.02833        -65.31724        177.2033             -200               0             -200               0
1.09901              -0.03299839       -11.12181        -65.28704        172.8487             -200               0             -200               0
1.10561               -0.0340091       -11.21585        -65.28878        168.6288             -200               0             -200               0
1.11221              -0.03496468       -11.31053        -65.32206        164.5633             -200               0             -200               0
1.11881              -0.03586404       -11.40598        -65.38631        160.6748             -200               0             -200               0
1.12541               -0.0367086       -11.50229        -65.48073        156.9891             -200               0             -200               0
1.13201              -0.03750186       -11.59956        -65.60416        153.5362             -200               0             -200               0
1.13861              -0.03824888        -11.6979        -65.75478        150.3501             -200               0             -200               0
1.14521              -0.03895903       -11.79741        -65.92991        147.4696             -200               0             -200               0
1.15182              -0.03964249       -11.89816        -66.12561        144.9374             -200               0             -200               0
1.15842              -0.04031063       -12.00024         -66.3362        142.7995             -200               0             -200               0
1.16502              -0.04097736       -12.10371        -66.55373        141.1027             -200               0             -200               0
1.17162               -0.0416575       -12.20861        -66.76744        139.8902             -200               0             -200               0
1.17822               -0.0423663       -12.31499        -66.96331        139.1941             -200               0             -200               0
1.18482              -0.04311959       -12.42286         -67.1241        139.0261             -200               0             -200               0
1.19142              -0.04393416       -12.53223        -67.23006        139.3646             -200               0             -200               0
1.19802              -0.04482531       -12.64307        -67.26085        140.1443             -200               0             -200               0
1.20462              -0.04580783       -12.75538        -67.19856        141.2509             -200               0             -200               0
1.21122               -0.0468959       -12.86909        -67.03114        142.5276             -200               0             -200               0
1.21782              -0.04810069       -12.98415        -66.75525        143.7949             -200               0             -200               0
1.22442              -0.04943407       -13.10051          -66.377        144.8781             -200               0             -200               0
1.23102              -0.05090277       -13.21809        -65.91041        145.6337             -200               0             -200               0
1.23762              -0.05251424       -13.33679        -65.37422         145.964             -200               0             -200               0
1.24422              -0.05427136       -13.45654         -64.7884        145.8199             -200               0             -200               0
1.25083              -0.05617411       -13.57725        -64.17157        145.1929             -200               0             -200               0
1.25743              -0.05822278       -13.69884        -63.53947        144.1032             -200               0             -200               0
1.26403              -0.06041255       -13.82122        -62.90449        142.5883             -200               0             -200               0
1.27063              -0.06273713       -13.94433        -62.27588        140.6937             -200               0             -200               0
1.27723              -0.06518734       -14.06809        -61.66022        138.4669             -200               0             -200               0
1.28383              -0.06775403       -14.19246        -61.06197        135.9535             -200               0             -200               0
1.29043              -0.07042405       -14.31741        -60.48399        133.1958             -200               0             -200               0
1.29703              -0.07318485        -14.4429        -59.92796        130.2314             -200               0             -200               0
1.30363              -0.07602195       -14.56893        -59.39474        127.0939             -200               0             -200               0
1.31023              -0.07892098       -14.69553        -58.88458        123.8124             -200               0             -200               0
1.31683              -0.08186833       -14.82272        -58.39733        120.4123             -200               0             -200               0
1.32343              -0.08484877       -14.95055        -57.93255         116.916             -200               0             -200               0
1.33003              -0.08785024       -15.07909        -57.48962        113.3428             -200               0             -200               0
1.33663              -0.09086118       -15.20843        -57.06778        109.7098             -200               0             -200               0
1.34323              -0.09387134       -15.33867         -56.6662        106.0321             -200               0             -200               0
1.34984              -0.09687294       -15.46991        -56.28398        102.3228             -200               0             -200               0
1.35644              -0.09986147       -15.60228         -55.9202        98.59389             -200               0             -200               0
1.36304               -0.1028335       -15.73592        -55.57389        94.85598             -200               0             -200               0
1.36964               -0.1057894       -15.87095        -55.24409        91.11863             -200               0             -200               0
1.37624               -0.1087329       -16.00752        -54.92978        87.39048             -200               0             -200               0
1.38284               -0.1116699       -16.14576        -54.62996        83.67937             -200               0             -200               0
1.38944               -0.1146088       -16.28581        -54.34358        79.99238             -200               0             -200               0
1.39604               -0.1175627        -16.4278        -54.06957        76.33593             -200               0             -200               0
1.40264               -0.1205444       -16.57183        -53.80684        72.71577             -200               0             -200               0
1.40924               -0.1235711       -16.71801        -53.55426        69.13704             -200               0             -200               0
1.41584               -0.1266608       -16.86643        -53.31068        65.60419             -200               0             -200               0
1.42244               -0.1298339       -17.01717        -53.07489        62.12105             -200               0             -200               0
1.42904               -0.1331113       -17.17026        -52.84568         58.6907             -200               0             -200               0
1.43564               -0.1365141       -17.32576        -52.62179        55.31551             -200               0             -200               0
1.44224               -0.1400634       -17.48367        -52.40194        51.99702             -200               0             -200               0
1.44884               -0.1437816       -17.64399        -52.18484         48.7359             -200               0             -200               0
1.45545               -0.1476881        -17.8067        -51.96919        45.53197             -200               0             -200               0
1.46205               -0.1518016       -17.97176         -51.7537        42.38402             -200               0             -200               0
1.46865               -0.1561405       -18.13912        -51.53711         39.2899             -200               0             -200               0
1.47525               -0.1607181       -18.30871        -51.31822        36.24646             -200               0             -200               0
1.48185               -0.1655485       -18.48046        -51.09589        33.24955             -200               0             -200               0
1.48845                 -0.17064       -18.65428        -50.86908        30.29413             -200               0             -200               0
1.49505               -0.1760006       -18.83008        -50.63686        27.37425             -200               0             -200               0
1.50165               -0.1816337       -19.00778        -50.39844        24.48325             -200               0             -200               0
1.50825               -0.1875398       -19.18728         -50.1532        21.61386             -200               0             -200               0
1.51485               -0.1937171       -19.36852        -49.90067        18.75839             -200               0             -200               0
1.52145               -0.2001617       -19.55142        -49.64057        15.90892             -200               0             -200               0
1.52805               -0.2068647       -19.73593        -49.37281        13.05745             -200               0             -200               0
1.53465               -0.2138174         -19.922        -49.09746         10.1962             -200               0             -200               0
1.54125               -0.2210083       -20.10962        -48.81477        7.317708             -200               0             -200               0
1.54785               -0.2284249       -20.29878        -48.52514        4.415031             -200               0             -200               0
1.55446               -0.2360539       -20.48951         -48.2291        1.481899             -200               0             -200               0
1.56106               -0.2438812       -20.68185        -47.92729       -1.487189             -200               0             -200               0
1.56766               -0.2518939       -20.87587        -47.62045        -4.49689             -200               0             -200               0
1.57426               -0.2600796       -21.07166        -47.30937       -7.550975             -200               0             -200               0
1.58086               -0.2684271       -21.26935        -46.99487       -10.65233             -200               0             -200               0
1.58746               -0.2769284       -21.46906         -46.6778       -13.80298             -200               0             -200               0
1.59406               -0.2855766       -21.67095          -46.359        -17.0041             -200               0             -200               0
1.60066                -0.294369        -21.8752        -46.03928       -20.25614             -200               0             -200               0
1.60726                -0.303306         -22.082        -45.71943       -23.55884             -200               0             -200               0
1.61386               -0.3123916       -22.29155        -45.40018       -26.91133             -200               0             -200               0
1.62046               -0.3216337       -22.50404         -45.0822       -30.31224             -200               0             -200               0
1.62706               -0.3310464        -22.7197        -44.76613       -33.75974             -200               0             -200               0
1.63366               -0.3406455       -22.93872        -44.45252       -37.25164             -200               0             -200               0
1.64026               -0.3504515       -23.16131        -44.14185       -40.78547             -200               0             -200               0
1.64686               -0.3604909       -23.38766        -43.83455       -44.35852             -200               0             -200               0
1.65347               -0.3707914       -23.61794        -43.53099       -47.96794             -200               0             -200               0
1.66007               -0.3813862       -23.85233        -43.23147       -51.61076             -200               0             -200               0
1.66667               -0.3923104       -24.09095        -42.93622       -55.28394             -200               0             -200               0
1.67327               -0.4036021       -24.33392        -42.64542       -58.98442             -200               0             -200               0
1.67987               -0.4152993       -24.58134        -42.35922       -62.70915             -200               0             -200               0
1.68647               -0.4274463       -24.83326        -42.07768       -66.45515             -200               0             -200               0
1.69307               -0.4400821       -25.08974        -41.80084       -70.21946             -200               0             -200               0
1.69967               -0.4532492       -25.35077        -41.52869       -73.99923             -200               0             -200               0
1.70627               -0.4669873       -25.61634        -41.26117       -77.79172             -200               0             -200               0
1.71287                -0.481338       -25.88642        -40.99819       -81.59432             -200               0             -200               0
1.71947               -0.4963376       -26.16093        -40.73962       -85.40455             -200               0             -200               0
1.72607                -0.512021       -26.43979        -40.48531       -89.22007             -200               0             -200               0
1.73267               -0.5284201        -26.7229        -40.23506       -93.03872             -200               0             -200               0
1.73927               -0.5455641       -27.01015        -39.98866       -96.85853             -200               0             -200               0
1.74587               -0.5634757       -27.30141        -39.74586       -100.6777             -200               0             -200               0
1.75248                -0.582177       -27.59657         -39.5064       -104.4946             -200               0             -200               0
1.75908               -0.6016855       -27.89549           -39.27       -108.3079             -200               0             -200               0
1.76568               -0.6220122       -28.19807        -39.03634       -112.1163             -200               0             -200               0
1.77228               -0.6431672        -28.5042        -38.80513        -115.919             -200               0             -200               0
1.77888               -0.6651562       -28.81379        -38.57603       -119.7152             -200               0             -200               0
1.78548               -0.6879813       -29.12679        -38.34872       -123.5044             -200               0             -200               0
1.79208               -0.7116429       -29.44314        -38.12285       -127.2864             -200               0             -200               0
1.79868               -0.7361383       -29.76285        -37.89808       -131.0612             -200               0             -200               0
1.80528               -0.7614652       -30.08594        -37.67409        -134.829             -200               0             -200               0
1.81188                -0.787621       -30.41247        -37.45055       -138.5904             -200               0             -200               0
1.81848                -0.814602       -30.74255        -37.22714        -142.346             -200               0             -200               0
1.82508               -0.8424082       -31.07632        -37.00357       -146.0968             -200               0             -200               0
1.83168               -0.8710424       -31.41396        -36.77954        -149.844             -200               0             -200               0
1.83828               -0.9005088       -31.75568         -36.5548       -153.5889             -200               0             -200               0
1.84488               -0.9308185       -32.10174        -36.32912       -157.3332             -200               0             -200               0
1.85149               -0.9619877       -32.45242        -36.10229       -161.0785             -200               0             -200               0
