! TOUCHSTONE file generated by CST MICROWAVE STUDIO
! Date and time: Sat Mar  8 13:55:45 2025
! Project name: non_fractured.cst
! Parameters = {B=2.5; D=160; F=5; Feed=2.85625; L=100; M=30; R=0.384908; S=1.5; Theta=0; length=57.125; wave=114.25}
! Header version: 2024
! Port assignment regex: !\s*Touchstone port\s*([0-9]+)\s*=\s*(CST MWS port|CST DES external port|CST DES block port)\s*(.+)\s* \(\"(.*)\"\)(\s*mode\s*([0-9]+))?.*
! Touchstone port assignment:
! Touchstone port 1 = CST MWS port 1 ("")
! Touchstone port 2 = CST MWS port 2 ("")
# GHz S DB R 50
1                    -0.01836713       -9.757358        -69.79226       -132.2378             -200               0             -200               0
1.0066               -0.01925345       -9.846832        -69.24313       -136.8071             -200               0             -200               0
1.0132               -0.02021273        -9.93659        -68.74114       -141.4427             -200               0             -200               0
1.0198               -0.02123892       -10.02658        -68.28284       -146.1231             -200               0             -200               0
1.0264               -0.02232199       -10.11676        -67.86532       -150.8305             -200               0             -200               0
1.033                 -0.0234527        -10.2071        -67.48608       -155.5497             -200               0             -200               0
1.0396               -0.02461938       -10.29758        -67.14301       -160.2674             -200               0             -200               0
1.0462               -0.02580945        -10.3882        -66.83429       -164.9713             -200               0             -200               0
1.05281              -0.02701204       -10.47897        -66.55837       -169.6504             -200               0             -200               0
1.05941              -0.02821481        -10.5699         -66.3139       -174.2939             -200               0             -200               0
1.06601              -0.02940652       -10.66104        -66.09969       -178.8914             -200               0             -200               0
1.07261              -0.03057712       -10.75244        -65.91472        176.5676             -200               0             -200               0
1.07921              -0.03171615       -10.84416        -65.75803         172.094             -200               0             -200               0
1.08581              -0.03281593       -10.93627        -65.62875        167.6989             -200               0             -200               0
1.09241              -0.03387048       -11.02885        -65.52605        163.3943             -200               0             -200               0
1.09901              -0.03487417         -11.122        -65.44907         159.193             -200               0             -200               0
1.10561              -0.03582629       -11.21581         -65.3969        155.1087             -200               0             -200               0
1.11221               -0.0367265       -11.31037        -65.36854        151.1565             -200               0             -200               0
1.11881              -0.03757603       -11.40579        -65.36279        147.3525             -200               0             -200               0
1.12541              -0.03837925       -11.50216        -65.37822        143.7144             -200               0             -200               0
1.13201              -0.03914254       -11.59957        -65.41303        140.2613             -200               0             -200               0
1.13861              -0.03987417        -11.6981        -65.46499        137.0131             -200               0             -200               0
1.14521              -0.04058418       -11.79783        -65.53126        133.9911             -200               0             -200               0
1.15182              -0.04128431       -11.89883        -65.60829        131.2164             -200               0             -200               0
1.15842              -0.04198734       -12.00115        -65.69163        128.7096             -200               0             -200               0
1.16502              -0.04270593       -12.10482        -65.77585        126.4887             -200               0             -200               0
1.17162              -0.04345568       -12.20988        -65.85441        124.5674             -200               0             -200               0
1.17822              -0.04425057       -12.31633        -65.91973        122.9526             -200               0             -200               0
1.18482               -0.0451046       -12.42416        -65.96329        121.6406             -200               0             -200               0
1.19142              -0.04603118       -12.53337        -65.97606        120.6149             -200               0             -200               0
1.19802              -0.04704214       -12.64392        -65.94909        119.8432             -200               0             -200               0
1.20462              -0.04815117       -12.75577        -65.87431         119.277             -200               0             -200               0
1.21122              -0.04936625       -12.86886        -65.74544        118.8524             -200               0             -200               0
1.21782              -0.05069508       -12.98312        -65.55882        118.4951             -200               0             -200               0
1.22442               -0.0521451       -13.09851         -65.3139         118.126             -200               0             -200               0
1.23102              -0.05371926       -13.21493        -65.01331         117.669             -200               0             -200               0
1.23762              -0.05541904       -13.33231        -64.66244        117.0574             -200               0             -200               0
1.24422              -0.05724339       -13.45058        -64.26867        116.2391             -200               0             -200               0
1.25083              -0.05918948       -13.56968        -63.84049         115.178             -200               0             -200               0
1.25743              -0.06125218       -13.68953        -63.38661        113.8544             -200               0             -200               0
1.26403              -0.06342454       -13.81009        -62.91533        112.2622             -200               0             -200               0
1.27063               -0.0656963       -13.93129        -62.43409        110.4063             -200               0             -200               0
1.27723              -0.06805894       -14.05313        -61.94927        108.2994             -200               0             -200               0
1.28383              -0.07049902       -14.17557        -61.46613        105.9594             -200               0             -200               0
1.29043              -0.07300491       -14.29861        -60.98886        103.4067             -200               0             -200               0
1.29703              -0.07556381       -14.42228        -60.52073        100.6631             -200               0             -200               0
1.30363              -0.07816247       -14.54658        -60.06418        97.75021             -200               0             -200               0
1.31023              -0.08078866       -14.67159        -59.62101        94.68905             -200               0             -200               0
1.31683              -0.08343077       -14.79735        -59.19248        91.49944             -200               0             -200               0
1.32343               -0.0860786       -14.92394        -58.77941        88.19985             -200               0             -200               0
1.33003              -0.08872259       -15.05146        -58.38228        84.80736             -200               0             -200               0
1.33663              -0.09135629       -15.18001        -58.00132        81.33766             -200               0             -200               0
1.34323              -0.09397486       -15.30971        -57.63655        77.80513             -200               0             -200               0
1.34984              -0.09657505       -15.44067        -57.28782        74.22295             -200               0             -200               0
1.35644              -0.09915837       -15.57301        -56.95484        70.60322             -200               0             -200               0
1.36304               -0.1017261       -15.70688        -56.63723        66.95706             -200               0             -200               0
1.36964               -0.1042846       -15.84239        -56.33452        63.29472             -200               0             -200               0
1.37624               -0.1068416       -15.97967        -56.04616        59.62568             -200               0             -200               0
1.38284               -0.1094071       -16.11883        -55.77153        55.95872             -200               0             -200               0
1.38944               -0.1119944       -16.25999        -55.50997          52.302             -200               0             -200               0
1.39604               -0.1146187       -16.40325        -55.26074        48.66309             -200               0             -200               0
1.40264                -0.117295       -16.54868        -55.02305        45.04901             -200               0             -200               0
1.40924               -0.1200433       -16.69636        -54.79604        41.46628             -200               0             -200               0
1.41584               -0.1228801       -16.84634        -54.57881        37.92086             -200               0             -200               0
1.42244               -0.1258262       -16.99866        -54.37039        34.41818             -200               0             -200               0
1.42904               -0.1289014       -17.15335        -54.16975        30.96311             -200               0             -200               0
1.43564               -0.1321239       -17.31039        -53.97579        27.55989             -200               0             -200               0
1.44224               -0.1355134       -17.46979        -53.78737         24.2121             -200               0             -200               0
1.44884               -0.1390857       -17.63152        -53.60327        20.92259             -200               0             -200               0
1.45545               -0.1428576       -17.79553        -53.42224        17.69337             -200               0             -200               0
1.46205               -0.1468422       -17.96177        -53.24298        14.52557             -200               0             -200               0
1.46865                -0.151051       -18.13018        -53.06417        11.41935             -200               0             -200               0
1.47525               -0.1554948        -18.3007        -52.88448        8.373838             -200               0             -200               0
1.48185               -0.1601789       -18.47326        -52.70258        5.387042             -200               0             -200               0
1.48845               -0.1651076       -18.64778         -52.5172        2.455852             -200               0             -200               0
1.49505               -0.1702831        -18.8242        -52.32709      -0.4239741             -200               0             -200               0
1.50165               -0.1757025       -19.00245        -52.13115       -3.257778             -200               0             -200               0
1.50825               -0.1813648       -19.18249        -51.92834       -6.051927             -200               0             -200               0
1.51485               -0.1872632       -19.36427        -51.71781       -8.813691             -200               0             -200               0
1.52145               -0.1933907       -19.54775        -51.49886       -11.55109             -200               0             -200               0
1.52805               -0.1997382       -19.73295        -51.27099       -14.27268             -200               0             -200               0
1.53465               -0.2062948       -19.91985         -51.0339       -16.98735             -200               0             -200               0
1.54125               -0.2130512        -20.1085        -50.78749       -19.70408             -200               0             -200               0
1.54785               -0.2199957       -20.29893        -50.53189       -22.43167             -200               0             -200               0
1.55446               -0.2271185       -20.49121        -50.26739       -25.17853             -200               0             -200               0
1.56106               -0.2344099       -20.68544        -49.99449       -27.95249             -200               0             -200               0
1.56766               -0.2418618       -20.88174        -49.71382       -30.76058             -200               0             -200               0
1.57426               -0.2494675       -21.08021        -49.42616       -33.60893             -200               0             -200               0
1.58086               -0.2572243       -21.28102        -49.13236       -36.50268             -200               0             -200               0
1.58746               -0.2651306       -21.48431        -48.83336       -39.44593             -200               0             -200               0
1.59406               -0.2731873       -21.69028        -48.53013       -42.44172             -200               0             -200               0
1.60066               -0.2814017       -21.89909        -48.22364       -45.49211             -200               0             -200               0
1.60726               -0.2897824       -22.11094        -47.91488       -48.59816             -200               0             -200               0
1.61386               -0.2983417       -22.32601        -47.60477       -51.76009             -200               0             -200               0
1.62046               -0.3070965        -22.5445        -47.29421       -54.97733             -200               0             -200               0
1.62706               -0.3160661       -22.76658        -46.98403       -58.24862             -200               0             -200               0
1.63366               -0.3252768       -22.99244        -46.67499       -61.57213             -200               0             -200               0
1.64026               -0.3347544       -23.22223        -46.36778       -64.94553             -200               0             -200               0
1.64686               -0.3445285       -23.45611        -46.06302        -68.3661             -200               0             -200               0
1.65347               -0.3546339        -23.6942        -45.76123       -71.83085             -200               0             -200               0
1.66007               -0.3651041       -23.93662        -45.46288       -75.33651             -200               0             -200               0
1.66667               -0.3759772       -24.18344        -45.16834       -78.87969             -200               0             -200               0
1.67327               -0.3872911       -24.43476        -44.87792       -82.45689             -200               0             -200               0
1.67987                -0.399085       -24.69059        -44.59187       -86.06455             -200               0             -200               0
1.68647                -0.411397       -24.95097        -44.31036       -89.69913             -200               0             -200               0
1.69307               -0.4242664       -25.21589        -44.03349       -93.35709             -200               0             -200               0
1.69967               -0.4377293       -25.48533        -43.76133       -97.03498             -200               0             -200               0
1.70627               -0.4518239       -25.75923        -43.49386       -100.7295             -200               0             -200               0
1.71287               -0.4665818       -26.03755        -43.23104       -104.4373             -200               0             -200               0
1.71947               -0.4820366       -26.32021        -42.97276       -108.1553             -200               0             -200               0
1.72607               -0.4982157       -26.60712        -42.71888       -111.8807             -200               0             -200               0
1.73267               -0.5151463       -26.89817        -42.46922       -115.6106             -200               0             -200               0
1.73927                -0.532852       -27.19329        -42.22354       -119.3425             -200               0             -200               0
1.74587                -0.551352       -27.49237        -41.98159       -123.0741             -200               0             -200               0
1.75248               -0.5706625       -27.79531        -41.74308       -126.8032             -200               0             -200               0
1.75908               -0.5907994       -28.10203        -41.50769       -130.5279             -200               0             -200               0
1.76568               -0.6117724       -28.41247        -41.27506       -134.2466             -200               0             -200               0
1.77228                -0.633591       -28.72656        -41.04484        -137.958             -200               0             -200               0
1.77888               -0.6562638       -29.04428        -40.81664        -141.661             -200               0             -200               0
1.78548               -0.6797959        -29.3656        -40.59006       -145.3549             -200               0             -200               0
1.79208               -0.7041925       -29.69054        -40.36468       -149.0391             -200               0             -200               0
1.79868               -0.7294591       -30.01914         -40.1401       -152.7136             -200               0             -200               0
1.80528               -0.7556013       -30.35146         -39.9159       -156.3784             -200               0             -200               0
1.81188                -0.782627       -30.68762        -39.69167        -160.034             -200               0             -200               0
1.81848                -0.810545       -31.02772        -39.46701       -163.6813             -200               0             -200               0
1.82508               -0.8393692       -31.37192        -39.24153       -167.3214             -200               0             -200               0
1.83168               -0.8691136        -31.7204        -39.01489       -170.9556             -200               0             -200               0
1.83828                -0.899801       -32.07337        -38.78674       -174.5857             -200               0             -200               0
1.84488               -0.9314565       -32.43104        -38.55678       -178.2135             -200               0             -200               0
1.85149               -0.9641116       -32.79365        -38.32474        178.1588             -200               0             -200               0
