! TOUCHSTONE file generated by CST MICROWAVE STUDIO
! Date and time: Sat Mar  8 13:53:57 2025
! Project name: non_fractured.cst
! Parameters = {B=2.5; D=160; F=5; Feed=2.85625; L=100; M=5; R=0.384908; S=2.5; Theta=0; length=57.125; wave=114.25}
! Header version: 2024
! Port assignment regex: !\s*Touchstone port\s*([0-9]+)\s*=\s*(CST MWS port|CST DES external port|CST DES block port)\s*(.+)\s* \(\"(.*)\"\)(\s*mode\s*([0-9]+))?.*
! Touchstone port assignment:
! Touchstone port 1 = CST MWS port 1 ("")
! Touchstone port 2 = CST MWS port 2 ("")
# GHz S DB R 50
1                    -0.01926594       -9.732278         -66.3047       -92.09154             -200               0             -200               0
1.0066               -0.01980322       -9.819716          -65.698       -98.44743             -200               0             -200               0
1.0132               -0.02036847       -9.907832        -65.14642       -104.7073             -200               0             -200               0
1.0198               -0.02096401       -9.996621        -64.64492       -110.8812             -200               0             -200               0
1.0264               -0.02159391       -10.08607        -64.18945       -116.9765             -200               0             -200               0
1.033                -0.02225917       -10.17618        -63.77667       -122.9983             -200               0             -200               0
1.0396               -0.02296438       -10.26692        -63.40384       -128.9502             -200               0             -200               0
1.0462               -0.02370807       -10.35829        -63.06871       -134.8343             -200               0             -200               0
1.05281              -0.02449082       -10.45026        -62.76942       -140.6515             -200               0             -200               0
1.05941              -0.02531422       -10.54282        -62.50448       -146.4018             -200               0             -200               0
1.06601              -0.02617681       -10.63596        -62.27265       -152.0844             -200               0             -200               0
1.07261               -0.0270754       -10.72967        -62.07296       -157.6974             -200               0             -200               0
1.07921              -0.02800898       -10.82392        -61.90465        -163.238             -200               0             -200               0
1.08581              -0.02897468       -10.91872        -61.76714       -168.7026             -200               0             -200               0
1.09241              -0.02996853       -11.01405        -61.66003       -174.0866             -200               0             -200               0
1.09901              -0.03098702       -11.10994        -61.58308       -179.3843             -200               0             -200               0
1.10561               -0.0320264       -11.20637        -61.53616        175.4113             -200               0             -200               0
1.11221              -0.03308164       -11.30336        -61.51926        170.3084             -200               0             -200               0
1.11881              -0.03414971       -11.40093         -61.5325        165.3172             -200               0             -200               0
1.12541               -0.0352247       -11.49911        -61.57601        160.4493             -200               0             -200               0
1.13201              -0.03630254       -11.59792        -61.65002         155.719             -200               0             -200               0
1.13861               -0.0373822        -11.6974        -61.75474         151.143             -200               0             -200               0
1.14521              -0.03845708       -11.79759         -61.8903        146.7412             -200               0             -200               0
1.15182              -0.03952832       -11.89854        -62.05671        142.5372             -200               0             -200               0
1.15842              -0.04059326        -12.0003        -62.25372        138.5591             -200               0             -200               0
1.16502              -0.04164895       -12.10292         -62.4806        134.8399             -200               0             -200               0
1.17162              -0.04269883       -12.20645        -62.73596        131.4185             -200               0             -200               0
1.17822              -0.04374172       -12.31096        -63.01736          128.34             -200               0             -200               0
1.18482              -0.04478306       -12.41649        -63.32082        125.6554             -200               0             -200               0
1.19142              -0.04582266       -12.52312         -63.6402        123.4211             -200               0             -200               0
1.19802              -0.04686688       -12.63089        -63.96647        121.6957             -200               0             -200               0
1.20462                -0.047921       -12.73985        -64.28679        120.5341             -200               0             -200               0
1.21122              -0.04899201       -12.85006        -64.58395         119.978             -200               0             -200               0
1.21782              -0.05008644       -12.96155        -64.83625        120.0408             -200               0             -200               0
1.22442              -0.05121094       -13.07437        -65.01867        120.6899             -200               0             -200               0
1.23102              -0.05237617       -13.18854        -65.10587        121.8312             -200               0             -200               0
1.23762              -0.05358864        -13.3041        -65.07681        123.3039             -200               0             -200               0
1.24422              -0.05485842       -13.42105        -64.91983        124.8957             -200               0             -200               0
1.25083              -0.05619563       -13.53942         -64.6359        126.3766             -200               0             -200               0
1.25743              -0.05760653       -13.65921        -64.23835         127.541             -200               0             -200               0
1.26403                -0.059102       -13.78041        -63.74909        128.2387             -200               0             -200               0
1.27063              -0.06068918       -13.90301        -63.19354        128.3865             -200               0             -200               0
1.27723              -0.06237611         -14.027        -62.59613        127.9612             -200               0             -200               0
1.28383              -0.06416896       -14.15237        -61.97771        126.9826             -200               0             -200               0
1.29043              -0.06607515       -14.27908        -61.35456        125.4961             -200               0             -200               0
1.29703               -0.0680963       -14.40711        -60.73864        123.5588             -200               0             -200               0
1.30363                -0.070239       -14.53644        -60.13826        121.2303             -200               0             -200               0
1.31023              -0.07250673       -14.66702        -59.55891        118.5676             -200               0             -200               0
1.31683              -0.07489819       -14.79884        -59.00404        115.6222             -200               0             -200               0
1.32343               -0.0774167       -14.93187        -58.47563        112.4399             -200               0             -200               0
1.33003              -0.08005991       -15.06609        -57.97464        109.0604             -200               0             -200               0
1.33663              -0.08282817       -15.20146        -57.50139        105.5179             -200               0             -200               0
1.34323              -0.08571876       -15.33799        -57.05571        101.8421             -200               0             -200               0
1.34984              -0.08872952       -15.47566        -56.63719         98.0585             -200               0             -200               0
1.35644              -0.09185547       -15.61446        -56.24521        94.18929             -200               0             -200               0
1.36304              -0.09509511       -15.75441        -55.87908        90.25392             -200               0             -200               0
1.36964              -0.09844374       -15.89552        -55.53803         86.2696             -200               0             -200               0
1.37624               -0.1018958       -16.03782        -55.22128         82.2517             -200               0             -200               0
1.38284                -0.105451       -16.18132        -54.92805        78.21413             -200               0             -200               0
1.38944               -0.1091058       -16.32606        -54.65754        74.16967             -200               0             -200               0
1.39604               -0.1128549       -16.47209        -54.40897         70.1302             -200               0             -200               0
1.40264               -0.1167003       -16.61946        -54.18156        66.10692             -200               0             -200               0
1.40924               -0.1206381       -16.76822         -53.9745        62.11054             -200               0             -200               0
1.41584               -0.1246704       -16.91843        -53.78699        58.15143             -200               0             -200               0
1.42244               -0.1287987       -17.07016        -53.61819        54.23975             -200               0             -200               0
1.42904               -0.1330247       -17.22347        -53.46721         50.3855             -200               0             -200               0
1.43564               -0.1373542       -17.37842        -53.33308        46.59865             -200               0             -200               0
1.44224               -0.1417894       -17.53509        -53.21477        42.88913             -200               0             -200               0
1.44884               -0.1463375       -17.69352        -53.11112        39.26687             -200               0             -200               0
1.45545               -0.1510075       -17.85378        -53.02083        35.74174             -200               0             -200               0
1.46205               -0.1558067       -18.01593        -52.94244        32.32351             -200               0             -200               0
1.46865               -0.1607446       -18.18002        -52.87431        29.02164             -200               0             -200               0
1.47525               -0.1658312       -18.34608        -52.81454        25.84518             -200               0             -200               0
1.48185               -0.1710771       -18.51416        -52.76102        22.80241             -200               0             -200               0
1.48845               -0.1764933       -18.68427        -52.71134        19.90054             -200               0             -200               0
1.49505               -0.1820895       -18.85645        -52.66284        17.14526             -200               0             -200               0
1.50165               -0.1878774       -19.03071        -52.61258        14.54022             -200               0             -200               0
1.50825               -0.1938676       -19.20705        -52.55738        12.08647             -200               0             -200               0
1.51485               -0.2000701       -19.38547        -52.49387         9.78189             -200               0             -200               0
1.52145               -0.2064921       -19.56597        -52.41861        7.620632             -200               0             -200               0
1.52805               -0.2131435       -19.74852        -52.32814        5.592706             -200               0             -200               0
1.53465                -0.220031       -19.93313        -52.21922        3.683748             -200               0             -200               0
1.54125               -0.2271596       -20.11977        -52.08891        1.875106             -200               0             -200               0
1.54785               -0.2345344       -20.30843        -51.93479       0.1442423             -200               0             -200               0
1.55446               -0.2421579       -20.49909        -51.75511       -1.534481             -200               0             -200               0
1.56106               -0.2500323       -20.69173         -51.5489       -3.188687             -200               0             -200               0
1.56766               -0.2581584       -20.88636        -51.31602       -4.846661             -200               0             -200               0
1.57426                -0.266534       -21.08297        -51.05721       -6.535935             -200               0             -200               0
1.58086               -0.2751581       -21.28156        -50.77392       -8.281977             -200               0             -200               0
1.58746               -0.2840284       -21.48217         -50.4683        -10.1071             -200               0             -200               0
1.59406               -0.2931416       -21.68481        -50.14297       -12.02969             -200               0             -200               0
1.60066               -0.3024926       -21.88953        -49.80087       -14.06389             -200               0             -200               0
1.60726               -0.3120787       -22.09639        -49.44509       -16.21946             -200               0             -200               0
1.61386               -0.3218953       -22.30546        -49.07872       -18.50209             -200               0             -200               0
1.62046               -0.3319408       -22.51681        -48.70472       -20.91384             -200               0             -200               0
1.62706               -0.3422125       -22.73056        -48.32587       -23.45367             -200               0             -200               0
1.63366               -0.3527087       -22.94682        -47.94466       -26.11804             -200               0             -200               0
1.64026               -0.3634304        -23.1657        -47.56331        -28.9015             -200               0             -200               0
1.64686               -0.3743798       -23.38736        -47.18373        -31.7972             -200               0             -200               0
1.65347               -0.3855617       -23.61193        -46.80755       -34.79735             -200               0             -200               0
1.66007               -0.3969842       -23.83959        -46.43609       -37.89356             -200               0             -200               0
1.66667               -0.4086552       -24.07049        -46.07046       -41.07718             -200               0             -200               0
1.67327               -0.4205899        -24.3048        -45.71151       -44.33948             -200               0             -200               0
1.67987               -0.4328015        -24.5427         -45.3599       -47.67184             -200               0             -200               0
1.68647               -0.4453101       -24.78437         -45.0161       -51.06587             -200               0             -200               0
1.69307               -0.4581369       -25.02996        -44.68043       -54.51349             -200               0             -200               0
1.69967               -0.4713069       -25.27966        -44.35307       -58.00697             -200               0             -200               0
1.70627               -0.4848463       -25.53361        -44.03409         -61.539             -200               0             -200               0
1.71287               -0.4987874       -25.79196        -43.72343       -65.10267             -200               0             -200               0
1.71947               -0.5131626       -26.05486        -43.42097       -68.69149             -200               0             -200               0
1.72607                -0.528005       -26.32242         -43.1265       -72.29941             -200               0             -200               0
1.73267               -0.5433537       -26.59475        -42.83972        -75.9208             -200               0             -200               0
1.73927               -0.5592454       -26.87195        -42.56029       -79.55046             -200               0             -200               0
1.74587               -0.5757199       -27.15408        -42.28781       -83.18362             -200               0             -200               0
1.75248               -0.5928187       -27.44121        -42.02181       -86.81593             -200               0             -200               0
1.75908               -0.6105809       -27.73337        -41.76179       -90.44349             -200               0             -200               0
1.76568               -0.6290489       -28.03059        -41.50721       -94.06283             -200               0             -200               0
1.77228               -0.6482617       -28.33287        -41.25749       -97.67091             -200               0             -200               0
1.77888               -0.6682601        -28.6402        -41.01202       -101.2652             -200               0             -200               0
1.78548               -0.6890823       -28.95258        -40.77015       -104.8436             -200               0             -200               0
1.79208               -0.7107648       -29.26995        -40.53123       -108.4045             -200               0             -200               0
1.79868               -0.7333452       -29.59229        -40.29458       -111.9469             -200               0             -200               0
1.80528               -0.7568566       -29.91954        -40.05952       -115.4701             -200               0             -200               0
1.81188               -0.7813325       -30.25167        -39.82536       -118.9741             -200               0             -200               0
1.81848               -0.8068035       -30.58862        -39.59143       -122.4593             -200               0             -200               0
1.82508               -0.8332982       -30.93035        -39.35708       -125.9269             -200               0             -200               0
1.83168               -0.8608449       -31.27681        -39.12165       -129.3783             -200               0             -200               0
1.83828                 -0.88947         -31.628        -38.88457       -132.8155             -200               0             -200               0
1.84488               -0.9191988       -31.98388        -38.64527       -136.2411             -200               0             -200               0
1.85149               -0.9500555       -32.34445        -38.40325        -139.658             -200               0             -200               0
