! TOUCHSTONE file generated by CST MICROWAVE STUDIO
! Date and time: Sat Mar  8 13:55:25 2025
! Project name: non_fractured.cst
! Parameters = {B=2.5; D=160; F=15; Feed=2.85625; L=100; M=20; R=0.384908; S=2.5; Theta=90; length=57.125; wave=114.25}
! Header version: 2024
! Port assignment regex: !\s*Touchstone port\s*([0-9]+)\s*=\s*(CST MWS port|CST DES external port|CST DES block port)\s*(.+)\s* \(\"(.*)\"\)(\s*mode\s*([0-9]+))?.*
! Touchstone port assignment:
! Touchstone port 1 = CST MWS port 1 ("")
! Touchstone port 2 = CST MWS port 2 ("")
# GHz S DB R 50
1                    -0.01879188       -9.744975        -68.65704       -147.9864             -200               0             -200               0
1.0066               -0.01960918       -9.833383        -68.42173       -151.8226             -200               0             -200               0
1.0132                -0.0204737        -9.92217        -68.20505       -155.6074             -200               0             -200               0
1.0198               -0.02138003       -10.01131        -68.00592       -159.3317             -200               0             -200               0
1.0264               -0.02232253        -10.1008        -67.82316       -162.9867             -200               0             -200               0
1.033                -0.02329493       -10.19063        -67.65556       -166.5638             -200               0             -200               0
1.0396               -0.02429058       -10.28079        -67.50177       -170.0545             -200               0             -200               0
1.0462               -0.02530384        -10.3713        -67.36032       -173.4508             -200               0             -200               0
1.05281              -0.02632815       -10.46217        -67.22962       -176.7448             -200               0             -200               0
1.05941              -0.02735683       -10.55343         -67.1079       -179.9294             -200               0             -200               0
1.06601              -0.02838438       -10.64512         -66.9932        177.0018             -200               0             -200               0
1.07261              -0.02940527       -10.73726        -66.88339        174.0544             -200               0             -200               0
1.07921              -0.03041665       -10.82991        -66.77615        171.2322             -200               0             -200               0
1.08581              -0.03141413       -10.92312        -66.66896        168.5377             -200               0             -200               0
1.09241               -0.0323967       -11.01694        -66.55917        165.9711             -200               0             -200               0
1.09901               -0.0333617       -11.11143          -66.444        163.5301             -200               0             -200               0
1.10561              -0.03431057       -11.20664        -66.32063        161.2096             -200               0             -200               0
1.11221              -0.03524516       -11.30265        -66.18629        159.0014             -200               0             -200               0
1.11881              -0.03616788       -11.39949        -66.03836         156.894             -200               0             -200               0
1.12541              -0.03708229       -11.49724        -65.87445        154.8728             -200               0             -200               0
1.13201              -0.03799403       -11.59594        -65.69256        152.9203             -200               0             -200               0
1.13861              -0.03890889       -11.69564        -65.49118        151.0166             -200               0             -200               0
1.14521              -0.03983441       -11.79637        -65.26936        149.1402             -200               0             -200               0
1.15182              -0.04077668       -11.89818        -65.02676        147.2687             -200               0             -200               0
1.15842              -0.04174529       -12.00109        -64.76368        145.3801             -200               0             -200               0
1.16502              -0.04274835        -12.1051        -64.48102        143.4535             -200               0             -200               0
1.17162              -0.04379374       -12.21025         -64.1802        141.4697             -200               0             -200               0
1.17822              -0.04489027       -12.31652        -63.86307        139.4125             -200               0             -200               0
1.18482              -0.04604572       -12.42391        -63.53183        137.2684             -200               0             -200               0
1.19142               -0.0472672       -12.53241        -63.18885        135.0272             -200               0             -200               0
1.19802              -0.04856165       -12.64199         -62.8366         132.682             -200               0             -200               0
1.20462              -0.04993547       -12.75263        -62.47753        130.2288             -200               0             -200               0
1.21122              -0.05139218       -12.86431        -62.11402        127.6662             -200               0             -200               0
1.21782              -0.05293557       -12.97698        -61.74828        124.9952             -200               0             -200               0
1.22442              -0.05456823       -13.09061        -61.38235        122.2186             -200               0             -200               0
1.23102              -0.05629195       -13.20516        -61.01806        119.3407             -200               0             -200               0
1.23762              -0.05810526        -13.3206          -60.657        116.3671             -200               0             -200               0
1.24422              -0.06000764        -13.4369        -60.30058        113.3041             -200               0             -200               0
1.25083              -0.06199537       -13.55403        -59.94998        110.1585             -200               0             -200               0
1.25743              -0.06406504       -13.67196        -59.60619        106.9374             -200               0             -200               0
1.26403              -0.06621206       -13.79067        -59.27002        103.6483             -200               0             -200               0
1.27063              -0.06843128       -13.91016        -58.94214        100.2985             -200               0             -200               0
1.27723              -0.07071603       -14.03042        -58.62305        96.89537             -200               0             -200               0
1.28383              -0.07305952       -14.15146        -58.31314        93.44606             -200               0             -200               0
1.29043              -0.07545581        -14.2733        -58.01269        89.95758             -200               0             -200               0
1.29703              -0.07789736       -14.39595        -57.72186        86.43674             -200               0             -200               0
1.30363              -0.08037892       -14.51947        -57.44074        82.89008             -200               0             -200               0
1.31023              -0.08289341       -14.64387        -57.16934        79.32394             -200               0             -200               0
1.31683              -0.08543625       -14.76923        -56.90758        75.74441             -200               0             -200               0
1.32343              -0.08800332        -14.8956        -56.65532        72.15732             -200               0             -200               0
1.33003              -0.09059205       -15.02305        -56.41239        68.56828             -200               0             -200               0
1.33663              -0.09319973       -15.15164        -56.17851        64.98267             -200               0             -200               0
1.34323              -0.09582552       -15.28146        -55.95338        61.40561             -200               0             -200               0
1.34984              -0.09846991       -15.41257        -55.73665        57.84202             -200               0             -200               0
1.35644               -0.1011361       -15.54506         -55.5279        54.29654             -200               0             -200               0
1.36304               -0.1038276       -15.67901        -55.32666        50.77357             -200               0             -200               0
1.36964                -0.106549       -15.81449        -55.13242        47.27726             -200               0             -200               0
1.37624               -0.1093074       -15.95158        -54.94463        43.81145             -200               0             -200               0
1.38284               -0.1121101       -16.09033        -54.76266        40.37968             -200               0             -200               0
1.38944               -0.1149651       -16.23082        -54.58586        36.98514             -200               0             -200               0
1.39604               -0.1178823        -16.3731        -54.41353        33.63066             -200               0             -200               0
1.40264               -0.1208715       -16.51721         -54.2449        30.31862             -200               0             -200               0
1.40924               -0.1239441        -16.6632        -54.07919        27.05097             -200               0             -200               0
1.41584               -0.1271095       -16.81109        -53.91556        23.82914             -200               0             -200               0
1.42244               -0.1303789       -16.96091        -53.75318        20.65399             -200               0             -200               0
1.42904               -0.1337629       -17.11266        -53.59114        17.52579             -200               0             -200               0
1.43564               -0.1372708       -17.26637        -53.42858        14.44418             -200               0             -200               0
1.44224               -0.1409122       -17.42201        -53.26458        11.40811             -200               0             -200               0
1.44884               -0.1446939        -17.5796        -53.09829        8.415845             -200               0             -200               0
1.45545               -0.1486248       -17.73911        -52.92886        5.464949             -200               0             -200               0
1.46205               -0.1527097       -17.90055        -52.75547        2.552287             -200               0             -200               0
1.46865               -0.1569533       -18.06388         -52.5774      -0.3259361             -200               0             -200               0
1.47525               -0.1613589       -18.22911        -52.39398       -3.174129             -200               0             -200               0
1.48185               -0.1659279       -18.39621        -52.20463       -5.997242             -200               0             -200               0
1.48845               -0.1706621       -18.56518        -52.00889       -8.800677             -200               0             -200               0
1.49505               -0.1755596       -18.73602         -51.8064       -11.59017             -200               0             -200               0
1.50165               -0.1806196       -18.90873        -51.59694       -14.37168             -200               0             -200               0
1.50825               -0.1858391       -19.08334         -51.3804       -17.15126             -200               0             -200               0
1.51485               -0.1912158       -19.25985        -51.15679       -19.93489             -200               0             -200               0
1.52145               -0.1967452       -19.43831        -50.92628       -22.72838             -200               0             -200               0
1.52805               -0.2024228       -19.61877        -50.68911       -25.53725             -200               0             -200               0
1.53465               -0.2082475       -19.80128        -50.44564       -28.36659             -200               0             -200               0
1.54125               -0.2142135       -19.98592        -50.19633       -31.22101             -200               0             -200               0
1.54785               -0.2203192       -20.17277        -49.94169       -34.10452             -200               0             -200               0
1.55446                -0.226563       -20.36193        -49.68232       -37.02054             -200               0             -200               0
1.56106               -0.2329453       -20.55351        -49.41883       -39.97183             -200               0             -200               0
1.56766                -0.239468       -20.74763        -49.15187       -42.96051             -200               0             -200               0
1.57426               -0.2461327        -20.9444         -48.8821       -45.98806             -200               0             -200               0
1.58086               -0.2529464       -21.14398        -48.61016       -49.05537             -200               0             -200               0
1.58746                -0.259916       -21.34648         -48.3367       -52.16274             -200               0             -200               0
1.59406               -0.2670515       -21.55207        -48.06232       -55.30997             -200               0             -200               0
1.60066               -0.2743645       -21.76089        -47.78759       -58.49639             -200               0             -200               0
1.60726                -0.281871       -21.97307        -47.51304       -61.72092             -200               0             -200               0
1.61386               -0.2895879       -22.18876        -47.23915       -64.98214             -200               0             -200               0
1.62046               -0.2975333       -22.40809        -46.96637       -68.27832             -200               0             -200               0
1.62706               -0.3057306       -22.63119        -46.69506       -71.60753             -200               0             -200               0
1.63366               -0.3142032       -22.85819        -46.42556       -74.96764             -200               0             -200               0
1.64026               -0.3229754       -23.08919        -46.15815       -78.35637             -200               0             -200               0
1.64686               -0.3320748       -23.32429        -45.89304       -81.77136             -200               0             -200               0
1.65347               -0.3415304       -23.56357        -45.63041       -85.21022             -200               0             -200               0
1.66007               -0.3513711       -23.80712        -45.37038       -88.67052             -200               0             -200               0
1.66667               -0.3616261       -24.05499        -45.11302       -92.14986             -200               0             -200               0
1.67327               -0.3723258       -24.30721        -44.85837       -95.64588             -200               0             -200               0
1.67987               -0.3835006       -24.56384        -44.60642       -99.15632             -200               0             -200               0
1.68647               -0.3951798       -24.82487        -44.35711        -102.679             -200               0             -200               0
1.69307               -0.4073922       -25.09034        -44.11035       -106.2119             -200               0             -200               0
1.69967               -0.4201682       -25.36023        -43.86603        -109.753             -200               0             -200               0
1.70627               -0.4335337       -25.63454          -43.624       -113.3006             -200               0             -200               0
1.71287               -0.4475165       -25.91324        -43.38406       -116.8532             -200               0             -200               0
1.71947               -0.4621375       -26.19634        -43.14603       -120.4093             -200               0             -200               0
1.72607               -0.4774243       -26.48379        -42.90967       -123.9678             -200               0             -200               0
1.73267               -0.4933966       -26.77559        -42.67474       -127.5277             -200               0             -200               0
1.73927               -0.5100764       -27.07172        -42.44099       -131.0883             -200               0             -200               0
1.74587               -0.5274825       -27.37217        -42.20814        -134.649             -200               0             -200               0
1.75248               -0.5456333       -27.67693        -41.97593       -138.2095             -200               0             -200               0
1.75908               -0.5645474       -27.98602        -41.74408       -141.7698             -200               0             -200               0
1.76568                -0.584241       -28.29944        -41.51231         -145.33             -200               0             -200               0
1.77228               -0.6047318       -28.61725        -41.28036       -148.8907             -200               0             -200               0
1.77888               -0.6260386       -28.93948        -41.04796       -152.4524             -200               0             -200               0
1.78548               -0.6481787       -29.26619        -40.81488        -156.016             -200               0             -200               0
1.79208               -0.6711723       -29.59747        -40.58088       -159.5826             -200               0             -200               0
1.79868               -0.6950398        -29.9334        -40.34576       -163.1534             -200               0             -200               0
1.80528               -0.7198048        -30.2741        -40.10933       -166.7299             -200               0             -200               0
1.81188               -0.7454937        -30.6197        -39.87144       -170.3136             -200               0             -200               0
1.81848               -0.7721355       -30.97032        -39.63196       -173.9062             -200               0             -200               0
1.82508               -0.7997626       -31.32613         -39.3908       -177.5097             -200               0             -200               0
1.83168               -0.8284132       -31.68727         -39.1479        178.8743             -200               0             -200               0
1.83828               -0.8581267       -32.05391        -38.90323        175.2437             -200               0             -200               0
1.84488               -0.8889495       -32.42621        -38.65679        171.5966             -200               0             -200               0
1.85149               -0.9209326       -32.80435        -38.40863        167.9311             -200               0             -200               0
