! TOUCHSTONE file generated by CST MICROWAVE STUDIO
! Date and time: Sat Mar  8 13:55:25 2025
! Project name: non_fractured.cst
! Parameters = {B=2.5; D=160; F=15; Feed=2.85625; L=100; M=20; R=0.384908; S=2.5; Theta=0; length=57.125; wave=114.25}
! Header version: 2024
! Port assignment regex: !\s*Touchstone port\s*([0-9]+)\s*=\s*(CST MWS port|CST DES external port|CST DES block port)\s*(.+)\s* \(\"(.*)\"\)(\s*mode\s*([0-9]+))?.*
! Touchstone port assignment:
! Touchstone port 1 = CST MWS port 1 ("")
! Touchstone port 2 = CST MWS port 2 ("")
# GHz S DB R 50
1                    -0.01876684       -9.744925        -68.64529       -148.1875             -200               0             -200               0
1.0066               -0.01958468       -9.833333        -68.41341       -152.0246             -200               0             -200               0
1.0132               -0.02044817        -9.92212        -68.20009       -155.8084             -200               0             -200               0
1.0198               -0.02135295       -10.01126        -68.00422       -159.5299             -200               0             -200               0
1.0264               -0.02229442       -10.10075        -67.82464       -163.1803             -200               0             -200               0
1.033                 -0.0232662       -10.19058         -67.6601       -166.7511             -200               0             -200               0
1.0396               -0.02426237       -10.28074        -67.50925       -170.2338             -200               0             -200               0
1.0462               -0.02527447       -10.37125        -67.37061       -173.6202             -200               0             -200               0
1.05281              -0.02629819       -10.46213        -67.24255       -176.9027             -200               0             -200               0
1.05941              -0.02732573       -10.55339        -67.12327        179.9261             -200               0             -200               0
1.06601              -0.02835317       -10.64508        -67.01079        176.8723             -200               0             -200               0
1.07261              -0.02937389       -10.73723        -66.90295        173.9414             -200               0             -200               0
1.07921              -0.03038516       -10.82989        -66.79738        171.1373             -200               0             -200               0
1.08581              -0.03138303        -10.9231        -66.69153        168.4622             -200               0             -200               0
1.09241              -0.03236494       -11.01692         -66.5827         165.916             -200               0             -200               0
1.09901              -0.03332982       -11.11141        -66.46808        163.4961             -200               0             -200               0
1.10561              -0.03428011       -11.20663        -66.34484        161.1971             -200               0             -200               0
1.11221              -0.03521404       -11.30264        -66.21018        159.0102             -200               0             -200               0
1.11881              -0.03613668       -11.39949        -66.06145        156.9236             -200               0             -200               0
1.12541               -0.0370515       -11.49724        -65.89631        154.9221             -200               0             -200               0
1.13201              -0.03796417       -11.59595        -65.71278        152.9877             -200               0             -200               0
1.13861              -0.03887954       -11.69564        -65.50939           151.1             -200               0             -200               0
1.14521                -0.039805       -11.79638        -65.28525        149.2371             -200               0             -200               0
1.15182              -0.04074831       -11.89819         -65.0401        147.3763             -200               0             -200               0
1.15842              -0.04171742       -12.00109        -64.77434        145.4955             -200               0             -200               0
1.16502              -0.04272104       -12.10511        -64.48893        143.5737             -200               0             -200               0
1.17162              -0.04376705       -12.21025        -64.18538        141.5918             -200               0             -200               0
1.17822              -0.04486357       -12.31652        -63.86564        139.5338             -200               0             -200               0
1.18482              -0.04602018       -12.42391        -63.53194        137.3865             -200               0             -200               0
1.19142              -0.04724179        -12.5324        -63.18671        135.1401             -200               0             -200               0
1.19802              -0.04853686       -12.64198        -62.83244         132.788             -200               0             -200               0
1.20462              -0.04991028       -12.75262        -62.47162        130.3265             -200               0             -200               0
1.21122              -0.05136771       -12.86429        -62.10663        127.7547             -200               0             -200               0
1.21782              -0.05291121       -12.97695        -61.73967        125.0738             -200               0             -200               0
1.22442              -0.05454358       -13.09058        -61.37278        122.2869             -200               0             -200               0
1.23102              -0.05626688       -13.20513        -61.00777        119.3987             -200               0             -200               0
1.23762              -0.05807978       -13.32057        -60.64622        116.4148             -200               0             -200               0
1.24422              -0.05998127       -13.43686        -60.28951        113.3418             -200               0             -200               0
1.25083               -0.0619691       -13.55399         -59.9388        110.1864             -200               0             -200               0
1.25743               -0.0640384       -13.67191        -59.59506        106.9562             -200               0             -200               0
1.26403              -0.06618489       -13.79062        -59.25909        103.6584             -200               0             -200               0
1.27063              -0.06840266       -13.91011        -58.93153        100.3006             -200               0             -200               0
1.27723              -0.07068692       -14.03037        -58.61287        96.89001             -200               0             -200               0
1.28383              -0.07302997       -14.15141        -58.30349        93.43391             -200               0             -200               0
1.29043              -0.07542516       -14.27324        -58.00363        89.93931             -200               0             -200               0
1.29703              -0.07786666        -14.3959        -57.71346          86.413             -200               0             -200               0
1.30363              -0.08034665       -14.51941        -57.43306        82.86154             -200               0             -200               0
1.31023              -0.08286098       -14.64382        -57.16241        79.29124             -200               0             -200               0
1.31683              -0.08540268       -14.76918        -56.90144        75.70818             -200               0             -200               0
1.32343               -0.0879697       -14.89555        -56.64999         72.1182             -200               0             -200               0
1.33003              -0.09055721         -15.023        -56.40788        68.52688             -200               0             -200               0
1.33663              -0.09316477        -15.1516        -56.17483        64.93958             -200               0             -200               0
1.34323              -0.09578935       -15.28141        -55.95053        61.36142             -200               0             -200               0
1.34984              -0.09843411       -15.41253        -55.73462        57.79728             -200               0             -200               0
1.35644               -0.1011001       -15.54503        -55.52667         54.2518             -200               0             -200               0
1.36304               -0.1037916       -15.67898        -55.32622        50.72935             -200               0             -200               0
1.36964               -0.1065133       -15.81446        -55.13274        47.23406             -200               0             -200               0
1.37624               -0.1092716       -15.95155        -54.94568        43.76976             -200               0             -200               0
1.38284               -0.1120738        -16.0903         -54.7644        40.33994             -200               0             -200               0
1.38944               -0.1149291        -16.2308        -54.58824         36.9478             -200               0             -200               0
1.39604               -0.1178463       -16.37308         -54.4165         33.5961             -200               0             -200               0
1.40264               -0.1208365       -16.51719        -54.24841        30.28721             -200               0             -200               0
1.40924               -0.1239086       -16.66317        -54.08317        27.02304             -200               0             -200               0
1.41584               -0.1270743       -16.81107        -53.91996        23.80496             -200               0             -200               0
1.42244               -0.1303439       -16.96088        -53.75792         20.6338             -200               0             -200               0
1.42904               -0.1337278       -17.11263        -53.59615        17.50979             -200               0             -200               0
1.43564               -0.1372359       -17.26633        -53.43377        14.43248             -200               0             -200               0
1.44224               -0.1408769       -17.42198        -53.26989        11.40079             -200               0             -200               0
1.44884               -0.1446592       -17.57956        -53.10363        8.412913             -200               0             -200               0
1.45545               -0.1485895       -17.73908        -52.93415        5.466343             -200               0             -200               0
1.46205               -0.1526742       -17.90051        -52.76064        2.557883             -200               0             -200               0
1.46865               -0.1569169       -18.06384        -52.58236      -0.3163263             -200               0             -200               0
1.47525               -0.1613225       -18.22906        -52.39867       -3.160757             -200               0             -200               0
1.48185               -0.1658911       -18.39616        -52.20899       -5.980415             -200               0             -200               0
1.48845               -0.1706248       -18.56513        -52.01286       -8.780752             -200               0             -200               0
1.49505               -0.1755218       -18.73596        -51.80993       -11.56755             -200               0             -200               0
1.50165               -0.1805804       -18.90867        -51.59999       -14.34681             -200               0             -200               0
1.50825               -0.1857998       -19.08327        -51.38294       -17.12458             -200               0             -200               0
1.51485               -0.1911749       -19.25979        -51.15882       -19.90687             -200               0             -200               0
1.52145               -0.1967038       -19.43825        -50.92777       -22.69951             -200               0             -200               0
1.52805               -0.2023812        -19.6187        -50.69007       -25.50798             -200               0             -200               0
1.53465               -0.2082036       -19.80121        -50.44608       -28.33737             -200               0             -200               0
1.54125               -0.2141696       -19.98586        -50.19627       -31.19224             -200               0             -200               0
1.54785                -0.220274       -20.17271        -49.94117       -34.07658             -200               0             -200               0
1.55446               -0.2265176       -20.36187        -49.68136       -36.99377             -200               0             -200               0
1.56106               -0.2328993       -20.55345        -49.41747       -39.94653             -200               0             -200               0
1.56766               -0.2394211       -20.74757        -49.15016       -42.93692             -200               0             -200               0
1.57426               -0.2460852       -20.94435        -48.88008       -45.96639             -200               0             -200               0
1.58086               -0.2528986       -21.14393        -48.60788       -49.03576             -200               0             -200               0
1.58746               -0.2598673       -21.34644         -48.3342       -52.14531             -200               0             -200               0
1.59406               -0.2670021       -21.55203        -48.05965       -55.29478             -200               0             -200               0
1.60066               -0.2743156       -21.76084        -47.78479       -58.48346             -200               0             -200               0
1.60726               -0.2818212       -21.97303        -47.51016       -61.71025             -200               0             -200               0
1.61386                -0.289538       -22.18872        -47.23623       -64.97368             -200               0             -200               0
1.62046               -0.2974832       -22.40805        -46.96345       -68.27202             -200               0             -200               0
1.62706               -0.3056803       -22.63115        -46.69217        -71.6033             -200               0             -200               0
1.63366               -0.3141527       -22.85815        -46.42274       -74.96535             -200               0             -200               0
1.64026               -0.3229243       -23.08915        -46.15542       -78.35591             -200               0             -200               0
1.64686                -0.332024       -23.32425        -45.89043       -81.77259             -200               0             -200               0
1.65347               -0.3414786       -23.56353        -45.62794       -85.21298             -200               0             -200               0
1.66007               -0.3513186       -23.80708        -45.36807       -88.67465             -200               0             -200               0
1.66667                -0.361573       -24.05494        -45.11088        -92.1552             -200               0             -200               0
1.67327               -0.3722721       -24.30716        -44.85642       -95.65227             -200               0             -200               0
1.67987               -0.3834471       -24.56378        -44.60467       -99.16358             -200               0             -200               0
1.68647               -0.3951251       -24.82482        -44.35556        -102.687             -200               0             -200               0
1.69307               -0.4073381       -25.09028        -44.10901       -106.2204             -200               0             -200               0
1.69967               -0.4201127       -25.36017         -43.8649       -109.7619             -200               0             -200               0
1.70627               -0.4334779       -25.63447        -43.62307       -113.3097             -200               0             -200               0
1.71287               -0.4474579       -25.91318        -43.38334       -116.8624             -200               0             -200               0
1.71947               -0.4620794       -26.19627         -43.1455       -120.4185             -200               0             -200               0
1.72607               -0.4773645       -26.48372        -42.90933       -123.9768             -200               0             -200               0
1.73267               -0.4933356       -26.77551        -42.67459       -127.5363             -200               0             -200               0
1.73927               -0.5100136       -27.07164          -42.441       -131.0964             -200               0             -200               0
1.74587               -0.5274189       -27.37209        -42.20831       -134.6565             -200               0             -200               0
1.75248               -0.5455682       -27.67685        -41.97624       -138.2164             -200               0             -200               0
1.75908               -0.5644801       -27.98594        -41.74452        -141.776             -200               0             -200               0
1.76568               -0.5841717       -28.29936        -41.51286       -145.3354             -200               0             -200               0
1.77228               -0.6046613       -28.61717          -41.281       -148.8953             -200               0             -200               0
1.77888                -0.625966       -28.93939        -41.04869       -152.4561             -200               0             -200               0
1.78548               -0.6481041       -29.26611        -40.81567       -156.0188             -200               0             -200               0
1.79208               -0.6710954       -29.59739        -40.58171       -159.5844             -200               0             -200               0
1.79868               -0.6949612       -29.93333        -40.34662       -163.1543             -200               0             -200               0
1.80528               -0.7197246       -30.27404         -40.1102       -166.7298             -200               0             -200               0
1.81188               -0.7454109       -30.61964        -39.87231       -170.3126             -200               0             -200               0
1.81848               -0.7720515       -30.97027        -39.63281       -173.9044             -200               0             -200               0
1.82508                -0.799677       -31.32608        -39.39162        -177.507             -200               0             -200               0
1.83168               -0.8283257       -31.68722        -39.14868        178.8778             -200               0             -200               0
1.83828               -0.8580376       -32.05387        -38.90395        175.2479             -200               0             -200               0
1.84488                -0.888859       -32.42618        -38.65745        171.6015             -200               0             -200               0
1.85149               -0.9208411       -32.80433        -38.40921        167.9366             -200               0             -200               0
