! TOUCHSTONE file generated by CST MICROWAVE STUDIO
! Date and time: Sat Mar  8 13:55:25 2025
! Project name: non_fractured.cst
! Parameters = {B=2.5; D=160; F=15; Feed=2.85625; L=100; M=20; R=0.384908; S=2; Theta=270; length=57.125; wave=114.25}
! Header version: 2024
! Port assignment regex: !\s*Touchstone port\s*([0-9]+)\s*=\s*(CST MWS port|CST DES external port|CST DES block port)\s*(.+)\s* \(\"(.*)\"\)(\s*mode\s*([0-9]+))?.*
! Touchstone port assignment:
! Touchstone port 1 = CST MWS port 1 ("")
! Touchstone port 2 = CST MWS port 2 ("")
# GHz S DB R 50
1                    -0.01894128       -9.742572        -68.67381       -145.7378             -200               0             -200               0
1.00658              -0.01973716       -9.830416        -68.44103       -149.6121             -200               0             -200               0
1.01316              -0.02057337        -9.91865        -68.22797       -153.4286             -200               0             -200               0
1.01974              -0.02144372       -10.00726        -68.03348       -157.1777             -200               0             -200               0
1.02632              -0.02234553       -10.09624        -67.85632       -160.8501             -200               0             -200               0
1.03289              -0.02327232       -10.18559        -67.69518       -164.4366             -200               0             -200               0
1.03947              -0.02421792       -10.27531        -67.54863       -167.9281             -200               0             -200               0
1.04605              -0.02517904       -10.36543         -67.4151       -171.3157             -200               0             -200               0
1.05263               -0.0261476       -10.45594        -67.29286       -174.5908             -200               0             -200               0
1.05921               -0.0271204       -10.54689        -67.17999       -177.7455             -200               0             -200               0
1.06579              -0.02809258       -10.63831        -67.07436        179.2274             -200               0             -200               0
1.07237              -0.02905903       -10.73023         -66.9736        176.3341             -200               0             -200               0
1.07895              -0.03001921       -10.82269        -66.87511        173.5792             -200               0             -200               0
1.08553              -0.03096862       -10.91575        -66.77609        170.9652             -200               0             -200               0
1.09211               -0.0319081       -11.00946        -66.67353        168.4925             -200               0             -200               0
1.09868              -0.03283512       -11.10385         -66.5643        166.1582             -200               0             -200               0
1.10526              -0.03375231       -11.19899        -66.44519        163.9563             -200               0             -200               0
1.11184              -0.03466077       -11.29494        -66.31308         161.877             -200               0             -200               0
1.11842              -0.03556363       -11.39173        -66.16498        159.9066             -200               0             -200               0
1.125                -0.03646566       -11.48942        -65.99827        158.0278             -200               0             -200               0
1.13158              -0.03737076       -11.58804        -65.81077        156.2198             -200               0             -200               0
1.13816               -0.0382854       -11.68765        -65.60091        154.4592             -200               0             -200               0
1.14474              -0.03921631       -11.78827        -65.36779         152.721             -200               0             -200               0
1.15132              -0.04016884       -11.88993         -65.1113        150.9795             -200               0             -200               0
1.15789               -0.0411521       -11.99266        -64.83202        149.2096             -200               0             -200               0
1.16447              -0.04217235       -12.09645        -64.53126        147.3881             -200               0             -200               0
1.17105              -0.04323758       -12.20133        -64.21089        145.4944             -200               0             -200               0
1.17763              -0.04435451       -12.30729        -63.87324        143.5113             -200               0             -200               0
1.18421              -0.04553056       -12.41433        -63.52095        141.4254             -200               0             -200               0
1.19079              -0.04677122       -12.52242         -63.1568        139.2271             -200               0             -200               0
1.19737              -0.04808276       -12.63156        -62.78364        136.9104             -200               0             -200               0
1.20395              -0.04946951       -12.74172         -62.4042        134.4726             -200               0             -200               0
1.21053              -0.05093538       -12.85287        -62.02108         131.914             -200               0             -200               0
1.21711               -0.0524828       -12.96499        -61.63665        129.2371             -200               0             -200               0
1.22368              -0.05411427       -13.07805        -61.25305        126.4464             -200               0             -200               0
1.23026              -0.05582972       -13.19201        -60.87216        123.5478             -200               0             -200               0
1.23684              -0.05762847       -13.30686        -60.49559        120.5481             -200               0             -200               0
1.24342              -0.05950872       -13.42256        -60.12473        117.4548             -200               0             -200               0
1.25                 -0.06146898       -13.53909         -59.7607         114.276             -200               0             -200               0
1.25658              -0.06350685       -13.65644        -59.40446        111.0196             -200               0             -200               0
1.26316              -0.06561502       -13.77459        -59.05674        107.6939             -200               0             -200               0
1.26974              -0.06779051       -13.89354        -58.71814        104.3068             -200               0             -200               0
1.27632              -0.07002735        -14.0133         -58.3891        100.8661             -200               0             -200               0
1.28289              -0.07232118       -14.13388        -58.06992        97.37944             -200               0             -200               0
1.28947              -0.07466532       -14.25529         -57.7608        93.85416             -200               0             -200               0
1.29605              -0.07705493       -14.37757        -57.46185        90.29726             -200               0             -200               0
1.30263              -0.07948535       -14.50074        -57.17309        86.71547             -200               0             -200               0
1.30921              -0.08195196       -14.62485        -56.89445        83.11522             -200               0             -200               0
1.31579              -0.08444879       -14.74995         -56.6258        79.50265             -200               0             -200               0
1.32237              -0.08697655        -14.8761        -56.36697        75.88362             -200               0             -200               0
1.32895               -0.0895298       -15.00335        -56.11769        72.26372             -200               0             -200               0
1.33553              -0.09210977       -15.13178        -55.87768        68.64825             -200               0             -200               0
1.34211              -0.09471544       -15.26144        -55.64657        65.04227             -200               0             -200               0
1.34868              -0.09734915       -15.39241        -55.42397        61.45055             -200               0             -200               0
1.35526               -0.1000123       -15.52476        -55.20943        57.87761             -200               0             -200               0
1.36184               -0.1027107       -15.65856        -55.00246         54.3277             -200               0             -200               0
1.36842               -0.1054498       -15.79387        -54.80252        50.80477             -200               0             -200               0
1.375                 -0.1082327       -15.93075        -54.60901        47.31246             -200               0             -200               0
1.38158               -0.1110707       -16.06927        -54.42132        43.85409             -200               0             -200               0
1.38816               -0.1139681       -16.20948        -54.23877        40.43262             -200               0             -200               0
1.39474               -0.1169361       -16.35141        -54.06064        37.05062             -200               0             -200               0
1.40132               -0.1199813       -16.49513        -53.88619        33.71022             -200               0             -200               0
1.40789               -0.1231159       -16.64064        -53.71463        30.41312             -200               0             -200               0
1.41447               -0.1263486       -16.78799        -53.54514        27.16047             -200               0             -200               0
1.42105               -0.1296869       -16.93719        -53.37688        23.95289             -200               0             -200               0
1.42763               -0.1331429       -17.08825        -53.20901        20.79042             -200               0             -200               0
1.43421               -0.1367225       -17.24118        -53.04067        17.67248             -200               0             -200               0
1.44079               -0.1404344       -17.39597          -52.871        14.59784             -200               0             -200               0
1.44737               -0.1442853       -17.55263        -52.69919        11.56462             -200               0             -200               0
1.45395               -0.1482809       -17.71115        -52.52444         8.57031             -200               0             -200               0
1.46053                -0.152428       -17.87151          -52.346        5.611723             -200               0             -200               0
1.46711               -0.1567273       -18.03371        -52.16318        2.685101             -200               0             -200               0
1.47368               -0.1611844       -18.19775         -51.9754      -0.2138681             -200               0             -200               0
1.48026               -0.1657998       -18.36361        -51.78212        -3.08997             -200               0             -200               0
1.48684               -0.1705729       -18.53129        -51.58293       -5.948368             -200               0             -200               0
1.49342                -0.175504        -18.7008        -51.37754       -8.794506             -200               0             -200               0
1.5                   -0.1805927       -18.87215        -51.16575       -11.63399             -200               0             -200               0
1.50658               -0.1858358       -19.04536         -50.9475       -14.47246             -200               0             -200               0
1.51316               -0.1912308       -19.22046        -50.72282       -17.31549             -200               0             -200               0
1.51974               -0.1967755       -19.39749        -50.49188       -20.16843             -200               0             -200               0
1.52632               -0.2024677       -19.57649        -50.25494       -23.03634             -200               0             -200               0
1.53289               -0.2083021       -19.75752        -50.01234       -25.92386             -200               0             -200               0
1.53947               -0.2142789       -19.94067        -49.76453       -28.83517             -200               0             -200               0
1.54605               -0.2203965         -20.126        -49.51199       -31.77389             -200               0             -200               0
1.55263               -0.2266531        -20.3136        -49.25528       -34.74306             -200               0             -200               0
1.55921               -0.2330519       -20.50359        -48.99498       -37.74515             -200               0             -200               0
1.56579               -0.2395931       -20.69606        -48.73169       -40.78199             -200               0             -200               0
1.57237               -0.2462811       -20.89114        -48.46602       -43.85485             -200               0             -200               0
1.57895               -0.2531229       -21.08896        -48.19857       -46.96444             -200               0             -200               0
1.58553               -0.2601244       -21.28962        -47.92993       -50.11092             -200               0             -200               0
1.59211               -0.2672966       -21.49327        -47.66067       -53.29401             -200               0             -200               0
1.59868               -0.2746502       -21.70003        -47.39129       -56.51297             -200               0             -200               0
1.60526               -0.2821998       -21.91004         -47.1223       -59.76672             -200               0             -200               0
1.61184               -0.2899617       -22.12341        -46.85413       -63.05382             -200               0             -200               0
1.61842                -0.297953       -22.34028        -46.58717       -66.37259             -200               0             -200               0
1.625                 -0.3061941       -22.56075        -46.32176       -69.72113             -200               0             -200               0
1.63158               -0.3147055       -22.78494        -46.05821       -73.09736             -200               0             -200               0
1.63816               -0.3235107       -23.01294        -45.79675       -76.49908             -200               0             -200               0
1.64474               -0.3326339       -23.24485        -45.53757       -79.92401             -200               0             -200               0
1.65132               -0.3421004       -23.48074        -45.28082       -83.36983             -200               0             -200               0
1.65789                -0.351935       -23.72069         -45.0266       -86.83421             -200               0             -200               0
1.66447               -0.3621657       -23.96474        -44.77494       -90.31484             -200               0             -200               0
1.67105               -0.3728179       -24.21295        -44.52587       -93.80947             -200               0             -200               0
1.67763               -0.3839187       -24.46536        -44.27935       -97.31591             -200               0             -200               0
1.68421               -0.3954928         -24.722         -44.0353       -100.8321             -200               0             -200               0
1.69079               -0.4075696       -24.98286        -43.79361       -104.3561             -200               0             -200               0
1.69737               -0.4201719       -25.24799        -43.55415       -107.8861             -200               0             -200               0
1.70395               -0.4333226       -25.51738        -43.31674       -111.4204             -200               0             -200               0
1.71053               -0.4470474       -25.79103        -43.08118       -114.9577             -200               0             -200               0
1.71711                -0.461369       -26.06894        -42.84726       -118.4966             -200               0             -200               0
1.72368               -0.4763072       -26.35113        -42.61472       -122.0361             -200               0             -200               0
1.73026               -0.4918825       -26.63758         -42.3833       -125.5755             -200               0             -200               0
1.73684                -0.508115       -26.92832        -42.15275        -129.114             -200               0             -200               0
1.74342               -0.5250234       -27.22334        -41.92277       -132.6513             -200               0             -200               0
1.75                   -0.542625       -27.52269        -41.69308       -136.1874             -200               0             -200               0
1.75658               -0.5609403       -27.82637        -41.46339       -139.7224             -200               0             -200               0
1.76316               -0.5799837       -28.13445        -41.23342       -143.2567             -200               0             -200               0
1.76974               -0.5997764       -28.44697         -41.0029       -146.7908             -200               0             -200               0
1.77632               -0.6203364       -28.76401        -40.77156       -150.3256             -200               0             -200               0
1.78289               -0.6416832       -29.08563        -40.53915       -153.8623             -200               0             -200               0
1.78947               -0.6638392       -29.41194        -40.30546       -157.4022             -200               0             -200               0
1.79605               -0.6868274       -29.74305        -40.07028       -160.9465             -200               0             -200               0
1.80263               -0.7106734       -30.07907        -39.83344       -164.4972             -200               0             -200               0
1.80921               -0.7354067       -30.42013        -39.59479       -168.0558             -200               0             -200               0
1.81579                -0.761058       -30.76639        -39.35423       -171.6244             -200               0             -200               0
1.82237               -0.7876629       -31.11798        -39.11168       -175.2049             -200               0             -200               0
1.82895               -0.8152597       -31.47506         -38.8671       -178.7994             -200               0             -200               0
1.83553               -0.8438923       -31.83779        -38.62048        177.5901             -200               0             -200               0
1.84211               -0.8736082       -32.20633        -38.37186        173.9615             -200               0             -200               0
1.84868               -0.9044596       -32.58084        -38.12131        170.3127             -200               0             -200               0
