! TOUCHSTONE file generated by CST MICROWAVE STUDIO
! Date and time: Sat Mar  8 13:55:19 2025
! Project name: non_fractured.cst
! Parameters = {B=2.5; D=160; F=10; Feed=2.85625; L=100; M=20; R=0.384908; S=2.5; Theta=180; length=57.125; wave=114.25}
! Header version: 2024
! Port assignment regex: !\s*Touchstone port\s*([0-9]+)\s*=\s*(CST MWS port|CST DES external port|CST DES block port)\s*(.+)\s* \(\"(.*)\"\)(\s*mode\s*([0-9]+))?.*
! Touchstone port assignment:
! Touchstone port 1 = CST MWS port 1 ("")
! Touchstone port 2 = CST MWS port 2 ("")
# GHz S DB R 50
1                    -0.01848568       -9.753416        -69.48707        -135.737             -200               0             -200               0
1.0066               -0.01931599       -9.842372         -69.1193       -139.5655             -200               0             -200               0
1.0132               -0.02020184       -9.931682        -68.77718       -143.4083             -200               0             -200               0
1.0198               -0.02113917       -10.02131        -68.45952       -147.2515             -200               0             -200               0
1.0264               -0.02211853       -10.11124        -68.16516       -151.0823             -200               0             -200               0
1.033                -0.02313482       -10.20145        -67.89292        -154.889             -200               0             -200               0
1.0396               -0.02417915       -10.29194        -67.64164       -158.6605             -200               0             -200               0
1.0462               -0.02524226        -10.3827        -67.41012       -162.3861             -200               0             -200               0
1.05281              -0.02631781       -10.47376        -67.19714       -166.0559             -200               0             -200               0
1.05941               -0.0273954       -10.56514        -67.00141       -169.6601             -200               0             -200               0
1.06601              -0.02846861       -10.65686        -66.82158       -173.1892             -200               0             -200               0
1.07261              -0.02952958       -10.74899        -66.65618       -176.6345             -200               0             -200               0
1.07921              -0.03057231       -10.84156        -66.50362       -179.9872             -200               0             -200               0
1.08581              -0.03159316       -10.93463         -66.3622        176.7605             -200               0             -200               0
1.09241              -0.03258675       -11.02827        -66.23003         173.616             -200               0             -200               0
1.09901              -0.03355151       -11.12255        -66.10506        170.5856             -200               0             -200               0
1.10561              -0.03448696       -11.21754        -65.98506        167.6746             -200               0             -200               0
1.11221              -0.03539309       -11.31331        -65.86763        164.8864             -200               0             -200               0
1.11881              -0.03627272       -11.40994        -65.75023        162.2231             -200               0             -200               0
1.12541              -0.03713004       -11.50749        -65.63015        159.6841             -200               0             -200               0
1.13201              -0.03796966       -11.60604        -65.50463        157.2665             -200               0             -200               0
1.13861              -0.03879899       -11.70564        -65.37092        154.9645             -200               0             -200               0
1.14521              -0.03962553       -11.80634        -65.22631        152.7692             -200               0             -200               0
1.15182              -0.04045818        -11.9082        -65.06829        150.6685             -200               0             -200               0
1.15842               -0.0413065       -12.01125        -64.89466        148.6475             -200               0             -200               0
1.16502              -0.04218143       -12.11552        -64.70359        146.6886             -200               0             -200               0
1.17162              -0.04309215       -12.22102        -64.49376         144.772             -200               0             -200               0
1.17822              -0.04405019       -12.32776         -64.2644         142.877             -200               0             -200               0
1.18482               -0.0450649       -12.43575        -64.01538        140.9819             -200               0             -200               0
1.19142              -0.04614741       -12.54497        -63.74711         139.066             -200               0             -200               0
1.19802              -0.04730508       -12.65539        -63.46061        137.1097             -200               0             -200               0
1.20462              -0.04854655       -12.76698        -63.15735        135.0954             -200               0             -200               0
1.21122              -0.04987865       -12.87972         -62.8392        133.0084             -200               0             -200               0
1.21782              -0.05130625       -12.99356        -62.50829        130.8366             -200               0             -200               0
1.22442              -0.05283443       -13.10845        -62.16692        128.5714             -200               0             -200               0
1.23102              -0.05446424       -13.22435        -61.81745        126.2067             -200               0             -200               0
1.23762              -0.05619778        -13.3412        -61.46221        123.7397             -200               0             -200               0
1.24422               -0.0580333       -13.45898        -61.10341        121.1698             -200               0             -200               0
1.25083              -0.05996871       -13.57762        -60.74313        118.4985             -200               0             -200               0
1.25743               -0.0620009        -13.6971        -60.38325         115.729             -200               0             -200               0
1.26403              -0.06412372       -13.81738        -60.02545        112.8661             -200               0             -200               0
1.27063              -0.06633195       -13.93844        -59.67121        109.9153             -200               0             -200               0
1.27723               -0.0686187       -14.06028        -59.32177        106.8831             -200               0             -200               0
1.28383              -0.07097497       -14.18288         -58.9782        103.7763             -200               0             -200               0
1.29043              -0.07339351       -14.30625        -58.64139        100.6021             -200               0             -200               0
1.29703              -0.07586651       -14.43042        -58.31203        97.36769             -200               0             -200               0
1.30363               -0.0783846       -14.55541        -57.99067        94.08044             -200               0             -200               0
1.31023              -0.08094172       -14.68127        -57.67773        90.74752             -200               0             -200               0
1.31683              -0.08352913       -14.80805        -57.37349        87.37597             -200               0             -200               0
1.32343              -0.08614298       -14.93582        -57.07813        83.97266             -200               0             -200               0
1.33003              -0.08877643       -15.06463        -56.79173        80.54419             -200               0             -200               0
1.33663              -0.09142721       -15.19459        -56.51426        77.09691             -200               0             -200               0
1.34323              -0.09409303       -15.32576        -56.24562        73.63693             -200               0             -200               0
1.34984              -0.09677408       -15.45824        -55.98566        70.17005             -200               0             -200               0
1.35644              -0.09947157       -15.59212        -55.73412         66.7018             -200               0             -200               0
1.36304               -0.1021892       -15.72749        -55.49069        63.23742             -200               0             -200               0
1.36964               -0.1049329       -15.86444        -55.25503        59.78184             -200               0             -200               0
1.37624                -0.107708       -16.00306        -55.02669        56.33967             -200               0             -200               0
1.38284               -0.1105244       -16.14343        -54.80522        52.91521             -200               0             -200               0
1.38944               -0.1133913       -16.28563        -54.59008        49.51241             -200               0             -200               0
1.39604               -0.1163201       -16.42971         -54.3807        46.13486             -200               0             -200               0
1.40264               -0.1193222       -16.57575        -54.17647        42.78576             -200               0             -200               0
1.40924               -0.1224111       -16.72377        -53.97671        39.46791             -200               0             -200               0
1.41584               -0.1256002       -16.87384        -53.78074        36.18364             -200               0             -200               0
1.42244               -0.1289024       -17.02596        -53.58782        32.93482             -200               0             -200               0
1.42904               -0.1323308       -17.18016         -53.3972        29.72282             -200               0             -200               0
1.43564               -0.1358979       -17.33643        -53.20809        26.54846             -200               0             -200               0
1.44224               -0.1396168       -17.49477         -53.0197        23.41199             -200               0             -200               0
1.44884               -0.1434977       -17.65518        -52.83124        20.31307             -200               0             -200               0
1.45545               -0.1475505       -17.81762        -52.64193        17.25076             -200               0             -200               0
1.46205               -0.1517833       -17.98208          -52.451        14.22351             -200               0             -200               0
1.46865               -0.1562036       -18.14851        -52.25772        11.22916             -200               0             -200               0
1.47525               -0.1608156        -18.3169         -52.0614        8.264967             -200               0             -200               0
1.48185               -0.1656238       -18.48721        -51.86142        5.327655             -200               0             -200               0
1.48845               -0.1706294       -18.65941        -51.65722        2.413439             -200               0             -200               0
1.49505                -0.175833       -18.83347        -51.44832      -0.4818858             -200               0             -200               0
1.50165               -0.1812319       -19.00939        -51.23433       -3.362872             -200               0             -200               0
1.50825               -0.1868244       -19.18715        -51.01497       -6.234319             -200               0             -200               0
1.51485               -0.1926056       -19.36675        -50.79006        -9.10118             -200               0             -200               0
1.52145               -0.1985723       -19.54822        -50.55952       -11.96845             -200               0             -200               0
1.52805               -0.2047176       -19.73157        -50.32336       -14.84105             -200               0             -200               0
1.53465               -0.2110365       -19.91686        -50.08171       -17.72376             -200               0             -200               0
1.54125               -0.2175227       -20.10413        -49.83479       -20.62106             -200               0             -200               0
1.54785               -0.2241724       -20.29346         -49.5829       -23.53712             -200               0             -200               0
1.55446               -0.2309803       -20.48494        -49.32639       -26.47567             -200               0             -200               0
1.56106               -0.2379439       -20.67866         -49.0657          -29.44             -200               0             -200               0
1.56766               -0.2450613       -20.87474        -48.80131       -32.43287             -200               0             -200               0
1.57426                -0.252333       -21.07331        -48.53371       -35.45654             -200               0             -200               0
1.58086               -0.2597607       -21.27451        -48.26344       -38.51273             -200               0             -200               0
1.58746               -0.2673504       -21.47847        -47.99104       -41.60264             -200               0             -200               0
1.59406               -0.2751087       -21.68535        -47.71702         -44.727             -200               0             -200               0
1.60066               -0.2830461       -21.89531        -47.44192       -47.88603             -200               0             -200               0
1.60726               -0.2911743       -22.10849        -47.16622       -51.07956             -200               0             -200               0
1.61386               -0.2995119       -22.32506        -46.89039       -54.30704             -200               0             -200               0
1.62046               -0.3080741       -22.54516        -46.61487       -57.56755             -200               0             -200               0
1.62706               -0.3168829       -22.76894        -46.34005       -60.85989             -200               0             -200               0
1.63366               -0.3259629       -22.99652        -46.06629       -64.18262             -200               0             -200               0
1.64026               -0.3353384       -23.22805        -45.79389       -67.53411             -200               0             -200               0
1.64686               -0.3450381       -23.46362        -45.52312       -70.91256             -200               0             -200               0
1.65347               -0.3550914       -23.70333        -45.25419       -74.31606             -200               0             -200               0
1.66007               -0.3655288       -23.94727        -44.98728       -77.74263             -200               0             -200               0
1.66667               -0.3763808       -24.19551        -44.72252       -81.19024             -200               0             -200               0
1.67327               -0.3876812       -24.44808           -44.46       -84.65688             -200               0             -200               0
1.67987               -0.3994607       -24.70504        -44.19976       -88.14052             -200               0             -200               0
1.68647               -0.4117524       -24.96639        -43.94181       -91.63923             -200               0             -200               0
1.69307               -0.4245866       -25.23214        -43.68613       -95.15112             -200               0             -200               0
1.69967               -0.4379947       -25.50228        -43.43264       -98.67441             -200               0             -200               0
1.70627               -0.4520044        -25.7768        -43.18126       -102.2074             -200               0             -200               0
1.71287                -0.466644       -26.05566        -42.93186       -105.7487             -200               0             -200               0
1.71947               -0.4819393       -26.33884        -42.68429       -109.2968             -200               0             -200               0
1.72607               -0.4979149       -26.62628        -42.43838       -112.8506             -200               0             -200               0
1.73267               -0.5145929       -26.91797        -42.19394        -116.409             -200               0             -200               0
1.73927               -0.5319921       -27.21385        -41.95077       -119.9713             -200               0             -200               0
1.74587               -0.5501328        -27.5139        -41.70864       -123.5367             -200               0             -200               0
1.75248               -0.5690314        -27.8181        -41.46732       -127.1049             -200               0             -200               0
1.75908                -0.588703       -28.12644        -41.22659       -130.6757             -200               0             -200               0
1.76568               -0.6091635       -28.43891         -40.9862        -134.249             -200               0             -200               0
1.77228               -0.6304259       -28.75553        -40.74592       -137.8251             -200               0             -200               0
1.77888               -0.6525046       -29.07634        -40.50553       -141.4044             -200               0             -200               0
1.78548               -0.6754133        -29.4014         -40.2648       -144.9875             -200               0             -200               0
1.79208               -0.6991666       -29.73077        -40.02353       -148.5753             -200               0             -200               0
1.79868               -0.7237823       -30.06456        -39.78153       -152.1687             -200               0             -200               0
1.80528               -0.7492787       -30.40287        -39.53863       -155.7688             -200               0             -200               0
1.81188               -0.7756755       -30.74584        -39.29468       -159.3771             -200               0             -200               0
1.81848               -0.8029981       -31.09363        -39.04956       -162.9949             -200               0             -200               0
1.82508               -0.8312745       -31.44639        -38.80317       -166.6237             -200               0             -200               0
1.83168               -0.8605365       -31.80433        -38.55544       -170.2651             -200               0             -200               0
1.83828               -0.8908215       -32.16761        -38.30634       -173.9209             -200               0             -200               0
1.84488               -0.9221722       -32.53646        -38.05585       -177.5928             -200               0             -200               0
1.85149               -0.9546366       -32.91107        -37.80399        178.7177             -200               0             -200               0
