! TOUCHSTONE file generated by CST MICROWAVE STUDIO
! Date and time: Sat Mar  8 13:55:41 2025
! Project name: non_fractured.cst
! Parameters = {B=2.5; D=160; F=25; Feed=2.85625; L=100; M=20; R=0.384908; S=2; Theta=90; length=57.125; wave=114.25}
! Header version: 2024
! Port assignment regex: !\s*Touchstone port\s*([0-9]+)\s*=\s*(CST MWS port|CST DES external port|CST DES block port)\s*(.+)\s* \(\"(.*)\"\)(\s*mode\s*([0-9]+))?.*
! Touchstone port assignment:
! Touchstone port 1 = CST MWS port 1 ("")
! Touchstone port 2 = CST MWS port 2 ("")
# GHz S DB R 50
1                    -0.01975424       -9.756334        -66.98238       -171.9137             -200               0             -200               0
1.00658              -0.02050377       -9.843568        -66.96295       -176.3202             -200               0             -200               0
1.01316              -0.02127298       -9.931284        -66.96638        179.4273             -200               0             -200               0
1.01974              -0.02205914       -10.01949        -66.99159        175.3442             -200               0             -200               0
1.02632              -0.02286109       -10.10821        -67.03724        171.4476             -200               0             -200               0
1.03289              -0.02367751       -10.19745        -67.10159        167.7561             -200               0             -200               0
1.03947              -0.02450652       -10.28723         -67.1824        164.2903             -200               0             -200               0
1.04605              -0.02534771       -10.37757        -67.27678        161.0716             -200               0             -200               0
1.05263              -0.02620006        -10.4685        -67.38102         158.122             -200               0             -200               0
1.05921              -0.02706252       -10.56004        -67.49042         155.463             -200               0             -200               0
1.06579              -0.02793608       -10.65221        -67.59917        153.1134             -200               0             -200               0
1.07237               -0.0288211       -10.74504         -67.7002        151.0875             -200               0             -200               0
1.07895                -0.029718       -10.83855        -67.78524        149.3912             -200               0             -200               0
1.08553               -0.0306287       -10.93278        -67.84501        148.0194             -200               0             -200               0
1.09211              -0.03155513       -11.02774        -67.86964        146.9516             -200               0             -200               0
1.09868              -0.03249824       -11.12347        -67.84944        146.1498             -200               0             -200               0
1.10526              -0.03346258       -11.21998        -67.77585        145.5572             -200               0             -200               0
1.11184              -0.03445019       -11.31729        -67.64249         145.101             -200               0             -200               0
1.11842              -0.03546425       -11.41542        -67.44605        144.6971             -200               0             -200               0
1.125                -0.03650841        -11.5144        -67.18684        144.2581             -200               0             -200               0
1.13158              -0.03758603       -11.61421        -66.86863        143.7021             -200               0             -200               0
1.13816              -0.03870145       -11.71489        -66.49814        142.9595             -200               0             -200               0
1.14474              -0.03985713       -11.81643        -66.08401        141.9781             -200               0             -200               0
1.15132               -0.0410566       -11.91884         -65.6358        140.7241             -200               0             -200               0
1.15789              -0.04230445       -12.02212        -65.16301        139.1814             -200               0             -200               0
1.16447              -0.04360241       -12.12627        -64.67446        137.3479             -200               0             -200               0
1.17105              -0.04495314       -12.23127        -64.17785        135.2327             -200               0             -200               0
1.17763              -0.04635941       -12.33714        -63.67966        132.8519             -200               0             -200               0
1.18421              -0.04782351       -12.44385        -63.18513        130.2259             -200               0             -200               0
1.19079              -0.04934571       -12.55141        -62.69836        127.3773             -200               0             -200               0
1.19737              -0.05092881       -12.65981         -62.2225        124.3293             -200               0             -200               0
1.20395              -0.05257152       -12.76903        -61.75988        121.1043             -200               0             -200               0
1.21053               -0.0542735       -12.87907         -61.3122        117.7237             -200               0             -200               0
1.21711              -0.05603595       -12.98993        -60.88064        114.2074             -200               0             -200               0
1.22368              -0.05785681       -13.10161        -60.46596        110.5737             -200               0             -200               0
1.23026              -0.05973506       -13.21409        -60.06866        106.8392             -200               0             -200               0
1.23684                -0.061669       -13.32739        -59.68898        103.0192             -200               0             -200               0
1.24342              -0.06365672       -13.44151        -59.32698        99.12752             -200               0             -200               0
1.25                 -0.06569636       -13.55646         -58.9826        95.17664             -200               0             -200               0
1.25658              -0.06778618       -13.67225        -58.65568        91.17811             -200               0             -200               0
1.26316              -0.06992306        -13.7889          -58.346        87.14245             -200               0             -200               0
1.26974              -0.07210593       -13.90642        -58.05327        83.07938             -200               0             -200               0
1.27632              -0.07433171       -14.02485        -57.77716        78.99795             -200               0             -200               0
1.28289              -0.07659981       -14.14421        -57.51731         74.9066             -200               0             -200               0
1.28947               -0.0789084       -14.26452        -57.27334        70.81331             -200               0             -200               0
1.29605               -0.0812569       -14.38583        -57.04482        66.72564             -200               0             -200               0
1.30263              -0.08364437       -14.50816        -56.83133        62.65086             -200               0             -200               0
1.30921              -0.08607164       -14.63156         -56.6324        58.59596             -200               0             -200               0
1.31579              -0.08853862       -14.75607        -56.44753        54.56776             -200               0             -200               0
1.32237              -0.09104648       -14.88171         -56.2762        50.57289             -200               0             -200               0
1.32895              -0.09359659       -15.00854        -56.11783        46.61787             -200               0             -200               0
1.33553              -0.09619175       -15.13659        -55.97181        42.70917             -200               0             -200               0
1.34211              -0.09883414        -15.2659        -55.83746        38.85307             -200               0             -200               0
1.34868               -0.1015268       -15.39651        -55.71404        35.05585             -200               0             -200               0
1.35526                -0.104273       -15.52845        -55.60074        31.32363             -200               0             -200               0
1.36184               -0.1070762       -15.66175        -55.49666        27.66239             -200               0             -200               0
1.36842               -0.1099411       -15.79645        -55.40079         24.0779             -200               0             -200               0
1.375                 -0.1128708       -15.93257        -55.31203        20.57563             -200               0             -200               0
1.38158               -0.1158705       -16.07014        -55.22916        17.16068             -200               0             -200               0
1.38816               -0.1189429       -16.20919        -55.15084        13.83759             -200               0             -200               0
1.39474               -0.1220925       -16.34973        -55.07559        10.61025             -200               0             -200               0
1.40132                -0.125323       -16.49178        -55.00182        7.481671             -200               0             -200               0
1.40789                -0.128638       -16.63536        -54.92782        4.453784             -200               0             -200               0
1.41447               -0.1320398       -16.78049        -54.85176        1.527248             -200               0             -200               0
1.42105               -0.1355318       -16.92718        -54.77174       -1.298788             -200               0             -200               0
1.42763               -0.1391147       -17.07545        -54.68581       -4.026883             -200               0             -200               0
1.43421               -0.1427913       -17.22532        -54.59202       -6.661477             -200               0             -200               0
1.44079                -0.146562       -17.37681        -54.48846       -9.209008             -200               0             -200               0
1.44737               -0.1504283       -17.52994        -54.37332       -11.67794             -200               0             -200               0
1.45395               -0.1543892       -17.68474        -54.24498       -14.07871             -200               0             -200               0
1.46053               -0.1584453       -17.84123        -54.10204       -16.42353             -200               0             -200               0
1.46711                -0.162597       -17.99945        -53.94342       -18.72614             -200               0             -200               0
1.47368                -0.166843       -18.15945        -53.76837       -21.00136             -200               0             -200               0
1.48026               -0.1711824       -18.32126        -53.57651       -23.26464             -200               0             -200               0
1.48684               -0.1756149       -18.48494        -53.36787       -25.53151             -200               0             -200               0
1.49342               -0.1801406       -18.65055        -53.14287       -27.81706             -200               0             -200               0
1.5                   -0.1847599       -18.81815        -52.90227       -30.13544             -200               0             -200               0
1.50658               -0.1894718       -18.98782        -52.64715       -32.49941             -200               0             -200               0
1.51316                -0.194279       -19.15963        -52.37884       -34.92004             -200               0             -200               0
1.51974               -0.1991828       -19.33367        -52.09887       -37.40648             -200               0             -200               0
1.52632                -0.204187       -19.51003        -51.80888       -39.96589             -200               0             -200               0
1.53289               -0.2092966        -19.6888        -51.51058       -42.60339             -200               0             -200               0
1.53947               -0.2145142       -19.87009        -51.20567       -45.32222             -200               0             -200               0
1.54605               -0.2198494       -20.05399        -50.89583       -48.12387             -200               0             -200               0
1.55263               -0.2253085        -20.2406        -50.58264       -51.00827             -200               0             -200               0
1.55921               -0.2309005       -20.43004        -50.26755       -53.97405             -200               0             -200               0
1.56579               -0.2366383       -20.62241        -49.95193       -57.01873             -200               0             -200               0
1.57237               -0.2425323       -20.81781        -49.63698       -60.13893             -200               0             -200               0
1.57895               -0.2485975       -21.01634        -49.32376       -63.33063             -200               0             -200               0
1.58553               -0.2548483        -21.2181        -49.01319       -66.58929             -200               0             -200               0
1.59211               -0.2613009       -21.42319        -48.70607          -69.91             -200               0             -200               0
1.59868               -0.2679731       -21.63168        -48.40304       -73.28768             -200               0             -200               0
1.60526                -0.274885       -21.84367        -48.10465        -76.7171             -200               0             -200               0
1.61184               -0.2820526       -22.05922        -47.81132       -80.19302             -200               0             -200               0
1.61842               -0.2894982       -22.27842        -47.52338       -83.71023             -200               0             -200               0
1.625                 -0.2972425        -22.5013        -47.24104       -87.26363             -200               0             -200               0
1.63158               -0.3053048       -22.72792        -46.96446       -90.84826             -200               0             -200               0
1.63816                -0.313708       -22.95834         -46.6937       -94.45932             -200               0             -200               0
1.64474                -0.322471       -23.19258        -46.42875        -98.0922             -200               0             -200               0
1.65132                -0.331617       -23.43068        -46.16954       -101.7425             -200               0             -200               0
1.65789               -0.3411647       -23.67266        -45.91596       -105.4061             -200               0             -200               0
1.66447               -0.3511339       -23.91854        -45.66781       -109.0791             -200               0             -200               0
1.67105               -0.3615452       -24.16833        -45.42487       -112.7578             -200               0             -200               0
1.67763               -0.3724154       -24.42206        -45.18685       -116.4389             -200               0             -200               0
1.68421               -0.3837619       -24.67972        -44.95346       -120.1191             -200               0             -200               0
1.69079                -0.395604       -24.94133        -44.72433       -123.7957             -200               0             -200               0
1.69737               -0.4079549       -25.20691        -44.49908       -127.4662             -200               0             -200               0
1.70395               -0.4208303       -25.47646        -44.27728       -131.1283             -200               0             -200               0
1.71053               -0.4342457       -25.75003        -44.05851       -134.7801             -200               0             -200               0
1.71711               -0.4482138       -26.02763        -43.84229       -138.4202             -200               0             -200               0
1.72368               -0.4627483       -26.30929        -43.62814       -142.0472             -200               0             -200               0
1.73026               -0.4778623       -26.59507        -43.41556       -145.6604             -200               0             -200               0
1.73684               -0.4935694       -26.88503        -43.20404       -149.2592             -200               0             -200               0
1.74342               -0.5098821       -27.17922        -42.99308       -152.8436             -200               0             -200               0
1.75                  -0.5268143       -27.47774        -42.78217        -156.414             -200               0             -200               0
1.75658               -0.5443814       -27.78068        -42.57082       -159.9709             -200               0             -200               0
1.76316               -0.5625983       -28.08813        -42.35853       -163.5154             -200               0             -200               0
1.76974               -0.5814825       -28.40023        -42.14485       -167.0491             -200               0             -200               0
1.77632               -0.6010522       -28.71711        -41.92935       -170.5736             -200               0             -200               0
1.78289                -0.621332       -29.03891        -41.71164       -174.0911             -200               0             -200               0
1.78947               -0.6423423       -29.36579        -41.49136        -177.604             -200               0             -200               0
1.79605               -0.6641117       -29.69792         -41.2682        178.8849             -200               0             -200               0
1.80263               -0.6866693       -30.03547        -41.04191        175.3728             -200               0             -200               0
1.80921               -0.7100495       -30.37863        -40.81229        171.8565             -200               0             -200               0
1.81579               -0.7342888       -30.72759         -40.5792        168.3328             -200               0             -200               0
1.82237               -0.7594285       -31.08255        -40.34256        164.7985             -200               0             -200               0
1.82895               -0.7855127        -31.4437        -40.10235        161.2501             -200               0             -200               0
1.83553               -0.8125929       -31.81122        -39.85862        157.6843             -200               0             -200               0
1.84211               -0.8407218       -32.18533        -39.61146        154.0981             -200               0             -200               0
1.84868               -0.8699589       -32.56619        -39.36103        150.4881             -200               0             -200               0
