! TOUCHSTONE file generated by CST MICROWAVE STUDIO
! Date and time: Sat Mar  8 13:53:55 2025
! Project name: non_fractured.cst
! Parameters = {B=2.5; D=160; F=5; Feed=2.85625; L=100; M=5; R=0.384908; S=1.5; Theta=180; length=57.125; wave=114.25}
! Header version: 2024
! Port assignment regex: !\s*Touchstone port\s*([0-9]+)\s*=\s*(CST MWS port|CST DES external port|CST DES block port)\s*(.+)\s* \(\"(.*)\"\)(\s*mode\s*([0-9]+))?.*
! Touchstone port assignment:
! Touchstone port 1 = CST MWS port 1 ("")
! Touchstone port 2 = CST MWS port 2 ("")
# GHz S DB R 50
1                    -0.01942381       -9.743835        -66.69429       -93.03533             -200               0             -200               0
1.0066                -0.0199183       -9.831219        -66.10249       -98.93335             -200               0             -200               0
1.0132               -0.02043554       -9.919338        -65.56386       -104.7739             -200               0             -200               0
1.0198               -0.02097926       -10.00819         -65.0736       -110.5589             -200               0             -200               0
1.0264               -0.02155332       -10.09778        -64.62782       -116.2893             -200               0             -200               0
1.033                -0.02216371       -10.18809        -64.22331       -121.9652             -200               0             -200               0
1.0396               -0.02281303       -10.27911        -63.85746        -127.586             -200               0             -200               0
1.0462               -0.02350446       -10.37083        -63.52808       -133.1503             -200               0             -200               0
1.05281              -0.02424017       -10.46322        -63.23338       -138.6563             -200               0             -200               0
1.05941              -0.02502192       -10.55626        -62.97186       -144.1013             -200               0             -200               0
1.06601               -0.0258505       -10.64994        -62.74228       -149.4821             -200               0             -200               0
1.07261              -0.02672556       -10.74423        -62.54365        -154.795             -200               0             -200               0
1.07921              -0.02764583        -10.8391        -62.37514       -160.0352             -200               0             -200               0
1.08581              -0.02860937       -10.93454        -62.23608       -165.1974             -200               0             -200               0
1.09241              -0.02961414       -11.03054        -62.12595       -170.2753             -200               0             -200               0
1.09901              -0.03065493       -11.12707        -62.04432       -175.2614             -200               0             -200               0
1.10561              -0.03172944       -11.22414        -61.99086        179.8527             -200               0             -200               0
1.11221              -0.03283158       -11.32174         -61.9653         175.077             -200               0             -200               0
1.11881              -0.03395656       -11.41988        -61.96737        170.4229             -200               0             -200               0
1.12541              -0.03509946       -11.51856         -61.9968        165.9036             -200               0             -200               0
1.13201              -0.03625448       -11.61782        -62.05328        161.5346             -200               0             -200               0
1.13861              -0.03741618       -11.71767        -62.13635        157.3336             -200               0             -200               0
1.14521              -0.03857985       -11.81814        -62.24532        153.3208             -200               0             -200               0
1.15182              -0.03974161       -11.91929        -62.37921        149.5198             -200               0             -200               0
1.15842              -0.04089626       -12.02114        -62.53654         145.957             -200               0             -200               0
1.16502              -0.04204153       -12.12377        -62.71516        142.6622             -200               0             -200               0
1.17162               -0.0431754       -12.22722        -62.91201        139.6684             -200               0             -200               0
1.17822              -0.04429579       -12.33156        -63.12277        137.0107             -200               0             -200               0
1.18482              -0.04540504       -12.43685        -63.34155        134.7251             -200               0             -200               0
1.19142              -0.04650286       -12.54315        -63.56052        132.8458             -200               0             -200               0
1.19802              -0.04759104       -12.65054        -63.76956        131.4005             -200               0             -200               0
1.20462              -0.04867543       -12.75908         -63.9562         130.405             -200               0             -200               0
1.21122              -0.04976029       -12.86883        -64.10588         129.855             -200               0             -200               0
1.21782              -0.05085169       -12.97985        -64.20282        129.7184             -200               0             -200               0
1.22442               -0.0519562        -13.0922        -64.23167        129.9293             -200               0             -200               0
1.23102               -0.0530843       -13.20593        -64.17968        130.3873             -200               0             -200               0
1.23762              -0.05424248       -13.32108        -64.03895        130.9644             -200               0             -200               0
1.24422              -0.05544254       -13.43768        -63.80806        131.5201             -200               0             -200               0
1.25083              -0.05669318       -13.55577        -63.49233        131.9197             -200               0             -200               0
1.25743              -0.05800464       -13.67536        -63.10269         132.051             -200               0             -200               0
1.26403              -0.05938867       -13.79646        -62.65357        131.8349             -200               0             -200               0
1.27063              -0.06085465       -13.91909        -62.16058        131.2274             -200               0             -200               0
1.27723              -0.06241236       -14.04322        -61.63865         130.215             -200               0             -200               0
1.28383              -0.06407221       -14.16886        -61.10088        128.8072             -200               0             -200               0
1.29043              -0.06584079       -14.29599        -60.55803        127.0289             -200               0             -200               0
1.29703              -0.06772812       -14.42457        -60.01852        124.9134             -200               0             -200               0
1.30363              -0.06973913       -14.55457        -59.48866        122.4973             -200               0             -200               0
1.31023              -0.07188031       -14.68598        -58.97301        119.8176             -200               0             -200               0
1.31683              -0.07415562       -14.81875        -58.47474        116.9096             -200               0             -200               0
1.32343              -0.07656778       -14.95284        -57.99596        113.8058             -200               0             -200               0
1.33003              -0.07911912       -15.08823        -57.53799        110.5356             -200               0             -200               0
1.33663              -0.08181153       -15.22489        -57.10157        107.1255             -200               0             -200               0
1.34323               -0.0846428       -15.36277          -56.687         103.599             -200               0             -200               0
1.34984              -0.08761237       -15.50187        -56.29429        99.97706             -200               0             -200               0
1.35644              -0.09071785       -15.64216        -55.92324        96.27834             -200               0             -200               0
1.36304              -0.09395587       -15.78363        -55.57349        92.51951             -200               0             -200               0
1.36964               -0.0973243       -15.92628        -55.24457        88.71562             -200               0             -200               0
1.37624               -0.1008179       -16.07011        -54.93596        84.88028             -200               0             -200               0
1.38284               -0.1044325       -16.21514        -54.64705        81.02595             -200               0             -200               0
1.38944               -0.1081658       -16.36138        -54.37721        77.16411             -200               0             -200               0
1.39604               -0.1120124       -16.50888        -54.12576        73.30546             -200               0             -200               0
1.40264               -0.1159714       -16.65765          -53.892        69.46002             -200               0             -200               0
1.40924               -0.1200382       -16.80776        -53.67518        65.63731             -200               0             -200               0
1.41584               -0.1242136       -16.95925        -53.47451        61.84638             -200               0             -200               0
1.42244               -0.1284963       -17.11219        -53.28915        58.09594             -200               0             -200               0
1.42904               -0.1328869       -17.26661         -53.1182        54.39436             -200               0             -200               0
1.43564               -0.1373887       -17.42261         -52.9607        50.74974             -200               0             -200               0
1.44224               -0.1420036       -17.58023         -52.8156        47.16984             -200               0             -200               0
1.44884               -0.1467372       -17.73954        -52.68174        43.66214             -200               0             -200               0
1.45545               -0.1515956        -17.9006        -52.55788        40.23372             -200               0             -200               0
1.46205               -0.1565866       -18.06347        -52.44264        36.89115             -200               0             -200               0
1.46865               -0.1617172       -18.22822        -52.33453        33.64046             -200               0             -200               0
1.47525               -0.1669975       -18.39487         -52.2319        30.48689             -200               0             -200               0
1.48185               -0.1724382       -18.56349        -52.13297        27.43473             -200               0             -200               0
1.48845               -0.1780481        -18.7341        -52.03584        24.48713             -200               0             -200               0
1.49505               -0.1838404       -18.90672        -51.93846        21.64578             -200               0             -200               0
1.50165               -0.1898243       -19.08138        -51.83869        18.91074             -200               0             -200               0
1.50825               -0.1960113       -19.25808        -51.73434        16.28014             -200               0             -200               0
1.51485               -0.2024122       -19.43683        -51.62319        13.74999             -200               0             -200               0
1.52145               -0.2090365       -19.61763        -51.50305        11.31401             -200               0             -200               0
1.52805               -0.2158936       -19.80045        -51.37185        8.963577             -200               0             -200               0
1.53465               -0.2229902       -19.98528         -51.2277        6.687767             -200               0             -200               0
1.54125               -0.2303334       -20.17209        -51.06899        4.473546             -200               0             -200               0
1.54785               -0.2379282       -20.36087        -50.89441        2.306095             -200               0             -200               0
1.55446               -0.2457789        -20.5516        -50.70307        0.169268             -200               0             -200               0
1.56106               -0.2538857       -20.74424        -50.49452        -1.95384             -200               0             -200               0
1.56766               -0.2622506       -20.93878        -50.26873        -4.08027             -200               0             -200               0
1.57426               -0.2708714       -21.13521        -50.02615       -6.226556             -200               0             -200               0
1.58086               -0.2797456       -21.33352        -49.76762       -8.408132             -200               0             -200               0
1.58746                 -0.28887       -21.53372        -49.49433       -10.63884             -200               0             -200               0
1.59406               -0.2982395       -21.73582        -49.20777       -12.93052             -200               0             -200               0
1.60066               -0.3078474       -21.93985        -48.90963       -15.29283             -200               0             -200               0
1.60726               -0.3176885       -22.14587        -48.60173        -17.7331             -200               0             -200               0
1.61386               -0.3277563       -22.35393        -48.28594       -20.25636             -200               0             -200               0
1.62046               -0.3380446        -22.5641        -47.96412       -22.86553             -200               0             -200               0
1.62706                -0.348547       -22.77648        -47.63809       -25.56154             -200               0             -200               0
1.63366               -0.3592592        -22.9912        -47.30952       -28.34367             -200               0             -200               0
1.64026               -0.3701787       -23.20836        -46.97998       -31.20972             -200               0             -200               0
1.64686               -0.3813021       -23.42812        -46.65088       -34.15637             -200               0             -200               0
1.65347                -0.392633       -23.65064        -46.32347       -37.17934             -200               0             -200               0
1.66007               -0.4041719       -23.87608        -45.99882        -40.2737             -200               0             -200               0
1.66667               -0.4159246       -24.10463        -45.67785       -43.43402             -200               0             -200               0
1.67327               -0.4279029       -24.33649        -45.36134       -46.65452             -200               0             -200               0
1.67987               -0.4401156       -24.57183         -45.0499       -49.92927             -200               0             -200               0
1.68647                 -0.45258       -24.81088        -44.74401       -53.25226             -200               0             -200               0
1.69307               -0.4653157       -25.05383        -44.44405        -56.6175             -200               0             -200               0
1.69967               -0.4783442       -25.30086        -44.15024        -60.0191             -200               0             -200               0
1.70627                -0.491692        -25.5522        -43.86274       -63.45129             -200               0             -200               0
1.71287               -0.5053889         -25.808         -43.5816       -66.90852             -200               0             -200               0
1.71947               -0.5194664       -26.06846        -43.30676       -70.38547             -200               0             -200               0
1.72607               -0.5339601       -26.33372        -43.03812       -73.87706             -200               0             -200               0
1.73267               -0.5489084       -26.60395        -42.77548       -77.37849             -200               0             -200               0
1.73927                 -0.56435       -26.87926        -42.51857       -80.88527             -200               0             -200               0
1.74587               -0.5803282       -27.15976        -42.26708       -84.39321             -200               0             -200               0
1.75248                -0.596887       -27.44555        -42.02064       -87.89848             -200               0             -200               0
1.75908               -0.6140673       -27.73669        -41.77879        -91.3976             -200               0             -200               0
1.76568               -0.6319168       -28.03325        -41.54108       -94.88748             -200               0             -200               0
1.77228               -0.6504793       -28.33525        -41.30698       -98.36542             -200               0             -200               0
1.77888               -0.6697983       -28.64271        -41.07593       -101.8291             -200               0             -200               0
1.78548               -0.6899186       -28.95563        -40.84734       -105.2768             -200               0             -200               0
1.79208                -0.710882       -29.27399        -40.62061       -108.7072             -200               0             -200               0
1.79868               -0.7327288       -29.59777        -40.39508       -112.1192             -200               0             -200               0
1.80528               -0.7554992       -29.92693        -40.17013       -115.5127             -200               0             -200               0
1.81188               -0.7792309       -30.26143         -39.9451       -118.8877             -200               0             -200               0
1.81848               -0.8039597       -30.60123        -39.71935       -122.2451             -200               0             -200               0
1.82508               -0.8297194       -30.94629        -39.49226       -125.5859             -200               0             -200               0
1.83168                -0.856543       -31.29657        -39.26322       -128.9119             -200               0             -200               0
1.83828               -0.8844595       -31.65204        -39.03167       -132.2255             -200               0             -200               0
1.84488               -0.9135009       -32.01267        -38.79711       -135.5293             -200               0             -200               0
1.85149               -0.9436948       -32.37848        -38.55906       -138.8264             -200               0             -200               0
