! TOUCHSTONE file generated by CST MICROWAVE STUDIO
! Date and time: Sat Mar  8 13:55:53 2025
! Project name: non_fractured.cst
! Parameters = {B=2.5; D=160; F=5; Feed=2.85625; L=100; M=30; R=0.384908; S=2.5; Theta=270; length=57.125; wave=114.25}
! Header version: 2024
! Port assignment regex: !\s*Touchstone port\s*([0-9]+)\s*=\s*(CST MWS port|CST DES external port|CST DES block port)\s*(.+)\s* \(\"(.*)\"\)(\s*mode\s*([0-9]+))?.*
! Touchstone port assignment:
! Touchstone port 1 = CST MWS port 1 ("")
! Touchstone port 2 = CST MWS port 2 ("")
# GHz S DB R 50
1                    -0.01884707       -9.745625        -69.23839       -143.6383             -200               0             -200               0
1.0066               -0.01973798       -9.834374        -68.85848       -147.9286             -200               0             -200               0
1.0132               -0.02068858       -9.923404         -68.5108        -152.245             -200               0             -200               0
1.0198               -0.02169119       -10.01269        -68.19402       -156.5725             -200               0             -200               0
1.0264               -0.02273701       -10.10219        -67.90697       -160.8972             -200               0             -200               0
1.033                -0.02381737       -10.19189        -67.64856       -165.2064             -200               0             -200               0
1.0396               -0.02492171        -10.2818        -67.41778       -169.4877             -200               0             -200               0
1.0462               -0.02604134       -10.37192        -67.21372       -173.7291             -200               0             -200               0
1.05281              -0.02716445       -10.46227        -67.03549       -177.9188             -200               0             -200               0
1.05941              -0.02828262       -10.55288        -66.88222        177.9551             -200               0             -200               0
1.06601              -0.02938655        -10.6438        -66.75305        173.9051             -200               0             -200               0
1.07261              -0.03046864       -10.73507        -66.64705        169.9438             -200               0             -200               0
1.07921              -0.03152207       -10.82676        -66.56322        166.0846             -200               0             -200               0
1.08581              -0.03254019       -10.91894        -66.50043        162.3415             -200               0             -200               0
1.09241              -0.03352098       -11.01169        -66.45737        158.7293             -200               0             -200               0
1.09901              -0.03446147       -11.10509        -66.43248        155.2635             -200               0             -200               0
1.10561               -0.0353619       -11.19921         -66.4239        151.9603             -200               0             -200               0
1.11221              -0.03622386       -11.29415        -66.42934        148.8361             -200               0             -200               0
1.11881              -0.03705066       -11.38999        -66.44605        145.9075             -200               0             -200               0
1.12541              -0.03784811        -11.4868         -66.4707        143.1904             -200               0             -200               0
1.13201              -0.03862329       -11.58467        -66.49928        140.6994             -200               0             -200               0
1.13861                -0.039384       -11.68364        -66.52711        138.4461             -200               0             -200               0
1.14521              -0.04014084       -11.78379        -66.54875        136.4381             -200               0             -200               0
1.15182               -0.0409042       -11.88515        -66.55812         134.677             -200               0             -200               0
1.15842              -0.04168632       -11.98776        -66.54864        133.1566             -200               0             -200               0
1.16502              -0.04249834       -12.09164        -66.51352        131.8608             -200               0             -200               0
1.17162              -0.04335379       -12.19681        -66.44621        130.7629             -200               0             -200               0
1.17822              -0.04426405       -12.30326        -66.34087        129.8253             -200               0             -200               0
1.18482              -0.04523984       -12.41098        -66.19296        129.0005             -200               0             -200               0
1.19142              -0.04629327       -12.51994         -65.9997        128.2337             -200               0             -200               0
1.19802              -0.04743319       -12.63011        -65.76039        127.4671             -200               0             -200               0
1.20462              -0.04866874       -12.74144        -65.47648        126.6437             -200               0             -200               0
1.21122               -0.0500052       -12.85388        -65.15138        125.7122             -200               0             -200               0
1.21782              -0.05144915       -12.96738        -64.79001        124.6297             -200               0             -200               0
1.22442              -0.05300253       -13.08187        -64.39832        123.3643             -200               0             -200               0
1.23102              -0.05466742        -13.1973        -63.98268        121.8948             -200               0             -200               0
1.23762               -0.0564427        -13.3136        -63.54947        120.2103             -200               0             -200               0
1.24422              -0.05832562       -13.43071        -63.10467        118.3091             -200               0             -200               0
1.25083              -0.06031224       -13.54859        -62.65366        116.1959             -200               0             -200               0
1.25743              -0.06239523       -13.66719        -62.20109        113.8808             -200               0             -200               0
1.26403              -0.06456834       -13.78648        -61.75087        111.3772             -200               0             -200               0
1.27063                -0.066821       -13.90642        -61.30619        108.7005             -200               0             -200               0
1.27723              -0.06914507       -14.02702        -60.86958        105.8672             -200               0             -200               0
1.28383              -0.07152939       -14.14827        -60.44302        102.8938             -200               0             -200               0
1.29043              -0.07396219       -14.27018        -60.02799        99.79661             -200               0             -200               0
1.29703              -0.07643378       -14.39279        -59.62559        96.59131             -200               0             -200               0
1.30363              -0.07893378       -14.51615        -59.23656        93.29275             -200               0             -200               0
1.31023               -0.0814528        -14.6403        -58.86139        89.91489             -200               0             -200               0
1.31683              -0.08398105       -14.76532        -58.50033        86.47074             -200               0             -200               0
1.32343              -0.08651282       -14.89129        -58.15347        82.97244             -200               0             -200               0
1.33003              -0.08904134        -15.0183        -57.82074        79.43125             -200               0             -200               0
1.33663               -0.0915647       -15.14645        -57.50195        75.85763             -200               0             -200               0
1.34323              -0.09407924       -15.27586        -57.19681        72.26133             -200               0             -200               0
1.34984              -0.09658615       -15.40661        -56.90495         68.6514             -200               0             -200               0
1.35644              -0.09908921       -15.53884        -56.62591        65.03629             -200               0             -200               0
1.36304               -0.1015921       -15.67265        -56.35916        61.42387             -200               0             -200               0
1.36964               -0.1041038       -15.80814        -56.10412        57.82151             -200               0             -200               0
1.37624               -0.1066318       -15.94542        -55.86014        54.23604             -200               0             -200               0
1.38284               -0.1091887       -16.08458         -55.6265        50.67385             -200               0             -200               0
1.38944               -0.1117876        -16.2257        -55.40243        47.14079             -200               0             -200               0
1.39604               -0.1144426       -16.36886        -55.18712        43.64227             -200               0             -200               0
1.40264               -0.1171688       -16.51412        -54.97966        40.18316             -200               0             -200               0
1.40924               -0.1199827       -16.66152        -54.77911        36.76782             -200               0             -200               0
1.41584               -0.1229003        -16.8111        -54.58447        33.39999             -200               0             -200               0
1.42244                -0.125939       -16.96286        -54.39469        30.08279             -200               0             -200               0
1.42904               -0.1291144       -17.11682        -54.20864        26.81862             -200               0             -200               0
1.43564               -0.1324425       -17.27297        -54.02519        23.60915             -200               0             -200               0
1.44224               -0.1359373       -17.43128        -53.84316        20.45518             -200               0             -200               0
1.44884               -0.1396112       -17.59173        -53.66134        17.35664             -200               0             -200               0
1.45545               -0.1434752       -17.75426        -53.47854         14.3125             -200               0             -200               0
1.46205               -0.1475407       -17.91884        -53.29358        11.32075             -200               0             -200               0
1.46865               -0.1518127       -18.08541        -53.10531        8.378369             -200               0             -200               0
1.47525               -0.1562967       -18.25391        -52.91266        5.481343             -200               0             -200               0
1.48185               -0.1609969        -18.4243        -52.71461        2.624698             -200               0             -200               0
1.48845               -0.1659122       -18.59653         -52.5103      -0.1974157             -200               0             -200               0
1.49505               -0.1710418       -18.77054        -52.29897       -2.991616             -200               0             -200               0
1.50165               -0.1763821       -18.94632        -52.08003       -5.765148             -200               0             -200               0
1.50825               -0.1819287       -19.12382        -51.85305       -8.525705             -200               0             -200               0
1.51485               -0.1876727       -19.30305        -51.61778       -11.28124             -200               0             -200               0
1.52145                 -0.19361       -19.48402        -51.37416       -14.03975             -200               0             -200               0
1.52805               -0.1997288       -19.66673        -51.12231       -16.80907             -200               0             -200               0
1.53465               -0.2060211       -19.85124        -50.86252       -19.59669             -200               0             -200               0
1.54125               -0.2124794        -20.0376        -50.59522       -22.40956             -200               0             -200               0
1.54785               -0.2190943       -20.22588        -50.32099       -25.25395             -200               0             -200               0
1.55446               -0.2258595       -20.41619        -50.04052       -28.13534             -200               0             -200               0
1.56106               -0.2327691       -20.60863        -49.75459       -31.05833             -200               0             -200               0
1.56766               -0.2398192       -20.80333        -49.46403        -34.0266             -200               0             -200               0
1.57426               -0.2470081       -21.00043        -49.16971       -37.04292             -200               0             -200               0
1.58086               -0.2543374       -21.20008        -48.87253       -40.10915             -200               0             -200               0
1.58746               -0.2618111       -21.40246        -48.57336       -43.22631             -200               0             -200               0
1.59406               -0.2694358       -21.60772        -48.27304       -46.39462             -200               0             -200               0
1.60066                -0.277222       -21.81604        -47.97241       -49.61357             -200               0             -200               0
1.60726               -0.2851837        -22.0276        -47.67222       -52.88205             -200               0             -200               0
1.61386               -0.2933376       -22.24256        -47.37317        -56.1984             -200               0             -200               0
1.62046               -0.3017033       -22.46109         -47.0759       -59.56047             -200               0             -200               0
1.62706               -0.3103053       -22.68336        -46.78098       -62.96577             -200               0             -200               0
1.63366               -0.3191693       -22.90949        -46.48891        -66.4115             -200               0             -200               0
1.64026               -0.3283233       -23.13962        -46.20012       -69.89462             -200               0             -200               0
1.64686               -0.3377989       -23.37388        -45.91496       -73.41192             -200               0             -200               0
1.65347               -0.3476286       -23.61234        -45.63373       -76.96008             -200               0             -200               0
1.66007               -0.3578455        -23.8551        -45.35665       -80.53573             -200               0             -200               0
1.66667               -0.3684864       -24.10221        -45.08388       -84.13545             -200               0             -200               0
1.67327               -0.3795852        -24.3537        -44.81553       -87.75586             -200               0             -200               0
1.67987               -0.3911753        -24.6096        -44.55163       -91.39362             -200               0             -200               0
1.68647               -0.4032948       -24.86989        -44.29219       -95.04546             -200               0             -200               0
1.69307               -0.4159739       -25.13457        -44.03712       -98.70824             -200               0             -200               0
1.69967               -0.4292473        -25.4036        -43.78634       -102.3789             -200               0             -200               0
1.70627                -0.443142       -25.67693        -43.53968       -106.0546             -200               0             -200               0
1.71287               -0.4576887        -25.9545        -43.29695       -109.7327             -200               0             -200               0
1.71947               -0.4729117       -26.23623        -43.05792       -113.4105             -200               0             -200               0
1.72607               -0.4888353       -26.52207        -42.82229       -117.0858             -200               0             -200               0
1.73267               -0.5054783       -26.81194        -42.58978       -120.7566             -200               0             -200               0
1.73927               -0.5228595       -27.10577        -42.36004        -124.421             -200               0             -200               0
1.74587               -0.5409946        -27.4035        -42.13271       -128.0773             -200               0             -200               0
1.75248                -0.559896       -27.70507         -41.9074       -131.7245             -200               0             -200               0
1.75908               -0.5795754       -28.01045        -41.68369       -135.3614             -200               0             -200               0
1.76568               -0.6000411       -28.31961        -41.46118       -138.9874             -200               0             -200               0
1.77228               -0.6213036       -28.63255        -41.23942       -142.6021             -200               0             -200               0
1.77888                 -0.64337       -28.94929        -41.01798       -146.2056             -200               0             -200               0
1.78548                -0.666247       -29.26986        -40.79641       -149.7982             -200               0             -200               0
1.79208               -0.6899434       -29.59434        -40.57429       -153.3805             -200               0             -200               0
1.79868               -0.7144683       -29.92281         -40.3512       -156.9535             -200               0             -200               0
1.80528               -0.7398325        -30.2554        -40.12673       -160.5187             -200               0             -200               0
1.81188                -0.766051       -30.59223        -39.90051       -164.0777             -200               0             -200               0
1.81848               -0.7931392       -30.93348         -39.6722       -167.6324             -200               0             -200               0
1.82508               -0.8211198       -31.27933        -39.44148       -171.1851             -200               0             -200               0
1.83168               -0.8500171       -31.62998        -39.20809       -174.7382             -200               0             -200               0
1.83828               -0.8798629       -31.98566        -38.97181       -178.2945             -200               0             -200               0
1.84488               -0.9106918       -32.34659        -38.73246        178.1432             -200               0             -200               0
1.85149               -0.9425477       -32.71302        -38.48993        174.5718             -200               0             -200               0
