! TOUCHSTONE file generated by CST MICROWAVE STUDIO
! Date and time: Sat Mar  8 13:54:02 2025
! Project name: non_fractured.cst
! Parameters = {B=2.5; D=160; F=10; Feed=2.85625; L=100; M=5; R=0.384908; S=1.5; Theta=90; length=57.125; wave=114.25}
! Header version: 2024
! Port assignment regex: !\s*Touchstone port\s*([0-9]+)\s*=\s*(CST MWS port|CST DES external port|CST DES block port)\s*(.+)\s* \(\"(.*)\"\)(\s*mode\s*([0-9]+))?.*
! Touchstone port assignment:
! Touchstone port 1 = CST MWS port 1 ("")
! Touchstone port 2 = CST MWS port 2 ("")
# GHz S DB R 50
1                    -0.01818228       -9.743661        -66.45209       -94.43755             -200               0             -200               0
1.0066               -0.01880986       -9.832499        -65.82966        -100.659             -200               0             -200               0
1.0132               -0.01949736         -9.9219        -65.26438       -106.7951             -200               0             -200               0
1.0198               -0.02024186       -10.01182        -64.75081       -112.8539             -200               0             -200               0
1.0264               -0.02104186       -10.10223        -64.28456       -118.8408             -200               0             -200               0
1.033                -0.02189645        -10.1931        -63.86207       -124.7593             -200               0             -200               0
1.0396               -0.02279996       -10.28438        -63.48041       -130.6118             -200               0             -200               0
1.0462                -0.0237496       -10.37607        -63.13718       -136.3993             -200               0             -200               0
1.05281              -0.02473944       -10.46813         -62.8304       -142.1218             -200               0             -200               0
1.05941              -0.02576222       -10.56055        -62.55847       -147.7783             -200               0             -200               0
1.06601              -0.02681103       -10.65333        -62.32005       -153.3671             -200               0             -200               0
1.07261              -0.02787921       -10.74648        -62.11409       -158.8857             -200               0             -200               0
1.07921              -0.02895982          -10.84        -61.93976       -164.3304             -200               0             -200               0
1.08581              -0.03004358       -10.93391        -61.79641        -169.697             -200               0             -200               0
1.09241              -0.03112449       -11.02825        -61.68356       -174.9799             -200               0             -200               0
1.09901              -0.03219632       -11.12306        -61.60087        179.8272             -200               0             -200               0
1.10561              -0.03325261       -11.21838        -61.54814        174.7324             -200               0             -200               0
1.11221               -0.0342876       -11.31426        -61.52525        169.7447             -200               0             -200               0
1.11881              -0.03529684       -11.41077        -61.53216        164.8752             -200               0             -200               0
1.12541              -0.03627936       -11.50798        -61.56889        160.1368             -200               0             -200               0
1.13201              -0.03723186       -11.60595        -61.63544        155.5448             -200               0             -200               0
1.13861              -0.03815571       -11.70476        -61.73178        151.1171             -200               0             -200               0
1.14521              -0.03905051       -11.80448        -61.85774        146.8749             -200               0             -200               0
1.15182              -0.03992059        -11.9052        -62.01291        142.8432             -200               0             -200               0
1.15842              -0.04076967       -12.00697        -62.19652        139.0509             -200               0             -200               0
1.16502              -0.04160374       -12.10987        -62.40719        135.5321             -200               0             -200               0
1.17162              -0.04242936       -12.21396        -62.64268        132.3257             -200               0             -200               0
1.17822              -0.04325579       -12.31931        -62.89951        129.4755             -200               0             -200               0
1.18482              -0.04409154       -12.42597        -63.17245        127.0299             -200               0             -200               0
1.19142              -0.04494695       -12.53397        -63.45394         125.039             -200               0             -200               0
1.19802              -0.04583408       -12.64335        -63.73343        123.5512             -200               0             -200               0
1.20462              -0.04676226       -12.75414        -63.99687        122.6051             -200               0             -200               0
1.21122              -0.04774428       -12.86635        -64.22647        122.2199             -200               0             -200               0
1.21782              -0.04879162       -12.97998        -64.40136        122.3808             -200               0             -200               0
1.22442               -0.0499147       -13.09503        -64.49944        123.0264             -200               0             -200               0
1.23102              -0.05112462       -13.21148        -64.50059        124.0409             -200               0             -200               0
1.23762              -0.05243087       -13.32931        -64.39071        125.2586             -200               0             -200               0
1.24422              -0.05384203       -13.44849        -64.16509        126.4853             -200               0             -200               0
1.25083              -0.05536646       -13.56898        -63.82966        127.5286             -200               0             -200               0
1.25743              -0.05700972       -13.69073        -63.39936        128.2293             -200               0             -200               0
1.26403              -0.05877645       -13.81371        -62.89459        128.4792             -200               0             -200               0
1.27063              -0.06067128       -13.93785        -62.33724        128.2244             -200               0             -200               0
1.27723              -0.06269534       -14.06312        -61.74761        127.4562             -200               0             -200               0
1.28383              -0.06484869       -14.18946        -61.14273        126.1978             -200               0             -200               0
1.29043              -0.06713071       -14.31684        -60.53594        124.4907             -200               0             -200               0
1.29703              -0.06953857        -14.4452        -59.93707        122.3847             -200               0             -200               0
1.30363              -0.07206827       -14.57451        -59.35304         119.931             -200               0             -200               0
1.31023              -0.07471529       -14.70475        -58.78851        117.1786             -200               0             -200               0
1.31683              -0.07747244       -14.83591        -58.24646        114.1722             -200               0             -200               0
1.32343              -0.08033461       -14.96796        -57.72864        110.9518             -200               0             -200               0
1.33003              -0.08329411       -15.10091        -57.23595        107.5523             -200               0             -200               0
1.33663              -0.08634376       -15.23478        -56.76869        104.0042             -200               0             -200               0
1.34323              -0.08947583       -15.36959        -56.32678         100.334             -200               0             -200               0
1.34984              -0.09268368       -15.50536        -55.90986        96.56493             -200               0             -200               0
1.35644              -0.09596096       -15.64216         -55.5174        92.71722             -200               0             -200               0
1.36304              -0.09930241       -15.78003        -55.14877        88.80874             -200               0             -200               0
1.36964                -0.102704       -15.91903        -54.80328        84.85538             -200               0             -200               0
1.37624               -0.1061611       -16.05923        -54.48019        80.87141             -200               0             -200               0
1.38284               -0.1096733       -16.20071        -54.17873        76.86978             -200               0             -200               0
1.38944               -0.1132397       -16.34356        -53.89815        72.86236             -200               0             -200               0
1.39604               -0.1168625       -16.48785        -53.63766        68.86018             -200               0             -200               0
1.40264               -0.1205442       -16.63367        -53.39647        64.87362             -200               0             -200               0
1.40924               -0.1242889        -16.7811        -53.17377        60.91252             -200               0             -200               0
1.41584               -0.1281047       -16.93022        -52.96873         56.9863             -200               0             -200               0
1.42244                -0.131998       -17.08112        -52.78047        53.10411             -200               0             -200               0
1.42904               -0.1359798       -17.23386        -52.60806        49.27482             -200               0             -200               0
1.43564               -0.1400598        -17.3885        -52.45052        45.50711             -200               0             -200               0
1.44224               -0.1442503        -17.5451        -52.30678        41.80949             -200               0             -200               0
1.44884               -0.1485622       -17.70371        -52.17567        38.19022             -200               0             -200               0
1.45545               -0.1530104       -17.86436        -52.05591        34.65735             -200               0             -200               0
1.46205               -0.1576063       -18.02708        -51.94609        31.21857             -200               0             -200               0
1.46865               -0.1623631       -18.19187        -51.84463        27.88109             -200               0             -200               0
1.47525               -0.1672941       -18.35875         -51.7498        24.65151             -200               0             -200               0
1.48185               -0.1724101        -18.5277        -51.65968        21.53554             -200               0             -200               0
1.48845               -0.1777232       -18.69872        -51.57218        18.53775             -200               0             -200               0
1.49505               -0.1832422       -18.87177        -51.48504        15.66131             -200               0             -200               0
1.50165               -0.1889749       -19.04684        -51.39583        12.90758             -200               0             -200               0
1.50825               -0.1949288       -19.22388        -51.30198        10.27576             -200               0             -200               0
1.51485               -0.2011093       -19.40288        -51.20087        7.762634             -200               0             -200               0
1.52145               -0.2075182       -19.58378        -51.08985        5.362181             -200               0             -200               0
1.52805               -0.2141569       -19.76657        -50.96636        3.065463             -200               0             -200               0
1.53465               -0.2210263       -19.95121        -50.82801       0.8605519             -200               0             -200               0
1.54125                -0.228122       -20.13769        -50.67268       -1.267331             -200               0             -200               0
1.54785               -0.2354419       -20.32599        -50.49864       -3.335467             -200               0             -200               0
1.55446               -0.2429809       -20.51613        -50.30463       -5.363113             -200               0             -200               0
1.56106               -0.2507327        -20.7081        -50.08992       -7.370778             -200               0             -200               0
1.56766               -0.2586887       -20.90195        -49.85438       -9.379396             -200               0             -200               0
1.57426               -0.2668439       -21.09773        -49.59842       -11.40946             -200               0             -200               0
1.58086               -0.2751888       -21.29548          -49.323       -13.48019             -200               0             -200               0
1.58746               -0.2837167        -21.4953        -49.02955       -15.60885             -200               0             -200               0
1.59406               -0.2924228       -21.69728        -48.71986       -17.81019             -200               0             -200               0
1.60066               -0.3013002       -21.90154          -48.396       -20.09614             -200               0             -200               0
1.60726               -0.3103463       -22.10821        -48.06018       -22.47568             -200               0             -200               0
1.61386               -0.3195588       -22.31744        -47.71468       -24.95492             -200               0             -200               0
1.62046               -0.3289391        -22.5294        -47.36176       -27.53726             -200               0             -200               0
1.62706               -0.3384903       -22.74426        -47.00357       -30.22371             -200               0             -200               0
1.63366               -0.3482204        -22.9622        -46.64214       -33.01324             -200               0             -200               0
1.64026               -0.3581365       -23.18342         -46.2793       -35.90314             -200               0             -200               0
1.64686               -0.3682564       -23.40812        -45.91668       -38.88939             -200               0             -200               0
1.65347               -0.3785946       -23.63649        -45.55573       -41.96694             -200               0             -200               0
1.66007                -0.389172       -23.86872        -45.19767       -45.13005             -200               0             -200               0
1.66667               -0.4000133       -24.10501        -44.84354       -48.37253             -200               0             -200               0
1.67327               -0.4111468       -24.34555        -44.49421       -51.68791             -200               0             -200               0
1.67987               -0.4226033        -24.5905        -44.15036       -55.06957             -200               0             -200               0
1.68647                -0.434417       -24.84002        -43.81253       -58.51098             -200               0             -200               0
1.69307               -0.4466254       -25.09426        -43.48113       -62.00568             -200               0             -200               0
1.69967               -0.4592673       -25.35333        -43.15645        -65.5474             -200               0             -200               0
1.70627               -0.4723854       -25.61733        -42.83865        -69.1301             -200               0             -200               0
1.71287               -0.4860214       -25.88634        -42.52782       -72.74802             -200               0             -200               0
1.71947               -0.5002198       -26.16043        -42.22396       -76.39569             -200               0             -200               0
1.72607               -0.5150259       -26.43963        -41.92698       -80.06795             -200               0             -200               0
1.73267               -0.5304839       -26.72394        -41.63675       -83.75995             -200               0             -200               0
1.73927               -0.5466372       -27.01335        -41.35306       -87.46719             -200               0             -200               0
1.74587                 -0.56353       -27.30784        -41.07566       -91.18549             -200               0             -200               0
1.75248               -0.5812048       -27.60734        -40.80424       -94.91101             -200               0             -200               0
1.75908               -0.5997016        -27.9118        -40.53846       -98.64024             -200               0             -200               0
1.76568               -0.6190569       -28.22112        -40.27794         -102.37             -200               0             -200               0
1.77228                -0.639308       -28.53522        -40.02228       -106.0976             -200               0             -200               0
1.77888               -0.6604861       -28.85399        -39.77103       -109.8204             -200               0             -200               0
1.78548               -0.6826238       -29.17732        -39.52372       -113.5365             -200               0             -200               0
1.79208               -0.7057462       -29.50511        -39.27989        -117.244             -200               0             -200               0
1.79868               -0.7298797       -29.83724        -39.03902       -120.9417             -200               0             -200               0
1.80528               -0.7550449       -30.17362        -38.80062       -124.6286             -200               0             -200               0
1.81188               -0.7812623       -30.51417        -38.56416       -128.3041             -200               0             -200               0
1.81848               -0.8085487       -30.85879        -38.32915       -131.9679             -200               0             -200               0
1.82508                 -0.83692       -31.20745        -38.09507       -135.6203             -200               0             -200               0
1.83168               -0.8663909        -31.5601        -37.86142       -139.2619             -200               0             -200               0
1.83828                -0.896975       -31.91672        -37.62774       -142.8936             -200               0             -200               0
1.84488               -0.9286855       -32.27734        -37.39357       -146.5167             -200               0             -200               0
1.85149               -0.9615367       -32.64196        -37.15849       -150.1327             -200               0             -200               0
