! TOUCHSTONE file generated by CST MICROWAVE STUDIO
! Date and time: Sat Mar  8 13:54:11 2025
! Project name: non_fractured.cst
! Parameters = {B=2.5; D=160; F=15; Feed=2.85625; L=100; M=5; R=0.384908; S=1.5; Theta=90; length=57.125; wave=114.25}
! Header version: 2024
! Port assignment regex: !\s*Touchstone port\s*([0-9]+)\s*=\s*(CST MWS port|CST DES external port|CST DES block port)\s*(.+)\s* \(\"(.*)\"\)(\s*mode\s*([0-9]+))?.*
! Touchstone port assignment:
! Touchstone port 1 = CST MWS port 1 ("")
! Touchstone port 2 = CST MWS port 2 ("")
# GHz S DB R 50
1                     -0.0182014       -9.743614        -67.44647       -115.7631             -200               0             -200               0
1.0066               -0.01887741       -9.832333        -66.91431       -120.4239             -200               0             -200               0
1.0132               -0.01961039        -9.92155        -66.42522       -125.1337             -200               0             -200               0
1.0198               -0.02039784       -10.01123        -65.97611       -129.8751             -200               0             -200               0
1.0264                -0.0212362       -10.10134        -65.56438       -134.6334             -200               0             -200               0
1.033                -0.02212124       -10.19185        -65.18776        -139.396             -200               0             -200               0
1.0396                -0.0230491       -10.28275        -64.84433       -144.1519             -200               0             -200               0
1.0462               -0.02401263       -10.37401         -64.5324        -148.891             -200               0             -200               0
1.05281              -0.02500606       -10.46562         -64.2505       -153.6039             -200               0             -200               0
1.05941              -0.02602177       -10.55759        -63.99735       -158.2818             -200               0             -200               0
1.06601              -0.02705296       -10.64993        -63.77182       -162.9158             -200               0             -200               0
1.07261              -0.02809251       -10.74265        -63.57286       -167.4975             -200               0             -200               0
1.07921              -0.02913312       -10.83578        -63.39955        -172.018             -200               0             -200               0
1.08581              -0.03016869       -10.92935        -63.25101       -176.4682             -200               0             -200               0
1.09241              -0.03119341       -11.02341        -63.12637        179.1612             -200               0             -200               0
1.09901              -0.03220118       -11.11801        -63.02479        174.8802             -200               0             -200               0
1.10561              -0.03318933       -11.21321        -62.94539        170.6995             -200               0             -200               0
1.11221               -0.0341545       -11.30906        -62.88722        166.6302             -200               0             -200               0
1.11881              -0.03509462       -11.40563        -62.84921        162.6844             -200               0             -200               0
1.12541              -0.03601022         -11.503        -62.83014         158.875             -200               0             -200               0
1.13201              -0.03690115       -11.60123        -62.82857        155.2156             -200               0             -200               0
1.13861              -0.03777191       -11.70039        -62.84277        151.7204             -200               0             -200               0
1.14521              -0.03862603       -11.80056        -62.87067        148.4043             -200               0             -200               0
1.15182              -0.03946857       -11.90179        -62.90976        145.2821             -200               0             -200               0
1.15842              -0.04030688       -12.00415        -62.95701        142.3682             -200               0             -200               0
1.16502              -0.04114894       -12.10769        -63.00882         139.676             -200               0             -200               0
1.17162              -0.04200344       -12.21246        -63.06094        137.2166             -200               0             -200               0
1.17822              -0.04287987       -12.31849        -63.10847        134.9977             -200               0             -200               0
1.18482              -0.04378957       -12.42582        -63.14587        133.0218             -200               0             -200               0
1.19142               -0.0447421       -12.53446        -63.16714        131.2848             -200               0             -200               0
1.19802              -0.04574932       -12.64443        -63.16598        129.7743             -200               0             -200               0
1.20462                -0.046822       -12.75573        -63.13619        128.4682             -200               0             -200               0
1.21122              -0.04797019       -12.86833        -63.07209        127.3346             -200               0             -200               0
1.21782               -0.0492036       -12.98224        -62.96898        126.3321             -200               0             -200               0
1.22442              -0.05053084       -13.09741        -62.82364        125.4117             -200               0             -200               0
1.23102              -0.05196077       -13.21382        -62.63467        124.5203             -200               0             -200               0
1.23762              -0.05350034       -13.33143        -62.40259         123.604             -200               0             -200               0
1.24422              -0.05515314       -13.45018        -62.12982        122.6122             -200               0             -200               0
1.25083              -0.05692496       -13.57002        -61.82038        121.5012             -200               0             -200               0
1.25743              -0.05881638       -13.69092        -61.47938        120.2363             -200               0             -200               0
1.26403              -0.06082924       -13.81281        -61.11265        118.7926             -200               0             -200               0
1.27063              -0.06296258       -13.93565        -60.72616        117.1552             -200               0             -200               0
1.27723              -0.06521416        -14.0594        -60.32573        115.3183             -200               0             -200               0
1.28383              -0.06757941         -14.184         -59.9167        113.2829             -200               0             -200               0
1.29043              -0.07005409       -14.30944        -59.50383         111.056             -200               0             -200               0
1.29703              -0.07263116       -14.43567        -59.09117        108.6485             -200               0             -200               0
1.30363              -0.07530393        -14.5627        -58.68213        106.0738             -200               0             -200               0
1.31023              -0.07806509        -14.6905        -58.27945        103.3471             -200               0             -200               0
1.31683               -0.0809049       -14.81908        -57.88531        100.4839             -200               0             -200               0
1.32343               -0.0838157       -14.94847        -57.50142        97.50003             -200               0             -200               0
1.33003              -0.08678928       -15.07868        -57.12901        94.41096             -200               0             -200               0
1.33663              -0.08981707       -15.20976        -56.76901        91.23149             -200               0             -200               0
1.34323              -0.09289137       -15.34176        -56.42202        87.97571             -200               0             -200               0
1.34984              -0.09600633       -15.47473         -56.0884        84.65692             -200               0             -200               0
1.35644              -0.09915549       -15.60874        -55.76831        81.28762             -200               0             -200               0
1.36304               -0.1023357       -15.74388        -55.46175        77.87952             -200               0             -200               0
1.36964                -0.105543       -15.88023        -55.16857        74.44355             -200               0             -200               0
1.37624               -0.1087779       -16.01787        -54.88849        70.98998             -200               0             -200               0
1.38284               -0.1120394        -16.1569        -54.62113         67.5284             -200               0             -200               0
1.38944               -0.1153315       -16.29741        -54.36601        64.06779             -200               0             -200               0
1.39604               -0.1186573       -16.43949        -54.12258        60.61656             -200               0             -200               0
1.40264               -0.1220234       -16.58324        -53.89016        57.18256             -200               0             -200               0
1.40924               -0.1254367       -16.72874        -53.66805        53.77313             -200               0             -200               0
1.41584               -0.1289073       -16.87607        -53.45542        50.39504             -200               0             -200               0
1.42244               -0.1324438       -17.02531        -53.25139        47.05453             -200               0             -200               0
1.42904               -0.1360597       -17.17653        -53.05498        43.75725             -200               0             -200               0
1.43564               -0.1397669       -17.32978        -52.86516        40.50822             -200               0             -200               0
1.44224               -0.1435781        -17.4851        -52.68079        37.31178             -200               0             -200               0
1.44884               -0.1475065       -17.64253        -52.50069        34.17151             -200               0             -200               0
1.45545               -0.1515658        -17.8021        -52.32359        31.09012             -200               0             -200               0
1.46205               -0.1557696       -17.96383        -52.14818        28.06944             -200               0             -200               0
1.46865               -0.1601292       -18.12772         -51.9731        25.11023             -200               0             -200               0
1.47525               -0.1646584       -18.29376        -51.79698        22.21219             -200               0             -200               0
1.48185               -0.1693668       -18.46194        -51.61841        19.37379             -200               0             -200               0
1.48845               -0.1742633       -18.63224        -51.43605        16.59232             -200               0             -200               0
1.49505               -0.1793572       -18.80466        -51.24857        13.86379             -200               0             -200               0
1.50165               -0.1846548       -18.97915        -51.05476          11.183             -200               0             -200               0
1.50825               -0.1901606       -19.15569         -50.8535        8.543594             -200               0             -200               0
1.51485               -0.1958777       -19.33427        -50.64381        5.938145             -200               0             -200               0
1.52145               -0.2018083       -19.51485        -50.42492        3.358353             -200               0             -200               0
1.52805               -0.2079517       -19.69743        -50.19624       0.7952331             -200               0             -200               0
1.53465                -0.214309         -19.882        -49.95738       -1.760639             -200               0             -200               0
1.54125               -0.2208739       -20.06857        -49.70821       -4.318861             -200               0             -200               0
1.54785               -0.2276455       -20.25714        -49.44879       -6.888937             -200               0             -200               0
1.55446               -0.2346188       -20.44775        -49.17943       -9.480013             -200               0             -200               0
1.56106                -0.241789       -20.64045        -48.90061       -12.10063             -200               0             -200               0
1.56766               -0.2491515       -20.83528        -48.61299       -14.75855             -200               0             -200               0
1.57426               -0.2567016       -21.03232        -48.31737       -17.46055             -200               0             -200               0
1.58086               -0.2644366       -21.23166        -48.01468       -20.21238             -200               0             -200               0
1.58746               -0.2723542       -21.43342        -47.70591       -23.01863             -200               0             -200               0
1.59406                -0.280453        -21.6377         -47.3921       -25.88281             -200               0             -200               0
1.60066               -0.2887338       -21.84463        -47.07429        -28.8073             -200               0             -200               0
1.60726               -0.2972001       -22.05438        -46.75355       -31.79346             -200               0             -200               0
1.61386               -0.3058573       -22.26708        -46.43087       -34.84171             -200               0             -200               0
1.62046               -0.3147153        -22.4829        -46.10722       -37.95162             -200               0             -200               0
1.62706                -0.323785       -22.70202        -45.78349       -41.12203             -200               0             -200               0
1.63366               -0.3330813        -22.9246        -45.46053       -44.35117             -200               0             -200               0
1.64026               -0.3426225       -23.15081        -45.13906       -47.63675             -200               0             -200               0
1.64686               -0.3524292       -23.38082        -44.81976       -50.97608             -200               0             -200               0
1.65347               -0.3625273       -23.61479         -44.5032       -54.36614             -200               0             -200               0
1.66007               -0.3729441       -23.85287         -44.1899       -57.80371             -200               0             -200               0
1.66667               -0.3837106       -24.09521        -43.88028       -61.28539             -200               0             -200               0
1.67327               -0.3948598       -24.34192        -43.57469        -64.8077             -200               0             -200               0
1.67987               -0.4064274       -24.59312         -43.2734       -68.36711             -200               0             -200               0
1.68647               -0.4184525        -24.8489        -42.97664       -71.96011             -200               0             -200               0
1.69307               -0.4309734       -25.10933        -42.68455       -75.58322             -200               0             -200               0
1.69967               -0.4440302       -25.37444        -42.39722       -79.23307             -200               0             -200               0
1.70627               -0.4576655       -25.64428         -42.1147       -82.90635             -200               0             -200               0
1.71287               -0.4719182       -25.91884        -41.83699        -86.5999             -200               0             -200               0
1.71947               -0.4868315        -26.1981        -41.56402        -90.3107             -200               0             -200               0
1.72607               -0.5024446       -26.48203        -41.29573       -94.03589             -200               0             -200               0
1.73267               -0.5187963       -26.77056        -41.03196       -97.77278             -200               0             -200               0
1.73927               -0.5359245       -27.06362        -40.77257       -101.5189             -200               0             -200               0
1.74587               -0.5538629       -27.36111        -40.51736       -105.2718             -200               0             -200               0
1.75248               -0.5726446       -27.66293        -40.26612       -109.0295             -200               0             -200               0
1.75908               -0.5923005       -27.96896        -40.01859         -112.79             -200               0             -200               0
1.76568                -0.612856       -28.27907        -39.77453       -116.5517             -200               0             -200               0
1.77228               -0.6343356       -28.59315        -39.53365       -120.3131             -200               0             -200               0
1.77888               -0.6567602       -28.91106        -39.29565        -124.073             -200               0             -200               0
1.78548               -0.6801473        -29.2327        -39.06022       -127.8302             -200               0             -200               0
1.79208               -0.7045126       -29.55793        -38.82706       -131.5842             -200               0             -200               0
1.79868               -0.7298674       -29.88667        -38.59583       -135.3343             -200               0             -200               0
1.80528               -0.7562221       -30.21883        -38.36622       -139.0803             -200               0             -200               0
1.81188               -0.7835833       -30.55435         -38.1379        -142.822             -200               0             -200               0
1.81848               -0.8119587       -30.89318        -37.91056       -146.5598             -200               0             -200               0
1.82508               -0.8413528       -31.23531        -37.68389        -150.294             -200               0             -200               0
1.83168               -0.8717701       -31.58075        -37.45759       -154.0252             -200               0             -200               0
1.83828               -0.9032171       -31.92953        -37.23139       -157.7544             -200               0             -200               0
1.84488               -0.9357001       -32.28173        -37.00501       -161.4826             -200               0             -200               0
1.85149                -0.969226       -32.63743        -36.77824        -165.211             -200               0             -200               0
