! TOUCHSTONE file generated by CST MICROWAVE STUDIO
! Date and time: Sat Mar  8 13:55:10 2025
! Project name: non_fractured.cst
! Parameters = {B=2.5; D=160; F=5; Feed=2.85625; L=100; M=20; R=0.384908; S=1.5; Theta=270; length=57.125; wave=114.25}
! Header version: 2024
! Port assignment regex: !\s*Touchstone port\s*([0-9]+)\s*=\s*(CST MWS port|CST DES external port|CST DES block port)\s*(.+)\s* \(\"(.*)\"\)(\s*mode\s*([0-9]+))?.*
! Touchstone port assignment:
! Touchstone port 1 = CST MWS port 1 ("")
! Touchstone port 2 = CST MWS port 2 ("")
# GHz S DB R 50
1                    -0.01776755       -9.746044        -69.38114       -104.7373             -200               0             -200               0
1.0066               -0.01846777       -9.835738        -68.71643       -110.7247             -200               0             -200               0
1.0132               -0.01924464       -9.925907        -68.11723       -116.6289             -200               0             -200               0
1.0198               -0.02009679       -10.01649        -67.57665        -122.456             -200               0             -200               0
1.0264               -0.02101753       -10.10745        -67.08916       -128.2097             -200               0             -200               0
1.033                -0.02200324       -10.19872        -66.65034       -133.8918             -200               0             -200               0
1.0396               -0.02304586       -10.29027        -66.25659       -139.5029             -200               0             -200               0
1.0462               -0.02413607       -10.38207        -65.90497        -145.042             -200               0             -200               0
1.05281               -0.0252669        -10.4741        -65.59308       -150.5072             -200               0             -200               0
1.05941              -0.02642423       -10.56636        -65.31894       -155.8957             -200               0             -200               0
1.06601              -0.02760194       -10.65884        -65.08092       -161.2033             -200               0             -200               0
1.07261              -0.02878581       -10.75157        -64.87769       -166.4252             -200               0             -200               0
1.07921              -0.02996948       -10.84457        -64.70816       -171.5551             -200               0             -200               0
1.08581              -0.03113945       -10.93789        -64.57141       -176.5856             -200               0             -200               0
1.09241              -0.03228921       -11.03157         -64.4667         178.492             -200               0             -200               0
1.09901              -0.03341081       -11.12567        -64.39337        173.6881             -200               0             -200               0
1.10561               -0.0344986       -11.22027        -64.35084        169.0148             -200               0             -200               0
1.11221               -0.0355456       -11.31545        -64.33853        164.4862             -200               0             -200               0
1.11881               -0.0365488       -11.41128        -64.35581        160.1186             -200               0             -200               0
1.12541              -0.03750859       -11.50786        -64.40191        155.9312             -200               0             -200               0
1.13201              -0.03842588       -11.60528        -64.47585        151.9458             -200               0             -200               0
1.13861              -0.03929987       -11.70362        -64.57622        148.1876             -200               0             -200               0
1.14521              -0.04013759       -11.80298        -64.70109        144.6853             -200               0             -200               0
1.15182              -0.04094628       -11.90342        -64.84776        141.4705             -200               0             -200               0
1.15842              -0.04173048       -12.00504        -65.01241        138.5783             -200               0             -200               0
1.16502              -0.04250247        -12.1079        -65.18984        136.0452             -200               0             -200               0
1.17162              -0.04327159       -12.21206          -65.373        133.9076             -200               0             -200               0
1.17822                 -0.04405       -12.31757        -65.55271        132.1981             -200               0             -200               0
1.18482              -0.04484983       -12.42447        -65.71732        130.9403             -200               0             -200               0
1.19142              -0.04568508       -12.53277        -65.85284        130.1412             -200               0             -200               0
1.19802              -0.04656759        -12.6425        -65.94346        129.7832             -200               0             -200               0
1.20462              -0.04751116       -12.75365        -65.97288        129.8164             -200               0             -200               0
1.21122              -0.04852743       -12.86621        -65.92632        130.1546             -200               0             -200               0
1.21782              -0.04962837       -12.98016        -65.79296        130.6783             -200               0             -200               0
1.22442               -0.0508253       -13.09546          -65.568        131.2471             -200               0             -200               0
1.23102              -0.05212592       -13.21207        -65.25372        131.7172             -200               0             -200               0
1.23762              -0.05353947       -13.32993        -64.85889        131.9611             -200               0             -200               0
1.24422              -0.05507031         -13.449        -64.39699        131.8817             -200               0             -200               0
1.25083              -0.05672195       -13.56921        -63.88372         131.418             -200               0             -200               0
1.25743              -0.05849809        -13.6905        -63.33487        130.5435             -200               0             -200               0
1.26403              -0.06039863       -13.81281        -62.76474        129.2591             -200               0             -200               0
1.27063              -0.06242018       -13.93609        -62.18534        127.5844             -200               0             -200               0
1.27723              -0.06456196       -14.06028        -61.60622         125.551             -200               0             -200               0
1.28383              -0.06681446       -14.18533        -61.03462        123.1952             -200               0             -200               0
1.29043              -0.06917419       -14.31122        -60.47583        120.5552             -200               0             -200               0
1.29703              -0.07163305       -14.43791        -59.93357        117.6677             -200               0             -200               0
1.30363              -0.07417862       -14.56539        -59.41031        114.5669             -200               0             -200               0
1.31023              -0.07680483       -14.69367        -58.90766        111.2842             -200               0             -200               0
1.31683              -0.07950012       -14.82276         -58.4265        107.8473             -200               0             -200               0
1.32343              -0.08225284       -14.95269        -57.96726        104.2811             -200               0             -200               0
1.33003              -0.08505571        -15.0835        -57.52999        100.6076             -200               0             -200               0
1.33663              -0.08789936       -15.21524        -57.11453        96.84636             -200               0             -200               0
1.34323              -0.09077345         -15.348        -56.72052        93.01465             -200               0             -200               0
1.34984              -0.09367379       -15.48184        -56.34749        89.12795             -200               0             -200               0
1.35644              -0.09659447       -15.61687        -55.99488        85.20013             -200               0             -200               0
1.36304              -0.09953442       -15.75317        -55.66209        81.24376             -200               0             -200               0
1.36964               -0.1024896       -15.89086        -55.34846        77.27026             -200               0             -200               0
1.37624               -0.1054624       -16.03005        -55.05331        73.29015             -200               0             -200               0
1.38284                -0.108457       -16.17085        -54.77594        69.31316             -200               0             -200               0
1.38944               -0.1114798       -16.31338         -54.5156        65.34839             -200               0             -200               0
1.39604               -0.1145381       -16.45773        -54.27153         61.4044             -200               0             -200               0
1.40264               -0.1176428       -16.60402        -54.04294        57.48928             -200               0             -200               0
1.40924               -0.1208071       -16.75233        -53.82898        53.61076             -200               0             -200               0
1.41584               -0.1240437       -16.90276        -53.62878        49.77618             -200               0             -200               0
1.42244               -0.1273685       -17.05537        -53.44139        45.99258             -200               0             -200               0
1.42904               -0.1307986       -17.21022        -53.26582        42.26666             -200               0             -200               0
1.43564               -0.1343536       -17.36737          -53.101        38.60475             -200               0             -200               0
1.44224               -0.1380497       -17.52683        -52.94577        35.01281             -200               0             -200               0
1.44884               -0.1419055       -17.68863        -52.79888         31.4963             -200               0             -200               0
1.45545               -0.1459403       -17.85277          -52.659        28.06016             -200               0             -200               0
1.46205               -0.1501714       -18.01922        -52.52468        24.70863             -200               0             -200               0
1.46865               -0.1546124       -18.18796        -52.39439        21.44513             -200               0             -200               0
1.47525               -0.1592814       -18.35894        -52.26647        18.27212             -200               0             -200               0
1.48185               -0.1641893       -18.53213        -52.13922        15.19091             -200               0             -200               0
1.48845               -0.1693465       -18.70745        -52.01083        12.20148             -200               0             -200               0
1.49505               -0.1747637       -18.88484        -51.87948        9.302345             -200               0             -200               0
1.50165               -0.1804454       -19.06423        -51.74333        6.490382             -200               0             -200               0
1.50825               -0.1863966       -19.24555        -51.60055        3.760725             -200               0             -200               0
1.51485               -0.1926176       -19.42874        -51.44943        1.106727             -200               0             -200               0
1.52145                -0.199107       -19.61373        -51.28837       -1.480013             -200               0             -200               0
1.52805               -0.2058609       -19.80047        -51.11595       -4.009537             -200               0             -200               0
1.53465               -0.2128758       -19.98893        -50.93102       -6.493319             -200               0             -200               0
1.54125               -0.2201415       -20.17908        -50.73269       -8.943969             -200               0             -200               0
1.54785               -0.2276504       -20.37089         -50.5204       -11.37486             -200               0             -200               0
1.55446               -0.2353916       -20.56439        -50.29391       -13.79969             -200               0             -200               0
1.56106                -0.243355        -20.7596        -50.05335       -16.23205             -200               0             -200               0
1.56766               -0.2515282       -20.95657        -49.79916       -18.68496             -200               0             -200               0
1.57426               -0.2599018       -21.15536        -49.53208        -21.1705             -200               0             -200               0
1.58086               -0.2684642       -21.35607        -49.25311       -23.69943             -200               0             -200               0
1.58746               -0.2772085       -21.55881        -48.96344       -26.28102             -200               0             -200               0
1.59406               -0.2861266       -21.76371        -48.66444       -28.92281             -200               0             -200               0
1.60066                -0.295214       -21.97091        -48.35754       -31.63063             -200               0             -200               0
1.60726               -0.3044699       -22.18058        -48.04423       -34.40857             -200               0             -200               0
1.61386               -0.3138937       -22.39291          -47.726        -37.2591             -200               0             -200               0
1.62046               -0.3234918       -22.60808        -47.40428        -40.1832             -200               0             -200               0
1.62706               -0.3332715       -22.82628        -47.08043       -43.18052             -200               0             -200               0
1.63366               -0.3432448       -23.04772        -46.75574       -46.24957             -200               0             -200               0
1.64026                -0.353429        -23.2726        -46.43134       -49.38793             -200               0             -200               0
1.64686               -0.3638437       -23.50112        -46.10828       -52.59242             -200               0             -200               0
1.65347                -0.374512       -23.73345        -45.78746       -55.85924             -200               0             -200               0
1.66007               -0.3854633        -23.9698        -45.46967       -59.18419             -200               0             -200               0
1.66667               -0.3967269       -24.21031        -45.15557       -62.56272             -200               0             -200               0
1.67327               -0.4083383       -24.45513        -44.84571       -65.99011             -200               0             -200               0
1.67987               -0.4203331       -24.70441        -44.54053       -69.46151             -200               0             -200               0
1.68647               -0.4327516       -24.95824        -44.24035       -72.97209             -200               0             -200               0
1.69307                -0.445633        -25.2167        -43.94543         -76.517             -200               0             -200               0
1.69967               -0.4590201       -25.47986        -43.65591       -80.09154             -200               0             -200               0
1.70627                -0.472954       -25.74774        -43.37185       -83.69111             -200               0             -200               0
1.71287               -0.4874766       -26.02036        -43.09327        -87.3113             -200               0             -200               0
1.71947               -0.5026306        -26.2977        -42.82009       -90.94787             -200               0             -200               0
1.72607               -0.5184556       -26.57972        -42.55218       -94.59682             -200               0             -200               0
1.73267                 -0.53499       -26.86636        -42.28934       -98.25441             -200               0             -200               0
1.73927               -0.5522691       -27.15756        -42.03135       -101.9171             -200               0             -200               0
1.74587               -0.5703272       -27.45321        -41.77789       -105.5817             -200               0             -200               0
1.75248               -0.5891945       -27.75321        -41.52866       -109.2453             -200               0             -200               0
1.75908               -0.6088975       -28.05746        -41.28327       -112.9053             -200               0             -200               0
1.76568               -0.6294608       -28.36585        -41.04131       -116.5594             -200               0             -200               0
1.77228                -0.650904       -28.67825        -40.80236       -120.2056             -200               0             -200               0
1.77888               -0.6732454       -28.99458        -40.56596       -123.8423             -200               0             -200               0
1.78548               -0.6964984       -29.31474        -40.33162       -127.4684             -200               0             -200               0
1.79208               -0.7206736       -29.63864        -40.09885       -131.0829             -200               0             -200               0
1.79868               -0.7457785       -29.96623        -39.86715       -134.6856             -200               0             -200               0
1.80528               -0.7718215       -30.29748        -39.63601       -138.2762             -200               0             -200               0
1.81188               -0.7988065       -30.63238        -39.40493       -141.8553             -200               0             -200               0
1.81848               -0.8267373       -30.97094        -39.17341       -145.4235             -200               0             -200               0
1.82508               -0.8556197       -31.31322          -38.941        -148.982             -200               0             -200               0
1.83168               -0.8854574        -31.6593        -38.70722       -152.5323             -200               0             -200               0
1.83828               -0.9162572       -32.00931        -38.47168       -156.0764             -200               0             -200               0
1.84488               -0.9480288       -32.36339        -38.23399       -159.6165             -200               0             -200               0
1.85149               -0.9807851       -32.72175        -37.99381       -163.1551             -200               0             -200               0
