! TOUCHSTONE file generated by CST MICROWAVE STUDIO
! Date and time: Sat Mar  8 13:55:09 2025
! Project name: non_fractured.cst
! Parameters = {B=2.5; D=160; F=5; Feed=2.85625; L=100; M=20; R=0.384908; S=1.5; Theta=90; length=57.125; wave=114.25}
! Header version: 2024
! Port assignment regex: !\s*Touchstone port\s*([0-9]+)\s*=\s*(CST MWS port|CST DES external port|CST DES block port)\s*(.+)\s* \(\"(.*)\"\)(\s*mode\s*([0-9]+))?.*
! Touchstone port assignment:
! Touchstone port 1 = CST MWS port 1 ("")
! Touchstone port 2 = CST MWS port 2 ("")
# GHz S DB R 50
1                    -0.01776643       -9.746046        -69.38151       -104.7367             -200               0             -200               0
1.0066                -0.0184661       -9.835742        -68.71675       -110.7241             -200               0             -200               0
1.0132               -0.01924399       -9.925911        -68.11753       -116.6284             -200               0             -200               0
1.0198               -0.02009512        -10.0165        -67.57693       -122.4555             -200               0             -200               0
1.0264               -0.02101742       -10.10745        -67.08942       -128.2092             -200               0             -200               0
1.033                -0.02200313       -10.19872        -66.65058       -133.8914             -200               0             -200               0
1.0396               -0.02304523       -10.29027        -66.25682       -139.5024             -200               0             -200               0
1.0462               -0.02413598       -10.38207        -65.90519       -145.0415             -200               0             -200               0
1.05281              -0.02526523        -10.4741        -65.59328       -150.5067             -200               0             -200               0
1.05941              -0.02642407       -10.56636        -65.31913       -155.8952             -200               0             -200               0
1.06601              -0.02760126       -10.65885         -65.0811       -161.2028             -200               0             -200               0
1.07261              -0.02878564       -10.75158        -64.87786       -166.4247             -200               0             -200               0
1.07921              -0.02996877       -10.84458        -64.70832       -171.5545             -200               0             -200               0
1.08581              -0.03113875       -10.93789        -64.57157        -176.585             -200               0             -200               0
1.09241              -0.03228903       -11.03157        -64.46685        178.4926             -200               0             -200               0
1.09901              -0.03341063       -11.12568        -64.39351        173.6887             -200               0             -200               0
1.10561              -0.03449789       -11.22028        -64.35098        169.0154             -200               0             -200               0
1.11221              -0.03554489       -11.31546        -64.33866        164.4868             -200               0             -200               0
1.11881               -0.0365486       -11.41129        -64.35594        160.1193             -200               0             -200               0
1.12541              -0.03750841       -11.50787        -64.40204        155.9319             -200               0             -200               0
1.13201              -0.03842516       -11.60529        -64.47597        151.9465             -200               0             -200               0
1.13861              -0.03929966       -11.70363        -64.57634        148.1884             -200               0             -200               0
1.14521              -0.04013842       -11.80298        -64.70121        144.6861             -200               0             -200               0
1.15182              -0.04094604       -11.90343        -64.84787        141.4714             -200               0             -200               0
1.15842              -0.04173131       -12.00505        -65.01252        138.5791             -200               0             -200               0
1.16502               -0.0425033       -12.10791        -65.18994        136.0461             -200               0             -200               0
1.17162              -0.04327241       -12.21207         -65.3731        133.9085             -200               0             -200               0
1.17822              -0.04405085       -12.31758         -65.5528        132.1991             -200               0             -200               0
1.18482              -0.04485071       -12.42447         -65.7174        130.9413             -200               0             -200               0
1.19142              -0.04568595       -12.53278         -65.8529        130.1422             -200               0             -200               0
1.19802              -0.04656849       -12.64251        -65.94351        129.7843             -200               0             -200               0
1.20462                -0.047512       -12.75366        -65.97292        129.8175             -200               0             -200               0
1.21122              -0.04852827       -12.86622        -65.92635        130.1556             -200               0             -200               0
1.21782              -0.04962921       -12.98017        -65.79298        130.6793             -200               0             -200               0
1.22442              -0.05082622       -13.09547        -65.56801         131.248             -200               0             -200               0
1.23102              -0.05212732       -13.21207        -65.25372        131.7181             -200               0             -200               0
1.23762              -0.05353983       -13.32994        -64.85889        131.9619             -200               0             -200               0
1.24422              -0.05507064       -13.44901        -64.39697        131.8824             -200               0             -200               0
1.25083               -0.0567229       -13.56922        -63.88371        131.4187             -200               0             -200               0
1.25743              -0.05849904       -13.69051        -63.33486        130.5441             -200               0             -200               0
1.26403              -0.06039952       -13.81282        -62.76473        129.2596             -200               0             -200               0
1.27063              -0.06242221       -13.93609        -62.18533        127.5849             -200               0             -200               0
1.27723              -0.06456244       -14.06028        -61.60621        125.5514             -200               0             -200               0
1.28383              -0.06681604       -14.18533        -61.03462        123.1956             -200               0             -200               0
1.29043              -0.06917628       -14.31122        -60.47583        120.5556             -200               0             -200               0
1.29703              -0.07163356       -14.43791        -59.93357         117.668             -200               0             -200               0
1.30363              -0.07418068       -14.56539        -59.41033        114.5673             -200               0             -200               0
1.31023              -0.07680597       -14.69367        -58.90767        111.2845             -200               0             -200               0
1.31683              -0.07950076       -14.82276        -58.42652        107.8476             -200               0             -200               0
1.32343              -0.08225443       -14.95269        -57.96728        104.2814             -200               0             -200               0
1.33003              -0.08505692        -15.0835        -57.53002        100.6079             -200               0             -200               0
1.33663                  -0.0879       -15.21524        -57.11456        96.84666             -200               0             -200               0
1.34323              -0.09077517         -15.348        -56.72055        93.01495             -200               0             -200               0
1.34984              -0.09367508       -15.48184        -56.34752        89.12824             -200               0             -200               0
1.35644              -0.09659677       -15.61686        -55.99491        85.20042             -200               0             -200               0
1.36304              -0.09953521       -15.75317        -55.66212        81.24405             -200               0             -200               0
1.36964               -0.1024903       -15.89086        -55.34849        77.27055             -200               0             -200               0
1.37624               -0.1054637       -16.03005        -55.05335        73.29044             -200               0             -200               0
1.38284               -0.1084583       -16.17085        -54.77597        69.31345             -200               0             -200               0
1.38944               -0.1114812       -16.31337        -54.51564        65.34868             -200               0             -200               0
1.39604               -0.1145394       -16.45772        -54.27157        61.40469             -200               0             -200               0
1.40264               -0.1176443       -16.60401        -54.04297        57.48958             -200               0             -200               0
1.40924               -0.1208069       -16.75232        -53.82901        53.61106             -200               0             -200               0
1.41584               -0.1240435       -16.90275        -53.62881        49.77649             -200               0             -200               0
1.42244               -0.1273689       -17.05536        -53.44142        45.99289             -200               0             -200               0
1.42904               -0.1307996       -17.21022        -53.26586        42.26697             -200               0             -200               0
1.43564                -0.134354       -17.36736        -53.10103        38.60506             -200               0             -200               0
1.44224               -0.1380501       -17.52683         -52.9458        35.01312             -200               0             -200               0
1.44884               -0.1419064       -17.68863        -52.79892        31.49663             -200               0             -200               0
1.45545               -0.1459412       -17.85276        -52.65903         28.0605             -200               0             -200               0
1.46205               -0.1501713       -18.01921        -52.52471        24.70897             -200               0             -200               0
1.46865               -0.1546133       -18.18795        -52.39441        21.44547             -200               0             -200               0
1.47525               -0.1592818       -18.35894        -52.26649        18.27246             -200               0             -200               0
1.48185               -0.1641896       -18.53212        -52.13924        15.19125             -200               0             -200               0
1.48845                -0.169347       -18.70744        -52.01085        12.20182             -200               0             -200               0
1.49505               -0.1747642       -18.88483         -51.8795        9.302694             -200               0             -200               0
1.50165                -0.180446       -19.06422        -51.74334         6.49073             -200               0             -200               0
1.50825               -0.1863971       -19.24554        -51.60056        3.761069             -200               0             -200               0
1.51485               -0.1926179       -19.42873        -51.44944        1.107067             -200               0             -200               0
1.52145               -0.1991074       -19.61372        -51.28837       -1.479679             -200               0             -200               0
1.52805               -0.2058614       -19.80046        -51.11596       -4.009209             -200               0             -200               0
1.53465               -0.2128759       -19.98892        -50.93102       -6.492999             -200               0             -200               0
1.54125               -0.2201415       -20.17907        -50.73269        -8.94366             -200               0             -200               0
1.54785               -0.2276509       -20.37088        -50.52039       -11.37456             -200               0             -200               0
1.55446               -0.2353922       -20.56438         -50.2939       -13.79941             -200               0             -200               0
1.56106               -0.2433545       -20.75959        -50.05334       -16.23178             -200               0             -200               0
1.56766               -0.2515278       -20.95656        -49.79915       -18.68471             -200               0             -200               0
1.57426               -0.2599014       -21.15535        -49.53206       -21.17026             -200               0             -200               0
1.58086               -0.2684642       -21.35606        -49.25309       -23.69921             -200               0             -200               0
1.58746               -0.2772085        -21.5588        -48.96342       -26.28082             -200               0             -200               0
1.59406               -0.2861271        -21.7637        -48.66442       -28.92263             -200               0             -200               0
1.60066               -0.2952145        -21.9709        -48.35751       -31.63047             -200               0             -200               0
1.60726               -0.3044693       -22.18057        -48.04421       -34.40843             -200               0             -200               0
1.61386               -0.3138936        -22.3929        -47.72597       -37.25897             -200               0             -200               0
1.62046               -0.3234909       -22.60807        -47.40425       -40.18308             -200               0             -200               0
1.62706               -0.3332704       -22.82627        -47.08041       -43.18041             -200               0             -200               0
1.63366               -0.3432441       -23.04772        -46.75571       -46.24948             -200               0             -200               0
1.64026               -0.3534282       -23.27259        -46.43131       -49.38785             -200               0             -200               0
1.64686               -0.3638424       -23.50111        -46.10825       -52.59235             -200               0             -200               0
1.65347               -0.3745113       -23.73345        -45.78744       -55.85918             -200               0             -200               0
1.66007                -0.385462       -23.96979        -45.46965       -59.18414             -200               0             -200               0
1.66667                -0.396726        -24.2103        -45.15555       -62.56268             -200               0             -200               0
1.67327               -0.4083379       -24.45513        -44.84569       -65.99008             -200               0             -200               0
1.67987                -0.420332       -24.70441        -44.54051       -69.46149             -200               0             -200               0
1.68647               -0.4327506       -24.95823        -44.24033       -72.97206             -200               0             -200               0
1.69307               -0.4456315        -25.2167        -43.94541       -76.51698             -200               0             -200               0
1.69967               -0.4590184       -25.47985        -43.65588       -80.09153             -200               0             -200               0
1.70627               -0.4729528       -25.74774        -43.37183        -83.6911             -200               0             -200               0
1.71287                -0.487476       -26.02036        -43.09325       -87.31129             -200               0             -200               0
1.71947                -0.502631        -26.2977        -42.82008       -90.94786             -200               0             -200               0
1.72607               -0.5184551       -26.57972        -42.55216       -94.59682             -200               0             -200               0
1.73267               -0.5349894       -26.86636        -42.28933        -98.2544             -200               0             -200               0
1.73927               -0.5522691       -27.15756        -42.03133       -101.9171             -200               0             -200               0
1.74587               -0.5703272       -27.45321        -41.77788       -105.5817             -200               0             -200               0
1.75248               -0.5891945       -27.75321        -41.52864       -109.2453             -200               0             -200               0
1.75908               -0.6088978       -28.05746        -41.28325       -112.9053             -200               0             -200               0
1.76568               -0.6294609       -28.36584         -41.0413       -116.5594             -200               0             -200               0
1.77228               -0.6509053       -28.67825        -40.80235       -120.2055             -200               0             -200               0
1.77888               -0.6732466       -28.99458        -40.56595       -123.8423             -200               0             -200               0
1.78548               -0.6964992       -29.31474        -40.33161       -127.4684             -200               0             -200               0
1.79208               -0.7206743       -29.63864        -40.09884       -131.0829             -200               0             -200               0
1.79868               -0.7457806       -29.96623        -39.86714       -134.6856             -200               0             -200               0
1.80528               -0.7718229       -30.29748          -39.636       -138.2762             -200               0             -200               0
1.81188               -0.7988074       -30.63237        -39.40492       -141.8552             -200               0             -200               0
1.81848               -0.8267387       -30.97093         -39.1734       -145.4234             -200               0             -200               0
1.82508               -0.8556205       -31.31321        -38.94098       -148.9819             -200               0             -200               0
1.83168               -0.8854582       -31.65929        -38.70721       -152.5323             -200               0             -200               0
1.83828                -0.916258        -32.0093        -38.47167       -156.0764             -200               0             -200               0
1.84488               -0.9480296       -32.36339        -38.23398       -159.6165             -200               0             -200               0
1.85149               -0.9807856       -32.72174         -37.9938       -163.1551             -200               0             -200               0
