! TOUCHSTONE file generated by CST MICROWAVE STUDIO
! Date and time: Sat Mar  8 13:55:45 2025
! Project name: non_fractured.cst
! Parameters = {B=2.5; D=160; F=5; Feed=2.85625; L=100; M=30; R=0.384908; S=1.5; Theta=90; length=57.125; wave=114.25}
! Header version: 2024
! Port assignment regex: !\s*Touchstone port\s*([0-9]+)\s*=\s*(CST MWS port|CST DES external port|CST DES block port)\s*(.+)\s* \(\"(.*)\"\)(\s*mode\s*([0-9]+))?.*
! Touchstone port assignment:
! Touchstone port 1 = CST MWS port 1 ("")
! Touchstone port 2 = CST MWS port 2 ("")
# GHz S DB R 50
1                    -0.01836718       -9.757356         -69.7926       -132.2392             -200               0             -200               0
1.0066               -0.01925247       -9.846829        -69.24347       -136.8084             -200               0             -200               0
1.0132               -0.02021229       -9.936587        -68.74148       -141.4439             -200               0             -200               0
1.0198               -0.02123848       -10.02658        -68.28319       -146.1242             -200               0             -200               0
1.0264               -0.02232157       -10.11676        -67.86566       -150.8316             -200               0             -200               0
1.033                 -0.0234523        -10.2071        -67.48643       -155.5507             -200               0             -200               0
1.0396               -0.02461845       -10.29758        -67.14336       -160.2683             -200               0             -200               0
1.0462               -0.02580906        -10.3882        -66.83465       -164.9722             -200               0             -200               0
1.05281               -0.0270122       -10.47896        -66.55873       -169.6512             -200               0             -200               0
1.05941              -0.02821495        -10.5699        -66.31426       -174.2946             -200               0             -200               0
1.06601              -0.02940671       -10.66104        -66.10006       -178.8921             -200               0             -200               0
1.07261               -0.0305763       -10.75243        -65.91509         176.567             -200               0             -200               0
1.07921              -0.03171533       -10.84415        -65.75841        172.0934             -200               0             -200               0
1.08581              -0.03281508       -10.93626        -65.62914        167.6984             -200               0             -200               0
1.09241              -0.03386915       -11.02884        -65.52645        163.3939             -200               0             -200               0
1.09901              -0.03487337       -11.12199        -65.44947        159.1927             -200               0             -200               0
1.10561              -0.03582548        -11.2158        -65.39732        155.1085             -200               0             -200               0
1.11221              -0.03672518       -11.31036        -65.36896        151.1564             -200               0             -200               0
1.11881               -0.0375742       -11.40578        -65.36323        147.3525             -200               0             -200               0
1.12541              -0.03837734       -11.50215        -65.37866        143.7146             -200               0             -200               0
1.13201              -0.03914066       -11.59956        -65.41348        140.2616             -200               0             -200               0
1.13861              -0.03987229       -11.69809        -65.46545        137.0136             -200               0             -200               0
1.14521              -0.04058225       -11.79783        -65.53173        133.9918             -200               0             -200               0
1.15182              -0.04128187       -11.89883        -65.60876        131.2173             -200               0             -200               0
1.15842              -0.04198488       -12.00114        -65.69211        128.7107             -200               0             -200               0
1.16502              -0.04270395       -12.10482        -65.77633          126.49             -200               0             -200               0
1.17162              -0.04345313       -12.20987        -65.85489         124.569             -200               0             -200               0
1.17822              -0.04424797       -12.31632        -65.92019        122.9544             -200               0             -200               0
1.18482              -0.04510147       -12.42416        -65.96373        121.6427             -200               0             -200               0
1.19142              -0.04602802       -12.53337        -65.97649        120.6173             -200               0             -200               0
1.19802              -0.04703997       -12.64392        -65.94948        119.8459             -200               0             -200               0
1.20462              -0.04814846       -12.75577        -65.87466        119.2799             -200               0             -200               0
1.21122              -0.04936402       -12.86886        -65.74574        118.8556             -200               0             -200               0
1.21782              -0.05069276       -12.98313        -65.55907        118.4984             -200               0             -200               0
1.22442              -0.05214278       -13.09851        -65.31409        118.1294             -200               0             -200               0
1.23102              -0.05371691       -13.21493        -65.01345        117.6724             -200               0             -200               0
1.23762              -0.05541671       -13.33232        -64.66253        117.0608             -200               0             -200               0
1.24422              -0.05724145       -13.45059        -64.26871        116.2423             -200               0             -200               0
1.25083              -0.05918751       -13.56969        -63.84048        115.1812             -200               0             -200               0
1.25743              -0.06125074       -13.68954        -63.38656        113.8574             -200               0             -200               0
1.26403              -0.06342316       -13.81009        -62.91525         112.265             -200               0             -200               0
1.27063              -0.06569479       -13.93131        -62.43399        110.4089             -200               0             -200               0
1.27723              -0.06805746       -14.05314        -61.94915        108.3018             -200               0             -200               0
1.28383               -0.0704975       -14.17558        -61.46599        105.9616             -200               0             -200               0
1.29043              -0.07300446       -14.29862        -60.98871        103.4088             -200               0             -200               0
1.29703              -0.07556238       -14.42229        -60.52057         100.665             -200               0             -200               0
1.30363               -0.0781615        -14.5466        -60.06401        97.75195             -200               0             -200               0
1.31023              -0.08078826        -14.6716        -59.62084        94.69064             -200               0             -200               0
1.31683              -0.08343043       -14.79736        -59.19231        91.50089             -200               0             -200               0
1.32343              -0.08607769       -14.92395        -58.77923        88.20118             -200               0             -200               0
1.33003              -0.08872283       -15.05147         -58.3821        84.80858             -200               0             -200               0
1.33663              -0.09135595       -15.18002        -58.00115        81.33877             -200               0             -200               0
1.34323              -0.09397451       -15.30972        -57.63638        77.80614             -200               0             -200               0
1.34984              -0.09657477       -15.44067        -57.28765        74.22387             -200               0             -200               0
1.35644              -0.09915795       -15.57302        -56.95467        70.60405             -200               0             -200               0
1.36304               -0.1017262       -15.70689        -56.63706        66.95781             -200               0             -200               0
1.36964               -0.1042844       -15.84239        -56.33435         63.2954             -200               0             -200               0
1.37624               -0.1068412       -15.97967          -56.046        59.62629             -200               0             -200               0
1.38284               -0.1094069       -16.11884        -55.77138        55.95926             -200               0             -200               0
1.38944               -0.1119946          -16.26        -55.50982        52.30248             -200               0             -200               0
1.39604               -0.1146184       -16.40325        -55.26059        48.66351             -200               0             -200               0
1.40264               -0.1172953       -16.54868         -55.0229        45.04938             -200               0             -200               0
1.40924                -0.120042       -16.69636         -54.7959         41.4666             -200               0             -200               0
1.41584               -0.1228799       -16.84635        -54.57867        37.92113             -200               0             -200               0
1.42244               -0.1258259       -16.99867        -54.37026        34.41841             -200               0             -200               0
1.42904               -0.1289012       -17.15335        -54.16962         30.9633             -200               0             -200               0
1.43564               -0.1321237        -17.3104        -53.97567        27.56004             -200               0             -200               0
1.44224               -0.1355126        -17.4698        -53.78725        24.21222             -200               0             -200               0
1.44884                -0.139085       -17.63152        -53.60316        20.92267             -200               0             -200               0
1.45545               -0.1428569       -17.79553        -53.42214        17.69342             -200               0             -200               0
1.46205                -0.146842       -17.96177        -53.24288         14.5256             -200               0             -200               0
1.46865               -0.1510512       -18.13019        -53.06408        11.41936             -200               0             -200               0
1.47525                -0.155494       -18.30071        -52.88439        8.373819             -200               0             -200               0
1.48185               -0.1601776       -18.47326         -52.7025        5.387006             -200               0             -200               0
1.48845               -0.1651068       -18.64779        -52.51712        2.455801             -200               0             -200               0
1.49505               -0.1702818        -18.8242        -52.32702      -0.4240362             -200               0             -200               0
1.50165               -0.1757022       -19.00246        -52.13108       -3.257849             -200               0             -200               0
1.50825               -0.1813645       -19.18249        -51.92828       -6.052002             -200               0             -200               0
1.51485               -0.1872629       -19.36427        -51.71775       -8.813768             -200               0             -200               0
1.52145               -0.1933903       -19.54776        -51.49881       -11.55116             -200               0             -200               0
1.52805               -0.1997378       -19.73296        -51.27094       -14.27275             -200               0             -200               0
1.53465               -0.2062939       -19.91986        -51.03386       -16.98742             -200               0             -200               0
1.54125               -0.2130502        -20.1085        -50.78746       -19.70414             -200               0             -200               0
1.54785               -0.2199948       -20.29893        -50.53185       -22.43172             -200               0             -200               0
1.55446                -0.227118       -20.49122        -50.26736       -25.17857             -200               0             -200               0
1.56106               -0.2344098       -20.68545        -49.99446       -27.95251             -200               0             -200               0
1.56766               -0.2418614       -20.88174         -49.7138       -30.76059             -200               0             -200               0
1.57426               -0.2494671       -21.08022        -49.42614       -33.60892             -200               0             -200               0
1.58086               -0.2572238       -21.28102        -49.13234       -36.50266             -200               0             -200               0
1.58746               -0.2651295       -21.48432        -48.83334       -39.44589             -200               0             -200               0
1.59406               -0.2731874       -21.69029        -48.53011       -42.44167             -200               0             -200               0
1.60066               -0.2814018        -21.8991        -48.22363       -45.49204             -200               0             -200               0
1.60726                -0.289782       -22.11095        -47.91486       -48.59808             -200               0             -200               0
1.61386               -0.2983412       -22.32602        -47.60476          -51.76             -200               0             -200               0
1.62046               -0.3070961       -22.54451         -47.2942       -54.97723             -200               0             -200               0
1.62706               -0.3160667       -22.76659        -46.98402       -58.24851             -200               0             -200               0
1.63366               -0.3252768       -22.99245        -46.67498       -61.57201             -200               0             -200               0
1.64026               -0.3347547       -23.22224        -46.36777        -64.9454             -200               0             -200               0
1.64686               -0.3445297       -23.45612        -46.06301       -68.36597             -200               0             -200               0
1.65347                -0.354634       -23.69421        -45.76122       -71.83071             -200               0             -200               0
1.66007                -0.365105       -23.93662        -45.46286       -75.33637             -200               0             -200               0
1.66667               -0.3759785       -24.18345        -45.16833       -78.87954             -200               0             -200               0
1.67327               -0.3872915       -24.43476        -44.87791       -82.45674             -200               0             -200               0
1.67987               -0.3990851        -24.6906        -44.59186        -86.0644             -200               0             -200               0
1.68647               -0.4113971       -24.95098        -44.31035       -89.69897             -200               0             -200               0
1.69307               -0.4242661        -25.2159        -44.03348       -93.35693             -200               0             -200               0
1.69967               -0.4377292       -25.48533        -43.76131       -97.03482             -200               0             -200               0
1.70627               -0.4518231       -25.75924        -43.49384       -100.7293             -200               0             -200               0
1.71287               -0.4665818       -26.03755        -43.23102       -104.4371             -200               0             -200               0
1.71947               -0.4820366       -26.32021        -42.97274       -108.1552             -200               0             -200               0
1.72607               -0.4982158       -26.60711        -42.71887       -111.8805             -200               0             -200               0
1.73267               -0.5151461       -26.89818         -42.4692       -115.6105             -200               0             -200               0
1.73927                -0.532852       -27.19329        -42.22352       -119.3424             -200               0             -200               0
1.74587               -0.5513512       -27.49237        -41.98158       -123.0739             -200               0             -200               0
1.75248               -0.5706623       -27.79531        -41.74307        -126.803             -200               0             -200               0
1.75908               -0.5907988       -28.10203        -41.50767       -130.5277             -200               0             -200               0
1.76568               -0.6117722       -28.41247        -41.27505       -134.2465             -200               0             -200               0
1.77228               -0.6335916       -28.72656        -41.04483       -137.9579             -200               0             -200               0
1.77888               -0.6562636       -29.04428        -40.81663       -141.6609             -200               0             -200               0
1.78548               -0.6797953        -29.3656        -40.59004       -145.3548             -200               0             -200               0
1.79208               -0.7041922       -29.69054        -40.36466        -149.039             -200               0             -200               0
1.79868                -0.729458       -30.01914        -40.14008       -152.7135             -200               0             -200               0
1.80528               -0.7556005       -30.35147        -39.91588       -156.3783             -200               0             -200               0
1.81188               -0.7826262       -30.68762        -39.69165        -160.034             -200               0             -200               0
1.81848               -0.8105443       -31.02772        -39.46699       -163.6813             -200               0             -200               0
1.82508               -0.8393677       -31.37192        -39.24152       -167.3213             -200               0             -200               0
1.83168               -0.8691128        -31.7204        -39.01488       -170.9556             -200               0             -200               0
1.83828                  -0.8998       -32.07337        -38.78672       -174.5856             -200               0             -200               0
1.84488               -0.9314551       -32.43104        -38.55676       -178.2134             -200               0             -200               0
1.85149               -0.9641107       -32.79366        -38.32472        178.1588             -200               0             -200               0
