! TOUCHSTONE file generated by CST MICROWAVE STUDIO
! Date and time: Sat Mar  8 13:55:02 2025
! Project name: non_fractured.cst
! Parameters = {B=2.5; D=160; F=25; Feed=2.85625; L=100; M=10; R=0.384908; S=1.5; Theta=0; length=57.125; wave=114.25}
! Header version: 2024
! Port assignment regex: !\s*Touchstone port\s*([0-9]+)\s*=\s*(CST MWS port|CST DES external port|CST DES block port)\s*(.+)\s* \(\"(.*)\"\)(\s*mode\s*([0-9]+))?.*
! Touchstone port assignment:
! Touchstone port 1 = CST MWS port 1 ("")
! Touchstone port 2 = CST MWS port 2 ("")
# GHz S DB R 50
1                    -0.01958551       -9.740515        -68.98965       -150.3119             -200               0             -200               0
1.0066               -0.02029242       -9.827742        -68.76178       -153.7166             -200               0             -200               0
1.0132               -0.02101435       -9.915488        -68.54974       -157.0783             -200               0             -200               0
1.0198               -0.02175011       -10.00377        -68.35251       -160.3867             -200               0             -200               0
1.0264               -0.02249888       -10.09259        -68.16895       -163.6319             -200               0             -200               0
1.033                -0.02326032       -10.18198        -67.99778       -166.8044             -200               0             -200               0
1.0396               -0.02403348       -10.27196        -67.83761       -169.8952             -200               0             -200               0
1.0462                 -0.024819       -10.36255        -67.68686       -172.8959             -200               0             -200               0
1.05281              -0.02561586       -10.45377        -67.54376       -175.7987             -200               0             -200               0
1.05941               -0.0264272       -10.54565        -67.40638        -178.597             -200               0             -200               0
1.06601              -0.02725251       -10.63819        -67.27258        178.7148             -200               0             -200               0
1.07261              -0.02809436       -10.73144        -67.14004        176.1406             -200               0             -200               0
1.07921              -0.02895334        -10.8254        -67.00628        173.6826             -200               0             -200               0
1.08581              -0.02983202        -10.9201        -66.86866        171.3406             -200               0             -200               0
1.09241              -0.03073257       -11.01555        -66.72448        169.1117             -200               0             -200               0
1.09901              -0.03165772       -11.11177        -66.57102        166.9904             -200               0             -200               0
1.10561              -0.03261075       -11.20878        -66.40561        164.9679             -200               0             -200               0
1.11221              -0.03359344       -11.30658        -66.22579        163.0322             -200               0             -200               0
1.11881              -0.03460967       -11.40519        -66.02936        161.1684             -200               0             -200               0
1.12541              -0.03566146       -11.50461        -65.81456         159.359             -200               0             -200               0
1.13201              -0.03675274       -11.60484        -65.58006        157.5843             -200               0             -200               0
1.13861              -0.03788515       -11.70589        -65.32515        155.8233             -200               0             -200               0
1.14521              -0.03906177       -11.80775        -65.04969        154.0546             -200               0             -200               0
1.15182              -0.04028423       -11.91043        -64.75414        152.2573             -200               0             -200               0
1.15842              -0.04155317       -12.01392        -64.43953        150.4116             -200               0             -200               0
1.16502              -0.04287349       -12.11822        -64.10734        148.5001             -200               0             -200               0
1.17162               -0.0442426       -12.22332        -63.75947        146.5077             -200               0             -200               0
1.17822              -0.04566232       -12.32922        -63.39807        144.4225             -200               0             -200               0
1.18482              -0.04713221       -12.43591        -63.02545        142.2354             -200               0             -200               0
1.19142              -0.04865181        -12.5434        -62.64399        139.9405             -200               0             -200               0
1.19802              -0.05022167       -12.65167        -62.25603        137.5345             -200               0             -200               0
1.20462              -0.05183862       -12.76073        -61.86381        135.0167             -200               0             -200               0
1.21122              -0.05350291       -12.87059        -61.46942        132.3884             -200               0             -200               0
1.21782              -0.05521124       -12.98125        -61.07475        129.6525             -200               0             -200               0
1.22442              -0.05696265       -13.09272        -60.68151        126.8134             -200               0             -200               0
1.23102              -0.05875445       -13.20501        -60.29119        123.8765             -200               0             -200               0
1.23762              -0.06058493       -13.31814        -59.90508        120.8476             -200               0             -200               0
1.24422              -0.06245104       -13.43214        -59.52427        117.7333             -200               0             -200               0
1.25083              -0.06435127       -13.54702        -59.14967        114.5402             -200               0             -200               0
1.25743               -0.0662844       -13.66281        -58.78204        111.2753             -200               0             -200               0
1.26403              -0.06824846       -13.77956        -58.42196        107.9453             -200               0             -200               0
1.27063              -0.07024136       -13.89729         -58.0699        104.5569             -200               0             -200               0
1.27723              -0.07226529       -14.01604        -57.72623        101.1166             -200               0             -200               0
1.28383               -0.0743172       -14.13585        -57.39119        97.63065             -200               0             -200               0
1.29043              -0.07639825       -14.25677        -57.06493        94.10513             -200               0             -200               0
1.29703              -0.07851139       -14.37885        -56.74755        90.54583             -200               0             -200               0
1.30363              -0.08065644       -14.50212        -56.43904        86.95823             -200               0             -200               0
1.31023              -0.08283599       -14.62663        -56.13937        83.34759             -200               0             -200               0
1.31683              -0.08505493       -14.75243        -55.84843        79.71887             -200               0             -200               0
1.32343              -0.08731508       -14.87956        -55.56608        76.07678             -200               0             -200               0
1.33003              -0.08962178       -15.00806        -55.29213        72.42576             -200               0             -200               0
1.33663               -0.0919793       -15.13797        -55.02634        68.77002             -200               0             -200               0
1.34323              -0.09439209       -15.26933        -54.76845        65.11349             -200               0             -200               0
1.34984              -0.09686716       -15.40217        -54.51816         61.4599             -200               0             -200               0
1.35644              -0.09940904       -15.53653        -54.27516        57.81272             -200               0             -200               0
1.36304               -0.1020251       -15.67242        -54.03908        54.17516             -200               0             -200               0
1.36964               -0.1047207       -15.80987        -53.80954        50.55024             -200               0             -200               0
1.37624               -0.1075019        -15.9489        -53.58615        46.94069             -200               0             -200               0
1.38284               -0.1103748       -16.08953        -53.36846        43.34903             -200               0             -200               0
1.38944               -0.1133447       -16.23176        -53.15605        39.77751             -200               0             -200               0
1.39604               -0.1164164       -16.37561        -52.94843        36.22812             -200               0             -200               0
1.40264               -0.1195959       -16.52108        -52.74511        32.70258             -200               0             -200               0
1.40924               -0.1228858       -16.66819        -52.54561        29.20233             -200               0             -200               0
1.41584               -0.1262919       -16.81692        -52.34941        25.72852             -200               0             -200               0
1.42244               -0.1298172       -16.96729        -52.15599        22.28199             -200               0             -200               0
1.42904               -0.1334621        -17.1193        -51.96482        18.86328             -200               0             -200               0
1.43564               -0.1372311       -17.27297        -51.77537         15.4726             -200               0             -200               0
1.44224               -0.1411236       -17.42829        -51.58712        12.10983             -200               0             -200               0
1.44884               -0.1451399       -17.58528        -51.39954        8.774524             -200               0             -200               0
1.45545               -0.1492839       -17.74396        -51.21214        5.465919             -200               0             -200               0
1.46205               -0.1535517       -17.90434        -51.02443        2.182916             -200               0             -200               0
1.46865               -0.1579451       -18.06646        -50.83595       -1.075889             -200               0             -200               0
1.47525               -0.1624618       -18.23033        -50.64627       -4.312193             -200               0             -200               0
1.48185               -0.1671026       -18.39601        -50.45498       -7.527967             -200               0             -200               0
1.48845               -0.1718653       -18.56353        -50.26173       -10.72543             -200               0             -200               0
1.49505               -0.1767522       -18.73294        -50.06621       -13.90699             -200               0             -200               0
1.50165               -0.1817605        -18.9043        -49.86815       -17.07527             -200               0             -200               0
1.50825               -0.1868924       -19.07768        -49.66735       -20.23297             -200               0             -200               0
1.51485               -0.1921483       -19.25313        -49.46363       -23.38291             -200               0             -200               0
1.52145               -0.1975299       -19.43075        -49.25689       -26.52794             -200               0             -200               0
1.52805               -0.2030402        -19.6106        -49.04708       -29.67089             -200               0             -200               0
1.53465                -0.208682       -19.79277        -48.83418       -32.81454             -200               0             -200               0
1.54125               -0.2144613       -19.97735        -48.61825       -35.96158             -200               0             -200               0
1.54785               -0.2203837       -20.16443        -48.39938       -39.11453             -200               0             -200               0
1.55446               -0.2264567        -20.3541         -48.1777       -42.27576             -200               0             -200               0
1.56106               -0.2326877       -20.54645        -47.95337       -45.44743             -200               0             -200               0
1.56766               -0.2390868       -20.74159         -47.7266       -48.63147             -200               0             -200               0
1.57426               -0.2456646       -20.93959        -47.49761       -51.82955             -200               0             -200               0
1.58086               -0.2524327       -21.14057        -47.26664        -55.0431             -200               0             -200               0
1.58746               -0.2594041       -21.34459        -47.03394       -58.27329             -200               0             -200               0
1.59406                -0.266594       -21.55175        -46.79978         -61.521             -200               0             -200               0
1.60066               -0.2740137       -21.76213        -46.56441        -64.7869             -200               0             -200               0
1.60726               -0.2816822       -21.97581         -46.3281       -68.07137             -200               0             -200               0
1.61386               -0.2896147       -22.19287         -46.0911       -71.37459             -200               0             -200               0
1.62046               -0.2978281       -22.41337        -45.85364       -74.69653             -200               0             -200               0
1.62706               -0.3063392       -22.63737        -45.61595       -78.03695             -200               0             -200               0
1.63366               -0.3151669       -22.86494        -45.37823       -81.39548             -200               0             -200               0
1.64026               -0.3243273       -23.09614        -45.14067       -84.77156             -200               0             -200               0
1.64686               -0.3338379       -23.33101        -44.90342       -88.16453             -200               0             -200               0
1.65347               -0.3437187       -23.56962        -44.66662       -91.57365             -200               0             -200               0
1.66007               -0.3539854         -23.812        -44.43039       -94.99809             -200               0             -200               0
1.66667               -0.3646572       -24.05822        -44.19481       -98.43698             -200               0             -200               0
1.67327               -0.3757509        -24.3083        -43.95995       -101.8894             -200               0             -200               0
1.67987               -0.3872837       -24.56231        -43.72584       -105.3545             -200               0             -200               0
1.68647               -0.3992736       -24.82029        -43.49249       -108.8313             -200               0             -200               0
1.69307               -0.4117384        -25.0823         -43.2599        -112.319             -200               0             -200               0
1.69967               -0.4246945       -25.34839        -43.02804       -115.8168             -200               0             -200               0
1.70627               -0.4381621       -25.61863        -42.79686        -119.324             -200               0             -200               0
1.71287               -0.4521564       -25.89308         -42.5663       -122.8399             -200               0             -200               0
1.71947               -0.4666986       -26.17182        -42.33627        -126.364             -200               0             -200               0
1.72607                -0.481807       -26.45491        -42.10667       -129.8957             -200               0             -200               0
1.73267               -0.4975028       -26.74245        -41.87741       -133.4349             -200               0             -200               0
1.73927               -0.5138067       -27.03452        -41.64836       -136.9812             -200               0             -200               0
1.74587               -0.5307429       -27.33123        -41.41941       -140.5346             -200               0             -200               0
1.75248               -0.5483354       -27.63267        -41.19043       -144.0952             -200               0             -200               0
1.75908               -0.5666111       -27.93896         -40.9613       -147.6631             -200               0             -200               0
1.76568               -0.5855996        -28.2502        -40.73188       -151.2387             -200               0             -200               0
1.77228               -0.6053299       -28.56651        -40.50207       -154.8223             -200               0             -200               0
1.77888               -0.6258383         -28.888        -40.27175       -158.4147             -200               0             -200               0
1.78548               -0.6471587        -29.2148        -40.04082       -162.0164             -200               0             -200               0
1.79208               -0.6693307       -29.54701        -39.80918       -165.6282             -200               0             -200               0
1.79868               -0.6923955       -29.88475        -39.57676       -169.2512             -200               0             -200               0
1.80528               -0.7163988       -30.22812        -39.34349       -172.8861             -200               0             -200               0
1.81188               -0.7413874       -30.57723        -39.10933       -176.5342             -200               0             -200               0
1.81848               -0.7674131       -30.93217        -38.87424        179.8034             -200               0             -200               0
1.82508                -0.794527       -31.29301        -38.63822        176.1257             -200               0             -200               0
1.83168               -0.8227869       -31.65983        -38.40127        172.4314             -200               0             -200               0
1.83828               -0.8522518       -32.03267        -38.16342        168.7192             -200               0             -200               0
1.84488               -0.8829838       -32.41159        -37.92473        164.9881             -200               0             -200               0
1.85149               -0.9150451       -32.79659        -37.68525        161.2368             -200               0             -200               0
