! TOUCHSTONE file generated by CST MICROWAVE STUDIO
! Date and time: Sat Mar  8 13:54:29 2025
! Project name: non_fractured.cst
! Parameters = {B=2.5; D=160; F=25; Feed=2.85625; L=100; M=5; R=0.384908; S=2; Theta=0; length=57.125; wave=114.25}
! Header version: 2024
! Port assignment regex: !\s*Touchstone port\s*([0-9]+)\s*=\s*(CST MWS port|CST DES external port|CST DES block port)\s*(.+)\s* \(\"(.*)\"\)(\s*mode\s*([0-9]+))?.*
! Touchstone port assignment:
! Touchstone port 1 = CST MWS port 1 ("")
! Touchstone port 2 = CST MWS port 2 ("")
# GHz S DB R 50
1                    -0.01835138       -9.742928         -68.4581       -149.3808             -200               0             -200               0
1.0066               -0.01911429       -9.831615         -68.1489       -152.5586             -200               0             -200               0
1.0132               -0.01992972       -9.920732        -67.85147       -155.7862             -200               0             -200               0
1.0198               -0.02079497       -10.01025        -67.56615       -159.0537             -200               0             -200               0
1.0264               -0.02170579       -10.10016        -67.29316       -162.3516             -200               0             -200               0
1.033                -0.02265709       -10.19042        -67.03258       -165.6707             -200               0             -200               0
1.0396               -0.02364266       -10.28104        -66.78437       -169.0023             -200               0             -200               0
1.0462                -0.0246549       -10.37201        -66.54839       -172.3379             -200               0             -200               0
1.05281              -0.02568934       -10.46334        -66.32442       -175.6691             -200               0             -200               0
1.05941              -0.02673895       -10.55504        -66.11212        -178.988             -200               0             -200               0
1.06601              -0.02779765       -10.64712        -65.91108        177.7129             -200               0             -200               0
1.07261              -0.02885848       -10.73964         -65.7208         174.441             -200               0             -200               0
1.07921              -0.02991589       -10.83261        -65.54068        171.2034             -200               0             -200               0
1.08581               -0.0309672       -10.92608        -65.37005        168.0068             -200               0             -200               0
1.09241              -0.03200805        -11.0201        -65.20813        164.8576             -200               0             -200               0
1.09901              -0.03303533       -11.11472        -65.05405        161.7619             -200               0             -200               0
1.10561              -0.03404848          -11.21        -64.90685        158.7251             -200               0             -200               0
1.11221              -0.03504636         -11.306        -64.76545        155.7523             -200               0             -200               0
1.11881              -0.03603184       -11.40278        -64.62869         152.848             -200               0             -200               0
1.12541              -0.03700467        -11.5004        -64.49529        150.0157             -200               0             -200               0
1.13201              -0.03796998        -11.5989        -64.36392        147.2584             -200               0             -200               0
1.13861              -0.03893223       -11.69835        -64.23312        144.5777             -200               0             -200               0
1.14521               -0.0398977       -11.79879        -64.10139        141.9745             -200               0             -200               0
1.15182              -0.04087226       -11.90027        -63.96717         139.448             -200               0             -200               0
1.15842               -0.0418636       -12.00281        -63.82891        136.9964             -200               0             -200               0
1.16502              -0.04287946       -12.10646        -63.68503        134.6162             -200               0             -200               0
1.17162              -0.04392847       -12.21122        -63.53405        132.3025             -200               0             -200               0
1.17822              -0.04501846       -12.31712        -63.37455        130.0489             -200               0             -200               0
1.18482              -0.04615861       -12.42415        -63.20525        127.8475             -200               0             -200               0
1.19142              -0.04735613       -12.53232        -63.02508        125.6891             -200               0             -200               0
1.19802               -0.0486197        -12.6416        -62.83315        123.5636             -200               0             -200               0
1.20462              -0.04995553       -12.75199        -62.62884        121.4599             -200               0             -200               0
1.21122              -0.05136911       -12.86345        -62.41181        119.3665             -200               0             -200               0
1.21782              -0.05286652       -12.97595        -62.18197        117.2719             -200               0             -200               0
1.22442               -0.0544509       -13.08947        -61.93955        115.1646             -200               0             -200               0
1.23102              -0.05612451       -13.20397        -61.68501        113.0338             -200               0             -200               0
1.23762              -0.05788957       -13.31941        -61.41904        110.8696             -200               0             -200               0
1.24422              -0.05974469       -13.43574        -61.14254        108.6632             -200               0             -200               0
1.25083              -0.06168949       -13.55295        -60.85659        106.4069             -200               0             -200               0
1.25743               -0.0637207       -13.67099        -60.56233        104.0947             -200               0             -200               0
1.26403              -0.06583511       -13.78985        -60.26102        101.7218             -200               0             -200               0
1.27063              -0.06802598       -13.90949        -59.95391         99.2848             -200               0             -200               0
1.27723              -0.07028936       -14.02991        -59.64228        96.78174             -200               0             -200               0
1.28383              -0.07261702       -14.15111        -59.32734        94.21177             -200               0             -200               0
1.29043              -0.07500263       -14.27309        -59.01026        91.57515             -200               0             -200               0
1.29703              -0.07743913       -14.39587        -58.69212        88.87303             -200               0             -200               0
1.30363              -0.07991853       -14.51946        -58.37391        86.10736             -200               0             -200               0
1.31023              -0.08243441       -14.64392        -58.05652        83.28069             -200               0             -200               0
1.31683              -0.08497892       -14.76929        -57.74074        80.39609             -200               0             -200               0
1.32343              -0.08754726       -14.89561        -57.42727        77.45695             -200               0             -200               0
1.33003              -0.09013297       -15.02296        -57.11669        74.46696             -200               0             -200               0
1.33663              -0.09273277       -15.15141         -56.8095        71.42992             -200               0             -200               0
1.34323              -0.09534481       -15.28104         -56.5061        68.34977             -200               0             -200               0
1.34984              -0.09796588       -15.41192        -56.20681         65.2304             -200               0             -200               0
1.35644               -0.1005981       -15.54416        -55.91187         62.0757             -200               0             -200               0
1.36304               -0.1032429       -15.67783        -55.62146        58.88945             -200               0             -200               0
1.36964               -0.1059032       -15.81303         -55.3357        55.67533             -200               0             -200               0
1.37624               -0.1085846       -15.94985        -55.05462        52.43685             -200               0             -200               0
1.38284               -0.1112949       -16.08837        -54.77825        49.17735             -200               0             -200               0
1.38944               -0.1140415       -16.22867        -54.50653        45.89998             -200               0             -200               0
1.39604               -0.1168341       -16.37084        -54.23938        42.60771             -200               0             -200               0
1.40264               -0.1196831       -16.51493        -53.97668        39.30327             -200               0             -200               0
1.40924               -0.1226011         -16.661         -53.7183        35.98918             -200               0             -200               0
1.41584               -0.1255997       -16.80912        -53.46404        32.66777             -200               0             -200               0
1.42244               -0.1286931       -16.95931        -53.21373         29.3411             -200               0             -200               0
1.42904               -0.1318925        -17.1116        -52.96715        26.01105             -200               0             -200               0
1.43564               -0.1352125       -17.26603        -52.72407        22.67926             -200               0             -200               0
1.44224               -0.1386654        -17.4226        -52.48425        19.34713             -200               0             -200               0
1.44884               -0.1422621        -17.5813        -52.24745        16.01589             -200               0             -200               0
1.45545               -0.1460163       -17.74215        -52.01343        12.68653             -200               0             -200               0
1.46205               -0.1499364       -17.90511        -51.78193        9.359848             -200               0             -200               0
1.46865                -0.154032       -18.07018         -51.5527        6.036446             -200               0             -200               0
1.47525               -0.1583108       -18.23733        -51.32552         2.71674             -200               0             -200               0
1.48185               -0.1627789       -18.40653        -51.10013      -0.5990282             -200               0             -200               0
1.48845               -0.1674408       -18.57777        -50.87631       -3.910776             -200               0             -200               0
1.49505               -0.1722999       -18.75102        -50.65386       -7.218575             -200               0             -200               0
1.50165               -0.1773573       -18.92625        -50.43257       -10.52263             -200               0             -200               0
1.50825                -0.182614       -19.10347        -50.21226       -13.82325             -200               0             -200               0
1.51485               -0.1880681       -19.28265        -49.99277       -17.12087             -200               0             -200               0
1.52145               -0.1937177       -19.46381        -49.77393       -20.41598             -200               0             -200               0
1.52805               -0.1995598       -19.64696        -49.55562       -23.70918             -200               0             -200               0
1.53465                -0.205591       -19.83212        -49.33773       -27.00107             -200               0             -200               0
1.54125               -0.2118068       -20.01933        -49.12016       -30.29232             -200               0             -200               0
1.54785               -0.2182031       -20.20865        -48.90284       -33.58358             -200               0             -200               0
1.55446               -0.2247767       -20.40013         -48.6857       -36.87552             -200               0             -200               0
1.56106               -0.2315243       -20.59386        -48.46872       -40.16881             -200               0             -200               0
1.56766                -0.238443       -20.78993        -48.25186       -43.46403             -200               0             -200               0
1.57426                -0.245534       -20.98846        -48.03511       -46.76178             -200               0             -200               0
1.58086               -0.2527966       -21.18955        -47.81847       -50.06255             -200               0             -200               0
1.58746               -0.2602346       -21.39334        -47.60196       -53.36681             -200               0             -200               0
1.59406               -0.2678521       -21.59996        -47.38558       -56.67492             -200               0             -200               0
1.60066               -0.2756569       -21.80955        -47.16938       -59.98719             -200               0             -200               0
1.60726               -0.2836585       -22.02227        -46.95337       -63.30383             -200               0             -200               0
1.61386               -0.2918709       -22.23826        -46.73759       -66.62499             -200               0             -200               0
1.62046               -0.3003072       -22.45768        -46.52207       -69.95071             -200               0             -200               0
1.62706                -0.308988       -22.68068        -46.30684       -73.28099             -200               0             -200               0
1.63366               -0.3179325        -22.9074        -46.09192       -76.61573             -200               0             -200               0
1.64026               -0.3271639       -23.13797        -45.87734       -79.95476             -200               0             -200               0
1.64686               -0.3367077       -23.37253        -45.66309       -83.29788             -200               0             -200               0
1.65347               -0.3465931        -23.6112        -45.44919       -86.64481             -200               0             -200               0
1.66007               -0.3568493       -23.85407        -45.23563       -89.99525             -200               0             -200               0
1.66667               -0.3675069       -24.10123        -45.02238       -93.34887             -200               0             -200               0
1.67327               -0.3785999       -24.35277        -44.80942       -96.70532             -200               0             -200               0
1.67987               -0.3901608       -24.60874        -44.59669       -100.0642             -200               0             -200               0
1.68647               -0.4022239       -24.86918        -44.38414       -103.4253             -200               0             -200               0
1.69307               -0.4148243       -25.13412        -44.17171       -106.7882             -200               0             -200               0
1.69967               -0.4279976       -25.40357        -43.95929       -110.1526             -200               0             -200               0
1.70627               -0.4417745       -25.67753        -43.74681       -113.5183             -200               0             -200               0
1.71287               -0.4561891       -25.95597        -43.53415       -116.8852             -200               0             -200               0
1.71947               -0.4712747       -26.23887        -43.32119       -120.2532             -200               0             -200               0
1.72607                -0.487061       -26.52618        -43.10781       -123.6221             -200               0             -200               0
1.73267               -0.5035762       -26.81786        -42.89388       -126.9922             -200               0             -200               0
1.73927               -0.5208484       -27.11386        -42.67924       -130.3637             -200               0             -200               0
1.74587               -0.5389028       -27.41412        -42.46377       -133.7368             -200               0             -200               0
1.75248               -0.5577633       -27.71857        -42.24732        -137.112             -200               0             -200               0
1.75908               -0.5774516       -28.02717        -42.02973       -140.4898             -200               0             -200               0
1.76568               -0.5979881       -28.33988        -41.81087       -143.8709             -200               0             -200               0
1.77228               -0.6193924       -28.65663        -41.59061       -147.2562             -200               0             -200               0
1.77888               -0.6416812        -28.9774        -41.36882       -150.6464             -200               0             -200               0
1.78548               -0.6648724       -29.30218        -41.14538       -154.0427             -200               0             -200               0
1.79208               -0.6889823       -29.63096        -40.92018       -157.4463             -200               0             -200               0
1.79868                -0.714026       -29.96374        -40.69315       -160.8583             -200               0             -200               0
1.80528               -0.7400209       -30.30055         -40.4642       -164.2801             -200               0             -200               0
1.81188               -0.7669849       -30.64144        -40.23328       -167.7131             -200               0             -200               0
1.81848               -0.7949355       -30.98647        -40.00036       -171.1588             -200               0             -200               0
1.82508               -0.8238939       -31.33571        -39.76544       -174.6187             -200               0             -200               0
1.83168               -0.8538838       -31.68926        -39.52852       -178.0944             -200               0             -200               0
1.83828               -0.8849302       -32.04724        -39.28963        178.4127             -200               0             -200               0
1.84488               -0.9170631       -32.40977        -39.04883        174.9008             -200               0             -200               0
1.85149               -0.9503145       -32.77698         -38.8062        171.3686             -200               0             -200               0
