! TOUCHSTONE file generated by CST MICROWAVE STUDIO
! Date and time: Sat Mar  8 13:55:23 2025
! Project name: non_fractured.cst
! Parameters = {B=2.5; D=160; F=15; Feed=2.85625; L=100; M=20; R=0.384908; S=2; Theta=0; length=57.125; wave=114.25}
! Header version: 2024
! Port assignment regex: !\s*Touchstone port\s*([0-9]+)\s*=\s*(CST MWS port|CST DES external port|CST DES block port)\s*(.+)\s* \(\"(.*)\"\)(\s*mode\s*([0-9]+))?.*
! Touchstone port assignment:
! Touchstone port 1 = CST MWS port 1 ("")
! Touchstone port 2 = CST MWS port 2 ("")
# GHz S DB R 50
1                     -0.0189407       -9.742554        -68.67388       -145.7402             -200               0             -200               0
1.00658              -0.01973661       -9.830397        -68.44109       -149.6145             -200               0             -200               0
1.01316              -0.02057177        -9.91863        -68.22804        -153.431             -200               0             -200               0
1.01974              -0.02144264       -10.00724        -68.03355         -157.18             -200               0             -200               0
1.02632              -0.02234392       -10.09622         -67.8564       -160.8524             -200               0             -200               0
1.03289              -0.02327017       -10.18557        -67.69526       -164.4389             -200               0             -200               0
1.03947              -0.02421627        -10.2753        -67.54872       -167.9303             -200               0             -200               0
1.04605              -0.02517635       -10.36541         -67.4152       -171.3179             -200               0             -200               0
1.05263               -0.0261454       -10.45593        -67.29297        -174.593             -200               0             -200               0
1.05921              -0.02711767       -10.54688        -67.18012       -177.7476             -200               0             -200               0
1.06579              -0.02808981        -10.6383        -67.07449        179.2254             -200               0             -200               0
1.07237              -0.02905728       -10.73022        -66.97375        176.3322             -200               0             -200               0
1.07895              -0.03001634       -10.82268        -66.87528        173.5773             -200               0             -200               0
1.08553              -0.03096576       -10.91574        -66.77627        170.9635             -200               0             -200               0
1.09211              -0.03190468       -11.00945        -66.67373        168.4908             -200               0             -200               0
1.09868              -0.03283165       -11.10384        -66.56451        166.1567             -200               0             -200               0
1.10526              -0.03374879       -11.19899        -66.44541        163.9549             -200               0             -200               0
1.11184              -0.03465721       -11.29493        -66.31331        161.8758             -200               0             -200               0
1.11842              -0.03556004       -11.39172        -66.16523        159.9056             -200               0             -200               0
1.125                -0.03646204       -11.48941        -65.99852        158.0269             -200               0             -200               0
1.13158               -0.0373676       -11.58804        -65.81103        156.2191             -200               0             -200               0
1.13816              -0.03828168       -11.68765        -65.60116        154.4587             -200               0             -200               0
1.14474              -0.03921256       -11.78827        -65.36805        152.7207             -200               0             -200               0
1.15132              -0.04016557       -11.88994        -65.11155        150.9793             -200               0             -200               0
1.15789              -0.04114878       -11.99266        -64.83226        149.2096             -200               0             -200               0
1.16447               -0.0421695       -12.09646        -64.53149        147.3883             -200               0             -200               0
1.17105              -0.04323473       -12.20134        -64.21111        145.4947             -200               0             -200               0
1.17763              -0.04435214        -12.3073        -63.87345        143.5118             -200               0             -200               0
1.18421              -0.04552763       -12.41433        -63.52114         141.426             -200               0             -200               0
1.19079               -0.0467688       -12.52243        -63.15698        139.2278             -200               0             -200               0
1.19737              -0.04807982       -12.63157         -62.7838        136.9112             -200               0             -200               0
1.20395              -0.04946705       -12.74173        -62.40434        134.4734             -200               0             -200               0
1.21053              -0.05093291       -12.85288         -62.0212        131.9149             -200               0             -200               0
1.21711              -0.05248135         -12.965        -61.63676         129.238             -200               0             -200               0
1.22368              -0.05411183       -13.07806        -61.25315        126.4474             -200               0             -200               0
1.23026              -0.05582778       -13.19202        -60.87224        123.5488             -200               0             -200               0
1.23684              -0.05762707       -13.30687        -60.49566        120.5491             -200               0             -200               0
1.24342              -0.05950782       -13.42257        -60.12478        117.4558             -200               0             -200               0
1.25                 -0.06146868        -13.5391        -59.76074         114.277             -200               0             -200               0
1.25658              -0.06350543       -13.65644        -59.40449        111.0206             -200               0             -200               0
1.26316               -0.0656136        -13.7746        -59.05676        107.6948             -200               0             -200               0
1.26974              -0.06778915       -13.89355        -58.71815        104.3077             -200               0             -200               0
1.27632              -0.07002697       -14.01331         -58.3891         100.867             -200               0             -200               0
1.28289              -0.07232086       -14.13389        -58.06991        97.38031             -200               0             -200               0
1.28947              -0.07466506        -14.2553        -57.76078          93.855             -200               0             -200               0
1.29605              -0.07705471       -14.37757        -57.46183        90.29807             -200               0             -200               0
1.30263              -0.07948512       -14.50074        -57.17306        86.71624             -200               0             -200               0
1.30921              -0.08195068       -14.62485        -56.89441        83.11596             -200               0             -200               0
1.31579              -0.08444859       -14.74996        -56.62577        79.50335             -200               0             -200               0
1.32237              -0.08697527        -14.8761        -56.36693        75.88429             -200               0             -200               0
1.32895              -0.08952802       -15.00336        -56.11765        72.26435             -200               0             -200               0
1.33553              -0.09210849       -15.13178        -55.87763        68.64884             -200               0             -200               0
1.34211              -0.09471459       -15.26145        -55.64652        65.04282             -200               0             -200               0
1.34868              -0.09734722       -15.39242        -55.42391        61.45106             -200               0             -200               0
1.35526               -0.1000121       -15.52477        -55.20937        57.87809             -200               0             -200               0
1.36184                -0.102711       -15.65857         -55.0024        54.32814             -200               0             -200               0
1.36842               -0.1054484       -15.79387        -54.80245        50.80517             -200               0             -200               0
1.375                  -0.108233       -15.93076        -54.60895        47.31282             -200               0             -200               0
1.38158               -0.1110688       -16.06928        -54.42126        43.85441             -200               0             -200               0
1.38816               -0.1139678       -16.20948        -54.23871         40.4329             -200               0             -200               0
1.39474               -0.1169342       -16.35142        -54.06058        37.05086             -200               0             -200               0
1.40132               -0.1199815       -16.49513        -53.88613        33.71043             -200               0             -200               0
1.40789               -0.1231161       -16.64065        -53.71457        30.41329             -200               0             -200               0
1.41447               -0.1263482         -16.788        -53.54508         27.1606             -200               0             -200               0
1.42105               -0.1296865        -16.9372        -53.37683        23.95299             -200               0             -200               0
1.42763               -0.1331425       -17.08826        -53.20896        20.79048             -200               0             -200               0
1.43421               -0.1367221       -17.24119        -53.04062        17.67251             -200               0             -200               0
1.44079                -0.140434       -17.39598        -52.87096        14.59784             -200               0             -200               0
1.44737               -0.1442848       -17.55264        -52.69915         11.5646             -200               0             -200               0
1.45395               -0.1482817       -17.71115         -52.5244        8.570265             -200               0             -200               0
1.46053               -0.1524276       -17.87152        -52.34596        5.611657             -200               0             -200               0
1.46711               -0.1567275       -18.03372        -52.16315        2.685014             -200               0             -200               0
1.47368               -0.1611842       -18.19775        -51.97537      -0.2139713             -200               0             -200               0
1.48026               -0.1657995       -18.36361        -51.78209       -3.090086             -200               0             -200               0
1.48684               -0.1705741        -18.5313        -51.58291       -5.948497             -200               0             -200               0
1.49342               -0.1755055        -18.7008        -51.37753       -8.794644             -200               0             -200               0
1.5                   -0.1805942       -18.87215        -51.16574       -11.63413             -200               0             -200               0
1.50658               -0.1858372       -19.04537        -50.94749       -14.47261             -200               0             -200               0
1.51316               -0.1912324       -19.22046        -50.72282       -17.31564             -200               0             -200               0
1.51974               -0.1967771       -19.39749        -50.49188       -20.16858             -200               0             -200               0
1.52632               -0.2024675       -19.57649        -50.25494       -23.03649             -200               0             -200               0
1.53289               -0.2083026       -19.75752        -50.01235         -25.924             -200               0             -200               0
1.53947               -0.2142796       -19.94066        -49.76454        -28.8353             -200               0             -200               0
1.54605               -0.2203966       -20.12599          -49.512       -31.77402             -200               0             -200               0
1.55263               -0.2266541        -20.3136        -49.25529       -34.74318             -200               0             -200               0
1.55921               -0.2330525       -20.50358        -48.99499       -37.74526             -200               0             -200               0
1.56579               -0.2395933       -20.69606         -48.7317       -40.78209             -200               0             -200               0
1.57237               -0.2462828       -20.89114        -48.46604       -43.85494             -200               0             -200               0
1.57895               -0.2531231       -21.08895        -48.19859       -46.96452             -200               0             -200               0
1.58553               -0.2601246       -21.28962        -47.92996       -50.11099             -200               0             -200               0
1.59211               -0.2672969       -21.49326        -47.66069       -53.29407             -200               0             -200               0
1.59868               -0.2746504       -21.70003        -47.39132       -56.51303             -200               0             -200               0
1.60526               -0.2822001       -21.91003        -47.12233       -59.76676             -200               0             -200               0
1.61184               -0.2899614       -22.12341        -46.85415       -63.05385             -200               0             -200               0
1.61842               -0.2979529       -22.34027        -46.58719       -66.37262             -200               0             -200               0
1.625                 -0.3061934       -22.56075        -46.32179       -69.72115             -200               0             -200               0
1.63158               -0.3147048       -22.78493        -46.05823       -73.09737             -200               0             -200               0
1.63816                 -0.32351       -23.01293        -45.79677       -76.49908             -200               0             -200               0
1.64474                -0.332633       -23.24485         -45.5376       -79.92401             -200               0             -200               0
1.65132               -0.3420996       -23.48074        -45.28085       -83.36982             -200               0             -200               0
1.65789               -0.3519343       -23.72068        -45.02662        -86.8342             -200               0             -200               0
1.66447                -0.362165       -23.96474        -44.77497       -90.31482             -200               0             -200               0
1.67105                -0.372817       -24.21295        -44.52589       -93.80944             -200               0             -200               0
1.67763               -0.3839173       -24.46536        -44.27937       -97.31588             -200               0             -200               0
1.68421               -0.3954926       -24.72199        -44.03532       -100.8321             -200               0             -200               0
1.69079               -0.4075686       -24.98286        -43.79363       -104.3561             -200               0             -200               0
1.69737               -0.4201697       -25.24799        -43.55417        -107.886             -200               0             -200               0
1.70395               -0.4333216       -25.51737        -43.31676       -111.4204             -200               0             -200               0
1.71053               -0.4470464       -25.79103         -43.0812       -114.9577             -200               0             -200               0
1.71711               -0.4613668       -26.06894        -42.84727       -118.4966             -200               0             -200               0
1.72368               -0.4763049       -26.35113        -42.61473       -122.0361             -200               0             -200               0
1.73026               -0.4918809       -26.63758        -42.38332       -125.5754             -200               0             -200               0
1.73684               -0.5081133       -26.92831        -42.15276       -129.1139             -200               0             -200               0
1.74342               -0.5250215       -27.22334        -41.92278       -132.6513             -200               0             -200               0
1.75                  -0.5426241       -27.52268        -41.69309       -136.1874             -200               0             -200               0
1.75658               -0.5609378       -27.82637         -41.4634       -139.7224             -200               0             -200               0
1.76316               -0.5799822       -28.13445        -41.23343       -143.2566             -200               0             -200               0
1.76974               -0.5997746       -28.44697        -41.00291       -146.7908             -200               0             -200               0
1.77632               -0.6203348       -28.76401        -40.77157       -150.3256             -200               0             -200               0
1.78289               -0.6416817       -29.08563        -40.53916       -153.8623             -200               0             -200               0
1.78947               -0.6638377       -29.41195        -40.30547       -157.4021             -200               0             -200               0
1.79605               -0.6868257       -29.74305        -40.07029       -160.9465             -200               0             -200               0
1.80263               -0.7106721       -30.07908        -39.83345       -164.4972             -200               0             -200               0
1.80921               -0.7354047       -30.42014         -39.5948       -168.0558             -200               0             -200               0
1.81579               -0.7610562        -30.7664        -39.35424       -171.6244             -200               0             -200               0
1.82237               -0.7876609       -31.11799        -39.11169       -175.2049             -200               0             -200               0
1.82895               -0.8152584       -31.47507        -38.86711       -178.7994             -200               0             -200               0
1.83553               -0.8438914        -31.8378        -38.62049        177.5901             -200               0             -200               0
1.84211               -0.8736065       -32.20634        -38.37187        173.9615             -200               0             -200               0
1.84868               -0.9044578       -32.58085        -38.12131        170.3127             -200               0             -200               0
