! TOUCHSTONE file generated by CST MICROWAVE STUDIO
! Date and time: Sat Mar  8 13:55:14 2025
! Project name: non_fractured.cst
! Parameters = {B=2.5; D=160; F=10; Feed=2.85625; L=100; M=20; R=0.384908; S=1; Theta=90; length=57.125; wave=114.25}
! Header version: 2024
! Port assignment regex: !\s*Touchstone port\s*([0-9]+)\s*=\s*(CST MWS port|CST DES external port|CST DES block port)\s*(.+)\s* \(\"(.*)\"\)(\s*mode\s*([0-9]+))?.*
! Touchstone port assignment:
! Touchstone port 1 = CST MWS port 1 ("")
! Touchstone port 2 = CST MWS port 2 ("")
# GHz S DB R 50
1                    -0.01654596       -9.833437        -68.58823       -115.2737             -200               0             -200               0
1.00662              -0.01746988       -9.925661        -68.08535       -120.8704             -200               0             -200               0
1.01325              -0.01850488       -10.01811        -67.63213       -126.4069             -200               0             -200               0
1.01987              -0.01964072        -10.1107        -67.22485       -131.8807             -200               0             -200               0
1.02649               -0.0208664       -10.20335        -66.86045       -137.2887             -200               0             -200               0
1.03311              -0.02216743         -10.296        -66.53642       -142.6269             -200               0             -200               0
1.03974               -0.0235261        -10.3886        -66.25069       -147.8906             -200               0             -200               0
1.04636              -0.02492705       -10.48112        -66.00155       -153.0742             -200               0             -200               0
1.05298              -0.02635146       -10.57356        -65.78757        -158.171             -200               0             -200               0
1.0596               -0.02778001       -10.66594        -65.60755       -163.1733             -200               0             -200               0
1.06623               -0.0291948       -10.75828        -65.46046       -168.0723             -200               0             -200               0
1.07285              -0.03058052       -10.85065        -65.34541       -172.8576             -200               0             -200               0
1.07947              -0.03191997       -10.94313        -65.26158       -177.5172             -200               0             -200               0
1.08609              -0.03319868        -11.0358        -65.20817        177.9624             -200               0             -200               0
1.09272               -0.0344069       -11.12877        -65.18434        173.5972             -200               0             -200               0
1.09934              -0.03553362       -11.22218        -65.18911        169.4052             -200               0             -200               0
1.10596              -0.03657295       -11.31614        -65.22128         165.407             -200               0             -200               0
1.11258              -0.03752328       -11.41079        -65.27932        161.6262             -200               0             -200               0
1.11921              -0.03838393       -11.50629        -65.36115        158.0889             -200               0             -200               0
1.12583              -0.03915764       -11.60277        -65.46397        154.8243             -200               0             -200               0
1.13245              -0.03985205       -11.70036        -65.58403        151.8635             -200               0             -200               0
1.13907              -0.04047649        -11.7992        -65.71629        149.2391             -200               0             -200               0
1.1457               -0.04104473       -11.89941        -65.85414        146.9828             -200               0             -200               0
1.15232               -0.0415698       -12.00109         -65.9891        145.1225             -200               0             -200               0
1.15894              -0.04207154       -12.10432        -66.11062        143.6775             -200               0             -200               0
1.16556              -0.04256774       -12.20918        -66.20622         142.653             -200               0             -200               0
1.17219              -0.04307928       -12.31572        -66.26192         142.033             -200               0             -200               0
1.17881               -0.0436268       -12.42396        -66.26333         141.774             -200               0             -200               0
1.18543              -0.04423229       -12.53392        -66.19729        141.8022             -200               0             -200               0
1.19205              -0.04491447       -12.64557        -66.05378        142.0154             -200               0             -200               0
1.19868              -0.04569515       -12.75888        -65.82776        142.2918             -200               0             -200               0
1.2053               -0.04659096       -12.87379        -65.52003        142.5044             -200               0             -200               0
1.21192              -0.04761928       -12.99024        -65.13711        142.5367             -200               0             -200               0
1.21854              -0.04879277       -13.10813        -64.68992        142.2956             -200               0             -200               0
1.22517              -0.05012471       -13.22736        -64.19188        141.7177             -200               0             -200               0
1.23179              -0.05162124       -13.34783        -63.65698        140.7698             -200               0             -200               0
1.23841              -0.05328733       -13.46941         -63.0984        139.4442             -200               0             -200               0
1.24503              -0.05512452         -13.592         -62.5276        137.7523             -200               0             -200               0
1.25166               -0.0571317       -13.71548        -61.95397        135.7175             -200               0             -200               0
1.25828              -0.05930322       -13.83974        -61.38487        133.3704             -200               0             -200               0
1.2649                -0.0616319       -13.96468        -60.82587        130.7442             -200               0             -200               0
1.27152              -0.06410414       -14.09022        -60.28099        127.8722             -200               0             -200               0
1.27815              -0.06670789       -14.21628        -59.75308        124.7863             -200               0             -200               0
1.28477              -0.06942787       -14.34281        -59.24403        121.5159             -200               0             -200               0
1.29139              -0.07224628       -14.46978        -58.75503        118.0879             -200               0             -200               0
1.29801               -0.0751462       -14.59719        -58.28676        114.5265             -200               0             -200               0
1.30464              -0.07810629       -14.72504         -57.8395        110.8533             -200               0             -200               0
1.31126              -0.08110978       -14.85337        -57.41326        107.0876             -200               0             -200               0
1.31788              -0.08413757       -14.98225        -57.00785        103.2466             -200               0             -200               0
1.3245               -0.08717455       -15.11177        -56.62292        99.34586             -200               0             -200               0
1.33113                -0.090205       -15.24201        -56.25804        95.39927             -200               0             -200               0
1.33775              -0.09321553       -15.37311         -55.9127        91.41949             -200               0             -200               0
1.34437              -0.09619932       -15.50521        -55.58633        87.41806             -200               0             -200               0
1.35099              -0.09914849       -15.63846        -55.27833        83.40559             -200               0             -200               0
1.35762                -0.102061       -15.77302        -54.98805        79.39195             -200               0             -200               0
1.36424               -0.1049351       -15.90905        -54.71481        75.38631             -200               0             -200               0
1.37086               -0.1077791       -16.04673        -54.45791        71.39737             -200               0             -200               0
1.37748               -0.1105976       -16.18622        -54.21661        67.43331             -200               0             -200               0
1.38411               -0.1134051       -16.32767        -53.99013        63.50197             -200               0             -200               0
1.39073               -0.1162161       -16.47123        -53.77762        59.61081             -200               0             -200               0
1.39735               -0.1190496       -16.61704        -53.57822          55.767             -200               0             -200               0
1.40397               -0.1219261       -16.76521        -53.39098        51.97738             -200               0             -200               0
1.4106                -0.1248694       -16.91583        -53.21487        48.24846             -200               0             -200               0
1.41722               -0.1279047       -17.06898        -53.04881         44.5864             -200               0             -200               0
1.42384               -0.1310563        -17.2247        -52.89159        40.99693             -200               0             -200               0
1.43046               -0.1343509       -17.38301        -52.74193        37.48527             -200               0             -200               0
1.43709               -0.1378165       -17.54392        -52.59846        34.05601             -200               0             -200               0
1.44371               -0.1414769        -17.7074        -52.45967        30.71302             -200               0             -200               0
1.45033               -0.1453564       -17.87339        -52.32398        27.45925             -200               0             -200               0
1.45695               -0.1494755       -18.04183        -52.18969        24.29659             -200               0             -200               0
1.46358               -0.1538543       -18.21263        -52.05506        21.22567             -200               0             -200               0
1.4702                -0.1585079       -18.38568        -51.91824        18.24571             -200               0             -200               0
1.47682               -0.1634485       -18.56088        -51.77741        15.35435             -200               0             -200               0
1.48344               -0.1686852        -18.7381        -51.63071         12.5475             -200               0             -200               0
1.49007               -0.1742217       -18.91721        -51.47636        9.819291             -200               0             -200               0
1.49669               -0.1800593        -19.0981         -51.3127        7.162055             -200               0             -200               0
1.50331               -0.1861941       -19.28063        -51.13822        4.566396             -200               0             -200               0
1.50993               -0.1926195       -19.46473        -50.95162        2.021356             -200               0             -200               0
1.51656               -0.1993246       -19.65028         -50.7519      -0.4853181             -200               0             -200               0
1.52318               -0.2062943       -19.83722        -50.53834       -2.966829             -200               0             -200               0
1.5298                -0.2135142       -20.02552        -50.31056        -5.43692             -200               0             -200               0
1.53642               -0.2209642       -20.21514        -50.06854       -7.909416             -200               0             -200               0
1.54305                -0.228625       -20.40609        -49.81258       -10.39778             -200               0             -200               0
1.54967               -0.2364756       -20.59842        -49.54332       -12.91466             -200               0             -200               0
1.55629               -0.2444957       -20.79219        -49.26166       -15.47156             -200               0             -200               0
1.56291               -0.2526658       -20.98751        -48.96873       -18.07851             -200               0             -200               0
1.56954               -0.2609676       -21.18452        -48.66586       -20.74389             -200               0             -200               0
1.57616               -0.2693854       -21.38337        -48.35447       -23.47432             -200               0             -200               0
1.58278               -0.2779073       -21.58426        -48.03606       -26.27469             -200               0             -200               0
1.5894                -0.2865241        -21.7874        -47.71214       -29.14814             -200               0             -200               0
1.59603               -0.2952322       -21.99303         -47.3842       -32.09629             -200               0             -200               0
1.60265               -0.3040309        -22.2014        -47.05366        -35.1193             -200               0             -200               0
1.60927                -0.312928       -22.41278        -46.72185       -38.21612             -200               0             -200               0
1.61589               -0.3219347       -22.62743        -46.38999       -41.38467             -200               0             -200               0
1.62252               -0.3310671       -22.84562        -46.05919       -44.62199             -200               0             -200               0
1.62914               -0.3403479       -23.06761        -45.73043       -47.92448             -200               0             -200               0
1.63576               -0.3498074       -23.29367        -45.40456       -51.28801             -200               0             -200               0
1.64238                -0.359476       -23.52401        -45.08232       -54.70807             -200               0             -200               0
1.64901               -0.3693948       -23.75887         -44.7643       -58.17994             -200               0             -200               0
1.65563               -0.3796049       -23.99841          -44.451        -61.6987             -200               0             -200               0
1.66225               -0.3901519       -24.24282        -44.14282       -65.25942             -200               0             -200               0
1.66887               -0.4010849        -24.4922        -43.84005       -68.85716             -200               0             -200               0
1.6755                -0.4124563       -24.74666        -43.54287       -72.48702             -200               0             -200               0
1.68212               -0.4243161       -25.00624        -43.25142       -76.14424             -200               0             -200               0
1.68874               -0.4367176       -25.27097        -42.96572       -79.82421             -200               0             -200               0
1.69536               -0.4497121       -25.54082        -42.68574       -83.52248             -200               0             -200               0
1.70199               -0.4633496       -25.81574        -42.41139       -87.23481             -200               0             -200               0
1.70861               -0.4776772       -26.09564        -42.14249        -90.9572             -200               0             -200               0
1.71523               -0.4927409        -26.3804        -41.87884       -94.68586             -200               0             -200               0
1.72185               -0.5085811       -26.66989        -41.62016        -98.4173             -200               0             -200               0
1.72848               -0.5252333       -26.96394        -41.36615       -102.1483             -200               0             -200               0
1.7351                -0.5427295       -27.26237        -41.11645       -105.8759             -200               0             -200               0
1.74172               -0.5610958       -27.56501        -40.87066       -109.5975             -200               0             -200               0
1.74834               -0.5803534       -27.87165        -40.62834       -113.3108             -200               0             -200               0
1.75497               -0.6005172       -28.18212        -40.38905       -117.0138             -200               0             -200               0
1.76159               -0.6215982       -28.49624        -40.15228       -120.7051             -200               0             -200               0
1.76821               -0.6436001       -28.81386        -39.91754       -124.3833             -200               0             -200               0
1.77483               -0.6665227       -29.13484         -39.6843       -128.0477             -200               0             -200               0
1.78146               -0.6903644       -29.45908        -39.45203       -131.6979             -200               0             -200               0
1.78808                -0.715117       -29.78651        -39.22019       -135.3339             -200               0             -200               0
1.7947                -0.7407705       -30.11711        -38.98825       -138.9562             -200               0             -200               0
1.80132               -0.7673148        -30.4509        -38.75569       -142.5656             -200               0             -200               0
1.80795               -0.7947396       -30.78793          -38.522       -146.1635             -200               0             -200               0
1.81457                -0.823033       -31.12832        -38.28672       -149.7514             -200               0             -200               0
1.82119               -0.8521883       -31.47223        -38.04939       -153.3315             -200               0             -200               0
1.82781               -0.8821991       -31.81987        -37.80961       -156.9062             -200               0             -200               0
1.83444               -0.9130655       -32.17149        -37.56703       -160.4783             -200               0             -200               0
1.84106               -0.9447934       -32.52742        -37.32136       -164.0507             -200               0             -200               0
1.84768               -0.9773951       -32.88798        -37.07235       -167.6267             -200               0             -200               0
1.8543                 -1.010892       -33.25356        -36.81983       -171.2098             -200               0             -200               0
