! TOUCHSTONE file generated by CST MICROWAVE STUDIO
! Date and time: Sat Mar  8 13:54:43 2025
! Project name: non_fractured.cst
! Parameters = {B=2.5; D=160; F=10; Feed=2.85625; L=100; M=10; R=0.384908; S=2.5; Theta=90; length=57.125; wave=114.25}
! Header version: 2024
! Port assignment regex: !\s*Touchstone port\s*([0-9]+)\s*=\s*(CST MWS port|CST DES external port|CST DES block port)\s*(.+)\s* \(\"(.*)\"\)(\s*mode\s*([0-9]+))?.*
! Touchstone port assignment:
! Touchstone port 1 = CST MWS port 1 ("")
! Touchstone port 2 = CST MWS port 2 ("")
# GHz S DB R 50
1                    -0.01815959       -9.751707         -70.3223       -122.6591             -200               0             -200               0
1.00658              -0.01887035       -9.840395        -69.75882       -126.6455             -200               0             -200               0
1.01316              -0.01963769       -9.929537        -69.24259       -130.7493             -200               0             -200               0
1.01974              -0.02045864        -10.0191        -68.77049       -134.9389             -200               0             -200               0
1.02632              -0.02132894       -10.10905        -68.33976       -139.1884             -200               0             -200               0
1.03289              -0.02224223       -10.19937        -67.94801        -143.476             -200               0             -200               0
1.03947              -0.02319394       -10.29004        -67.59313       -147.7828             -200               0             -200               0
1.04605              -0.02417624       -10.38106        -67.27328       -152.0924             -200               0             -200               0
1.05263              -0.02518364       -10.47242        -66.98683       -156.3896             -200               0             -200               0
1.05921              -0.02620675       -10.56413        -66.73236       -160.6604             -200               0             -200               0
1.06579              -0.02724055       -10.65621        -66.50858       -164.8913             -200               0             -200               0
1.07237              -0.02827671       -10.74869        -66.31434       -169.0692             -200               0             -200               0
1.07895              -0.02930916       -10.84159        -66.14854       -173.1808             -200               0             -200               0
1.08553              -0.03033269       -10.93497        -66.01014       -177.2126             -200               0             -200               0
1.09211              -0.03134277       -11.02888        -65.89808        178.8495             -200               0             -200               0
1.09868               -0.0323343       -11.12335        -65.81128        175.0202             -200               0             -200               0
1.10526              -0.03330706       -11.21847        -65.74853        171.3154             -200               0             -200               0
1.11184              -0.03425605       -11.31429        -65.70846        167.7518             -200               0             -200               0
1.11842               -0.0351845       -11.41088        -65.68944        164.3472             -200               0             -200               0
1.125                -0.03609249       -11.50829        -65.68953        161.1206             -200               0             -200               0
1.13158              -0.03698364       -11.60661        -65.70629        158.0917             -200               0             -200               0
1.13816              -0.03786113       -11.70589        -65.73677        155.2808             -200               0             -200               0
1.14474              -0.03873141       -11.80619        -65.77729        152.7081             -200               0             -200               0
1.15132              -0.03960041       -11.90756        -65.82333        150.3925             -200               0             -200               0
1.15789              -0.04047701       -12.01006        -65.86948        148.3504             -200               0             -200               0
1.16447              -0.04136643       -12.11371        -65.90931        146.5933             -200               0             -200               0
1.17105              -0.04228162       -12.21856        -65.93546        145.1259             -200               0             -200               0
1.17763              -0.04322994       -12.32463        -65.93982        143.9427             -200               0             -200               0
1.18421              -0.04422129       -12.43193        -65.91388         143.026             -200               0             -200               0
1.19079              -0.04526612       -12.54046        -65.84933        142.3435             -200               0             -200               0
1.19737              -0.04637341       -12.65022         -65.7388         141.848             -200               0             -200               0
1.20395              -0.04755112        -12.7612        -65.57665        141.4792             -200               0             -200               0
1.21053              -0.04880821       -12.87337        -65.35966        141.1672             -200               0             -200               0
1.21711              -0.05015173       -12.98671         -65.0875        140.8389             -200               0             -200               0
1.22368              -0.05158726       -13.10119        -64.76265        140.4238             -200               0             -200               0
1.23026               -0.0531203       -13.21677        -64.39011        139.8603             -200               0             -200               0
1.23684              -0.05475367       -13.33339        -63.97669        139.1001             -200               0             -200               0
1.24342              -0.05648982       -13.45103        -63.53018        138.1092             -200               0             -200               0
1.25                 -0.05832806       -13.56964        -63.05864        136.8685             -200               0             -200               0
1.25658              -0.06026859       -13.68918        -62.56975        135.3715             -200               0             -200               0
1.26316              -0.06230922       -13.80961        -62.07046         133.622             -200               0             -200               0
1.26974              -0.06444394        -13.9309        -61.56676        131.6307             -200               0             -200               0
1.27632              -0.06667011       -14.05302        -61.06363        129.4137             -200               0             -200               0
1.28289              -0.06898131       -14.17596        -60.56507        126.9895             -200               0             -200               0
1.28947              -0.07136991        -14.2997        -60.07422         124.378             -200               0             -200               0
1.29605              -0.07382934       -14.42425        -59.59344        121.5991             -200               0             -200               0
1.30263              -0.07635273       -14.54962        -59.12449        118.6724             -200               0             -200               0
1.30921              -0.07892998       -14.67584        -58.66858        115.6162             -200               0             -200               0
1.31579              -0.08155362       -14.80293        -58.22655        112.4478             -200               0             -200               0
1.32237              -0.08421905       -14.93094        -57.79888         109.183             -200               0             -200               0
1.32895              -0.08691628       -15.05993        -57.38579        105.8364             -200               0             -200               0
1.33553              -0.08964241       -15.18996        -56.98732        102.4214             -200               0             -200               0
1.34211              -0.09239109        -15.3211        -56.60333        98.94997             -200               0             -200               0
1.34868              -0.09516032       -15.45345        -56.23356        95.43318             -200               0             -200               0
1.35526              -0.09794855       -15.58707        -55.87766        91.88106             -200               0             -200               0
1.36184               -0.1007557       -15.72207        -55.53519        88.30271             -200               0             -200               0
1.36842               -0.1035838       -15.85855        -55.20565        84.70643             -200               0             -200               0
1.375                 -0.1064367       -15.99658        -54.88848        81.09978             -200               0             -200               0
1.38158               -0.1093193       -16.13627        -54.58309        77.48963             -200               0             -200               0
1.38816               -0.1122394       -16.27772        -54.28883        73.88224             -200               0             -200               0
1.39474               -0.1152064         -16.421        -54.00504        70.28328             -200               0             -200               0
1.40132               -0.1182296       -16.56619        -53.73102        66.69785             -200               0             -200               0
1.40789               -0.1213231       -16.71338        -53.46602        63.13056             -200               0             -200               0
1.41447               -0.1244968       -16.86262        -53.20929        59.58547             -200               0             -200               0
1.42105               -0.1277664       -17.01396        -52.96005        56.06614             -200               0             -200               0
1.42763               -0.1311462       -17.16745         -52.7175        52.57563             -200               0             -200               0
1.43421               -0.1346506       -17.32312         -52.4808        49.11645             -200               0             -200               0
1.44079               -0.1382959       -17.48099        -52.24912        45.69061             -200               0             -200               0
1.44737               -0.1420941       -17.64107        -52.02161        42.29956             -200               0             -200               0
1.45395               -0.1460622       -17.80336        -51.79742        38.94419             -200               0             -200               0
1.46053                -0.150211       -17.96784        -51.57569        35.62481             -200               0             -200               0
1.46711               -0.1545542        -18.1345        -51.35559        32.34118             -200               0             -200               0
1.47368               -0.1591025       -18.30331        -51.13629        29.09243             -200               0             -200               0
1.48026               -0.1638666       -18.47423        -50.91701        25.87715             -200               0             -200               0
1.48684               -0.1688525       -18.64722        -50.69697        22.69332             -200               0             -200               0
1.49342               -0.1740669       -18.82226        -50.47549        19.53843             -200               0             -200               0
1.5                   -0.1795154        -18.9993        -50.25191        16.40941             -200               0             -200               0
1.50658               -0.1852007        -19.1783        -50.02566        13.30279             -200               0             -200               0
1.51316               -0.1911249       -19.35923        -49.79626        10.21467             -200               0             -200               0
1.51974               -0.1972845       -19.54206        -49.56329        7.140845             -200               0             -200               0
1.52632               -0.2036812       -19.72678        -49.32644        4.076893             -200               0             -200               0
1.53289               -0.2103098       -19.91339         -49.0855        1.018236             -200               0             -200               0
1.53947               -0.2171686       -20.10187        -48.84033       -2.039747             -200               0             -200               0
1.54605               -0.2242507       -20.29225        -48.59093       -5.101627             -200               0             -200               0
1.55263               -0.2315527       -20.48456        -48.33736       -8.171838             -200               0             -200               0
1.55921               -0.2390694       -20.67884        -48.07978       -11.25459             -200               0             -200               0
1.56579               -0.2467965       -20.87514        -47.81841       -14.35379             -200               0             -200               0
1.57237               -0.2547303       -21.07355        -47.55357         -17.473             -200               0             -200               0
1.57895               -0.2628664       -21.27415        -47.28562       -20.61536             -200               0             -200               0
1.58553               -0.2712048       -21.47702        -47.01496       -23.78356             -200               0             -200               0
1.59211               -0.2797457        -21.6823        -46.74203       -26.97985             -200               0             -200               0
1.59868               -0.2884897       -21.89009        -46.46731       -30.20597             -200               0             -200               0
1.60526               -0.2974423       -22.10053        -46.19127       -33.46323             -200               0             -200               0
1.61184               -0.3066094       -22.31375        -45.91439       -36.75246             -200               0             -200               0
1.61842               -0.3160008       -22.52989        -45.63715       -40.07407             -200               0             -200               0
1.625                 -0.3256268        -22.7491        -45.36001       -43.42807             -200               0             -200               0
1.63158               -0.3355033       -22.97151        -45.08341        -46.8141             -200               0             -200               0
1.63816               -0.3456465       -23.19727        -44.80776       -50.23146             -200               0             -200               0
1.64474               -0.3560753       -23.42651        -44.53344       -53.67919             -200               0             -200               0
1.65132               -0.3668119       -23.65935         -44.2608       -57.15606             -200               0             -200               0
1.65789               -0.3778809       -23.89592        -43.99015       -60.66064             -200               0             -200               0
1.66447               -0.3893077       -24.13632        -43.72177       -64.19133             -200               0             -200               0
1.67105               -0.4011198       -24.38064        -43.45589       -67.74637             -200               0             -200               0
1.67763               -0.4133461       -24.62896         -43.1927       -71.32394             -200               0             -200               0
1.68421               -0.4260166       -24.88134        -42.93236       -74.92211             -200               0             -200               0
1.69079               -0.4391614       -25.13784        -42.67499       -78.53893             -200               0             -200               0
1.69737               -0.4528128        -25.3985        -42.42068       -82.17244             -200               0             -200               0
1.70395               -0.4669992       -25.66333        -42.16946       -85.82066             -200               0             -200               0
1.71053               -0.4817518       -25.93233        -41.92135       -89.48168             -200               0             -200               0
1.71711               -0.4971009       -26.20551        -41.67633       -93.15361             -200               0             -200               0
1.72368               -0.5130736       -26.48284        -41.43435       -96.83464             -200               0             -200               0
1.73026               -0.5296971        -26.7643        -41.19533        -100.523             -200               0             -200               0
1.73684               -0.5469963       -27.04986        -40.95916       -104.2172             -200               0             -200               0
1.74342               -0.5649964       -27.33948        -40.72571       -107.9156             -200               0             -200               0
1.75                  -0.5837179       -27.63313        -40.49483        -111.617             -200               0             -200               0
1.75658               -0.6031812       -27.93077        -40.26633       -115.3199             -200               0             -200               0
1.76316               -0.6234045       -28.23236        -40.04004       -119.0235             -200               0             -200               0
1.76974               -0.6444045       -28.53788        -39.81573       -122.7267             -200               0             -200               0
1.77632               -0.6661993       -28.84733         -39.5932       -126.4288             -200               0             -200               0
1.78289                -0.688798        -29.1607        -39.37219       -130.1293             -200               0             -200               0
1.78947               -0.7122197       -29.47799        -39.15249       -133.8277             -200               0             -200               0
1.79605               -0.7364744       -29.79924        -38.93384       -137.5239             -200               0             -200               0
1.80263               -0.7615758       -30.12451          -38.716       -141.2179             -200               0             -200               0
1.80921               -0.7875385       -30.45385        -38.49872       -144.9098             -200               0             -200               0
1.81579               -0.8143773       -30.78736        -38.28176          -148.6             -200               0             -200               0
1.82237               -0.8421101       -31.12515        -38.06491       -152.2891             -200               0             -200               0
1.82895               -0.8707534       -31.46734        -37.84792       -155.9779             -200               0             -200               0
1.83553               -0.9003324       -31.81408        -37.63059       -159.6671             -200               0             -200               0
1.84211               -0.9308706       -32.16556        -37.41274        -163.358             -200               0             -200               0
1.84868               -0.9623991       -32.52194         -37.1942       -167.0516             -200               0             -200               0
