! TOUCHSTONE file generated by CST MICROWAVE STUDIO
! Date and time: Sat Mar  8 13:54:47 2025
! Project name: non_fractured.cst
! Parameters = {B=2.5; D=160; F=15; Feed=2.85625; L=100; M=10; R=0.384908; S=1.5; Theta=180; length=57.125; wave=114.25}
! Header version: 2024
! Port assignment regex: !\s*Touchstone port\s*([0-9]+)\s*=\s*(CST MWS port|CST DES external port|CST DES block port)\s*(.+)\s* \(\"(.*)\"\)(\s*mode\s*([0-9]+))?.*
! Touchstone port assignment:
! Touchstone port 1 = CST MWS port 1 ("")
! Touchstone port 2 = CST MWS port 2 ("")
# GHz S DB R 50
1                    -0.01724454       -9.751877        -70.11622        -131.131             -200               0             -200               0
1.00662              -0.01807248       -9.841941        -69.68713       -134.6827             -200               0             -200               0
1.01325              -0.01897408       -9.932331        -69.28924       -138.3137             -200               0             -200               0
1.01987              -0.01994259         -10.023        -68.92152       -142.0004             -200               0             -200               0
1.02649              -0.02097007        -10.1139         -68.5829        -145.722             -200               0             -200               0
1.03311               -0.0220456       -10.20501        -68.27229       -149.4594             -200               0             -200               0
1.03974               -0.0231591       -10.29631         -67.9886       -153.1956             -200               0             -200               0
1.04636              -0.02429894       -10.38779        -67.73072       -156.9146             -200               0             -200               0
1.05298              -0.02545487       -10.47947        -67.49755       -160.6011             -200               0             -200               0
1.0596                -0.0266155       -10.57136        -67.28791       -164.2407             -200               0             -200               0
1.06623              -0.02776911        -10.6635        -67.10061       -167.8191             -200               0             -200               0
1.07285              -0.02890569       -10.75595        -66.93435       -171.3224             -200               0             -200               0
1.07947              -0.03001693       -10.84875        -66.78773        -174.737             -200               0             -200               0
1.08609              -0.03109511       -10.94198        -66.65917        -178.049             -200               0             -200               0
1.09272              -0.03213442       -11.03573        -66.54691        178.7551             -200               0             -200               0
1.09934              -0.03313129       -11.13007        -66.44895        175.6886             -200               0             -200               0
1.10596              -0.03408362        -11.2251          -66.363        172.7644             -200               0             -200               0
1.11258              -0.03499225       -11.32091        -66.28641        169.9945             -200               0             -200               0
1.11921              -0.03585788        -11.4176        -66.21619        167.3898             -200               0             -200               0
1.12583              -0.03668554       -11.51526        -66.14892        164.9592             -200               0             -200               0
1.13245              -0.03748178       -11.61396        -66.08078         162.709             -200               0             -200               0
1.13907              -0.03825607        -11.7138         -66.0076         160.642             -200               0             -200               0
1.1457               -0.03901635       -11.81485        -65.92488        158.7564             -200               0             -200               0
1.15232              -0.03977515       -11.91716        -65.82796         157.045             -200               0             -200               0
1.15894              -0.04054534       -12.02078        -65.71222        155.4948             -200               0             -200               0
1.16556              -0.04133967       -12.12575        -65.57326        154.0859             -200               0             -200               0
1.17219              -0.04217279       -12.23209        -65.40724        152.7924             -200               0             -200               0
1.17881              -0.04305735        -12.3398        -65.21112        151.5827             -200               0             -200               0
1.18543              -0.04400739       -12.44889         -64.9829         150.421             -200               0             -200               0
1.19205              -0.04503852       -12.55932        -64.72179        149.2694             -200               0             -200               0
1.19868              -0.04615951       -12.67107        -64.42827        148.0904             -200               0             -200               0
1.2053                -0.0473815       -12.78409        -64.10399        146.8483             -200               0             -200               0
1.21192              -0.04871622       -12.89832        -63.75164        145.5122             -200               0             -200               0
1.21854              -0.05016878       -13.01371        -63.37467        144.0563             -200               0             -200               0
1.22517              -0.05174449       -13.13018          -62.977        142.4615             -200               0             -200               0
1.23179              -0.05344806       -13.24767         -62.5628        140.7149             -200               0             -200               0
1.23841              -0.05527919       -13.36609        -62.13619        138.8095             -200               0             -200               0
1.24503              -0.05723671       -13.48538        -61.70108        136.7437             -200               0             -200               0
1.25166               -0.0593169       -13.60547        -61.26107        134.5199             -200               0             -200               0
1.25828               -0.0615145        -13.7263        -60.81933        132.1439             -200               0             -200               0
1.2649               -0.06382087       -13.84781        -60.37861        129.6239             -200               0             -200               0
1.27152              -0.06622874       -13.96997        -59.94121        126.9696             -200               0             -200               0
1.27815              -0.06872693       -14.09274        -59.50905        124.1916             -200               0             -200               0
1.28477              -0.07130334       -14.21612        -59.08364        121.3013             -200               0             -200               0
1.29139              -0.07394474        -14.3401        -58.66618        118.3097             -200               0             -200               0
1.29801              -0.07663974       -14.46469        -58.25757         115.228             -200               0             -200               0
1.30464              -0.07937437       -14.58995        -57.85847        112.0669             -200               0             -200               0
1.31126              -0.08213847        -14.7159        -57.46932        108.8365             -200               0             -200               0
1.31788              -0.08491921       -14.84263        -57.09039        105.5464             -200               0             -200               0
1.3245               -0.08770678        -14.9702        -56.72178        102.2058             -200               0             -200               0
1.33113              -0.09049381       -15.09871        -56.36348        98.82297             -200               0             -200               0
1.33775              -0.09327261       -15.22827        -56.01537         95.4058             -200               0             -200               0
1.34437              -0.09604051         -15.359        -55.67724        91.96152             -200               0             -200               0
1.35099              -0.09879424       -15.49099        -55.34879         88.4968             -200               0             -200               0
1.35762               -0.1015353        -15.6244        -55.02968        85.01777             -200               0             -200               0
1.36424               -0.1042667       -15.75933        -54.71949        81.53002             -200               0             -200               0
1.37086               -0.1069943       -15.89592        -54.41777        78.03864             -200               0             -200               0
1.37748               -0.1097272       -16.03429          -54.124        74.54821             -200               0             -200               0
1.38411               -0.1124758       -16.17454        -53.83767        71.06286             -200               0             -200               0
1.39073               -0.1152517       -16.31678         -53.5582        67.58619             -200               0             -200               0
1.39735               -0.1180732       -16.46111        -53.28501        64.12138             -200               0             -200               0
1.40397               -0.1209539        -16.6076        -53.01747        60.67113             -200               0             -200               0
1.4106                -0.1239128       -16.75632        -52.75496        57.23765             -200               0             -200               0
1.41722               -0.1269674       -16.90732        -52.49685        53.82271             -200               0             -200               0
1.42384               -0.1301388       -17.06063        -52.24248         50.4276             -200               0             -200               0
1.43046                -0.133444       -17.21627        -51.99123        47.05316             -200               0             -200               0
1.43709               -0.1369012       -17.37423        -51.74243        43.69974             -200               0             -200               0
1.44371               -0.1405305        -17.5345        -51.49549        40.36725             -200               0             -200               0
1.45033               -0.1443459       -17.69705        -51.24978        37.05517             -200               0             -200               0
1.45695               -0.1483633       -17.86184        -51.00474        33.76251             -200               0             -200               0
1.46358               -0.1525939       -18.02881        -50.75981        30.48791             -200               0             -200               0
1.4702                -0.1570509       -18.19791         -50.5145         27.2296             -200               0             -200               0
1.47682               -0.1617401       -18.36907        -50.26835         23.9855             -200               0             -200               0
1.48344               -0.1666673       -18.54223        -50.02097        20.75319             -200               0             -200               0
1.49007               -0.1718366       -18.71731        -49.77199        17.53003             -200               0             -200               0
1.49669               -0.1772476       -18.89425        -49.52115        14.31317             -200               0             -200               0
1.50331               -0.1828998         -19.073        -49.26823         11.0996             -200               0             -200               0
1.50993                -0.188787       -19.25352        -49.01306        7.886253             -200               0             -200               0
1.51656               -0.1949059       -19.43577        -48.75558        4.670035             -200               0             -200               0
1.52318               -0.2012447       -19.61973        -48.49576        1.447885             -200               0             -200               0
1.5298                -0.2077986       -19.80539        -48.23363       -1.783155             -200               0             -200               0
1.53642               -0.2145555       -19.99279        -47.96931         -5.0259             -200               0             -200               0
1.54305               -0.2215041       -20.18196        -47.70293       -8.282963             -200               0             -200               0
1.54967               -0.2286357       -20.37295         -47.4347       -11.55673             -200               0             -200               0
1.55629               -0.2359413       -20.56584        -47.16487       -14.84931             -200               0             -200               0
1.56291               -0.2434107       -20.76073        -46.89369       -18.16254             -200               0             -200               0
1.56954               -0.2510379       -20.95774        -46.62146       -21.49792             -200               0             -200               0
1.57616               -0.2588186       -21.15701         -46.3485       -24.85666             -200               0             -200               0
1.58278               -0.2667489       -21.35867        -46.07513       -28.23964             -200               0             -200               0
1.5894                -0.2748316       -21.56291        -45.80168       -31.64745             -200               0             -200               0
1.59603               -0.2830694       -21.76989        -45.52848       -35.08037             -200               0             -200               0
1.60265               -0.2914686       -21.97978        -45.25585       -38.53839             -200               0             -200               0
1.60927                -0.300042       -22.19279        -44.98409       -42.02125             -200               0             -200               0
1.61589               -0.3088023       -22.40908         -44.7135       -45.52845             -200               0             -200               0
1.62252               -0.3177683       -22.62885        -44.44434       -49.05925             -200               0             -200               0
1.62914                -0.326962       -22.85227        -44.17687       -52.61277             -200               0             -200               0
1.63576               -0.3364084       -23.07949        -43.91131       -56.18791             -200               0             -200               0
1.64238               -0.3461345       -23.31068        -43.64784       -59.78347             -200               0             -200               0
1.64901               -0.3561714       -23.54596        -43.38665       -63.39812             -200               0             -200               0
1.65563               -0.3665528       -23.78546        -43.12787       -67.03044             -200               0             -200               0
1.66225               -0.3773129       -24.02926        -42.87161       -70.67895             -200               0             -200               0
1.66887               -0.3884877       -24.27745        -42.61794       -74.34212             -200               0             -200               0
1.6755                -0.4001142       -24.53008        -42.36693       -78.01841             -200               0             -200               0
1.68212               -0.4122288       -24.78718         -42.1186       -81.70626             -200               0             -200               0
1.68874               -0.4248693       -25.04875        -41.87293       -85.40414             -200               0             -200               0
1.69536               -0.4380712       -25.31478        -41.62991       -89.11056             -200               0             -200               0
1.70199               -0.4518681       -25.58526        -41.38947       -92.82407             -200               0             -200               0
1.70861               -0.4662943       -25.86012        -41.15153       -96.54329             -200               0             -200               0
1.71523               -0.4813789       -26.13931          -40.916       -100.2669             -200               0             -200               0
1.72185               -0.4971503       -26.42275        -40.68274       -103.9938             -200               0             -200               0
1.72848                -0.513633       -26.71038        -40.45161       -107.7228             -200               0             -200               0
1.7351                -0.5308488        -27.0021        -40.22245        -111.453             -200               0             -200               0
1.74172               -0.5488186       -27.29785        -39.99508       -115.1834             -200               0             -200               0
1.74834               -0.5675565       -27.59754        -39.76931       -118.9136             -200               0             -200               0
1.75497               -0.5870772       -27.90112        -39.54493       -122.6428             -200               0             -200               0
1.76159               -0.6073914       -28.20853        -39.32175       -126.3707             -200               0             -200               0
1.76821               -0.6285075       -28.51974        -39.09952       -130.0971             -200               0             -200               0
1.77483               -0.6504344       -28.83474        -38.87805        -133.822             -200               0             -200               0
1.78146               -0.6731769       -29.15354         -38.6571       -137.5454             -200               0             -200               0
1.78808               -0.6967417       -29.47618        -38.43645       -141.2677             -200               0             -200               0
1.7947                -0.7211337       -29.80273        -38.21589       -144.9893             -200               0             -200               0
1.80132               -0.7463607       -30.13327         -37.9952       -148.7109             -200               0             -200               0
1.80795               -0.7724315       -30.46794         -37.7742       -152.4332             -200               0             -200               0
1.81457               -0.7993578       -30.80689         -37.5527       -156.1571             -200               0             -200               0
1.82119               -0.8271544       -31.15031        -37.33052       -159.8839             -200               0             -200               0
1.82781               -0.8558401        -31.4984        -37.10752       -163.6146             -200               0             -200               0
1.83444               -0.8854399       -31.85138        -36.88357       -167.3507             -200               0             -200               0
1.84106               -0.9159823       -32.20952        -36.65856       -171.0935             -200               0             -200               0
1.84768               -0.9475055       -32.57309        -36.43241       -174.8445             -200               0             -200               0
1.8543                -0.9800508       -32.94235        -36.20506       -178.6054             -200               0             -200               0
