! TOUCHSTONE file generated by CST MICROWAVE STUDIO
! Date and time: Sat Mar  8 13:54:18 2025
! Project name: non_fractured.cst
! Parameters = {B=2.5; D=160; F=20; Feed=2.85625; L=100; M=5; R=0.384908; S=1.5; Theta=270; length=57.125; wave=114.25}
! Header version: 2024
! Port assignment regex: !\s*Touchstone port\s*([0-9]+)\s*=\s*(CST MWS port|CST DES external port|CST DES block port)\s*(.+)\s* \(\"(.*)\"\)(\s*mode\s*([0-9]+))?.*
! Touchstone port assignment:
! Touchstone port 1 = CST MWS port 1 ("")
! Touchstone port 2 = CST MWS port 2 ("")
# GHz S DB R 50
1                    -0.01789317       -9.750255        -67.14508        -125.567             -200               0             -200               0
1.0066               -0.01867765       -9.839493        -66.66265       -130.1202             -200               0             -200               0
1.0132               -0.01952514       -9.929113        -66.21836       -134.7221             -200               0             -200               0
1.0198               -0.02042969       -10.01908        -65.80994       -139.3558             -200               0             -200               0
1.0264               -0.02138412       -10.10935        -65.43544       -144.0068             -200               0             -200               0
1.033                -0.02238254       -10.19991        -65.09313       -148.6627             -200               0             -200               0
1.0396               -0.02341521       -10.29074        -64.78152       -153.3119             -200               0             -200               0
1.0462               -0.02447364       -10.38185        -64.49929        -157.944             -200               0             -200               0
1.05281              -0.02554952       -10.47323        -64.24524       -162.5492             -200               0             -200               0
1.05941              -0.02663228        -10.5649        -64.01835       -167.1179             -200               0             -200               0
1.06601              -0.02771495        -10.6569        -63.81765       -171.6407             -200               0             -200               0
1.07261              -0.02878777       -10.74926        -63.64228       -176.1084             -200               0             -200               0
1.07921              -0.02984426       -10.84204        -63.49139        179.4888             -200               0             -200               0
1.08581              -0.03087816       -10.93528        -63.36419        175.1607             -200               0             -200               0
1.09241              -0.03188499       -11.02907        -63.25986        170.9177             -200               0             -200               0
1.09901              -0.03285917       -11.12346        -63.17756        166.7707             -200               0             -200               0
1.10561              -0.03380094       -11.21854        -63.11638        162.7314             -200               0             -200               0
1.11221              -0.03470949       -11.31439        -63.07527        158.8122             -200               0             -200               0
1.11881               -0.0355866       -11.41108        -63.05305        155.0261             -200               0             -200               0
1.12541              -0.03643496        -11.5087        -63.04829         151.387             -200               0             -200               0
1.13201              -0.03726051       -11.60732        -63.05932        147.9097             -200               0             -200               0
1.13861              -0.03806976       -11.70701        -63.08406         144.609             -200               0             -200               0
1.14521              -0.03886997       -11.80783        -63.12005        141.5001             -200               0             -200               0
1.15182              -0.03967221       -11.90986        -63.16429         138.598             -200               0             -200               0
1.15842              -0.04048577       -12.01312        -63.21317        135.9163             -200               0             -200               0
1.16502              -0.04132334       -12.11765        -63.26248        133.4665             -200               0             -200               0
1.17162              -0.04219546       -12.22349         -63.3073        131.2568             -200               0             -200               0
1.17822              -0.04311502       -12.33064        -63.34209        129.2902             -200               0             -200               0
1.18482              -0.04409423       -12.43911        -63.36081        127.5633             -200               0             -200               0
1.19142              -0.04514432       -12.54887        -63.35712         126.064             -200               0             -200               0
1.19802               -0.0462767       -12.65992        -63.32473        124.7708             -200               0             -200               0
1.20462              -0.04750172       -12.77222        -63.25785         123.652             -200               0             -200               0
1.21122              -0.04882741       -12.88573        -63.15169        122.6663             -200               0             -200               0
1.21782              -0.05026259       -13.00039        -63.00291        121.7647             -200               0             -200               0
1.22442              -0.05181227       -13.11616        -62.80998        120.8936             -200               0             -200               0
1.23102              -0.05348092       -13.23297        -62.57337        119.9985             -200               0             -200               0
1.23762              -0.05527024       -13.35076        -62.29543        119.0283             -200               0             -200               0
1.24422              -0.05718181       -13.46947        -61.98015        117.9386             -200               0             -200               0
1.25083              -0.05921207       -13.58904        -61.63267         116.694             -200               0             -200               0
1.25743               -0.0613592       -13.70941        -61.25883        115.2691             -200               0             -200               0
1.26403              -0.06361725       -13.83052        -60.86467        113.6488             -200               0             -200               0
1.27063              -0.06597883       -13.95235        -60.45603        111.8267             -200               0             -200               0
1.27723              -0.06843727       -14.07485        -60.03832         109.804             -200               0             -200               0
1.28383              -0.07098225       -14.19801        -59.61631        107.5874             -200               0             -200               0
1.29043              -0.07360453       -14.32182        -59.19411         105.188             -200               0             -200               0
1.29703              -0.07629243       -14.44627        -58.77512        102.6192             -200               0             -200               0
1.30363               -0.0790351       -14.57139        -58.36211        99.89608             -200               0             -200               0
1.31023              -0.08182169       -14.69721        -57.95725        97.03447             -200               0             -200               0
1.31683               -0.0846422       -14.82377        -57.56222        94.05013             -200               0             -200               0
1.32343              -0.08748625       -14.95113        -57.17828        90.95846             -200               0             -200               0
1.33003              -0.09034528       -15.07937        -56.80629        87.77426             -200               0             -200               0
1.33663              -0.09321307       -15.20857        -56.44685        84.51156             -200               0             -200               0
1.34323              -0.09608424       -15.33882        -56.10029        81.18353             -200               0             -200               0
1.34984              -0.09895384       -15.47021        -55.76675        77.80249             -200               0             -200               0
1.35644                 -0.10182       -15.60286        -55.44618        74.37991             -200               0             -200               0
1.36304                -0.104684       -15.73688        -55.13841        70.92649             -200               0             -200               0
1.36964               -0.1075479       -15.87236        -54.84312        67.45211             -200               0             -200               0
1.37624               -0.1104163       -16.00943        -54.55992        63.96599             -200               0             -200               0
1.38284               -0.1132958       -16.14819        -54.28829        60.47665             -200               0             -200               0
1.38944               -0.1161955       -16.28875        -54.02766        56.99195             -200               0             -200               0
1.39604               -0.1191263       -16.43119        -53.77737        53.51917             -200               0             -200               0
1.40264               -0.1220998       -16.57561        -53.53667        50.06497             -200               0             -200               0
1.40924               -0.1251304       -16.72207        -53.30478        46.63541             -200               0             -200               0
1.41584               -0.1282315       -16.87065        -53.08082        43.23592             -200               0             -200               0
1.42244               -0.1314182       -17.02139        -52.86385        39.87133             -200               0             -200               0
1.42904               -0.1347082       -17.17433        -52.65291        36.54577             -200               0             -200               0
1.43564               -0.1381148       -17.32949        -52.44693        33.26267             -200               0             -200               0
1.44224               -0.1416557        -17.4869        -52.24484        30.02472             -200               0             -200               0
1.44884               -0.1453434       -17.64654        -52.04551        26.83378             -200               0             -200               0
1.45545               -0.1491923       -17.80841        -51.84778        23.69084             -200               0             -200               0
1.46205               -0.1532154       -17.97249        -51.65048        20.59599             -200               0             -200               0
1.46865               -0.1574233       -18.13875        -51.45246        17.54835             -200               0             -200               0
1.47525               -0.1618248       -18.30715        -51.25255        14.54605             -200               0             -200               0
1.48185                -0.166428       -18.47766        -51.04967        11.58625             -200               0             -200               0
1.48845               -0.1712381       -18.65025        -50.84276        8.665106             -200               0             -200               0
1.49505               -0.1762573       -18.82487        -50.63089        5.777875             -200               0             -200               0
1.50165               -0.1814885       -19.00149         -50.4132        2.918962             -200               0             -200               0
1.50825                -0.186931       -19.18008          -50.189       0.0820386             -200               0             -200               0
1.51485               -0.1925822       -19.36064        -49.95773        -2.73981             -200               0             -200               0
1.52145               -0.1984395       -19.54315        -49.71899       -5.553918             -200               0             -200               0
1.52805               -0.2044979       -19.72762        -49.47256       -8.367856             -200               0             -200               0
1.53465               -0.2107517       -19.91406        -49.21839       -11.18923             -200               0             -200               0
1.54125               -0.2171951       -20.10253         -48.9566       -14.02549             -200               0             -200               0
1.54785               -0.2238221       -20.29307        -48.68749       -16.88376             -200               0             -200               0
1.55446               -0.2306267       -20.48575        -48.41147       -19.77063             -200               0             -200               0
1.56106               -0.2376045       -20.68065        -48.12912       -22.69207             -200               0             -200               0
1.56766                -0.244752       -20.87789        -47.84109       -25.65332             -200               0             -200               0
1.57426               -0.2520672       -21.07759        -47.54814       -28.65876             -200               0             -200               0
1.58086               -0.2595505       -21.27987        -47.25107       -31.71194             -200               0             -200               0
1.58746               -0.2672041       -21.48489        -46.95073       -34.81556             -200               0             -200               0
1.59406               -0.2750334       -21.69279        -46.64797       -37.97143             -200               0             -200               0
1.60066               -0.2830459       -21.90375        -46.34365       -41.18062             -200               0             -200               0
1.60726               -0.2912544       -22.11793         -46.0386        -44.4434             -200               0             -200               0
1.61386               -0.2996739        -22.3355        -45.73361        -47.7594             -200               0             -200               0
1.62046               -0.3083213       -22.55663        -45.42944       -51.12765             -200               0             -200               0
1.62706               -0.3172195       -22.78149        -45.12679       -54.54666             -200               0             -200               0
1.63366               -0.3263905       -23.01022         -44.8263        -58.0145             -200               0             -200               0
1.64026               -0.3358663       -23.24298        -44.52855       -61.52888             -200               0             -200               0
1.64686               -0.3456749       -23.47989        -44.23405        -65.0872             -200               0             -200               0
1.65347               -0.3558502       -23.72106        -43.94327       -68.68666             -200               0             -200               0
1.66007               -0.3664266        -23.9666        -43.65658       -72.32426             -200               0             -200               0
1.66667               -0.3774416       -24.21657        -43.37432       -75.99689             -200               0             -200               0
1.67327               -0.3889337       -24.47104        -43.09676       -79.70135             -200               0             -200               0
1.67987               -0.4009411       -24.73002        -42.82412        -83.4344             -200               0             -200               0
1.68647               -0.4135029       -24.99353        -42.55656        -87.1928             -200               0             -200               0
1.69307               -0.4266569       -25.26156        -42.29419       -90.97331             -200               0             -200               0
1.69967               -0.4404427       -25.53407        -42.03707       -94.77275             -200               0             -200               0
1.70627               -0.4548938       -25.81099        -41.78523       -98.58797             -200               0             -200               0
1.71287               -0.4700466       -26.09227        -41.53863       -102.4159             -200               0             -200               0
1.71947               -0.4859321       -26.37782        -41.29723       -106.2537             -200               0             -200               0
1.72607               -0.5025796       -26.66751        -41.06091       -110.0984             -200               0             -200               0
1.73267               -0.5200172       -26.96127        -40.82955       -113.9473             -200               0             -200               0
1.73927               -0.5382661       -27.25895        -40.60296       -117.7977             -200               0             -200               0
1.74587               -0.5573484       -27.56045        -40.38095       -121.6474             -200               0             -200               0
1.75248               -0.5772802       -27.86565        -40.16329       -125.4939             -200               0             -200               0
1.75908               -0.5980755       -28.17443        -39.94971       -129.3351             -200               0             -200               0
1.76568               -0.6197445       -28.48671        -39.73993       -133.1692             -200               0             -200               0
1.77228               -0.6422958        -28.8024        -39.53363       -136.9942             -200               0             -200               0
1.77888               -0.6657346       -29.12144        -39.33047       -140.8088             -200               0             -200               0
1.78548               -0.6900639       -29.44377        -39.13011       -144.6116             -200               0             -200               0
1.79208               -0.7152878       -29.76938        -38.93217       -148.4014             -200               0             -200               0
1.79868               -0.7414062       -30.09829        -38.73625       -152.1775             -200               0             -200               0
1.80528               -0.7684208       -30.43052        -38.54196       -155.9394             -200               0             -200               0
1.81188               -0.7963336       -30.76614         -38.3489       -159.6866             -200               0             -200               0
1.81848               -0.8251482       -31.10527        -38.15664       -163.4191             -200               0             -200               0
1.82508               -0.8548688       -31.44802        -37.96477       -167.1373             -200               0             -200               0
1.83168               -0.8855053       -31.79457        -37.77289       -170.8417             -200               0             -200               0
1.83828               -0.9170699       -32.14511         -37.5806       -174.5331             -200               0             -200               0
1.84488               -0.9495787       -32.49985         -37.3875       -178.2126             -200               0             -200               0
1.85149               -0.9830537       -32.85904        -37.19323        178.1183             -200               0             -200               0
