! TOUCHSTONE file generated by CST MICROWAVE STUDIO
! Date and time: Sat Mar  8 13:55:16 2025
! Project name: non_fractured.cst
! Parameters = {B=2.5; D=160; F=10; Feed=2.85625; L=100; M=20; R=0.384908; S=1.5; Theta=0; length=57.125; wave=114.25}
! Header version: 2024
! Port assignment regex: !\s*Touchstone port\s*([0-9]+)\s*=\s*(CST MWS port|CST DES external port|CST DES block port)\s*(.+)\s* \(\"(.*)\"\)(\s*mode\s*([0-9]+))?.*
! Touchstone port assignment:
! Touchstone port 1 = CST MWS port 1 ("")
! Touchstone port 2 = CST MWS port 2 ("")
# GHz S DB R 50
1                     -0.0172125       -9.743002        -69.38643       -128.9574             -200               0             -200               0
1.0066               -0.01813293       -9.832831        -68.98434       -133.3169             -200               0             -200               0
1.0132               -0.01913689        -9.92288        -68.61703       -137.6736             -200               0             -200               0
1.0198               -0.02021649       -10.01308        -68.28254       -142.0134             -200               0             -200               0
1.0264               -0.02135992        -10.1034         -67.9791       -146.3238             -200               0             -200               0
1.033                -0.02255449       -10.19378        -67.70511       -150.5927             -200               0             -200               0
1.0396               -0.02378653       -10.28421         -67.4591       -154.8085             -200               0             -200               0
1.0462               -0.02504251       -10.37469        -67.23965       -158.9598             -200               0             -200               0
1.05281              -0.02630787       -10.46522        -67.04541        -163.035             -200               0             -200               0
1.05941              -0.02756705       -10.55583        -66.87499       -167.0225             -200               0             -200               0
1.06601              -0.02880913       -10.64657        -66.72699       -170.9105             -200               0             -200               0
1.07261              -0.03001965        -10.7375        -66.59991       -174.6868             -200               0             -200               0
1.07921              -0.03118728       -10.82869        -66.49208       -178.3389             -200               0             -200               0
1.08581              -0.03230401       -10.92023        -66.40169        178.1459             -200               0             -200               0
1.09241              -0.03336138       -11.01222        -66.32662        174.7805             -200               0             -200               0
1.09901              -0.03435472       -11.10476        -66.26448        171.5776             -200               0             -200               0
1.10561              -0.03528247       -11.19796        -66.21251        168.5492             -200               0             -200               0
1.11221              -0.03614268       -11.29193        -66.16751        165.7065             -200               0             -200               0
1.11881              -0.03693974        -11.3868        -66.12584        163.0585             -200               0             -200               0
1.12541              -0.03767807       -11.48266        -66.08338        160.6119             -200               0             -200               0
1.13201               -0.0383652       -11.57963        -66.03558        158.3694             -200               0             -200               0
1.13861              -0.03901161        -11.6778        -65.97753        156.3286             -200               0             -200               0
1.14521              -0.03962898       -11.77726        -65.90408        154.4815             -200               0             -200               0
1.15182              -0.04023049       -11.87807        -65.81013        152.8128             -200               0             -200               0
1.15842              -0.04083229       -11.98031        -65.69082           151.3             -200               0             -200               0
1.16502              -0.04144999         -12.084        -65.54195        149.9131             -200               0             -200               0
1.17162              -0.04210069       -12.18918        -65.36025         148.616             -200               0             -200               0
1.17822              -0.04280063       -12.29585        -65.14367         147.368             -200               0             -200               0
1.18482              -0.04356698       -12.40401         -64.8916        146.1262             -200               0             -200               0
1.19142              -0.04441497       -12.51363        -64.60486        144.8484             -200               0             -200               0
1.19802              -0.04535973       -12.62466        -64.28563        143.4954             -200               0             -200               0
1.20462              -0.04641386       -12.73706         -63.9372        142.0336             -200               0             -200               0
1.21122              -0.04758938       -12.85076         -63.5637         140.436             -200               0             -200               0
1.21782              -0.04889442       -12.96568        -63.16968        138.6832             -200               0             -200               0
1.22442              -0.05033593       -13.08174        -62.75989         136.763             -200               0             -200               0
1.23102              -0.05191892       -13.19885        -62.33893        134.6699             -200               0             -200               0
1.23762              -0.05364392       -13.31692        -61.91111        132.4039             -200               0             -200               0
1.24422              -0.05550984       -13.43585        -61.48033        129.9695             -200               0             -200               0
1.25083               -0.0575127       -13.55558        -61.04997        127.3746             -200               0             -200               0
1.25743              -0.05964653       -13.67602        -60.62293        124.6293             -200               0             -200               0
1.26403               -0.0619032        -13.7971        -60.20162        121.7451             -200               0             -200               0
1.27063              -0.06427209       -13.91877          -59.788        118.7345             -200               0             -200               0
1.27723              -0.06674049         -14.041        -59.38363          115.61             -200               0             -200               0
1.28383              -0.06929609       -14.16375        -58.98974        112.3843             -200               0             -200               0
1.29043              -0.07192392       -14.28703        -58.60723        109.0697             -200               0             -200               0
1.29703              -0.07460857       -14.41084        -58.23678        105.6781             -200               0             -200               0
1.30363              -0.07733761       -14.53523        -57.87883        102.2206             -200               0             -200               0
1.31023              -0.08009485       -14.66023        -57.53368        98.70816             -200               0             -200               0
1.31683              -0.08286883       -14.78592        -57.20143        95.15073             -200               0             -200               0
1.32343              -0.08564698       -14.91238         -56.8821        91.55789             -200               0             -200               0
1.33003               -0.0884207       -15.03971        -56.57557        87.93863             -200               0             -200               0
1.33663              -0.09118146       -15.16802        -56.28165        84.30141             -200               0             -200               0
1.34323              -0.09392534       -15.29744        -56.00006        80.65421             -200               0             -200               0
1.34984              -0.09664917        -15.4281        -55.73044        77.00457             -200               0             -200               0
1.35644              -0.09935413       -15.56012        -55.47238        73.35957             -200               0             -200               0
1.36304               -0.1020441       -15.69365        -55.22538        69.72594             -200               0             -200               0
1.36964               -0.1047253       -15.82882        -54.98891        66.10999             -200               0             -200               0
1.37624               -0.1074076       -15.96575        -54.76236        62.51767             -200               0             -200               0
1.38284               -0.1101015       -16.10457        -54.54506        58.95452             -200               0             -200               0
1.38944               -0.1128231       -16.24538        -54.33629        55.42574             -200               0             -200               0
1.39604               -0.1155887       -16.38828        -54.13527        51.93607             -200               0             -200               0
1.40264               -0.1184153       -16.53334        -53.94115        48.48983             -200               0             -200               0
1.40924               -0.1213246       -16.68063        -53.75303        45.09083             -200               0             -200               0
1.41584               -0.1243346        -16.8302        -53.56993        41.74236             -200               0             -200               0
1.42244               -0.1274684       -16.98205        -53.39086         38.4471             -200               0             -200               0
1.42904               -0.1307445       -17.13621        -53.21473        35.20707             -200               0             -200               0
1.43564               -0.1341841       -17.29265        -53.04045        32.02355             -200               0             -200               0
1.44224               -0.1378054       -17.45135        -52.86688        28.89703             -200               0             -200               0
1.44884               -0.1416243       -17.61225        -52.69286        25.82711             -200               0             -200               0
1.45545               -0.1456571        -17.7753        -52.51723        22.81251             -200               0             -200               0
1.46205                -0.149915       -17.94042        -52.33886        19.85096             -200               0             -200               0
1.46865               -0.1544089       -18.10754        -52.15665        16.93925             -200               0             -200               0
1.47525               -0.1591449       -18.27657        -51.96956        14.07318             -200               0             -200               0
1.48185               -0.1641272       -18.44741        -51.77664        11.24767             -200               0             -200               0
1.48845               -0.1693563       -18.61999        -51.57706        8.456774             -200               0             -200               0
1.49505               -0.1748304       -18.79423        -51.37011        5.693837             -200               0             -200               0
1.50165               -0.1805444       -18.97006        -51.15524        2.951617             -200               0             -200               0
1.50825               -0.1864897       -19.14742        -50.93207       0.2224685             -200               0             -200               0
1.51485               -0.1926575       -19.32626        -50.70037       -2.501475             -200               0             -200               0
1.52145               -0.1990348       -19.50658        -50.46012       -5.228096             -200               0             -200               0
1.52805               -0.2056088       -19.68835        -50.21146       -7.965096             -200               0             -200               0
1.53465                -0.212365       -19.87161        -49.95468        -10.7198             -200               0             -200               0
1.54125               -0.2192889       -20.05641        -49.69025       -13.49899             -200               0             -200               0
1.54785               -0.2263662        -20.2428        -49.41873       -16.30879             -200               0             -200               0
1.55446               -0.2335833       -20.43088        -49.14081       -19.15449             -200               0             -200               0
1.56106               -0.2409274       -20.62077        -48.85727       -22.04055             -200               0             -200               0
1.56766               -0.2483892       -20.81261        -48.56892       -24.97055             -200               0             -200               0
1.57426               -0.2559608       -21.00657        -48.27662       -27.94713             -200               0             -200               0
1.58086               -0.2636386       -21.20281        -47.98123       -30.97209             -200               0             -200               0
1.58746               -0.2714211       -21.40154        -47.68361       -34.04637             -200               0             -200               0
1.59406               -0.2793107       -21.60295        -47.38459       -37.17018             -200               0             -200               0
1.60066               -0.2873165       -21.80727        -47.08495       -40.34302             -200               0             -200               0
1.60726                -0.295448        -22.0147        -46.78543       -43.56377             -200               0             -200               0
1.61386               -0.3037231       -22.22546         -46.4867       -46.83083             -200               0             -200               0
1.62046               -0.3121614       -22.43976        -46.18938       -50.14214             -200               0             -200               0
1.62706               -0.3207866        -22.6578        -45.89401       -53.49528             -200               0             -200               0
1.63366               -0.3296282       -22.87976        -45.60105       -56.88755             -200               0             -200               0
1.64026               -0.3387169       -23.10582        -45.31092       -60.31605             -200               0             -200               0
1.64686               -0.3480898       -23.33612        -45.02395       -63.77771             -200               0             -200               0
1.65347               -0.3577834       -23.57078        -44.74039        -67.2694             -200               0             -200               0
1.66007               -0.3678363       -23.80991        -44.46046        -70.7879             -200               0             -200               0
1.66667               -0.3782934       -24.05357        -44.18429       -74.33001             -200               0             -200               0
1.67327               -0.3891919       -24.30181        -43.91196       -77.89257             -200               0             -200               0
1.67987               -0.4005762       -24.55464         -43.6435       -81.47249             -200               0             -200               0
1.68647               -0.4124871       -24.81205        -43.37888       -85.06675             -200               0             -200               0
1.69307               -0.4249632       -25.07401        -43.11803       -88.67249             -200               0             -200               0
1.69967               -0.4380436       -25.34044        -42.86082       -92.28698             -200               0             -200               0
1.70627               -0.4517627       -25.61127        -42.60709       -95.90767             -200               0             -200               0
1.71287               -0.4661522        -25.8864        -42.35665       -99.53219             -200               0             -200               0
1.71947               -0.4812416       -26.16571        -42.10924       -103.1584             -200               0             -200               0
1.72607               -0.4970547       -26.44909        -41.86461       -106.7843             -200               0             -200               0
1.73267               -0.5136116        -26.7364        -41.62245       -110.4084             -200               0             -200               0
1.73927               -0.5309317       -27.02753        -41.38245        -114.029             -200               0             -200               0
1.74587               -0.5490246       -27.32234        -41.14425       -117.6452             -200               0             -200               0
1.75248               -0.5679024       -27.62075         -40.9075        -121.256             -200               0             -200               0
1.75908               -0.5875678       -27.92265        -40.67183       -124.8608             -200               0             -200               0
1.76568               -0.6080243       -28.22798        -40.43685       -128.4594             -200               0             -200               0
1.77228                -0.629271       -28.53669         -40.2022       -132.0519             -200               0             -200               0
1.77888               -0.6513057       -28.84878        -39.96748       -135.6385             -200               0             -200               0
1.78548               -0.6741257       -29.16426        -39.73233         -139.22             -200               0             -200               0
1.79208               -0.6977263       -29.48318         -39.4964       -142.7973             -200               0             -200               0
1.79868               -0.7221054       -29.80564        -39.25935       -146.3716             -200               0             -200               0
1.80528                -0.747261       -30.13177        -39.02086       -149.9444             -200               0             -200               0
1.81188               -0.7731932       -30.46173        -38.78065       -153.5175             -200               0             -200               0
1.81848               -0.7999068       -30.79573        -38.53848        -157.093             -200               0             -200               0
1.82508               -0.8274116       -31.13402        -38.29412       -160.6729             -200               0             -200               0
1.83168               -0.8557211       -31.47685        -38.04742       -164.2597             -200               0             -200               0
1.83828               -0.8848555       -31.82453        -37.79824       -167.8559             -200               0             -200               0
1.84488               -0.9148441       -32.17738        -37.54651       -171.4639             -200               0             -200               0
1.85149               -0.9457207       -32.53574        -37.29219       -175.0864             -200               0             -200               0
