! TOUCHSTONE file generated by CST MICROWAVE STUDIO
! Date and time: Sat Mar  8 13:54:40 2025
! Project name: non_fractured.cst
! Parameters = {B=2.5; D=160; F=10; Feed=2.85625; L=100; M=10; R=0.384908; S=1.5; Theta=180; length=57.125; wave=114.25}
! Header version: 2024
! Port assignment regex: !\s*Touchstone port\s*([0-9]+)\s*=\s*(CST MWS port|CST DES external port|CST DES block port)\s*(.+)\s* \(\"(.*)\"\)(\s*mode\s*([0-9]+))?.*
! Touchstone port assignment:
! Touchstone port 1 = CST MWS port 1 ("")
! Touchstone port 2 = CST MWS port 2 ("")
# GHz S DB R 50
1                    -0.01691753       -9.747033        -69.56245       -115.1054             -200               0             -200               0
1.0066               -0.01766734       -9.837004        -68.96794       -119.9996             -200               0             -200               0
1.0132               -0.01850287       -9.927361        -68.43119        -124.941             -200               0             -200               0
1.0198                -0.0194189       -10.01804        -67.94711       -129.9101             -200               0             -200               0
1.0264               -0.02040894       -10.10898        -67.51158       -134.8909             -200               0             -200               0
1.033                -0.02146275       -10.20013        -67.12122       -139.8697             -200               0             -200               0
1.0396               -0.02257065       -10.29145        -66.77328       -144.8347             -200               0             -200               0
1.0462                -0.0237212       -10.38292         -66.4655       -149.7752             -200               0             -200               0
1.05281               -0.0249015       -10.47453        -66.19604       -154.6808             -200               0             -200               0
1.05941              -0.02610078       -10.56629        -65.96339       -159.5415             -200               0             -200               0
1.06601              -0.02730375        -10.6582        -65.76634       -164.3473             -200               0             -200               0
1.07261              -0.02850078       -10.75031        -65.60392       -169.0876             -200               0             -200               0
1.07921              -0.02967777       -10.84265        -65.47536       -173.7512             -200               0             -200               0
1.08581               -0.0308258        -10.9353        -65.38004       -178.3259             -200               0             -200               0
1.09241              -0.03193506       -11.02832        -65.31748        177.2019             -200               0             -200               0
1.09901              -0.03299744       -11.12181        -65.28726        172.8472             -200               0             -200               0
1.10561              -0.03400867       -11.21584          -65.289        168.6272             -200               0             -200               0
1.11221              -0.03496422       -11.31053        -65.32226        164.5616             -200               0             -200               0
1.11881              -0.03586412       -11.40598        -65.38649         160.673             -200               0             -200               0
1.12541              -0.03670814       -11.50229        -65.48091        156.9872             -200               0             -200               0
1.13201              -0.03750087       -11.59956        -65.60433        153.5342             -200               0             -200               0
1.13861              -0.03824894        -11.6979        -65.75495        150.3481             -200               0             -200               0
1.14521              -0.03895911       -11.79741        -65.93008        147.4674             -200               0             -200               0
1.15182              -0.03964204       -11.89816        -66.12578        144.9351             -200               0             -200               0
1.15842              -0.04031015       -12.00024        -66.33638        142.7972             -200               0             -200               0
1.16502              -0.04097639        -12.1037        -66.55392        141.1003             -200               0             -200               0
1.17162              -0.04165651       -12.20861        -66.76765        139.8876             -200               0             -200               0
1.17822              -0.04236531       -12.31499        -66.96355        139.1915             -200               0             -200               0
1.18482              -0.04311908       -12.42286        -67.12437        139.0235             -200               0             -200               0
1.19142              -0.04393365       -12.53223        -67.23036        139.3621             -200               0             -200               0
1.19802               -0.0448248       -12.64307        -67.26119        140.1419             -200               0             -200               0
1.20462              -0.04580729       -12.75538        -67.19893        141.2486             -200               0             -200               0
1.21122              -0.04689483       -12.86909        -67.03153        142.5256             -200               0             -200               0
1.21782              -0.04810007       -12.98416        -66.75566        143.7932             -200               0             -200               0
1.22442               -0.0494335       -13.10051        -66.37742        144.8768             -200               0             -200               0
1.23102              -0.05090218       -13.21809        -65.91083        145.6326             -200               0             -200               0
1.23762              -0.05251311       -13.33679        -65.37462        145.9632             -200               0             -200               0
1.24422              -0.05427022       -13.45655        -64.78879        145.8194             -200               0             -200               0
1.25083              -0.05617402       -13.57726        -64.17194        145.1925             -200               0             -200               0
1.25743              -0.05822215       -13.69885        -63.53981         144.103             -200               0             -200               0
1.26403              -0.06041186       -13.82123        -62.90481        142.5883             -200               0             -200               0
1.27063               -0.0627359       -13.94433        -62.27617        140.6938             -200               0             -200               0
1.27723              -0.06518706        -14.0681        -61.66049        138.4671             -200               0             -200               0
1.28383              -0.06775276       -14.19247        -61.06222        135.9538             -200               0             -200               0
1.29043              -0.07042376       -14.31741        -60.48422        133.1961             -200               0             -200               0
1.29703              -0.07318459        -14.4429        -59.92817        130.2319             -200               0             -200               0
1.30363              -0.07602162       -14.56894        -59.39494        127.0944             -200               0             -200               0
1.31023              -0.07892065       -14.69554        -58.88476        123.8129             -200               0             -200               0
1.31683              -0.08186799       -14.82273         -58.3975        120.4128             -200               0             -200               0
1.32343              -0.08484894       -14.95056        -57.93271        116.9165             -200               0             -200               0
1.33003              -0.08785091        -15.0791        -57.48976        113.3434             -200               0             -200               0
1.33663              -0.09086134       -15.20844        -57.06791        109.7104             -200               0             -200               0
1.34323                -0.093872       -15.33868        -56.66631        106.0326             -200               0             -200               0
1.34984               -0.0968736       -15.46992        -56.28408        102.3234             -200               0             -200               0
1.35644              -0.09986213       -15.60229        -55.92029        98.59446             -200               0             -200               0
1.36304               -0.1028341       -15.73593        -55.57398        94.85656             -200               0             -200               0
1.36964               -0.1057902       -15.87096        -55.24417        91.11921             -200               0             -200               0
1.37624               -0.1087342       -16.00753        -54.92985        87.39106             -200               0             -200               0
1.38284               -0.1116713       -16.14577        -54.63002        83.67995             -200               0             -200               0
1.38944               -0.1146107       -16.28582        -54.34364        79.99296             -200               0             -200               0
1.39604               -0.1175646       -16.42781        -54.06962         76.3365             -200               0             -200               0
1.40264               -0.1205464       -16.57183        -53.80688        72.71634             -200               0             -200               0
1.40924               -0.1235732       -16.71801         -53.5543         69.1376             -200               0             -200               0
1.41584               -0.1266629       -16.86644        -53.31071        65.60475             -200               0             -200               0
1.42244                -0.129836       -17.01717        -53.07492        62.12159             -200               0             -200               0
1.42904               -0.1331136       -17.17026        -52.84571        58.69124             -200               0             -200               0
1.43564               -0.1365159       -17.32575        -52.62181        55.31604             -200               0             -200               0
1.44224               -0.1400658       -17.48366        -52.40196        51.99753             -200               0             -200               0
1.44884               -0.1437836       -17.64398        -52.18485        48.73641             -200               0             -200               0
1.45545               -0.1476896       -17.80669        -51.96919        45.53245             -200               0             -200               0
1.46205               -0.1518042       -17.97175         -51.7537        42.38448             -200               0             -200               0
1.46865               -0.1561421       -18.13911        -51.53711        39.29035             -200               0             -200               0
1.47525               -0.1607203        -18.3087        -51.31822        36.24688             -200               0             -200               0
1.48185               -0.1655502       -18.48045        -51.09589        33.24996             -200               0             -200               0
1.48845               -0.1706418       -18.65427        -50.86907        30.29451             -200               0             -200               0
1.49505               -0.1760019       -18.83007        -50.63685        27.37461             -200               0             -200               0
1.50165               -0.1816346       -19.00776        -50.39843        24.48359             -200               0             -200               0
1.50825               -0.1875407       -19.18727        -50.15319        21.61418             -200               0             -200               0
1.51485               -0.1937184       -19.36851        -49.90066        18.75869             -200               0             -200               0
1.52145               -0.2001624       -19.55141        -49.64056        15.90919             -200               0             -200               0
1.52805               -0.2068646       -19.73591         -49.3728        13.05771             -200               0             -200               0
1.53465               -0.2138172       -19.92199        -49.09745        10.19644             -200               0             -200               0
1.54125               -0.2210079       -20.10961        -48.81476        7.317925             -200               0             -200               0
1.54785               -0.2284239       -20.29877        -48.52513        4.415229             -200               0             -200               0
1.55446               -0.2360529        -20.4895        -48.22909        1.482079             -200               0             -200               0
1.56106               -0.2438797       -20.68184        -47.92728       -1.487024             -200               0             -200               0
1.56766               -0.2518925       -20.87586        -47.62044        -4.49674             -200               0             -200               0
1.57426               -0.2600781       -21.07165        -47.30936       -7.550841             -200               0             -200               0
1.58086               -0.2684259       -21.26934        -46.99487       -10.65221             -200               0             -200               0
1.58746               -0.2769271       -21.46905         -46.6778       -13.80287             -200               0             -200               0
1.59406               -0.2855747       -21.67094          -46.359         -17.004             -200               0             -200               0
1.60066                -0.294367        -21.8752        -46.03928       -20.25605             -200               0             -200               0
1.60726               -0.3033039         -22.082        -45.71943       -23.55876             -200               0             -200               0
1.61386               -0.3123896       -22.29154        -45.40018       -26.91126             -200               0             -200               0
1.62046               -0.3216324       -22.50404        -45.08221       -30.31217             -200               0             -200               0
1.62706               -0.3310446        -22.7197        -44.76614       -33.75968             -200               0             -200               0
1.63366               -0.3406432       -22.93872        -44.45252       -37.25158             -200               0             -200               0
1.64026               -0.3504501       -23.16131        -44.14186       -40.78541             -200               0             -200               0
1.64686               -0.3604898       -23.38766        -43.83456       -44.35847             -200               0             -200               0
1.65347               -0.3707904       -23.61795          -43.531       -47.96789             -200               0             -200               0
1.66007               -0.3813852       -23.85233        -43.23148       -51.61071             -200               0             -200               0
1.66667               -0.3923093       -24.09095        -42.93623       -55.28389             -200               0             -200               0
1.67327               -0.4036006       -24.33392        -42.64544       -58.98437             -200               0             -200               0
1.67987               -0.4152981       -24.58134        -42.35923       -62.70911             -200               0             -200               0
1.68647                -0.427445       -24.83327        -42.07769       -66.45511             -200               0             -200               0
1.69307               -0.4400814       -25.08975        -41.80086       -70.21941             -200               0             -200               0
1.69967               -0.4532487       -25.35078         -41.5287       -73.99919             -200               0             -200               0
1.70627               -0.4669884       -25.61635        -41.26119       -77.79168             -200               0             -200               0
1.71287               -0.4813384       -25.88643        -40.99821       -81.59428             -200               0             -200               0
1.71947               -0.4963376       -26.16094        -40.73964       -85.40451             -200               0             -200               0
1.72607               -0.5120216       -26.43979        -40.48533       -89.22003             -200               0             -200               0
1.73267               -0.5284208        -26.7229        -40.23508       -93.03868             -200               0             -200               0
1.73927               -0.5455649       -27.01016        -39.98868       -96.85848             -200               0             -200               0
1.74587               -0.5634766       -27.30142        -39.74588       -100.6776             -200               0             -200               0
1.75248               -0.5821787       -27.59657        -39.50642       -104.4945             -200               0             -200               0
1.75908                -0.601687        -27.8955        -39.27002       -108.3078             -200               0             -200               0
1.76568               -0.6220132       -28.19808        -39.03636       -112.1163             -200               0             -200               0
1.77228               -0.6431682        -28.5042        -38.80515       -115.9189             -200               0             -200               0
1.77888               -0.6651575        -28.8138        -38.57605       -119.7151             -200               0             -200               0
1.78548               -0.6879822       -29.12678        -38.34873       -123.5043             -200               0             -200               0
1.79208                -0.711644       -29.44314        -38.12286       -127.2864             -200               0             -200               0
1.79868               -0.7361392       -29.76284         -37.8981       -131.0611             -200               0             -200               0
1.80528               -0.7614664       -30.08594        -37.67411        -134.829             -200               0             -200               0
1.81188               -0.7876214       -30.41247        -37.45057       -138.5903             -200               0             -200               0
1.81848               -0.8146025       -30.74255        -37.22716       -142.3459             -200               0             -200               0
1.82508               -0.8424091       -31.07632        -37.00358       -146.0967             -200               0             -200               0
1.83168                -0.871043       -31.41395        -36.77955       -149.8439             -200               0             -200               0
1.83828               -0.9005091       -31.75568        -36.55482       -153.5889             -200               0             -200               0
1.84488               -0.9308191       -32.10173        -36.32914       -157.3331             -200               0             -200               0
1.85149               -0.9619877       -32.45242        -36.10231       -161.0785             -200               0             -200               0
