! TOUCHSTONE file generated by CST MICROWAVE STUDIO
! Date and time: Tue Mar 18 20:31:45 2025
! Project name: hairline.cst
! Parameters = {B=12.5; D=160; F=25; Feed=2.85625; Fracture=2; L=100; M=50; R=0.384908; S=1.5; Theta=90; length=57.125; wave=114.25}
! Header version: 2024
! Port assignment regex: !\s*Touchstone port\s*([0-9]+)\s*=\s*(CST MWS port|CST DES external port|CST DES block port)\s*(.+)\s* \(\"(.*)\"\)(\s*mode\s*([0-9]+))?.*
! Touchstone port assignment:
! Touchstone port 1 = CST MWS port 1 ("")
! Touchstone port 2 = CST MWS port 2 ("")
# GHz S DB R 50
1                    -0.01942247       -10.01794        -70.61304        116.8719             -200               0             -200               0
1.00758              -0.02041127        -10.1201        -70.81786        111.7402             -200               0             -200               0
1.01515              -0.02141022       -10.22277        -71.05342        106.7764             -200               0             -200               0
1.02273               -0.0224133       -10.32599        -71.32112        102.0048             -200               0             -200               0
1.0303               -0.02341585        -10.4298        -71.62232        97.45578             -200               0             -200               0
1.03788              -0.02441189       -10.53424         -71.9582        93.16657             -200               0             -200               0
1.04545              -0.02540107       -10.63936        -72.32954         89.1836             -200               0             -200               0
1.05303              -0.02637805       -10.74523        -72.73633        85.56436             -200               0             -200               0
1.06061              -0.02734209       -10.85189        -73.17722        82.37963             -200               0             -200               0
1.06818              -0.02829232       -10.95941        -73.64857        79.71545             -200               0             -200               0
1.07576               -0.0292298       -11.06785        -74.14306         77.6736             -200               0             -200               0
1.08333              -0.03015503       -11.17729        -74.64772        76.36835             -200               0             -200               0
1.09091              -0.03107319       -11.28777        -75.14139        75.91552             -200               0             -200               0
1.09848              -0.03198519       -11.39937        -75.59227        76.40804             -200               0             -200               0
1.10606               -0.0328988       -11.51214        -75.95716        77.87324             -200               0             -200               0
1.11364              -0.03381773       -11.62614        -76.18527        80.21716             -200               0             -200               0
1.12121              -0.03474988       -11.74141        -76.22899        83.18219             -200               0             -200               0
1.12879              -0.03570383       -11.85801         -76.0598        86.36212             -200               0             -200               0
1.13636               -0.0366857       -11.97598        -75.68008         89.2958             -200               0             -200               0
1.14394              -0.03770599       -12.09534         -75.1221        91.59501             -200               0             -200               0
1.15152              -0.03877221       -12.21612         -74.4348        93.02753             -200               0             -200               0
1.15909              -0.03989585       -12.33834        -73.66825        93.52117             -200               0             -200               0
1.16667              -0.04108324       -12.46202        -72.86397        93.11671             -200               0             -200               0
1.17424              -0.04234466       -12.58715        -72.05197        91.91315             -200               0             -200               0
1.18182              -0.04368908       -12.71374        -71.25192        90.02774             -200               0             -200               0
1.18939              -0.04512354       -12.84178        -70.47571        87.57396             -200               0             -200               0
1.19697              -0.04665478       -12.97125         -69.7299        84.65205             -200               0             -200               0
1.20455              -0.04829064       -13.10214        -69.01762        81.34649             -200               0             -200               0
1.21212              -0.05003508       -13.23442        -68.33987        77.72689             -200               0             -200               0
1.2197               -0.05189527       -13.36808        -67.69638        73.84996             -200               0             -200               0
1.22727              -0.05387149       -13.50309        -67.08619        69.76179             -200               0             -200               0
1.23485              -0.05596851       -13.63942        -66.50798        65.49988             -200               0             -200               0
1.24242              -0.05818711       -13.77706        -65.96023        61.09489             -200               0             -200               0
1.25                  -0.0605282       -13.91597        -65.44143        56.57201             -200               0             -200               0
1.25758              -0.06298932       -14.05614        -64.95005        51.95215             -200               0             -200               0
1.26515              -0.06557052       -14.19757        -64.48468        47.25278             -200               0             -200               0
1.27273              -0.06826963       -14.34023        -64.04397        42.48862             -200               0             -200               0
1.2803               -0.07108348       -14.48413        -63.62669        37.67224             -200               0             -200               0
1.28788              -0.07400826       -14.62928        -63.23169        32.81444             -200               0             -200               0
1.29545              -0.07704088       -14.77568        -62.85792        27.92464             -200               0             -200               0
1.30303              -0.08017618       -14.92337        -62.50444        23.01112             -200               0             -200               0
1.31061              -0.08341079       -15.07237        -62.17034        18.08126             -200               0             -200               0
1.31818              -0.08674267       -15.22271        -61.85485        13.14174             -200               0             -200               0
1.32576              -0.09016772       -15.37445        -61.55721        8.198647             -200               0             -200               0
1.33333              -0.09368233       -15.52764        -61.27676         3.25763             -200               0             -200               0
1.34091              -0.09728653       -15.68234        -61.01285       -1.676008             -200               0             -200               0
1.34848               -0.1009776       -15.83862         -60.7649       -6.597224             -200               0             -200               0
1.35606               -0.1047568       -15.99655        -60.53236       -11.50116             -200               0             -200               0
1.36364               -0.1086266       -16.15621        -60.31471       -16.38307             -200               0             -200               0
1.37121               -0.1125884       -16.31769        -60.11145       -21.23829             -200               0             -200               0
1.37879               -0.1166485       -16.48107         -59.9221       -26.06217             -200               0             -200               0
1.38636               -0.1208104       -16.64642        -59.74617       -30.85001             -200               0             -200               0
1.39394               -0.1250831       -16.81385        -59.58318       -35.59709             -200               0             -200               0
1.40152               -0.1294735       -16.98343        -59.43263       -40.29858             -200               0             -200               0
1.40909               -0.1339934       -17.15524        -59.29403       -44.94954             -200               0             -200               0
1.41667               -0.1386541       -17.32936        -59.16683       -49.54488             -200               0             -200               0
1.42424               -0.1434675       -17.50586        -59.05044        -54.0794             -200               0             -200               0
1.43182               -0.1484476       -17.68479        -58.94424       -58.54775             -200               0             -200               0
1.43939               -0.1536094       -17.86622        -58.84752       -62.94443             -200               0             -200               0
1.44697               -0.1589678        -18.0502        -58.75951       -67.26387             -200               0             -200               0
1.45455               -0.1645374       -18.23676        -58.67934       -71.50041             -200               0             -200               0
1.46212               -0.1703362       -18.42594        -58.60602       -75.64842             -200               0             -200               0
1.4697                -0.1763804       -18.61776        -58.53845       -79.70236             -200               0             -200               0
1.47727                -0.182685       -18.81223        -58.47539       -83.65689             -200               0             -200               0
1.48485               -0.1892663       -19.00935        -58.41543       -87.50706             -200               0             -200               0
1.49242                 -0.19614       -19.20912        -58.35701       -91.24848             -200               0             -200               0
1.5                   -0.2033201       -19.41153        -58.29839       -94.87757             -200               0             -200               0
1.50758               -0.2108211       -19.61657        -58.23768       -98.39178             -200               0             -200               0
1.51515               -0.2186551       -19.82421        -58.17279         -101.79             -200               0             -200               0
1.52273               -0.2268337       -20.03441        -58.10152       -105.0726             -200               0             -200               0
1.5303                -0.2353679       -20.24717        -58.02157       -108.2423             -200               0             -200               0
1.53788               -0.2442661       -20.46244        -57.93056       -111.3038             -200               0             -200               0
1.54545               -0.2535357       -20.68021        -57.82614       -114.2645             -200               0             -200               0
1.55303               -0.2631838       -20.90043        -57.70604       -117.1344             -200               0             -200               0
1.56061               -0.2732163        -21.1231        -57.56817       -119.9261             -200               0             -200               0
1.56818               -0.2836363       -21.34819        -57.41073       -122.6549             -200               0             -200               0
1.57576               -0.2944461       -21.57569        -57.23225        -125.338             -200               0             -200               0
1.58333               -0.3056495        -21.8056        -57.03175       -127.9944             -200               0             -200               0
1.59091               -0.3172473       -22.03793        -56.80869       -130.6442             -200               0             -200               0
1.59848               -0.3292401        -22.2727         -56.5631       -133.3076             -200               0             -200               0
1.60606               -0.3416287       -22.50993        -56.29549       -136.0042             -200               0             -200               0
1.61364               -0.3544134       -22.74967        -56.00686       -138.7527             -200               0             -200               0
1.62121               -0.3675953       -22.99197        -55.69865       -141.5696             -200               0             -200               0
1.62879               -0.3811767        -23.2369        -55.37258       -144.4694             -200               0             -200               0
1.63636               -0.3951586       -23.48452        -55.03065       -147.4639             -200               0             -200               0
1.64394               -0.4095449       -23.73494          -54.675       -150.5623             -200               0             -200               0
1.65152               -0.4243402       -23.98826        -54.30781       -153.7711             -200               0             -200               0
1.65909               -0.4395502       -24.24458        -53.93125       -157.0946             -200               0             -200               0
1.66667               -0.4551836       -24.50404        -53.54743       -160.5346             -200               0             -200               0
1.67424                 -0.47125       -24.76675         -53.1583       -164.0912             -200               0             -200               0
1.68182               -0.4877615       -25.03285        -52.76569        -167.763             -200               0             -200               0
1.68939               -0.5047328       -25.30249        -52.37124       -171.5473             -200               0             -200               0
1.69697                -0.522181       -25.57581        -51.97642       -175.4404             -200               0             -200               0
1.70455               -0.5401248       -25.85295         -51.5825       -179.4382             -200               0             -200               0
1.71212               -0.5585849       -26.13407        -51.19063        176.4642             -200               0             -200               0
1.7197                 -0.577589       -26.41931        -50.80175        172.2718             -200               0             -200               0
1.72727               -0.5971612       -26.70881        -50.41668        167.9897             -200               0             -200               0
1.73485               -0.6173316       -27.00271         -50.0361        163.6231             -200               0             -200               0
1.74242               -0.6381309       -27.30114         -49.6606        159.1771             -200               0             -200               0
1.75                  -0.6595934       -27.60423        -49.29062        154.6565             -200               0             -200               0
1.75758               -0.6817539       -27.91208        -48.92656        150.0663             -200               0             -200               0
1.76515               -0.7046473       -28.22481        -48.56871        145.4108             -200               0             -200               0
1.77273               -0.7283161       -28.54252         -48.2173        140.6945             -200               0             -200               0
1.7803                -0.7527972       -28.86528        -47.87253        135.9214             -200               0             -200               0
1.78788               -0.7781328       -29.19318        -47.53451        131.0952             -200               0             -200               0
1.79545               -0.8043633       -29.52629        -47.20334        126.2197             -200               0             -200               0
1.80303               -0.8315313       -29.86467        -46.87907        121.2981             -200               0             -200               0
1.81061               -0.8596794       -30.20835        -46.56175        116.3337             -200               0             -200               0
1.81818                -0.888852       -30.55741        -46.25136        111.3292             -200               0             -200               0
1.82576               -0.9190903       -30.91186        -45.94791        106.2874             -200               0             -200               0
1.83333               -0.9504391       -31.27176        -45.65135        101.2109             -200               0             -200               0
1.84091               -0.9829412       -31.63712        -45.36166        96.10199             -200               0             -200               0
1.84848                 -1.01664         -32.008        -45.07877        90.96288             -200               0             -200               0
1.85606                 -1.05158       -32.38442        -44.80262        85.79561             -200               0             -200               0
1.86364                -1.087805       -32.76644        -44.53316        80.60206             -200               0             -200               0
1.87121                -1.125361       -33.15409        -44.27031        75.38401             -200               0             -200               0
1.87879                -1.164291       -33.54744        -44.01398        70.14309             -200               0             -200               0
1.88636                -1.204644       -33.94655        -43.76412        64.88084             -200               0             -200               0
1.89394                -1.246467        -34.3515        -43.52064         59.5987             -200               0             -200               0
1.90152                -1.289811       -34.76238        -43.28345        54.29797             -200               0             -200               0
1.90909                -1.334729       -35.17931        -43.05248        48.97993             -200               0             -200               0
1.91667                -1.381275        -35.6024        -42.82765        43.64572             -200               0             -200               0
1.92424                 -1.42951       -36.03179        -42.60888        38.29644             -200               0             -200               0
1.93182                -1.479498       -36.46763        -42.39609         32.9331             -200               0             -200               0
1.93939                -1.531306        -36.9101        -42.18921        27.55668             -200               0             -200               0
1.94697                -1.585009       -37.35939        -41.98815        22.16805             -200               0             -200               0
1.95455                -1.640688       -37.81567        -41.79285        16.76807             -200               0             -200               0
1.96212                 -1.69843       -38.27917        -41.60323        11.35753             -200               0             -200               0
1.9697                 -1.758331        -38.7501        -41.41923        5.937183             -200               0             -200               0
1.97727                -1.820494       -39.22868        -41.24076       0.5077316             -200               0             -200               0
