! TOUCHSTONE file generated by CST MICROWAVE STUDIO
! Date and time: Tue Mar 18 20:31:51 2025
! Project name: hairline.cst
! Parameters = {B=12.5; D=160; F=25; Feed=2.85625; Fracture=2; L=100; M=50; R=0.384908; S=1.5; Theta=180; length=57.125; wave=114.25}
! Header version: 2024
! Port assignment regex: !\s*Touchstone port\s*([0-9]+)\s*=\s*(CST MWS port|CST DES external port|CST DES block port)\s*(.+)\s* \(\"(.*)\"\)(\s*mode\s*([0-9]+))?.*
! Touchstone port assignment:
! Touchstone port 1 = CST MWS port 1 ("")
! Touchstone port 2 = CST MWS port 2 ("")
# GHz S DB R 50
1                     -0.0193586       -10.00893        -70.64981        117.1815             -200               0             -200               0
1.0076               -0.02034887       -10.11138        -70.85297          112.05             -200               0             -200               0
1.01521              -0.02135013       -10.21434        -71.08675        107.0887             -200               0             -200               0
1.02281              -0.02235629       -10.31785         -71.3525        102.3222             -200               0             -200               0
1.03042              -0.02336121       -10.42196        -71.65148        97.78094             -200               0             -200               0
1.03802              -0.02436199        -10.5267        -71.98476        93.50265             -200               0             -200               0
1.04563              -0.02535409       -10.63212        -72.35296        89.53398             -200               0             -200               0
1.05323              -0.02633429       -10.73829        -72.75587        85.93256             -200               0             -200               0
1.06084              -0.02730233       -10.84527        -73.19186        82.76908             -200               0             -200               0
1.06844              -0.02825734        -10.9531        -73.65693        80.12894             -200               0             -200               0
1.07605              -0.02919772       -11.06187        -74.14333        78.11235             -200               0             -200               0
1.08365              -0.03012817       -11.17162        -74.63759        76.83048             -200               0             -200               0
1.09125               -0.0310496       -11.28244         -75.1181         76.3937             -200               0             -200               0
1.09886              -0.03196616       -11.39437        -75.55293        76.88658             -200               0             -200               0
1.10646              -0.03288391       -11.50748         -75.8994        78.32577             -200               0             -200               0
1.11407              -0.03380815       -11.62183        -76.10828        80.60731             -200               0             -200               0
1.12167               -0.0347458       -11.73746        -76.13463        83.46984             -200               0             -200               0
1.12928              -0.03570371       -11.85443        -75.95269        86.51459             -200               0             -200               0
1.13688              -0.03669175       -11.97276         -75.5666         89.2979             -200               0             -200               0
1.14449              -0.03771827        -12.0925        -75.00847        91.45119             -200               0             -200               0
1.15209              -0.03879288       -12.21367        -74.32572        92.75607             -200               0             -200               0
1.1597               -0.03992172       -12.33629        -73.56651        93.14573             -200               0             -200               0
1.1673               -0.04111753       -12.46037        -72.77074        92.66015             -200               0             -200               0
1.1749               -0.04238746       -12.58592        -71.96737        91.39457             -200               0             -200               0
1.18251              -0.04374087       -12.71293         -71.1755         89.4619             -200               0             -200               0
1.19011              -0.04518485       -12.84139        -70.40677        86.97175             -200               0             -200               0
1.19772              -0.04672772        -12.9713        -69.66767        84.02128             -200               0             -200               0
1.20532               -0.0483747       -13.10263        -68.96134        80.69274             -200               0             -200               0
1.21293              -0.05013191       -13.23537        -68.28887        77.05408             -200               0             -200               0
1.22053              -0.05200424       -13.36948        -67.65007        73.16089             -200               0             -200               0
1.22814              -0.05399535       -13.50496        -67.04407        69.05843             -200               0             -200               0
1.23574              -0.05610708       -13.64176        -66.46959        64.78364             -200               0             -200               0
1.24335              -0.05834098       -13.77987        -65.92523        60.36679             -200               0             -200               0
1.25095              -0.06069735       -13.91927        -65.40949        55.83282             -200               0             -200               0
1.25856              -0.06317582       -14.05994        -64.92092        51.20244             -200               0             -200               0
1.26616              -0.06577482       -14.20186        -64.45814          46.493             -200               0             -200               0
1.27376              -0.06849161       -14.34503        -64.01983        41.71917             -200               0             -200               0
1.28137              -0.07132306       -14.48945         -63.6048        36.89344             -200               0             -200               0
1.28897              -0.07426677       -14.63513        -63.21192        32.02662             -200               0             -200               0
1.29658              -0.07731815       -14.78207        -62.84016        27.12811             -200               0             -200               0
1.30418              -0.08047354        -14.9303        -62.48859        22.20619             -200               0             -200               0
1.31179              -0.08372854       -15.07986        -62.15634        17.26829             -200               0             -200               0
1.31939               -0.0870809       -15.23077        -61.84261        12.32109             -200               0             -200               0
1.327                -0.09052648        -15.3831        -61.54669        7.370724             -200               0             -200               0
1.3346               -0.09406288       -15.53689        -61.26789        2.422875             -200               0             -200               0
1.34221              -0.09768817        -15.6922         -61.0056       -2.517104             -200               0             -200               0
1.34981                -0.101403       -15.84912        -60.75923       -7.444119             -200               0             -200               0
1.35741               -0.1052069        -16.0077        -60.52823       -12.35326             -200               0             -200               0
1.36502                -0.109101       -16.16804        -60.31209       -17.23973             -200               0             -200               0
1.37262               -0.1130896       -16.33021        -60.11029       -22.09879             -200               0             -200               0
1.38023               -0.1171767        -16.4943        -59.92236       -26.92572             -200               0             -200               0
1.38783               -0.1213679       -16.66039         -59.7478       -31.71577             -200               0             -200               0
1.39544               -0.1256721       -16.82858        -59.58614       -36.46414             -200               0             -200               0
1.40304               -0.1300968       -16.99893        -59.43686       -41.16593             -200               0             -200               0
1.41065               -0.1346526       -17.17154        -59.29945       -45.81611             -200               0             -200               0
1.41825               -0.1393519       -17.34649        -59.17334       -50.40953             -200               0             -200               0
1.42586               -0.1442074       -17.52383        -59.05795       -54.94093             -200               0             -200               0
1.43346               -0.1492325       -17.70363        -58.95262       -59.40487             -200               0             -200               0
1.44106               -0.1544428       -17.88595        -58.85662       -63.79582             -200               0             -200               0
1.44867               -0.1598524       -18.07083        -58.76915       -68.10814             -200               0             -200               0
1.45627               -0.1654788       -18.25832        -58.68931       -72.33617             -200               0             -200               0
1.46388               -0.1713374       -18.44844        -58.61608       -76.47427             -200               0             -200               0
1.47148               -0.1774458       -18.64122        -58.54831       -80.51693             -200               0             -200               0
1.47909               -0.1838183       -18.83666        -58.48471       -84.45889             -200               0             -200               0
1.48669               -0.1904723       -19.03477        -58.42383       -88.29533             -200               0             -200               0
1.4943                -0.1974224       -19.23554        -58.36406       -92.02206             -200               0             -200               0
1.5019                -0.2046841       -19.43896        -58.30361       -95.63575             -200               0             -200               0
1.50951               -0.2122695       -19.64502        -58.24052       -99.13423             -200               0             -200               0
1.51711               -0.2201931       -19.85368        -58.17269       -102.5168             -200               0             -200               0
1.52471               -0.2284646       -20.06493        -58.09787       -105.7844             -200               0             -200               0
1.53232               -0.2370954       -20.27873        -58.01373       -108.9404             -200               0             -200               0
1.53992                -0.246094       -20.49506        -57.91789       -111.9901             -200               0             -200               0
1.54753               -0.2554674       -20.71389        -57.80802       -114.9417             -200               0             -200               0
1.55513               -0.2652232       -20.93518        -57.68188       -117.8059             -200               0             -200               0
1.56274               -0.2753657       -21.15893        -57.53747       -120.5963             -200               0             -200               0
1.57034               -0.2858976       -21.38511        -57.37306       -123.3285             -200               0             -200               0
1.57795                -0.296824       -21.61371        -57.18733       -126.0204             -200               0             -200               0
1.58555                -0.308145       -21.84474         -56.9794       -128.6914             -200               0             -200               0
1.59316               -0.3198625        -22.0782         -56.7489       -131.3617             -200               0             -200               0
1.60076               -0.3319781       -22.31412        -56.49601       -134.0513             -200               0             -200               0
1.60837               -0.3444919       -22.55253        -56.22138       -136.7797             -200               0             -200               0
1.61597               -0.3574034       -22.79347        -55.92613       -139.5649             -200               0             -200               0
1.62357               -0.3707163         -23.037         -55.6118       -142.4231             -200               0             -200               0
1.63118               -0.3844296       -23.28318        -55.28021       -145.3678             -200               0             -200               0
1.63878               -0.3985471        -23.5321        -54.93339       -148.4101             -200               0             -200               0
1.64639               -0.4130726       -23.78386        -54.57349       -151.5585             -200               0             -200               0
1.65399               -0.4280106       -24.03855        -54.20272       -154.8188             -200               0             -200               0
1.6616                 -0.443367        -24.2963        -53.82323       -158.1944             -200               0             -200               0
1.6692                -0.4591513       -24.55722        -53.43707       -161.6868             -200               0             -200               0
1.67681               -0.4753754       -24.82146        -53.04618       -165.2956             -200               0             -200               0
1.68441               -0.4920496       -25.08914        -52.65232       -169.0189             -200               0             -200               0
1.69202               -0.5091898       -25.36041        -52.25708       -172.8537             -200               0             -200               0
1.69962               -0.5268141       -25.63542        -51.86188       -176.7963             -200               0             -200               0
1.70722                -0.544943       -25.91432        -51.46796        179.1579             -200               0             -200               0
1.71483               -0.5635989       -26.19725        -51.07639        175.0137             -200               0             -200               0
1.72243                -0.582807       -26.48436        -50.68809        170.7761             -200               0             -200               0
1.73004               -0.6025949        -26.7758        -50.30383        166.4503             -200               0             -200               0
1.73764               -0.6229922        -27.0717        -49.92427        162.0415             -200               0             -200               0
1.74525               -0.6440306       -27.37219        -49.54993        157.5547             -200               0             -200               0
1.75285               -0.6657461       -27.67739        -49.18127        152.9948             -200               0             -200               0
1.76046               -0.6881737       -27.98742        -48.81864        148.3665             -200               0             -200               0
1.76806                -0.711351       -28.30238        -48.46232        143.6742             -200               0             -200               0
1.77567               -0.7353171       -28.62236        -48.11252        138.9223             -200               0             -200               0
1.78327               -0.7601128       -28.94747        -47.76941        134.1147             -200               0             -200               0
1.79087               -0.7857789       -29.27776        -47.43311        129.2551             -200               0             -200               0
1.79848               -0.8123585        -29.6133         -47.1037        124.3471             -200               0             -200               0
1.80608               -0.8398938       -29.95415        -46.78122        119.3941             -200               0             -200               0
1.81369               -0.8684276       -30.30037        -46.46571        114.3989             -200               0             -200               0
1.82129               -0.8980043         -30.652        -46.15716        109.3646             -200               0             -200               0
1.8289                -0.9286667       -31.00907        -45.85556        104.2937             -200               0             -200               0
1.8365                -0.9604585       -31.37162        -45.56086        99.18885             -200               0             -200               0
1.84411               -0.9934244       -31.73969        -45.27303        94.05221             -200               0             -200               0
1.85171                -1.027608       -32.11332          -44.992        88.88598             -200               0             -200               0
1.85932                -1.063053       -32.49254        -44.71773        83.69215             -200               0             -200               0
1.86692                -1.099806        -32.8774        -44.45013        78.47258             -200               0             -200               0
1.87452                -1.137912       -33.26795        -44.18914          73.229             -200               0             -200               0
1.88213                -1.177416       -33.66425        -43.93469        67.96302             -200               0             -200               0
1.88973                -1.218366       -34.06638        -43.68669        62.67614             -200               0             -200               0
1.89734                -1.260812       -34.47442        -43.44506        57.36977             -200               0             -200               0
1.90494                -1.304807       -34.88846        -43.20973         52.0452             -200               0             -200               0
1.91255                -1.350402       -35.30863        -42.98061        46.70367             -200               0             -200               0
1.92015                -1.397657       -35.73505        -42.75763        41.34632             -200               0             -200               0
1.92776                -1.446632       -36.16786         -42.5407        35.97421             -200               0             -200               0
1.93536                -1.497393       -36.60723        -42.32976        30.58835             -200               0             -200               0
1.94297                -1.550014       -37.05334        -42.12471        25.18968             -200               0             -200               0
1.95057                -1.604569       -37.50636        -41.92549        19.77908             -200               0             -200               0
1.95817                -1.661144       -37.96651        -41.73202        14.35738             -200               0             -200               0
1.96578                -1.719828       -38.43401        -41.54424        8.925372             -200               0             -200               0
1.97338                -1.780724       -38.90906        -41.36206        3.483779             -200               0             -200               0
1.98099                -1.843937       -39.39189        -41.18543       -1.966695             -200               0             -200               0
