! TOUCHSTONE file generated by CST MICROWAVE STUDIO
! Date and time: Tue Mar 18 20:31:48 2025
! Project name: hairline.cst
! Parameters = {B=12.5; D=160; F=15; Feed=2.85625; Fracture=1; L=100; M=50; R=0.384908; S=1.5; Theta=180; length=57.125; wave=114.25}
! Header version: 2024
! Port assignment regex: !\s*Touchstone port\s*([0-9]+)\s*=\s*(CST MWS port|CST DES external port|CST DES block port)\s*(.+)\s* \(\"(.*)\"\)(\s*mode\s*([0-9]+))?.*
! Touchstone port assignment:
! Touchstone port 1 = CST MWS port 1 ("")
! Touchstone port 2 = CST MWS port 2 ("")
# GHz S DB R 50
1                    -0.02008238       -9.726773        -68.36473        161.9061             -200               0             -200               0
1.0066               -0.02085824       -9.814048        -68.29767        156.3372             -200               0             -200               0
1.0132               -0.02165229       -9.901803        -68.26082        150.8623             -200               0             -200               0
1.0198               -0.02246393        -9.99005         -68.2544        145.4888             -200               0             -200               0
1.0264               -0.02329039        -10.0788        -68.27876        140.2259             -200               0             -200               0
1.033                -0.02413036       -10.16807        -68.33437        135.0849             -200               0             -200               0
1.0396               -0.02498291       -10.25789        -68.42178        130.0795             -200               0             -200               0
1.0462               -0.02584659       -10.34827        -68.54163        125.2265             -200               0             -200               0
1.05281              -0.02672041       -10.43923        -68.69455        120.5461             -200               0             -200               0
1.05941              -0.02760483        -10.5308        -68.88114         116.063             -200               0             -200               0
1.06601              -0.02849864       -10.62302        -69.10182        111.8072             -200               0             -200               0
1.07261              -0.02940281        -10.7159         -69.3567        107.8149             -200               0             -200               0
1.07921              -0.03031926       -10.80947        -69.64528        104.1301             -200               0             -200               0
1.08581              -0.03124835       -10.90375         -69.9661        100.8057             -200               0             -200               0
1.09241              -0.03219302       -10.99878        -70.31613        97.90439             -200               0             -200               0
1.09901              -0.03315475       -11.09458        -70.68997        95.49889             -200               0             -200               0
1.10561              -0.03413648       -11.19117         -71.0787        93.67023             -200               0             -200               0
1.11221              -0.03514138       -11.28857        -71.46845        92.50212             -200               0             -200               0
1.11881              -0.03617203       -11.38679        -71.83896        92.06894             -200               0             -200               0
1.12541              -0.03723266       -11.48586        -72.16259        92.41487             -200               0             -200               0
1.13201              -0.03832765       -11.58578        -72.40518        93.52396             -200               0             -200               0
1.13861               -0.0394572       -11.68656        -72.52993        95.28856             -200               0             -200               0
1.14521              -0.04062686       -11.78821        -72.50513         97.4934             -200               0             -200               0
1.15182              -0.04184118       -11.89073        -72.31336        99.83598             -200               0             -200               0
1.15842              -0.04310066       -11.99413        -71.95754        101.9869             -200               0             -200               0
1.16502              -0.04440895        -12.0984        -71.45985        103.6641             -200               0             -200               0
1.17162               -0.0457693       -12.20354        -70.85419        104.6831             -200               0             -200               0
1.17822              -0.04718123       -12.30954          -70.177        104.9658             -200               0             -200               0
1.18482              -0.04864901       -12.41641        -69.46061        104.5171             -200               0             -200               0
1.19142              -0.05017234       -12.52412        -68.73028        103.3931             -200               0             -200               0
1.19802              -0.05175131       -12.63269        -68.00408        101.6733             -200               0             -200               0
1.20462              -0.05338597       -12.74211        -67.29404        99.44219             -200               0             -200               0
1.21122              -0.05507743       -12.85237        -66.60768         96.7797             -200               0             -200               0
1.21782              -0.05682287       -12.96347        -65.94935        93.75678             -200               0             -200               0
1.22442              -0.05862223       -13.07543        -65.32125        90.43439             -200               0             -200               0
1.23102               -0.0604731       -13.18823        -64.72422        86.86399             -200               0             -200               0
1.23762              -0.06237445        -13.3019        -64.15821        83.08867             -200               0             -200               0
1.24422              -0.06432416       -13.41645        -63.62263        79.14441             -200               0             -200               0
1.25083              -0.06632093       -13.53189        -63.11662        75.06132             -200               0             -200               0
1.25743               -0.0683612       -13.64825        -62.63912        70.86471             -200               0             -200               0
1.26403              -0.07044539       -13.76555        -62.18903        66.57599             -200               0             -200               0
1.27063              -0.07257018       -13.88382        -61.76524        62.21343             -200               0             -200               0
1.27723              -0.07473662        -14.0031        -61.36664        57.79274             -200               0             -200               0
1.28383              -0.07694209       -14.12342        -60.99219         53.3276             -200               0             -200               0
1.29043              -0.07918798       -14.24482        -60.64087        48.83003             -200               0             -200               0
1.29703              -0.08147333       -14.36735        -60.31174        44.31071             -200               0             -200               0
1.30363              -0.08380086       -14.49105         -60.0039         39.7793             -200               0             -200               0
1.31023              -0.08617114       -14.61596         -59.7165        35.24458             -200               0             -200               0
1.31683              -0.08858729       -14.74213        -59.44872        30.71468             -200               0             -200               0
1.32343              -0.09105234       -14.86962         -59.1998         26.1972             -200               0             -200               0
1.33003              -0.09357131       -14.99846        -58.96897        21.69934             -200               0             -200               0
1.33663              -0.09614756       -15.12869        -58.75551          17.228             -200               0             -200               0
1.34323              -0.09878767       -15.26036        -58.55869        12.78988             -200               0             -200               0
1.34984               -0.1014962       -15.39351        -58.37779        8.391492             -200               0             -200               0
1.35644               -0.1042801       -15.52816        -58.21207        4.039258             -200               0             -200               0
1.36304               -0.1071464       -15.66436        -58.06074      -0.2604709             -200               0             -200               0
1.36964               -0.1101016       -15.80213        -57.92302       -4.501393             -200               0             -200               0
1.37624               -0.1131533       -15.94149        -57.79805       -8.677255             -200               0             -200               0
1.38284               -0.1163084       -16.08247        -57.68491       -12.78186             -200               0             -200               0
1.38944               -0.1195737       -16.22507        -57.58259       -16.80912             -200               0             -200               0
1.39604                -0.122957       -16.36931        -57.49001       -20.75306             -200               0             -200               0
1.40264               -0.1264647       -16.51518        -57.40597       -24.60796             -200               0             -200               0
1.40924                -0.130103       -16.66271        -57.32916       -28.36845             -200               0             -200               0
1.41584               -0.1338776       -16.81189        -57.25813       -32.02961             -200               0             -200               0
1.42244               -0.1377945       -16.96271        -57.19129        -35.5872             -200               0             -200               0
1.42904               -0.1418584       -17.11517        -57.12692       -39.03781             -200               0             -200               0
1.43564               -0.1460735       -17.26928        -57.06316       -42.37916             -200               0             -200               0
1.44224               -0.1504434       -17.42503        -56.99801       -45.61026             -200               0             -200               0
1.44884               -0.1549703       -17.58241         -56.9294       -48.73179             -200               0             -200               0
1.45545               -0.1596569       -17.74143        -56.85517       -51.74625             -200               0             -200               0
1.46205               -0.1645054       -17.90209        -56.77313       -54.65824             -200               0             -200               0
1.46865                -0.169516        -18.0644        -56.68114       -57.47463             -200               0             -200               0
1.47525               -0.1746913       -18.22837        -56.57718       -60.20457             -200               0             -200               0
1.48185               -0.1800308       -18.39402        -56.45939       -62.85953             -200               0             -200               0
1.48845               -0.1855351       -18.56135        -56.32618       -65.45307             -200               0             -200               0
1.49505               -0.1912046       -18.73041         -56.1763       -68.00051             -200               0             -200               0
1.50165               -0.1970398       -18.90122         -56.0089       -70.51851             -200               0             -200               0
1.50825               -0.2030427       -19.07382        -55.82355        -73.0245             -200               0             -200               0
1.51485               -0.2092127       -19.24826        -55.62028       -75.53601             -200               0             -200               0
1.52145               -0.2155518       -19.42457        -55.39957        -78.0701             -200               0             -200               0
1.52805               -0.2220629       -19.60282        -55.16231       -80.64271             -200               0             -200               0
1.53465               -0.2287482       -19.78305        -54.90975       -83.26817             -200               0             -200               0
1.54125               -0.2356119       -19.96534        -54.64343       -85.95882             -200               0             -200               0
1.54785               -0.2426597       -20.14974        -54.36511       -88.72479             -200               0             -200               0
1.55446               -0.2498954       -20.33631        -54.07667       -91.57387             -200               0             -200               0
1.56106               -0.2573272       -20.52514        -53.78005       -94.51155             -200               0             -200               0
1.56766               -0.2649624       -20.71627         -53.4772       -97.54117             -200               0             -200               0
1.57426               -0.2728089       -20.90978        -53.16999       -100.6641             -200               0             -200               0
1.58086                -0.280878       -21.10574        -52.86021         -103.88             -200               0             -200               0
1.58746               -0.2891793       -21.30419         -52.5495       -107.1871             -200               0             -200               0
1.59406               -0.2977237       -21.50521        -52.23937       -110.5823             -200               0             -200               0
1.60066               -0.3065246       -21.70884        -51.93117       -114.0619             -200               0             -200               0
1.60726               -0.3155944       -21.91514        -51.62608       -117.6211             -200               0             -200               0
1.61386               -0.3249458       -22.12415        -51.32515       -121.2549             -200               0             -200               0
1.62046                -0.334593       -22.33591        -51.02926       -124.9577             -200               0             -200               0
1.62706               -0.3445494       -22.55045        -50.73917       -128.7239             -200               0             -200               0
1.63366               -0.3548281        -22.7678         -50.4555       -132.5477             -200               0             -200               0
1.64026               -0.3654444         -22.988        -50.17877       -136.4231             -200               0             -200               0
1.64686               -0.3764112       -23.21106        -49.90938       -140.3445             -200               0             -200               0
1.65347               -0.3877415       -23.43699        -49.64765        -144.306             -200               0             -200               0
1.66007                -0.399448       -23.66582         -49.3938       -148.3022             -200               0             -200               0
1.66667               -0.4115425       -23.89755          -49.148       -152.3274             -200               0             -200               0
1.67327               -0.4240369        -24.1322        -48.91033       -156.3765             -200               0             -200               0
1.67987               -0.4369412       -24.36978        -48.68079       -160.4442             -200               0             -200               0
1.68647               -0.4502666       -24.61031        -48.45938       -164.5255             -200               0             -200               0
1.69307               -0.4640224       -24.85379        -48.24598       -168.6155             -200               0             -200               0
1.69967               -0.4782181       -25.10026        -48.04046       -172.7097             -200               0             -200               0
1.70627               -0.4928613       -25.34974        -47.84263       -176.8034             -200               0             -200               0
1.71287               -0.5079605       -25.60227        -47.65226        179.1078             -200               0             -200               0
1.71947               -0.5235239       -25.85787        -47.46906        175.0279             -200               0             -200               0
1.72607               -0.5395587       -26.11661        -47.29271        170.9611             -200               0             -200               0
1.73267               -0.5560736       -26.37853        -47.12283        166.9113             -200               0             -200               0
1.73927               -0.5730759       -26.64371        -46.95901        162.8821             -200               0             -200               0
1.74587               -0.5905769       -26.91221        -46.80077        158.8769             -200               0             -200               0
1.75248               -0.6085852       -27.18414        -46.64762        154.8991             -200               0             -200               0
1.75908               -0.6271111       -27.45957        -46.49899        150.9516             -200               0             -200               0
1.76568               -0.6461684       -27.73862        -46.35428         147.037             -200               0             -200               0
1.77228               -0.6657693        -28.0214        -46.21284        143.1579             -200               0             -200               0
1.77888                -0.685929       -28.30803        -46.07398         139.316             -200               0             -200               0
1.78548               -0.7066676       -28.59864        -45.93695        135.5132             -200               0             -200               0
1.79208               -0.7280009       -28.89336        -45.80099        131.7504             -200               0             -200               0
1.79868               -0.7499542       -29.19233        -45.66529        128.0284             -200               0             -200               0
1.80528               -0.7725489       -29.49569        -45.52901        124.3472             -200               0             -200               0
1.81188               -0.7958124       -29.80358        -45.39132        120.7062             -200               0             -200               0
1.81848               -0.8197751       -30.11615        -45.25135        117.1044             -200               0             -200               0
1.82508               -0.8444664       -30.43354        -45.10827        113.5398             -200               0             -200               0
1.83168               -0.8699218       -30.75588        -44.96123        110.0099             -200               0             -200               0
1.83828               -0.8961761       -31.08331        -44.80946        106.5115             -200               0             -200               0
1.84488               -0.9232695       -31.41596        -44.65221        103.0407             -200               0             -200               0
1.85149               -0.9512426       -31.75395        -44.48881        99.59291             -200               0             -200               0
