! TOUCHSTONE file generated by CST MICROWAVE STUDIO
! Date and time: Tue Mar 18 20:31:37 2025
! Project name: hairline.cst
! Parameters = {B=12.5; D=160; F=15; Feed=2.85625; Fracture=2; L=100; M=50; R=0.384908; S=1.5; Theta=0; length=57.125; wave=114.25}
! Header version: 2024
! Port assignment regex: !\s*Touchstone port\s*([0-9]+)\s*=\s*(CST MWS port|CST DES external port|CST DES block port)\s*(.+)\s* \(\"(.*)\"\)(\s*mode\s*([0-9]+))?.*
! Touchstone port assignment:
! Touchstone port 1 = CST MWS port 1 ("")
! Touchstone port 2 = CST MWS port 2 ("")
# GHz S DB R 50
1                    -0.02025015       -9.986574        -68.03739        160.9832             -200               0             -200               0
1.0066               -0.02101571       -10.07547        -67.98047        155.2718             -200               0             -200               0
1.0132               -0.02179854       -10.16486        -67.95438         149.654             -200               0             -200               0
1.0198               -0.02259591       -10.25476         -67.9595        144.1366             -200               0             -200               0
1.0264                 -0.023407       -10.34519        -67.99637        138.7281             -200               0             -200               0
1.033                -0.02423095       -10.43615        -68.06569        133.4392             -200               0             -200               0
1.0396               -0.02506635       -10.52768        -68.16827        128.2832             -200               0             -200               0
1.0462               -0.02591268       -10.61978        -68.30507        123.2763             -200               0             -200               0
1.05281              -0.02676994        -10.7125        -68.47712        118.4387             -200               0             -200               0
1.05941              -0.02763862       -10.80585        -68.68551        113.7951             -200               0             -200               0
1.06601              -0.02851859       -10.89985        -68.93126        109.3762             -200               0             -200               0
1.07261              -0.02941084       -10.99454        -69.21521        105.2197             -200               0             -200               0
1.07921              -0.03031777       -11.08993        -69.53777        101.3723             -200               0             -200               0
1.08581              -0.03124087       -11.18605        -69.89852        97.89165             -200               0             -200               0
1.09241              -0.03218115       -11.28292        -70.29564        94.84831             -200               0             -200               0
1.09901              -0.03314211       -11.38056        -70.72493        92.32739             -200               0             -200               0
1.10561              -0.03412591       -11.47899         -71.1785         90.4285             -200               0             -200               0
1.11221              -0.03513717       -11.57824        -71.64272        89.26189             -200               0             -200               0
1.11881              -0.03617664        -11.6783        -72.09597        88.93664             -200               0             -200               0
1.12541              -0.03724858       -11.77919        -72.50639        89.53576             -200               0             -200               0
1.13201               -0.0383564       -11.88093        -72.83161        91.07472             -200               0             -200               0
1.13861              -0.03950351       -11.98351        -73.02289        93.44966             -200               0             -200               0
1.14521              -0.04069191       -12.08695        -73.03579        96.40164             -200               0             -200               0
1.15182               -0.0419257       -12.19124        -72.84487        99.53671             -200               0             -200               0
1.15842              -0.04320589       -12.29638        -72.45408        102.4167             -200               0             -200               0
1.16502              -0.04453521       -12.40237          -71.895        104.6769             -200               0             -200               0
1.17162              -0.04591618       -12.50922        -71.21436        106.1004             -200               0             -200               0
1.17822              -0.04735014       -12.61691        -70.45976        106.6196             -200               0             -200               0
1.18482              -0.04883654       -12.72543         -69.6708        106.2731             -200               0             -200               0
1.19142              -0.05037705        -12.8348        -68.87627        105.1546             -200               0             -200               0
1.19802               -0.0519717         -12.945        -68.09524        103.3759             -200               0             -200               0
1.20462              -0.05362001       -13.05603        -67.33936        101.0461             -200               0             -200               0
1.21122              -0.05532129        -13.1679        -66.61516        98.26214             -200               0             -200               0
1.21782              -0.05707387        -13.2806        -65.92582        95.10621             -200               0             -200               0
1.22442              -0.05887783       -13.39415        -65.27245        91.64655             -200               0             -200               0
1.23102              -0.06073023       -13.50855        -64.65491        87.93913             -200               0             -200               0
1.23762               -0.0626294       -13.62382        -64.07231        84.02969             -200               0             -200               0
1.24422              -0.06457453       -13.73997        -63.52341        79.95573             -200               0             -200               0
1.25083              -0.06656416       -13.85703        -63.00679        75.74814             -200               0             -200               0
1.25743              -0.06859476       -13.97502        -62.52095        71.43255             -200               0             -200               0
1.26403              -0.07066657       -14.09396        -62.06445        67.03039             -200               0             -200               0
1.27063               -0.0727786        -14.2139        -61.63587        62.55982             -200               0             -200               0
1.27723              -0.07492987       -14.33485        -61.23388        58.03632             -200               0             -200               0
1.28383              -0.07712017       -14.45688        -60.85726        53.47331             -200               0             -200               0
1.29043              -0.07935041          -14.58        -60.50485        48.88254             -200               0             -200               0
1.29703              -0.08162115       -14.70427        -60.17557        44.27445             -200               0             -200               0
1.30363               -0.0839341       -14.82973        -59.86843        39.65842             -200               0             -200               0
1.31023              -0.08629229       -14.95643        -59.58251        35.04304             -200               0             -200               0
1.31683              -0.08869783        -15.0844        -59.31692        30.43624             -200               0             -200               0
1.32343              -0.09115486        -15.2137        -59.07085        25.84547             -200               0             -200               0
1.33003              -0.09366821       -15.34436         -58.8435        21.27783             -200               0             -200               0
1.33663              -0.09624207       -15.47642        -58.63412        16.74013             -200               0             -200               0
1.34323              -0.09888271       -15.60993        -58.44196        12.23903             -200               0             -200               0
1.34984               -0.1015953       -15.74492        -58.26626        7.781049             -200               0             -200               0
1.35644               -0.1043864       -15.88142        -58.10627        3.372665             -200               0             -200               0
1.36304               -0.1072627       -16.01945        -57.96122      -0.9796766             -200               0             -200               0
1.36964               -0.1102309       -16.15904        -57.83028       -5.269536             -200               0             -200               0
1.37624               -0.1132989       -16.30022        -57.71259       -9.490467             -200               0             -200               0
1.38284               -0.1164725       -16.44299        -57.60723       -13.63603             -200               0             -200               0
1.38944               -0.1197586       -16.58737        -57.51316       -17.69984             -200               0             -200               0
1.39604               -0.1231643       -16.73337        -57.42929        -21.6756             -200               0             -200               0
1.40264               -0.1266957       -16.88099        -57.35437       -25.55718             -200               0             -200               0
1.40924               -0.1303582       -17.03024        -57.28705       -29.33879             -200               0             -200               0
1.41584               -0.1341577       -17.18111        -57.22584       -33.01507             -200               0             -200               0
1.42244               -0.1380983       -17.33361        -57.16906       -36.58129             -200               0             -200               0
1.42904               -0.1421855       -17.48773        -57.11491       -40.03362             -200               0             -200               0
1.43564               -0.1464218       -17.64347        -57.06141       -43.36932             -200               0             -200               0
1.44224               -0.1508103       -17.80084        -57.00645        -46.5871             -200               0             -200               0
1.44884               -0.1553548       -17.95983        -56.94778        -49.6874             -200               0             -200               0
1.45545               -0.1600559       -18.12044        -56.88307       -52.67266             -200               0             -200               0
1.46205               -0.1649163       -18.28268        -56.80997       -55.54764             -200               0             -200               0
1.46865               -0.1699359       -18.44657        -56.72613       -58.31958             -200               0             -200               0
1.47525               -0.1751164       -18.61212        -56.62933       -60.99833             -200               0             -200               0
1.48185               -0.1804583       -18.77934        -56.51755        -63.5963             -200               0             -200               0
1.48845                -0.185962       -18.94826        -56.38906       -66.12828             -200               0             -200               0
1.49505                -0.191629       -19.11891        -56.24248       -68.61104             -200               0             -200               0
1.50165                -0.197459       -19.29132        -56.07689       -71.06288             -200               0             -200               0
1.50825               -0.2034531       -19.46553        -55.89186        -73.5029             -200               0             -200               0
1.51485               -0.2096141        -19.6416        -55.68747       -75.95031             -200               0             -200               0
1.52145               -0.2159423       -19.81956        -55.46429        -78.4237             -200               0             -200               0
1.52805                -0.222442       -19.99948        -55.22335       -80.94035             -200               0             -200               0
1.53465               -0.2291154        -20.1814        -54.96609       -83.51565             -200               0             -200               0
1.54125               -0.2359688        -20.3654        -54.69424       -86.16273             -200               0             -200               0
1.54785               -0.2430056       -20.55153        -54.40976       -88.89216             -200               0             -200               0
1.55446               -0.2502318       -20.73985        -54.11472       -91.71191             -200               0             -200               0
1.56106               -0.2576572       -20.93044        -53.81128       -94.62739             -200               0             -200               0
1.56766               -0.2652868       -21.12335        -53.50152       -97.64166             -200               0             -200               0
1.57426               -0.2731319       -21.31866        -53.18748       -100.7556             -200               0             -200               0
1.58086               -0.2812007       -21.51641        -52.87106       -103.9685             -200               0             -200               0
1.58746               -0.2895064       -21.71667          -52.554       -107.2777             -200               0             -200               0
1.59406               -0.2980577       -21.91949        -52.23788       -110.6799             -200               0             -200               0
1.60066               -0.3068695       -22.12493         -51.9241       -114.1703             -200               0             -200               0
1.60726               -0.3159533       -22.33303        -51.61389       -117.7438             -200               0             -200               0
1.61386               -0.3253231       -22.54383         -51.3083       -121.3947             -200               0             -200               0
1.62046               -0.3349912       -22.75736        -51.00823       -125.1171             -200               0             -200               0
1.62706               -0.3449703       -22.97367        -50.71443       -128.9046             -200               0             -200               0
1.63366               -0.3552762       -23.19277        -50.42753       -132.7512             -200               0             -200               0
1.64026               -0.3659206       -23.41469        -50.14803       -136.6506             -200               0             -200               0
1.64686               -0.3769176       -23.63945        -49.87631       -140.5966             -200               0             -200               0
1.65347               -0.3882786       -23.86706        -49.61268       -144.5834             -200               0             -200               0
1.66007               -0.4000169       -24.09754        -49.35734       -148.6049             -200               0             -200               0
1.66667               -0.4121426        -24.3309        -49.11043       -152.6556             -200               0             -200               0
1.67327               -0.4246685       -24.56716        -48.87201       -156.7299             -200               0             -200               0
1.67987               -0.4376022       -24.80632        -48.64209       -160.8225             -200               0             -200               0
1.68647               -0.4509565       -25.04841         -48.4206       -164.9282             -200               0             -200               0
1.69307               -0.4647392       -25.29343        -48.20745        -169.042             -200               0             -200               0
1.69967               -0.4789581       -25.54142        -48.00247       -173.1592             -200               0             -200               0
1.70627               -0.4936225       -25.79241        -47.80546        -177.275             -200               0             -200               0
1.71287               -0.5087401       -26.04643        -47.61615        178.6149             -200               0             -200               0
1.71947               -0.5243185       -26.30353        -47.43426        174.5149             -200               0             -200               0
1.72607               -0.5403659       -26.56374        -47.25945        170.4291             -200               0             -200               0
1.73267               -0.5568893       -26.82715        -47.09131        166.3614             -200               0             -200               0
1.73927                -0.573899       -27.09381        -46.92942        162.3157             -200               0             -200               0
1.74587               -0.5914039       -27.36381        -46.77329        158.2954             -200               0             -200               0
1.75248               -0.6094136       -27.63723         -46.6224        154.3039             -200               0             -200               0
1.75908               -0.6279401       -27.91418        -46.47617        150.3443             -200               0             -200               0
1.76568               -0.6469941       -28.19476        -46.33397        146.4192             -200               0             -200               0
1.77228               -0.6665923       -28.47908        -46.19514        142.5311             -200               0             -200               0
1.77888               -0.6867494       -28.76726        -46.05896        138.6821             -200               0             -200               0
1.78548               -0.7074837       -29.05943        -45.92466        134.8739             -200               0             -200               0
1.79208                -0.728815       -29.35574        -45.79146        131.1075             -200               0             -200               0
1.79868               -0.7507661       -29.65631        -45.65851        127.3837             -200               0             -200               0
1.80528               -0.7733615       -29.96128        -45.52495        123.7024             -200               0             -200               0
1.81188               -0.7966281       -30.27079        -45.38992        120.0633             -200               0             -200               0
1.81848               -0.8205956         -30.585        -45.25253        116.4649             -200               0             -200               0
1.82508               -0.8452952       -30.90402         -45.1119        112.9055             -200               0             -200               0
1.83168               -0.8707621         -31.228        -44.96717        109.3824             -200               0             -200               0
1.83828               -0.8970314       -31.55706        -44.81752        105.8923             -200               0             -200               0
1.84488               -0.9241437       -31.89134         -44.6622         102.431             -200               0             -200               0
1.85149               -0.9521395       -32.23095         -44.5005        98.99386             -200               0             -200               0
