! TOUCHSTONE file generated by CST MICROWAVE STUDIO
! Date and time: Tue Mar 11 13:56:30 2025
! Project name: transverse.cst
! Parameters = {Fracture=5; B=10; D=160; F=5; Feed=2.85625; L=100; M=10; R=0.384908; S=1; Theta=90; length=57.125; wave=114.25}
! Header version: 2024
! Port assignment regex: !\s*Touchstone port\s*([0-9]+)\s*=\s*(CST MWS port|CST DES external port|CST DES block port)\s*(.+)\s* \(\"(.*)\"\)(\s*mode\s*([0-9]+))?.*
! Touchstone port assignment:
! Touchstone port 1 = CST MWS port 1 ("")
! Touchstone port 2 = CST MWS port 2 ("")
# GHz S MA R 50
1                       0.997919       -9.746959     0.0003099416        -114.623                0               0                0               0
1.00658                 0.997836       -9.836125     0.0003350447       -120.1197                0               0                0               0
1.01316                0.9977451        -9.92572     0.0003592387       -125.6247                0               0                0               0
1.01974                0.9976463       -10.01569      0.000382389       -131.1274                0               0                0               0
1.02632                0.9975407       -10.10599     0.0004043628       -136.6193                0               0                0               0
1.03289                0.9974289       -10.19659     0.0004250301       -142.0932                0               0                0               0
1.03947                0.9973118       -10.28744     0.0004442638       -147.5426                0               0                0               0
1.04605                0.9971906       -10.37854      0.000461941       -152.9615                0               0                0               0
1.05263                0.9970665       -10.46988     0.0004779437       -158.3441                0               0                0               0
1.05921                0.9969403       -10.56146     0.0004921592       -163.6844                0               0                0               0
1.06579                0.9968135        -10.6533     0.0005044817       -168.9764                0               0                0               0
1.07237                0.9966872       -10.74542     0.0005148129       -174.2132                0               0                0               0
1.07895                0.9965625       -10.83787      0.000523063       -179.3877                0               0                0               0
1.08553                0.9964403       -10.93069     0.0005291521        175.5085                0               0                0               0
1.09211                0.9963216       -11.02395     0.0005330117        170.4849                0               0                0               0
1.09868                0.9962071       -11.11772     0.0005345857        165.5524                0               0                0               0
1.10526                0.9960971       -11.21208     0.0005338328        160.7238                0               0                0               0
1.11184                0.9959923       -11.30712     0.0005307285        156.0145                0               0                0               0
1.11842                0.9958927       -11.40291     0.0005252678        151.4426                0               0                0               0
1.125                  0.9957983       -11.49956     0.0005174686        147.0303                0               0                0               0
1.13158                0.9957084       -11.59715      0.000507376        142.8042                0               0                0               0
1.13816                0.9956229       -11.69576     0.0004950683        138.7974                0               0                0               0
1.14474                 0.995541       -11.79549     0.0004806646        135.0505                0               0                0               0
1.15132                0.9954615       -11.89642     0.0004643346        131.6136                0               0                0               0
1.15789                0.9953836        -11.9986      0.000446314         128.549                0               0                0               0
1.16447                0.9953057        -12.1021     0.0004269221        125.9339                0               0                0               0
1.17105                0.9952266       -12.20697      0.000406589        123.8621                0               0                0               0
1.17763                0.9951449       -12.31325     0.0003858889        122.4453                0               0                0               0
1.18421                0.9950588       -12.42095     0.0003655808        121.8096                0               0                0               0
1.19079                 0.994967        -12.5301     0.0003466525        122.0826                0               0                0               0
1.19737                0.9948677       -12.64068     0.0003303487        123.3648                0               0                0               0
1.20395                0.9947594       -12.75269     0.0003181503        125.6794                0               0                0               0
1.21053                 0.994641        -12.8661     0.0003116564        128.9068                0               0                0               0
1.21711                 0.994511       -12.98086     0.0003123363        132.7414                0               0                0               0
1.22368                0.9943684       -13.09694     0.0003212096        136.7211                0               0                0               0
1.23026                0.9942123       -13.21428     0.0003386097        140.3477                0               0                0               0
1.23684                0.9940419       -13.33281     0.0003641793        143.2312                0               0                0               0
1.24342                0.9938568       -13.45247     0.0003970801         145.166                0               0                0               0
1.25                   0.9936567        -13.5732     0.0004362664        146.1159                0               0                0               0
1.25658                0.9934415       -13.69492     0.0004806906        146.1523                0               0                0               0
1.26316                0.9932116       -13.81758     0.0005294103        145.3957                0               0                0               0
1.26974                0.9929674       -13.94111     0.0005816178        143.9759                0               0                0               0
1.27632                0.9927095       -14.06547      0.000636634        142.0131                0               0                0               0
1.28289                0.9924386        -14.1906     0.0006938862        139.6108                0               0                0               0
1.28947                0.9921559       -14.31649     0.0007528868        136.8551                0               0                0               0
1.29605                0.9918623       -14.44311     0.0008132131         133.816                0               0                0               0
1.30263                0.9915593       -14.57045     0.0008744931        130.5506                0               0                0               0
1.30921                0.9912478       -14.69853     0.0009363941        127.1055                0               0                0               0
1.31579                0.9909295       -14.82737     0.0009986155        123.5185                0               0                0               0
1.32237                0.9906052         -14.957      0.001060882        119.8209                0               0                0               0
1.32895                0.9902762       -15.08748      0.001122944         116.039                0               0                0               0
1.33553                0.9899436       -15.21888      0.001184571        112.1946                0               0                0               0
1.34211                0.9896083       -15.35128      0.001245553        108.3066                0               0                0               0
1.34868                 0.989271       -15.48476      0.001305703        104.3911                0               0                0               0
1.35526                 0.988932       -15.61943      0.001364854        100.4624                0               0                0               0
1.36184                0.9885918       -15.75539       0.00142286        96.53299                0               0                0               0
1.36842                0.9882501       -15.89277      0.001479603        92.61413                0               0                0               0
1.375                  0.9879069       -16.03166      0.001534989        88.71607                0               0                0               0
1.38158                0.9875614       -16.17219      0.001588953        84.84815                0               0                0               0
1.38816                0.9872128       -16.31447      0.001641461        81.01897                0               0                0               0
1.39474                0.9868601       -16.45861      0.001692515        77.23651                0               0                0               0
1.40132                 0.986502        -16.6047      0.001742151        73.50813                0               0                0               0
1.40789                0.9861368       -16.75284      0.001790448        69.84063                0               0                0               0
1.41447                0.9857628       -16.90311      0.001837524        66.24022                0               0                0               0
1.42105                0.9853782       -17.05556      0.001883544        62.71248                0               0                0               0
1.42763                0.9849808       -17.21027       0.00192872         59.2623                0               0                0               0
1.43421                0.9845688       -17.36725      0.001973313        55.89374                0               0                0               0
1.44079                0.9841399       -17.52653      0.002017635        52.60996                0               0                0               0
1.44737                0.9836922       -17.68811      0.002062045        49.41306                0               0                0               0
1.45395                0.9832236       -17.85199      0.002106956        46.30393                0               0                0               0
1.46053                0.9827322       -18.01813      0.002152825        43.28208                0               0                0               0
1.46711                0.9822162       -18.18651      0.002200153        40.34553                0               0                0               0
1.47368                0.9816744       -18.35706      0.002249479        37.49068                0               0                0               0
1.48026                0.9811052       -18.52973      0.002301372        34.71225                0               0                0               0
1.48684                0.9805077       -18.70446      0.002356423        32.00325                0               0                0               0
1.49342                0.9798811       -18.88117      0.002415234        29.35504                0               0                0               0
1.5                    0.9792249       -19.05979      0.002478407         26.7575                0               0                0               0
1.50658                 0.978539       -19.24025      0.002546529        24.19923                0               0                0               0
1.51316                0.9778235       -19.42249      0.002620164        21.66785                0               0                0               0
1.51974                0.9770787       -19.60644      0.002699835         19.1504                0               0                0               0
1.52632                0.9763053       -19.79206      0.002786019        16.63369                0               0                0               0
1.53289                0.9755039       -19.97931      0.002879133        14.10479                0               0                0               0
1.53947                 0.974676       -20.16817       0.00297953        11.55138                0               0                0               0
1.54605                0.9738224       -20.35864      0.003087492        8.962113                0               0                0               0
1.55263                0.9729446       -20.55073      0.003203229        6.326923                0               0                0               0
1.55921                0.9720437       -20.74448      0.003326881        3.637211                0               0                0               0
1.56579                0.9711212       -20.93995      0.003458513       0.8859745                0               0                0               0
1.57237                0.9701784       -21.13721       0.00359813        -1.93216                0               0                0               0
1.57895                0.9692163       -21.33635      0.003745673       -4.820969                0               0                0               0
1.58553                0.9682358       -21.53751      0.003901028       -7.782722                0               0                0               0
1.59211                0.9672378        -21.7408      0.004064035       -10.81832                0               0                0               0
1.59868                0.9662226        -21.9464      0.004234491       -13.92746                0               0                0               0
1.60526                0.9651904       -22.15445      0.004412159       -17.10878                0               0                0               0
1.61184                0.9641409       -22.36515      0.004596776       -20.36009                0               0                0               0
1.61842                0.9630736       -22.57867      0.004788056       -23.67849                0               0                0               0
1.625                  0.9619873       -22.79521      0.004985694       -27.06053                0               0                0               0
1.63158                0.9608808       -23.01496      0.005189383       -30.50238                0               0                0               0
1.63816                 0.959752       -23.23811      0.005398801       -33.99989                0               0                0               0
1.64474                0.9585989       -23.46486      0.005613636       -37.54878                0               0                0               0
1.65132                0.9574186       -23.69535      0.005833572       -41.14464                0               0                0               0
1.65789                0.9562085       -23.92978      0.006058308       -44.78303                0               0                0               0
1.66447                 0.954965       -24.16828       0.00628755       -48.45957                0               0                0               0
1.67105                0.9536847       -24.41099      0.006521026       -52.16993                0               0                0               0
1.67763                0.9523637       -24.65801      0.006758483       -55.90992                0               0                0               0
1.68421                0.9509984       -24.90943      0.006999692       -59.67545                0               0                0               0
1.69079                0.9495845       -25.16531       0.00724445       -63.46265                0               0                0               0
1.69737                 0.948118        -25.4257       0.00749259       -67.26777                0               0                0               0
1.70395                 0.946595       -25.69061      0.007743978        -71.0873                0               0                0               0
1.71053                0.9450115       -25.96004      0.007998518        -74.9179                0               0                0               0
1.71711                0.9433638       -26.23396      0.008256156       -78.75647                0               0                0               0
1.72368                0.9416486       -26.51232      0.008516882       -82.60013                0               0                0               0
1.73026                0.9398623       -26.79507      0.008780735       -86.44621                0               0                0               0
1.73684                0.9380023       -27.08212      0.009047802       -90.29229                0               0                0               0
1.74342                0.9360658       -27.37339      0.009318223       -94.13622                0               0                0               0
1.75                   0.9340508       -27.66879      0.009592196       -97.97605                0               0                0               0
1.75658                0.9319554       -27.96821      0.009869966       -101.8101                0               0                0               0
1.76316                0.9297781       -28.27157       0.01015184       -105.6371                0               0                0               0
1.76974                 0.927518       -28.57878       0.01043819       -109.4558                0               0                0               0
1.77632                0.9251744       -28.88976       0.01072942       -113.2654                0               0                0               0
1.78289                0.9227471       -29.20446       0.01102602       -117.0653                0               0                0               0
1.78947                0.9202359       -29.52282        0.0113285       -120.8554                0               0                0               0
1.79605                 0.917641       -29.84484       0.01163747       -124.6355                0               0                0               0
1.80263                0.9149628       -30.17052       0.01195353       -128.4061                0               0                0               0
1.80921                0.9122018        -30.4999       0.01227737       -132.1676                0               0                0               0
1.81579                0.9093584       -30.83304       0.01260969       -135.9211                0               0                0               0
1.82237                 0.906433       -31.17006       0.01295124       -139.6676                0               0                0               0
1.82895                0.9034259       -31.51108       0.01330279       -143.4085                0               0                0               0
1.83553                0.9003372       -31.85628       0.01366513       -147.1454                0               0                0               0
1.84211                0.8971664       -32.20586       0.01403906       -150.8803                0               0                0               0
1.84868                 0.893913       -32.56005       0.01442538        -154.615                0               0                0               0
