! TOUCHSTONE file generated by CST MICROWAVE STUDIO
! Date and time: Tue Mar 11 13:58:21 2025
! Project name: transverse.cst
! Parameters = {Fracture=1; B=12.5; D=160; F=15; Feed=2.85625; L=100; M=30; R=0.384908; S=1; Theta=270; length=57.125; wave=114.25}
! Header version: 2024
! Port assignment regex: !\s*Touchstone port\s*([0-9]+)\s*=\s*(CST MWS port|CST DES external port|CST DES block port)\s*(.+)\s* \(\"(.*)\"\)(\s*mode\s*([0-9]+))?.*
! Touchstone port assignment:
! Touchstone port 1 = CST MWS port 1 ("")
! Touchstone port 2 = CST MWS port 2 ("")
# GHz S MA R 50
1                      0.9974998       -10.01189      0.000464829        176.9073                0               0                0               0
1.00658                0.9974208        -10.0993     0.0004636002        171.2385                0               0                0               0
1.01316                0.9973436       -10.18727     0.0004604433        165.6713                0               0                0               0
1.01974                0.9972682       -10.27584     0.0004553218        160.2155                0               0                0               0
1.02632                0.9971944       -10.36507     0.0004482107        154.8836                0               0                0               0
1.03289                0.9971219       -10.45499     0.0004390982        149.6919                0               0                0               0
1.03947                0.9970504       -10.54564     0.0004279882        144.6611                0               0                0               0
1.04605                0.9969794       -10.63708     0.0004149036         139.818                0               0                0               0
1.05263                0.9969083       -10.72934     0.0003998906        135.1972                0               0                0               0
1.05921                0.9968365       -10.82244     0.0003830249        130.8441                0               0                0               0
1.06579                0.9967634       -10.91641     0.0003644216        126.8184                0               0                0               0
1.07237                0.9966883       -11.01128     0.0003442478        123.1997                0               0                0               0
1.07895                0.9966102       -11.10706     0.0003227442        120.0951                0               0                0               0
1.08553                0.9965284       -11.20376     0.0003002562        117.6485                0               0                0               0
1.09211                0.9964423       -11.30138     0.0002772829        116.0536                0               0                0               0
1.09868                 0.996351        -11.3999     0.0002545499        115.5637                0               0                0               0
1.10526                0.9962538       -11.49933     0.0002331121        116.4889                0               0                0               0
1.11184                0.9961501       -11.59965     0.0002144699        119.1484                0               0                0               0
1.11842                0.9960395       -11.70082     0.0002006244        123.7242                0               0                0               0
1.125                  0.9959214       -11.80283     0.0001938839        129.9938                0               0                0               0
1.13158                0.9957955       -11.90566     0.0001962388        137.1152                0               0                0               0
1.13816                0.9956616       -12.00925     0.0002085375        143.8403                0               0                0               0
1.14474                0.9955195       -12.11359     0.0002301994        149.1339                0               0                0               0
1.15132                0.9953693       -12.21865     0.0002597391        152.5706                0               0                0               0
1.15789                0.9952112       -12.32439     0.0002954973        154.2276                0               0                0               0
1.16447                0.9950455       -12.43078       0.00033605        154.4007                0               0                0               0
1.17105                0.9948724       -12.53781     0.0003802989        153.4127                0               0                0               0
1.17763                0.9946925       -12.64546     0.0004274222         151.539                0               0                0               0
1.18421                0.9945064        -12.7537     0.0004767981        148.9938                0               0                0               0
1.19079                0.9943146       -12.86255     0.0005279413        145.9379                0               0                0               0
1.19737                 0.994118       -12.97199     0.0005804579        142.4912                0               0                0               0
1.20395                0.9939171       -13.08204     0.0006340146         138.743                0               0                0               0
1.21053                0.9937127       -13.19272     0.0006883191         134.761                0               0                0               0
1.21711                0.9935055       -13.30405      0.000743107        130.5968                0               0                0               0
1.22368                0.9932961       -13.41607     0.0007981335        126.2903                0               0                0               0
1.23026                0.9930851       -13.52881     0.0008531678        121.8733                0               0                0               0
1.23684                0.9928732       -13.64234       0.00090799        117.3709                0               0                0               0
1.24342                0.9926605        -13.7567     0.0009623887        112.8037                0               0                0               0
1.25                   0.9924476       -13.87195       0.00101616        108.1887                0               0                0               0
1.25658                0.9922344       -13.98816      0.001069107        103.5401                0               0                0               0
1.26316                0.9920211        -14.1054      0.001121041        98.87013                0               0                0               0
1.26974                0.9918075       -14.22374      0.001171779        94.18952                0               0                0               0
1.27632                0.9915933       -14.34324      0.001221147        89.50768                0               0                0               0
1.28289                0.9913781       -14.46398      0.001268981        84.83316                0               0                0               0
1.28947                0.9911612       -14.58602      0.001315128         80.1738                0               0                0               0
1.29605                0.9909421       -14.70942      0.001359445        75.53698                0               0                0               0
1.30263                0.9907197       -14.83424      0.001401803        70.92969                0               0                0               0
1.30921                0.9904933       -14.96054      0.001442091         66.3587                0               0                0               0
1.31579                0.9902616       -15.08836      0.001480211        61.83066                0               0                0               0
1.32237                0.9900237       -15.21772      0.001516089        57.35213                0               0                0               0
1.32895                0.9897783       -15.34867      0.001549669         52.9297                0               0                0               0
1.33553                0.9895244       -15.48122      0.001580922        48.56999                0               0                0               0
1.34211                0.9892607       -15.61538      0.001609846        44.27972                0               0                0               0
1.34868                0.9889861       -15.75115      0.001636468        40.06571                0               0                0               0
1.35526                0.9886997       -15.88852      0.001660849        35.93486                0               0                0               0
1.36184                0.9884003       -16.02749      0.001683087        31.89412                0               0                0               0
1.36842                0.9880872       -16.16803      0.001703319        27.95049                0               0                0               0
1.375                  0.9877596       -16.31012      0.001721725        24.11087                0               0                0               0
1.38158                0.9874169       -16.45373      0.001738535        20.38197                0               0                0               0
1.38816                0.9870587       -16.59883      0.001754023        16.77015                0               0                0               0
1.39474                0.9866847       -16.74538       0.00176852        13.28118                0               0                0               0
1.40132                0.9862947       -16.89336      0.001782409        9.919999                0               0                0               0
1.40789                0.9858889       -17.04274      0.001796127        6.690391                0               0                0               0
1.41447                0.9854675       -17.19349      0.001810166        3.594627                0               0                0               0
1.42105                0.9850307        -17.3456      0.001825069       0.6330609                0               0                0               0
1.42763                 0.984579       -17.49906      0.001841427       -2.196254                0               0                0               0
1.43421                 0.984113       -17.65385      0.001859867       -4.897957                0               0                0               0
1.44079                0.9836335          -17.81      0.001881048        -7.47968                0               0                0               0
1.44737                0.9831409       -17.96753      0.001905641       -9.952225                0               0                0               0
1.45395                0.9826362       -18.12645      0.001934318       -12.32959                0               0                0               0
1.46053                0.9821199       -18.28683      0.001967732       -14.62878                0               0                0               0
1.46711                0.9815929        -18.4487      0.002006499       -16.86933                0               0                0               0
1.47368                0.9810557       -18.61213      0.002051178       -19.07272                0               0                0               0
1.48026                0.9805087       -18.77722      0.002102257       -21.26146                0               0                0               0
1.48684                0.9799524       -18.94403      0.002160137       -23.45822                0               0                0               0
1.49342                0.9793868       -19.11267      0.002225124       -25.68483                0               0                0               0
1.5                    0.9788122       -19.28325      0.002297424        -27.9614                0               0                0               0
1.50658                0.9782282       -19.45587      0.002377142       -30.30565                0               0                0               0
1.51316                0.9776344       -19.63066      0.002464288       -32.73236                0               0                0               0
1.51974                0.9770301       -19.80772      0.002558781       -35.25317                0               0                0               0
1.52632                0.9764144       -19.98718      0.002660463       -37.87646                0               0                0               0
1.53289                0.9757863       -20.16915      0.002769107       -40.60757                0               0                0               0
1.53947                0.9751443       -20.35376      0.002884429       -43.44903                0               0                0               0
1.54605                0.9744869       -20.54109      0.003006101       -46.40095                0               0                0               0
1.55263                0.9738122       -20.73127      0.003133758       -49.46141                0               0                0               0
1.55921                0.9731182       -20.92436      0.003267011       -52.62685                0               0                0               0
1.56579                0.9724029       -21.12046      0.003405451       -55.89249                0               0                0               0
1.57237                0.9716641       -21.31963      0.003548661       -59.25262                0               0                0               0
1.57895                0.9708994       -21.52193      0.003696217       -62.70089                0               0                0               0
1.58553                0.9701065       -21.72739      0.003847696       -66.23058                0               0                0               0
1.59211                 0.969283       -21.93604       0.00400268       -69.83478                0               0                0               0
1.59868                0.9684267       -22.14791      0.004160758       -73.50648                0               0                0               0
1.60526                0.9675352       -22.36297      0.004321531       -77.23878                0               0                0               0
1.61184                0.9666066       -22.58123      0.004484616       -81.02488                0               0                0               0
1.61842                0.9656386       -22.80267      0.004649645       -84.85819                0               0                0               0
1.625                  0.9646297       -23.02726      0.004816273       -88.73234                0               0                0               0
1.63158                0.9635782       -23.25495      0.004984176       -92.64122                0               0                0               0
1.63816                0.9624827        -23.4857      0.005153057       -96.57899                0               0                0               0
1.64474                0.9613423       -23.71947      0.005322649       -100.5401                0               0                0               0
1.65132                0.9601557       -23.95621      0.005492711       -104.5191                0               0                0               0
1.65789                0.9589224        -24.1959      0.005663045       -108.5112                0               0                0               0
1.66447                0.9576421       -24.43848      0.005833485       -112.5115                0               0                0               0
1.67105                0.9563147       -24.68392      0.006003907       -116.5155                0               0                0               0
1.67763                  0.95494       -24.93223      0.006174232        -120.519                0               0                0               0
1.68421                0.9535182       -25.18338      0.006344426        -124.518                0               0                0               0
1.69079                0.9520498        -25.4374      0.006514511       -128.5088                0               0                0               0
1.69737                0.9505351        -25.6943      0.006684555       -132.4881                0               0                0               0
1.70395                0.9489747       -25.95414      0.006854689       -136.4527                0               0                0               0
1.71053                0.9473688       -26.21699      0.007025098       -140.3997                0               0                0               0
1.71711                0.9457183       -26.48293      0.007196032       -144.3266                0               0                0               0
1.72368                0.9440232       -26.75207      0.007367803       -148.2313                0               0                0               0
1.73026                0.9422838       -27.02455      0.007540789       -152.1118                0               0                0               0
1.73684                0.9405002        -27.3005      0.007715434       -155.9668                0               0                0               0
1.74342                 0.938672       -27.58011      0.007892245       -159.7952                0               0                0               0
1.75                   0.9367988       -27.86355      0.008071798       -163.5963                0               0                0               0
1.75658                0.9348798       -28.15103       0.00825473       -167.3699                0               0                0               0
1.76316                0.9329137       -28.44276      0.008441739       -171.1164                0               0                0               0
1.76974                0.9308988       -28.73896      0.008633581       -174.8365                0               0                0               0
1.77632                0.9288331       -29.03987       0.00883106       -178.5314                0               0                0               0
1.78289                0.9267141       -29.34572       0.00903503        177.7971                0               0                0               0
1.78947                 0.924539       -29.65675      0.009246378        174.1468                0               0                0               0
1.79605                0.9223044        -29.9732      0.009466022         170.515                0               0                0               0
1.80263                0.9200066       -30.29528      0.009694898        166.8984                0               0                0               0
1.80921                0.9176414       -30.62323      0.009933951        163.2936                0               0                0               0
1.81579                0.9152044       -30.95726       0.01018412        159.6966                0               0                0               0
1.82237                0.9126907       -31.29754       0.01044634        156.1032                0               0                0               0
1.82895                0.9100951       -31.64428        0.0107215         152.509                0               0                0               0
1.83553                0.9074125       -31.99762       0.01101048        148.9093                0               0                0               0
1.84211                0.9046369       -32.35771       0.01131407        145.2996                0               0                0               0
1.84868                0.9017629       -32.72467       0.01163305        141.6751                0               0                0               0
