! TOUCHSTONE file generated by CST MICROWAVE STUDIO
! Date and time: Tue Mar 11 13:57:07 2025
! Project name: transverse.cst
! Parameters = {Fracture=5; B=12.5; D=160; F=25; Feed=2.85625; L=100; M=20; R=0.384908; S=2; Theta=90; length=57.125; wave=114.25}
! Header version: 2024
! Port assignment regex: !\s*Touchstone port\s*([0-9]+)\s*=\s*(CST MWS port|CST DES external port|CST DES block port)\s*(.+)\s* \(\"(.*)\"\)(\s*mode\s*([0-9]+))?.*
! Touchstone port assignment:
! Touchstone port 1 = CST MWS port 1 ("")
! Touchstone port 2 = CST MWS port 2 ("")
# GHz S MA R 50
1                      0.9975796        -9.73901     0.0004784918        174.2134                0               0                0               0
1.0066                 0.9975138       -9.825078     0.0004783604        169.0801                0               0                0               0
1.0132                 0.9974499       -9.911852     0.0004766683         164.077                0               0                0               0
1.0198                 0.9973875       -9.999381     0.0004734281         159.217                0               0                0               0
1.0264                 0.9973261       -10.08771     0.0004686696        154.5157                0               0                0               0
1.033                  0.9972649       -10.17688      0.000462442        149.9915                0               0                0               0
1.0396                 0.9972031       -10.26693     0.0004548176        145.6662                0               0                0               0
1.0462                 0.9971401       -10.35788     0.0004458961        141.5655                0               0                0               0
1.05281                0.9970749       -10.44976     0.0004358091        137.7194                0               0                0               0
1.05941                0.9970064       -10.54257     0.0004247269        134.1628                0               0                0               0
1.06601                 0.996934       -10.63633     0.0004128662        130.9354                0               0                0               0
1.07261                0.9968565       -10.73102     0.0004004984        128.0816                0               0                0               0
1.07921                0.9967733       -10.82665     0.0003879596        125.6489                0               0                0               0
1.08581                0.9966834       -10.92319     0.0003756605        123.6854                0               0                0               0
1.09241                0.9965863       -11.02063     0.0003640933        122.2343                0               0                0               0
1.09901                0.9964811       -11.11892     0.0003538336        121.3256                0               0                0               0
1.10561                0.9963675       -11.21804     0.0003455303        120.9651                0               0                0               0
1.11221                0.9962451       -11.31796     0.0003398784        121.1203                0               0                0               0
1.11881                0.9961136       -11.41863     0.0003375689        121.7101                0               0                0               0
1.12541                0.9959729       -11.52002     0.0003392199        122.6011                0               0                0               0
1.13201                 0.995823       -11.62208     0.0003453017        123.6189                0               0                0               0
1.13861                0.9956641       -11.72478     0.0003560776         124.572                0               0                0               0
1.14521                0.9954965       -11.82809     0.0003715816         125.283                0               0                0               0
1.15182                0.9953206       -11.93198     0.0003916389        125.6143                0               0                0               0
1.15842                0.9951368       -12.03642     0.0004159168        125.4795                0               0                0               0
1.16502                0.9949459       -12.14139      0.000443987        124.8426                0               0                0               0
1.17162                0.9947486       -12.24689     0.0004753797        123.7065                0               0                0               0
1.17822                0.9945453       -12.35292     0.0005096237        122.1003                0               0                0               0
1.18482                 0.994337       -12.45947      0.000546269        120.0671                0               0                0               0
1.19142                0.9941244       -12.56657     0.0005848979        117.6558                0               0                0               0
1.19802                0.9939083       -12.67423     0.0006251279        114.9153                0               0                0               0
1.20462                0.9936892       -12.78249     0.0006666101        111.8917                0               0                0               0
1.21122                0.9934679       -12.89138     0.0007090259        108.6267                0               0                0               0
1.21782                0.9932447       -13.00095     0.0007520829        105.1574                0               0                0               0
1.22442                0.9930203       -13.11125     0.0007955108        101.5162                0               0                0               0
1.23102                0.9927948       -13.22233     0.0008390589        97.73114                0               0                0               0
1.23762                0.9925684       -13.33425     0.0008824928        93.82687                0               0                0               0
1.24422                0.9923412       -13.44708     0.0009255925         89.8247                0               0                0               0
1.25083                0.9921131       -13.56088     0.0009681518         85.7433                0               0                0               0
1.25743                0.9918838        -13.6757      0.001009976        81.59912                0               0                0               0
1.26403                 0.991653       -13.79161      0.001050884        77.40673                0               0                0               0
1.27063                0.9914201       -13.90867      0.001090704        73.17918                0               0                0               0
1.27723                0.9911844       -14.02693      0.001129279         68.9283                0               0                0               0
1.28383                0.9909452       -14.14643      0.001166462        64.66488                0               0                0               0
1.29043                0.9907018       -14.26722      0.001202121        60.39894                0               0                0               0
1.29703                0.9904532       -14.38934      0.001236138        56.13985                0               0                0               0
1.30363                0.9901985        -14.5128      0.001268411        51.89651                0               0                0               0
1.31023                0.9899366       -14.63764      0.001298855        47.67743                0               0                0               0
1.31683                0.9896668       -14.76385      0.001327403        43.49089                0               0                0               0
1.32343                 0.989388       -14.89144      0.001354008        39.34496                0               0                0               0
1.33003                0.9890995       -15.02042      0.001378647        35.24763                0               0                0               0
1.33663                0.9888003       -15.15077      0.001401319        31.20679                0               0                0               0
1.34323                0.9884898       -15.28248      0.001422053        27.23031                0               0                0               0
1.34984                0.9881675       -15.41552      0.001440904        23.32603                0               0                0               0
1.35644                0.9878329       -15.54987      0.001457962        19.50172                0               0                0               0
1.36304                0.9874856        -15.6855      0.001473348        15.76509                0               0                0               0
1.36964                0.9871256        -15.8224      0.001487221        12.12365                0               0                0               0
1.37624                0.9867528       -15.96053      0.001499782         8.58463                0               0                0               0
1.38284                0.9863674       -16.09987      0.001511269        5.154821                0               0                0               0
1.38944                0.9859695        -16.2404      0.001521968        1.840351                0               0                0               0
1.39604                0.9855596       -16.38211      0.001532205       -1.353567                0               0                0               0
1.40264                0.9851384         -16.525      0.001542356       -4.422936                0               0                0               0
1.40924                0.9847061       -16.66906      0.001552837       -7.365333                0               0                0               0
1.41584                0.9842638        -16.8143      0.001564105       -10.18028                0               0                0               0
1.42244                0.9838119       -16.96075      0.001576656       -12.86964                0               0                0               0
1.42904                0.9833513       -17.10844      0.001591015       -15.43794                0               0                0               0
1.43564                0.9828827       -17.25741      0.001607725       -17.89271                0               0                0               0
1.44224                 0.982407        -17.4077      0.001627343       -20.24457                0               0                0               0
1.44884                0.9819245       -17.55939       0.00165042       -22.50728                0               0                0               0
1.45545                 0.981436       -17.71255      0.001677486        -24.6975                0               0                0               0
1.46205                0.9809419       -17.86726       0.00170904       -26.83434                0               0                0               0
1.46865                0.9804423       -18.02361      0.001745532       -28.93873                0               0                0               0
1.47525                0.9799376       -18.18171      0.001787347       -31.03258                0               0                0               0
1.48185                0.9794276       -18.34164        0.0018348       -33.13787                0               0                0               0
1.48845                 0.978912       -18.50353      0.001888125       -35.27574                0               0                0               0
1.49505                0.9783905       -18.66749      0.001947472       -37.46562                0               0                0               0
1.50165                0.9778622       -18.83362      0.002012912       -39.72458                0               0                0               0
1.50825                0.9773266       -19.00204      0.002084432       -42.06686                0               0                0               0
1.51485                0.9767822       -19.17285      0.002161951       -44.50358                0               0                0               0
1.52145                0.9762281       -19.34617      0.002245321       -47.04278                0               0                0               0
1.52805                0.9756627       -19.52209      0.002334343       -49.68951                0               0                0               0
1.53465                0.9750844        -19.7007       0.00242877        -52.4461                0               0                0               0
1.54125                0.9744916       -19.88208      0.002528321       -55.31255                0               0                0               0
1.54785                0.9738823        -20.0663      0.002632688       -58.28691                0               0                0               0
1.55446                0.9732549       -20.25344      0.002741542        -61.3656                0               0                0               0
1.56106                0.9726073       -20.44353      0.002854545        -64.5439                0               0                0               0
1.56766                0.9719374       -20.63663      0.002971349       -67.81615                0               0                0               0
1.57426                0.9712436       -20.83276      0.003091605       -71.17612                0               0                0               0
1.58086                0.9705238       -21.03196      0.003214967       -74.61717                0               0                0               0
1.58746                0.9697762       -21.23422      0.003341093       -78.13249                0               0                0               0
1.59406                0.9689993       -21.43956       0.00346965       -81.71523                0               0                0               0
1.60066                0.9681913       -21.64797      0.003600319       -85.35858                0               0                0               0
1.60726                0.9673509       -21.85944      0.003732791       -89.05586                0               0                0               0
1.61386                 0.966477       -22.07398      0.003866776       -92.80062                0               0                0               0
1.62046                0.9655682       -22.29156         0.004002       -96.58662                0               0                0               0
1.62706                0.9646237       -22.51217      0.004138211       -100.4079                0               0                0               0
1.63366                 0.963643       -22.73581      0.004275177       -104.2587                0               0                0               0
1.64026                0.9626253       -22.96247      0.004412695       -108.1336                0               0                0               0
1.64686                0.9615703       -23.19215      0.004550585       -112.0275                0               0                0               0
1.65347                0.9604777       -23.42488      0.004688694       -115.9356                0               0                0               0
1.66007                0.9593473       -23.66067      0.004826904       -119.8531                0               0                0               0
1.66667                0.9581791       -23.89955      0.004965128       -123.7758                0               0                0               0
1.67327                0.9569731       -24.14157      0.005103315       -127.6998                0               0                0               0
1.67987                0.9557293        -24.3868      0.005241449       -131.6211                0               0                0               0
1.68647                0.9544478       -24.63531      0.005379558       -135.5363                0               0                0               0
1.69307                0.9531286        -24.8872      0.005517706       -139.4423                0               0                0               0
1.69967                0.9517715       -25.14257      0.005656003        -143.336                0               0                0               0
1.70627                0.9503762       -25.40155      0.005794602        -147.215                0               0                0               0
1.71287                0.9489425       -25.66428      0.005933706       -151.0769                0               0                0               0
1.71947                0.9474695        -25.9309      0.006073557       -154.9197                0               0                0               0
1.72607                0.9459567       -26.20159      0.006214453       -158.7418                0               0                0               0
1.73267                0.9444029       -26.47653      0.006356732        -162.542                0               0                0               0
1.73927                0.9428069        -26.7559      0.006500784       -166.3194                0               0                0               0
1.74587                0.9411668       -27.03989      0.006647039       -170.0735                0               0                0               0
1.75248                0.9394808       -27.32872      0.006795977       -173.8043                0               0                0               0
1.75908                0.9377466       -27.62258      0.006948114        -177.512                0               0                0               0
1.76568                0.9359616       -27.92169      0.007104005        178.8025                0               0                0               0
1.77228                0.9341229       -28.22625      0.007264239        175.1379                0               0                0               0
1.77888                0.9322272       -28.53647      0.007429433        171.4927                0               0                0               0
1.78548                0.9302711       -28.85256      0.007600224        167.8648                0               0                0               0
1.79208                0.9282505        -29.1747      0.007777267        164.2517                0               0                0               0
1.79868                0.9261617        -29.5031      0.007961226        160.6506                0               0                0               0
1.80528                0.9240002       -29.83793      0.008152767        157.0582                0               0                0               0
1.81188                0.9217613       -30.17937      0.008352546        153.4711                0               0                0               0
1.81848                0.9194405       -30.52758      0.008561207        149.8856                0               0                0               0
1.82508                0.9170329       -30.88271      0.008779369        146.2978                0               0                0               0
1.83168                0.9145332       -31.24491      0.009007623        142.7038                0               0                0               0
1.83828                0.9119365       -31.61432      0.009246518        139.0994                0               0                0               0
1.84488                0.9092377       -31.99104      0.009496561        135.4807                0               0                0               0
1.85149                0.9064312        -32.3752      0.009758208        131.8436                0               0                0               0
