! TOUCHSTONE file generated by CST MICROWAVE STUDIO
! Date and time: Tue Mar 11 13:58:07 2025
! Project name: transverse.cst
! Parameters = {Fracture=5; B=12.5; D=160; F=5; Feed=2.85625; L=100; M=30; R=0.384908; S=1; Theta=270; length=57.125; wave=114.25}
! Header version: 2024
! Port assignment regex: !\s*Touchstone port\s*([0-9]+)\s*=\s*(CST MWS port|CST DES external port|CST DES block port)\s*(.+)\s* \(\"(.*)\"\)(\s*mode\s*([0-9]+))?.*
! Touchstone port assignment:
! Touchstone port 1 = CST MWS port 1 ("")
! Touchstone port 2 = CST MWS port 2 ("")
# GHz S MA R 50
1                      0.9976441       -9.803557     0.0003927479       -171.5349                0               0                0               0
1.0066                 0.9975471       -9.892114      0.000396204       -176.1206                0               0                0               0
1.0132                 0.9974462       -9.981069     0.0003984625        179.3901                0               0                0               0
1.0198                 0.9973418       -10.07042     0.0003995171        175.0092                0               0                0               0
1.0264                 0.9972347       -10.16015     0.0003993737        170.7504                0               0                0               0
1.033                  0.9971253       -10.25028     0.0003980525        166.6289                0               0                0               0
1.0396                 0.9970141       -10.34082     0.0003955899        162.6624                0               0                0               0
1.0462                 0.9969018       -10.43178     0.0003920413        158.8707                0               0                0               0
1.05281                0.9967888       -10.52319     0.0003874844        155.2762                0               0                0               0
1.05941                0.9966758       -10.61508      0.000382023        151.9041                0               0                0               0
1.06601                0.9965629       -10.70748     0.0003757909        148.7822                0               0                0               0
1.07261                0.9964508       -10.80043     0.0003689576         145.941                0               0                0               0
1.07921                0.9963394       -10.89398      0.000361733        143.4127                0               0                0               0
1.08581                 0.996229       -10.98817      0.000354373        141.2296                0               0                0               0
1.09241                0.9961196       -11.08306     0.0003471845        139.4221                0               0                0               0
1.09901                0.9960109       -11.17868     0.0003405271        138.0145                0               0                0               0
1.10561                0.9959032       -11.27509     0.0003348125        137.0201                0               0                0               0
1.11221                0.9957957       -11.37233     0.0003304955        136.4347                0               0                0               0
1.11881                0.9956882       -11.47046     0.0003280577        136.2297                0               0                0               0
1.12541                0.9955801        -11.5695     0.0003279796        136.3478                0               0                0               0
1.13201                0.9954709       -11.66949     0.0003307046        136.7014                0               0                0               0
1.13861                0.9953598       -11.77048     0.0003365999        137.1784                0               0                0               0
1.14521                0.9952462       -11.87247      0.000345922        137.6537                0               0                0               0
1.15182                0.9951292        -11.9755     0.0003587971        138.0045                0               0                0               0
1.15842                0.9950082       -12.07957     0.0003752201        138.1252                0               0                0               0
1.16502                0.9948824       -12.18469     0.0003950708        137.9371                0               0                0               0
1.17162                 0.994751       -12.29085     0.0004181418        137.3918                0               0                0               0
1.17822                0.9946133       -12.39806     0.0004441676        136.4689                0               0                0               0
1.18482                0.9944688       -12.50631     0.0004728528        135.1705                0               0                0               0
1.19142                0.9943168       -12.61556     0.0005038916        133.5142                0               0                0               0
1.19802                 0.994157       -12.72581     0.0005369821        131.5273                0               0                0               0
1.20462                0.9939889       -12.83704      0.000571834        129.2416                0               0                0               0
1.21122                0.9938124        -12.9492     0.0006081724        126.6903                0               0                0               0
1.21782                0.9936273       -13.06229     0.0006457394        123.9061                0               0                0               0
1.22442                0.9934336       -13.17627     0.0006842931        120.9195                0               0                0               0
1.23102                0.9932315       -13.29113     0.0007236073        117.7587                0               0                0               0
1.23762                0.9930214       -13.40683     0.0007634698        114.4491                0               0                0               0
1.24422                0.9928033       -13.52337     0.0008036812        111.0134                0               0                0               0
1.25083                0.9925781       -13.64073     0.0008440543        107.4721                0               0                0               0
1.25743                0.9923459       -13.75891     0.0008844131        103.8433                0               0                0               0
1.26403                0.9921075       -13.87791     0.0009245922        100.1432                0               0                0               0
1.27063                0.9918635       -13.99774      0.000964437        96.38656                0               0                0               0
1.27723                0.9916147       -14.11842      0.001003804        92.58638                0               0                0               0
1.28383                0.9913614       -14.23998       0.00104256        88.75464                0               0                0               0
1.29043                0.9911045       -14.36245      0.001080584        84.90226                0               0                0               0
1.29703                0.9908447       -14.48586      0.001117768        81.03928                0               0                0               0
1.30363                0.9905822       -14.61028      0.001154017        77.17501                0               0                0               0
1.31023                0.9903177       -14.73576      0.001189249        73.31816                0               0                0               0
1.31683                0.9900513       -14.86235        0.0012234        69.47692                0               0                0               0
1.32343                0.9897833       -14.99014      0.001256423        65.65902                0               0                0               0
1.33003                0.9895138       -15.11919      0.001288287        61.87183                0               0                0               0
1.33663                0.9892426       -15.24957      0.001318985        58.12237                0               0                0               0
1.34323                0.9889696       -15.38137      0.001348528         54.4173                0               0                0               0
1.34984                0.9886944       -15.51466      0.001376954        50.76301                0               0                0               0
1.35644                0.9884164       -15.64951      0.001404323         47.1655                0               0                0               0
1.36304                 0.988135         -15.786      0.001430724        43.63043                0               0                0               0
1.36964                0.9878494       -15.92419      0.001456274        40.16298                0               0                0               0
1.37624                0.9875588       -16.06415      0.001481118        36.76786                0               0                0               0
1.38284                 0.987262       -16.20594      0.001505433        33.44914                0               0                0               0
1.38944                0.9869581       -16.34962      0.001529427        30.21017                0               0                0               0
1.39604                0.9866458       -16.49522      0.001553338        27.05344                0               0                0               0
1.40264                0.9863242       -16.64278      0.001577434        23.98042                0               0                0               0
1.40924                0.9859919       -16.79233      0.001602016        20.99143                0               0                0               0
1.41584                0.9856477        -16.9439      0.001627405        18.08546                0               0                0               0
1.42244                0.9852907        -17.0975      0.001653952        15.26009                0               0                0               0
1.42904                0.9849197       -17.25314      0.001682021        12.51134                0               0                0               0
1.43564                0.9845336       -17.41083      0.001711993        9.833655                0               0                0               0
1.44224                0.9841318       -17.57056      0.001744255        7.219871                0               0                0               0
1.44884                0.9837134       -17.73234      0.001779191        4.661327                0               0                0               0
1.45545                0.9832776       -17.89615      0.001817178        2.147997                0               0                0               0
1.46205                0.9828241         -18.062      0.001858576      -0.3312736                0               0                0               0
1.46865                0.9823523       -18.22987      0.001903719       -2.788462                0               0                0               0
1.47525                0.9818619       -18.39977       0.00195291       -5.236022                0               0                0               0
1.48185                0.9813529       -18.57169      0.002006412       -7.686488                0               0                0               0
1.48845                0.9808252       -18.74565      0.002064443       -10.15209                0               0                0               0
1.49505                0.9802787       -18.92166      0.002127174       -12.64437                0               0                0               0
1.50165                0.9797136       -19.09974      0.002194728       -15.17387                0               0                0               0
1.50825                  0.97913       -19.27993      0.002267176        -17.7499                0               0                0               0
1.51485                0.9785282       -19.46226      0.002344539        -20.3803                0               0                0               0
1.52145                0.9779082       -19.64678      0.002426794       -23.07138                0               0                0               0
1.52805                0.9772702       -19.83356      0.002513875       -25.82788                0               0                0               0
1.53465                0.9766143       -20.02268      0.002605674       -28.65304                0               0                0               0
1.54125                0.9759404        -20.2142      0.002702051       -31.54864                0               0                0               0
1.54785                0.9752484       -20.40824      0.002802838       -34.51516                0               0                0               0
1.55446                0.9745381       -20.60488       0.00290784       -37.55192                0               0                0               0
1.56106                0.9738088       -20.80423      0.003016844       -40.65726                0               0                0               0
1.56766                0.9730599       -21.00642      0.003129621        -43.8287                0               0                0               0
1.57426                0.9722907       -21.21155      0.003245933       -47.06307                0               0                0               0
1.58086                   0.9715       -21.41975      0.003365534       -50.35666                0               0                0               0
1.58746                0.9706865       -21.63116      0.003488176        -53.7054                0               0                0               0
1.59406                0.9698485       -21.84588      0.003613614       -57.10489                0               0                0               0
1.60066                0.9689845       -22.06404      0.003741606       -60.55057                0               0                0               0
1.60726                0.9680924       -22.28576      0.003871918       -64.03774                0               0                0               0
1.61386                0.9671699       -22.51115       0.00400433       -67.56167                0               0                0               0
1.62046                0.9662147       -22.74031      0.004138632       -71.11763                0               0                0               0
1.62706                0.9652243       -22.97333      0.004274638       -74.70097                0               0                0               0
1.63366                0.9641959        -23.2103      0.004412178       -78.30709                0               0                0               0
1.64026                0.9631269        -23.4513      0.004551108       -81.93155                0               0                0               0
1.64686                0.9620141       -23.69637       0.00469131       -85.57003                0               0                0               0
1.65347                0.9608549       -23.94558      0.004832698       -89.21839                0               0                0               0
1.66007                0.9596463       -24.19894      0.004975218       -92.87267                0               0                0               0
1.66667                0.9583854        -24.4565      0.005118852       -96.52913                0               0                0               0
1.67327                0.9570693       -24.71826      0.005263623       -100.1842                0               0                0               0
1.67987                0.9556953       -24.98423      0.005409594       -103.8347                0               0                0               0
1.68647                0.9542609        -25.2544      0.005556873       -107.4775                0               0                0               0
1.69307                0.9527636       -25.52874      0.005705618       -111.1099                0               0                0               0
1.69967                0.9512008       -25.80725      0.005856031       -114.7294                0               0                0               0
1.70627                0.9495707       -26.08991      0.006008371        -118.334                0               0                0               0
1.71287                0.9478713       -26.37667      0.006162947       -121.9219                0               0                0               0
1.71947                0.9461007       -26.66754      0.006320121       -125.4917                0               0                0               0
1.72607                0.9442572       -26.96247      0.006480309       -129.0423                0               0                0               0
1.73267                0.9423397       -27.26145      0.006643984       -132.5733                0               0                0               0
1.73927                0.9403467       -27.56449      0.006811667       -136.0844                0               0                0               0
1.74587                0.9382771       -27.87157      0.006983929       -139.5761                0               0                0               0
1.75248                0.9361298       -28.18272      0.007161391       -143.0489                0               0                0               0
1.75908                0.9339042       -28.49795      0.007344716       -146.5043                0               0                0               0
1.76568                 0.931599       -28.81732      0.007534604       -149.9438                0               0                0               0
1.77228                0.9292131       -29.14087      0.007731786       -153.3696                0               0                0               0
1.77888                 0.926746       -29.46868      0.007937027       -156.7844                0               0                0               0
1.78548                0.9241962       -29.80085      0.008151097        -160.191                0               0                0               0
1.79208                0.9215626       -30.13749      0.008374784       -163.5928                0               0                0               0
1.79868                0.9188437        -30.4787      0.008608877       -166.9934                0               0                0               0
1.80528                 0.916038       -30.82464      0.008854158       -170.3967                0               0                0               0
1.81188                0.9131432       -31.17546      0.009111381       -173.8068                0               0                0               0
1.81848                0.9101572       -31.53133      0.009381288       -177.2277                0               0                0               0
1.82508                0.9070773       -31.89242      0.009664579        179.3363                0               0                0               0
1.83168                0.9039005       -32.25891      0.009961913        175.8811                0               0                0               0
1.83828                0.9006235       -32.63099       0.01027389        172.4027                0               0                0               0
1.84488                0.8972422       -33.00885       0.01060108        168.8971                0               0                0               0
1.85149                0.8937526       -33.39268       0.01094395        165.3608                0               0                0               0
