! TOUCHSTONE file generated by CST MICROWAVE STUDIO
! Date and time: Tue Mar 11 13:56:43 2025
! Project name: transverse.cst
! Parameters = {Fracture=1; B=10; D=160; F=25; Feed=2.85625; L=100; M=30; R=0.384908; S=1; Theta=90; length=57.125; wave=114.25}
! Header version: 2024
! Port assignment regex: !\s*Touchstone port\s*([0-9]+)\s*=\s*(CST MWS port|CST DES external port|CST DES block port)\s*(.+)\s* \(\"(.*)\"\)(\s*mode\s*([0-9]+))?.*
! Touchstone port assignment:
! Touchstone port 1 = CST MWS port 1 ("")
! Touchstone port 2 = CST MWS port 2 ("")
# GHz S MA R 50
1                      0.9975623       -9.988987     0.0005091476        168.1442                0               0                0               0
1.00658                 0.997498       -10.07616     0.0005056059        162.3668                0               0                0               0
1.01316                0.9974361       -10.16403     0.0004999867        156.7104                0               0                0               0
1.01974                0.9973763       -10.25263     0.0004922668        151.1875                0               0                0               0
1.02632                0.9973176       -10.34202     0.0004824376        145.8137                0               0                0               0
1.03289                  0.99726       -10.43224     0.0004705087        140.6096                0               0                0               0
1.03947                0.9972023       -10.52333     0.0004565102        135.6013                0               0                0               0
1.04605                0.9971438       -10.61532     0.0004404989         130.823                0               0                0               0
1.05263                0.9970837       -10.70824     0.0004225646        126.3187                0               0                0               0
1.05921                0.9970211       -10.80209     0.0004028402        122.1462                0               0                0               0
1.06579                 0.996955        -10.8969      0.000381516        118.3816                0               0                0               0
1.07237                0.9968844       -10.99266     0.0003588622        115.1254                0               0                0               0
1.07895                0.9968086       -11.08936     0.0003352602        112.5109                0               0                0               0
1.08553                0.9967266         -11.187     0.0003112515        110.7121                0               0                0               0
1.09211                0.9966378       -11.28554     0.0002876064        109.9501                0               0                0               0
1.09868                0.9965415       -11.38497     0.0002654153        110.4847                0               0                0               0
1.10526                0.9964371       -11.48525      0.000246184        112.5683                0               0                0               0
1.11184                0.9963239       -11.58634     0.0002318616         116.328                0               0                0               0
1.11842                0.9962021       -11.68821     0.0002246546        121.5662                0               0                0               0
1.125                  0.9960713       -11.79082     0.0002264943        127.6089                0               0                0               0
1.13158                0.9959314       -11.89412     0.0002383367        133.4456                0               0                0               0
1.13816                0.9957827       -11.99809     0.0002598491        138.1702                0               0                0               0
1.14474                0.9956254       -12.10268     0.0002897651        141.3221                0               0                0               0
1.15132                0.9954599       -12.20787     0.0003265123        142.8725                0               0                0               0
1.15789                0.9952868       -12.31363     0.0003686444        143.0241                0               0                0               0
1.16447                0.9951066       -12.41994     0.0004149902        142.0428                0               0                0               0
1.17105                0.9949199       -12.52679      0.000464645        140.1747                0               0                0               0
1.17763                0.9947277       -12.63418     0.0005169128        137.6212                0               0                0               0
1.18421                0.9945305       -12.74211      0.000571246        134.5388                0               0                0               0
1.19079                0.9943292        -12.8506     0.0006272006        131.0465                0               0                0               0
1.19737                0.9941248       -12.95967      0.000684403        127.2348                0               0                0               0
1.20395                0.9939176       -13.06935      0.000742528        123.1728                0               0                0               0
1.21053                0.9937085       -13.17968     0.0008012844        118.9137                0               0                0               0
1.21711                 0.993498       -13.29072     0.0008604041        114.4989                0               0                0               0
1.22368                0.9932865       -13.40251     0.0009196366        109.9612                0               0                0               0
1.23026                0.9930744       -13.51512     0.0009787442        105.3269                0               0                0               0
1.23684                0.9928619       -13.62861      0.001037499        100.6171                0               0                0               0
1.24342                 0.992649       -13.74305      0.001095682        95.84948                0               0                0               0
1.25                   0.9924356        -13.8585      0.001153082        91.03856                0               0                0               0
1.25658                0.9922213       -13.97504      0.001209494        86.19681                0               0                0               0
1.26316                0.9920057       -14.09274       0.00126472        81.33492                0               0                0               0
1.26974                0.9917882       -14.21165      0.001318572         76.4623                0               0                0               0
1.27632                0.9915679       -14.33184      0.001370868        71.58729                0               0                0               0
1.28289                0.9913441       -14.45336      0.001421437        66.71747                0               0                0               0
1.28947                0.9911159       -14.57626      0.001470117         61.8598                0               0                0               0
1.29605                 0.990882       -14.70057      0.001516759        57.02082                0               0                0               0
1.30263                0.9906412       -14.82634      0.001561226        52.20673                0               0                0               0
1.30921                0.9903928       -14.95356      0.001603396        47.42352                0               0                0               0
1.31579                0.9901352       -15.08227      0.001643163        42.67705                0               0                0               0
1.32237                0.9898672       -15.21246       0.00168044        37.97312                0               0                0               0
1.32895                0.9895881       -15.34413      0.001715159        33.31751                0               0                0               0
1.33553                0.9892965       -15.47726      0.001747275        28.71607                0               0                0               0
1.34211                0.9889917       -15.61182      0.001776767        24.17472                0               0                0               0
1.34868                 0.988673       -15.74779      0.001803642        19.69947                0               0                0               0
1.35526                0.9883395       -15.88515      0.001827935        15.29647                0               0                0               0
1.36184                0.9879907       -16.02384      0.001849716        10.97195                0               0                0               0
1.36842                0.9876265       -16.16382      0.001869087         6.73227                0               0                0               0
1.375                  0.9872467       -16.30507       0.00188619        2.583806                0               0                0               0
1.38158                0.9868513       -16.44754      0.001901207       -1.467073                0               0                0               0
1.38816                0.9864404        -16.5912      0.001914364       -5.414116                0               0                0               0
1.39474                0.9860146       -16.73602      0.001925933       -9.251324                0               0                0               0
1.40132                0.9855741       -16.88198      0.001936234       -12.97312                0               0                0               0
1.40789                0.9851198       -17.02906      0.001945638       -16.57456                0               0                0               0
1.41447                0.9846523       -17.17726      0.001954562       -20.05162                0               0                0               0
1.42105                0.9841724       -17.32659      0.001963478       -23.40146                0               0                0               0
1.42763                 0.983681       -17.47706        0.0019729        -26.6228                0               0                0               0
1.43421                 0.983179        -17.6287       0.00198339       -29.71625                0               0                0               0
1.44079                0.9826672       -17.78157      0.001995542       -32.68467                0               0                0               0
1.44737                0.9821464        -17.9357      0.002009978       -35.53351                0               0                0               0
1.45395                0.9816173       -18.09118      0.002027338       -38.27101                0               0                0               0
1.46053                0.9810806       -18.24807      0.002048262       -40.90834                0               0                0               0
1.46711                0.9805364       -18.40647      0.002073373       -43.45953                0               0                0               0
1.47368                0.9799853       -18.56647      0.002103265       -45.94124                0               0                0               0
1.48026                0.9794272       -18.72817       0.00213848       -48.37234                0               0                0               0
1.48684                0.9788618       -18.89168      0.002179494       -50.77322                0               0                0               0
1.49342                0.9782889       -19.05713      0.002226702       -53.16503                0               0                0               0
1.5                    0.9777078       -19.22461      0.002280408       -55.56885                0               0                0               0
1.50658                0.9771176       -19.39424      0.002340815       -58.00484                0               0                0               0
1.51316                0.9765172       -19.56613      0.002408025       -60.49145                0               0                0               0
1.51974                0.9759052       -19.74038      0.002482043       -63.04485                0               0                0               0
1.52632                0.9752801       -19.91709      0.002562777       -65.67849                0               0                0               0
1.53289                0.9746404       -20.09634      0.002650052        -68.4029                0               0                0               0
1.53947                0.9739839       -20.27821      0.002743614       -71.22567                0               0                0               0
1.54605                0.9733088       -20.46277      0.002843149       -74.15161                0               0                0               0
1.55263                 0.972613       -20.65006      0.002948287       -77.18295                0               0                0               0
1.55921                0.9718944       -20.84013      0.003058618       -80.31972                0               0                0               0
1.56579                0.9711509       -21.03299        0.0031737       -83.56007                0               0                0               0
1.57237                0.9703804       -21.22866      0.003293067       -86.90066                0               0                0               0
1.57895                0.9695811       -21.42712      0.003416239       -90.33697                0               0                0               0
1.58553                 0.968751       -21.62837      0.003542726        -93.8636                0               0                0               0
1.59211                0.9678884       -21.83238      0.003672037       -97.47454                0               0                0               0
1.59868                0.9669918       -22.03911      0.003803681       -101.1634                0               0                0               0
1.60526                  0.96606       -22.24851      0.003937174       -104.9235                0               0                0               0
1.61184                0.9650918       -22.46055      0.004072039       -108.7481                0               0                0               0
1.61842                0.9640867       -22.67517      0.004207813       -112.6305                0               0                0               0
1.625                  0.9630439       -22.89232       0.00434405       -116.5641                0               0                0               0
1.63158                0.9619633       -23.11196      0.004480317       -120.5423                0               0                0               0
1.63816                0.9608448       -23.33404      0.004616206       -124.5587                0               0                0               0
1.64474                0.9596887       -23.55854      0.004751328       -128.6071                0               0                0               0
1.65132                0.9584956       -23.78543      0.004885323       -132.6816                0               0                0               0
1.65789                0.9572659       -24.01471      0.005017858       -136.7763                0               0                0               0
1.66447                0.9560007        -24.2464      0.005148629       -140.8857                0               0                0               0
1.67105                0.9547007       -24.48052      0.005277369       -145.0042                0               0                0               0
1.67763                0.9533671       -24.71713      0.005403846       -149.1266                0               0                0               0
1.68421                0.9520007       -24.95629       0.00552787       -153.2479                0               0                0               0
1.69079                0.9506027       -25.19811      0.005649294       -157.3631                0               0                0               0
1.69737                0.9491739        -25.4427      0.005768017       -161.4674                0               0                0               0
1.70395                0.9477149        -25.6902      0.005883992       -165.5563                0               0                0               0
1.71053                0.9462265       -25.94078      0.005997224       -169.6254                0               0                0               0
1.71711                0.9447087       -26.19462      0.006107777       -173.6703                0               0                0               0
1.72368                0.9431616       -26.45191      0.006215779       -177.6872                0               0                0               0
1.73026                0.9415847       -26.71289      0.006321422         178.328                0               0                0               0
1.73684                0.9399774       -26.97777      0.006424968        174.3787                0               0                0               0
1.74342                0.9383384       -27.24681      0.006526752        170.4682                0               0                0               0
1.75                   0.9366661       -27.52026      0.006627183        166.5996                0               0                0               0
1.75658                0.9349582       -27.79836      0.006726747        162.7754                0               0                0               0
1.76316                0.9332125       -28.08139      0.006826011        158.9977                0               0                0               0
1.76974                0.9314258       -28.36958      0.006925619        155.2683                0               0                0               0
1.77632                0.9295945        -28.6632      0.007026292        151.5882                0               0                0               0
1.78289                 0.927715       -28.96247      0.007128828        147.9578                0               0                0               0
1.78947                0.9257831       -29.26764      0.007234096         144.377                0               0                0               0
1.79605                0.9237941        -29.5789      0.007343033        140.8448                0               0                0               0
1.80263                0.9217431       -29.89645      0.007456629        137.3593                0               0                0               0
1.80921                 0.919625       -30.22047      0.007575928        133.9178                0               0                0               0
1.81579                0.9174345       -30.55112      0.007702007        130.5168                0               0                0               0
1.82237                0.9151662       -30.88851      0.007835967        127.1519                0               0                0               0
1.82895                0.9128146       -31.23277       0.00797892        123.8179                0               0                0               0
1.83553                 0.910374       -31.58398      0.008131963        120.5086                0               0                0               0
1.84211                0.9078392       -31.94222      0.008296175        117.2175                0               0                0               0
1.84868                0.9052046       -32.30754      0.008472586        113.9372                0               0                0               0
