! TOUCHSTONE file generated by CST MICROWAVE STUDIO
! Date and time: Tue Mar 11 13:57:01 2025
! Project name: transverse.cst
! Parameters = {Fracture=1; B=12.5; D=160; F=15; Feed=2.85625; L=100; M=20; R=0.384908; S=1; Theta=90; length=57.125; wave=114.25}
! Header version: 2024
! Port assignment regex: !\s*Touchstone port\s*([0-9]+)\s*=\s*(CST MWS port|CST DES external port|CST DES block port)\s*(.+)\s* \(\"(.*)\"\)(\s*mode\s*([0-9]+))?.*
! Touchstone port assignment:
! Touchstone port 1 = CST MWS port 1 ("")
! Touchstone port 2 = CST MWS port 2 ("")
# GHz S MA R 50
1                      0.9975918       -10.11929     0.0004473084       -170.0982                0               0                0               0
1.00658                0.9974968       -10.20875     0.0004455711       -175.1001                0               0                0               0
1.01316                0.9974015       -10.29861     0.0004421471       -179.9532                0               0                0               0
1.01974                0.9973059        -10.3889     0.0004370489        175.3601                0               0                0               0
1.02632                0.9972108       -10.47965     0.0004303097        170.8616                0               0                0               0
1.03289                0.9971163        -10.5709     0.0004219871        166.5778                0               0                0               0
1.03947                 0.997023       -10.66267      0.000412169        162.5408                0               0                0               0
1.04605                0.9969308       -10.75503     0.0004009798        158.7897                0               0                0               0
1.05263                0.9968397       -10.84801       0.00038859        155.3716                0               0                0               0
1.05921                  0.99675       -10.94166     0.0003752272        152.3429                0               0                0               0
1.06579                0.9966616       -11.03604      0.000361191        149.7694                0               0                0               0
1.07237                 0.996574       -11.13117     0.0003468706        147.7262                0               0                0               0
1.07895                0.9964868       -11.22712     0.0003327646         146.294                0               0                0               0
1.08553                0.9963999       -11.32393     0.0003195008         145.551                0               0                0               0
1.09211                0.9963125       -11.42162     0.0003078463        145.5574                0               0                0               0
1.09868                0.9962239       -11.52024     0.0002986983        146.3308                0               0                0               0
1.10526                0.9961336       -11.61982     0.0002930362        147.8159                0               0                0               0
1.11184                0.9960407       -11.72038     0.0002918228        149.8586                0               0                0               0
1.11842                0.9959445       -11.82193     0.0002958642         152.206                0               0                0               0
1.125                  0.9958442       -11.92449     0.0003056696        154.5443                0               0                0               0
1.13158                 0.995739       -12.02806     0.0003213752        156.5667                0               0                0               0
1.13816                0.9956281       -12.13263     0.0003427645        158.0377                0               0                0               0
1.14474                0.9955109       -12.23819     0.0003693672        158.8237                0               0                0               0
1.15132                0.9953866       -12.34474     0.0004005799        158.8861                0               0                0               0
1.15789                0.9952549       -12.45225     0.0004357664        158.2538                0               0                0               0
1.16447                0.9951151       -12.56069     0.0004743185        156.9928                0               0                0               0
1.17105                 0.994967       -12.67004     0.0005156834        155.1835                0               0                0               0
1.17763                0.9948104       -12.78027     0.0005593707        152.9072                0               0                0               0
1.18421                0.9946451       -12.89134      0.000604947        150.2385                0               0                0               0
1.19079                0.9944713       -13.00325     0.0006520282        147.2431                0               0                0               0
1.19737                 0.994289       -13.11594     0.0007002695         143.977                0               0                0               0
1.20395                0.9940985       -13.22941      0.000749358        140.4876                0               0                0               0
1.21053                0.9939002       -13.34363     0.0007990056        136.8145                0               0                0               0
1.21711                0.9936947       -13.45859     0.0008489445        132.9913                0               0                0               0
1.22368                0.9934825       -13.57428     0.0008989222        129.0458                0               0                0               0
1.23026                0.9932642       -13.69071     0.0009487009        125.0022                0               0                0               0
1.23684                0.9930404       -13.80788     0.0009980538        120.8805                0               0                0               0
1.24342                0.9928119        -13.9258      0.001046765        116.6986                0               0                0               0
1.25                   0.9925794       -14.04451      0.001094629        112.4718                0               0                0               0
1.25658                0.9923434       -14.16404       0.00114145        108.2135                0               0                0               0
1.26316                0.9921045       -14.28443      0.001187045         103.936                0               0                0               0
1.26974                0.9918633       -14.40573      0.001231242         99.6504                0               0                0               0
1.27632                0.9916202         -14.528      0.001273878        95.36674                0               0                0               0
1.28289                0.9913754        -14.6513       0.00131481         91.0946                0               0                0               0
1.28947                0.9911291       -14.77569      0.001353908        86.84299                0               0                0               0
1.29605                0.9908814       -14.90126      0.001391059        82.62056                0               0                0               0
1.30263                0.9906319       -15.02807      0.001426171        78.43577                0               0                0               0
1.30921                0.9903804       -15.15619      0.001459175         74.2969                0               0                0               0
1.31579                0.9901265       -15.28571      0.001490025        70.21217                0               0                0               0
1.32237                0.9898695       -15.41668      0.001518705        66.18981                0               0                0               0
1.32895                0.9896086       -15.54919       0.00154523        62.23803                0               0                0               0
1.33553                0.9893429       -15.68328      0.001569649        58.36514                0               0                0               0
1.34211                0.9890712       -15.81901      0.001592049        54.57941                0               0                0               0
1.34868                0.9887927       -15.95644      0.001612561        50.88911                0               0                0               0
1.35526                0.9885059        -16.0956      0.001631362        47.30238                0               0                0               0
1.36184                0.9882096       -16.23652      0.001648677        43.82712                0               0                0               0
1.36842                0.9879026       -16.37922      0.001664786        40.47079                0               0                0               0
1.375                  0.9875836       -16.52371      0.001680028        37.24018                0               0                0               0
1.38158                0.9872513          -16.67      0.001694799        34.14112                0               0                0               0
1.38816                0.9869047       -16.81808      0.001709556        31.17805                0               0                0               0
1.39474                0.9865427       -16.96793      0.001724818        28.35367                0               0                0               0
1.40132                0.9861642       -17.11954      0.001741161        25.66844                0               0                0               0
1.40789                0.9857685       -17.27287      0.001759215        23.12013                0               0                0               0
1.41447                0.9853549        -17.4279      0.001779652        20.70335                0               0                0               0
1.42105                0.9849231       -17.58459      0.001803181        18.40923                0               0                0               0
1.42763                0.9844727       -17.74291      0.001830525        16.22525                0               0                0               0
1.43421                0.9840034       -17.90282       0.00186241        14.13526                0               0                0               0
1.44079                0.9835154        -18.0643       0.00189954        12.11976                0               0                0               0
1.44737                0.9830092       -18.22732      0.001942577        10.15651                0               0                0               0
1.45395                0.9824847       -18.39187      0.001992124        8.221392                0               0                0               0
1.46053                0.9819427       -18.55793      0.002048702        6.289414                0               0                0               0
1.46711                0.9813838       -18.72551       0.00211274        4.335863                0               0                0               0
1.47368                0.9808087       -18.89462      0.002184564        2.337403                0               0                0               0
1.48026                0.9802183       -19.06529      0.002264394        0.273036                0               0                0               0
1.48684                0.9796132       -19.23754      0.002352344       -1.875188                0               0                0               0
1.49342                0.9789943       -19.41144      0.002448433       -4.121713                0               0                0               0
1.5                    0.9783623       -19.58705      0.002552586       -6.477324                0               0                0               0
1.50658                0.9777179       -19.76445      0.002664653       -8.949221                0               0                0               0
1.51316                0.9770616       -19.94373      0.002784416       -11.54131                0               0                0               0
1.51974                0.9763937       -20.12499      0.002911608       -14.25458                0               0                0               0
1.52632                0.9757145       -20.30835      0.003045914       -17.08758                0               0                0               0
1.53289                0.9750238       -20.49394      0.003186994       -20.03693                0               0                0               0
1.53947                0.9743215       -20.68187      0.003334481        -23.0977                0               0                0               0
1.54605                0.9736069        -20.8723      0.003487996        -26.2639                0               0                0               0
1.55263                0.9728794       -21.06535      0.003647153       -29.52878                0               0                0               0
1.55921                0.9721376       -21.26116      0.003811561       -32.88513                0               0                0               0
1.56579                0.9713804       -21.45988      0.003980835       -36.32552                0               0                0               0
1.57237                0.9706061       -21.66163      0.004154594       -39.84245                0               0                0               0
1.57895                0.9698129       -21.86655      0.004332468       -43.42854                0               0                0               0
1.58553                0.9689986       -22.07474      0.004514099       -47.07657                0               0                0               0
1.59211                 0.968161       -22.28633      0.004699146       -50.77955                0               0                0               0
1.59868                0.9672976        -22.5014      0.004887286       -54.53081                0               0                0               0
1.60526                0.9664059       -22.72004      0.005078218       -58.32398                0               0                0               0
1.61184                0.9654831       -22.94233      0.005271663       -62.15303                0               0                0               0
1.61842                0.9645266        -23.1683       0.00546737       -66.01224                0               0                0               0
1.625                  0.9635335       -23.39801      0.005665118       -69.89625                0               0                0               0
1.63158                0.9625012       -23.63148      0.005864716       -73.80003                0               0                0               0
1.63816                 0.961427       -23.86872      0.006066008       -77.71885                0               0                0               0
1.64474                0.9603085       -24.10973      0.006268878       -81.64832                0               0                0               0
1.65132                0.9591433        -24.3545      0.006473249       -85.58435                0               0                0               0
1.65789                0.9579291         -24.603      0.006679086       -89.52315                0               0                0               0
1.66447                0.9566643       -24.85522      0.006886403       -93.46125                0               0                0               0
1.67105                0.9553468       -25.11111       0.00709526       -97.39547                0               0                0               0
1.67763                0.9539751       -25.37065       0.00730577       -101.3229                0               0                0               0
1.68421                0.9525481        -25.6338      0.007518102       -105.2411                0               0                0               0
1.69079                 0.951065       -25.90054      0.007732479       -109.1477                0               0                0               0
1.69737                0.9495246       -26.17084      0.007949177       -113.0408                0               0                0               0
1.70395                0.9479267       -26.44469      0.008168538       -116.9188                0               0                0               0
1.71053                0.9462707       -26.72209      0.008390958       -120.7805                0               0                0               0
1.71711                0.9445566       -27.00306      0.008616894       -124.6249                0               0                0               0
1.72368                0.9427841       -27.28764      0.008846862       -128.4515                0               0                0               0
1.73026                0.9409532       -27.57588      0.009081433       -132.2601                0               0                0               0
1.73684                 0.939064       -27.86784      0.009321233        -136.051                0               0                0               0
1.74342                0.9371163       -28.16363      0.009566941       -139.8246                0               0                0               0
1.75                     0.93511       -28.46336       0.00981928       -143.5819                0               0                0               0
1.75658                0.9330449       -28.76719       0.01007902       -147.3242                0               0                0               0
1.76316                0.9309202       -29.07526       0.01034695       -151.0533                0               0                0               0
1.76974                0.9287352       -29.38777       0.01062392        -154.771                0               0                0               0
1.77632                0.9264887       -29.70492       0.01091077       -158.4798                0               0                0               0
1.78289                0.9241793       -30.02693       0.01120835       -162.1823                0               0                0               0
1.78947                 0.921805       -30.35404       0.01151755       -165.8812                0               0                0               0
1.79605                0.9193633       -30.68649       0.01183922       -169.5798                0               0                0               0
1.80263                0.9168515       -31.02455       0.01217421       -173.2811                0               0                0               0
1.80921                0.9142661       -31.36847       0.01252332       -176.9886                0               0                0               0
1.81579                0.9116032       -31.71852       0.01288735        179.2943                0               0                0               0
1.82237                0.9088585       -32.07496       0.01326704        175.5643                0               0                0               0
1.82895                0.9060269       -32.43805       0.01366307        171.8179                0               0                0               0
1.83553                0.9031032       -32.80802       0.01407608         168.052                0               0                0               0
1.84211                0.9000813       -33.18511       0.01450662        164.2633                0               0                0               0
1.84868                0.8969551       -33.56953       0.01495518        160.4489                0               0                0               0
