! TOUCHSTONE file generated by CST MICROWAVE STUDIO
! Date and time: Tue Mar 11 13:55:56 2025
! Project name: transverse.cst
! Parameters = {Fracture=1; B=10; D=160; F=25; Feed=2.85625; L=100; M=10; R=0.384908; S=2; Theta=0; length=57.125; wave=114.25}
! Header version: 2024
! Port assignment regex: !\s*Touchstone port\s*([0-9]+)\s*=\s*(CST MWS port|CST DES external port|CST DES block port)\s*(.+)\s* \(\"(.*)\"\)(\s*mode\s*([0-9]+))?.*
! Touchstone port assignment:
! Touchstone port 1 = CST MWS port 1 ("")
! Touchstone port 2 = CST MWS port 2 ("")
# GHz S MA R 50
1                      0.9977877       -9.998376     0.0003725622       -164.8528                0               0                0               0
1.0066                 0.9977023       -10.08798     0.0003761439       -168.5406                0               0                0               0
1.0132                 0.9976133       -10.17806     0.0003790903       -172.0817                0               0                0               0
1.0198                  0.997521       -10.26863     0.0003814782       -175.4646                0               0                0               0
1.0264                 0.9974258       -10.35969     0.0003834038       -178.6776                0               0                0               0
1.033                  0.9973276       -10.45123     0.0003849838        178.2901                0               0                0               0
1.0396                 0.9972271       -10.54327     0.0003863574        175.4483                0               0                0               0
1.0462                 0.9971243       -10.63582     0.0003876866        172.8047                0               0                0               0
1.05281                0.9970197        -10.7289     0.0003891558        170.3641                0               0                0               0
1.05941                0.9969131       -10.82252     0.0003909714        168.1276                0               0                0               0
1.06601                0.9968052       -10.91671     0.0003933586         166.091                0               0                0               0
1.07261                0.9966959       -11.01149     0.0003965574        164.2439                0               0                0               0
1.07921                0.9965853       -11.10688     0.0004008158        162.5692                0               0                0               0
1.08581                0.9964733       -11.20292     0.0004063826        161.0426                0               0                0               0
1.09241                0.9963604       -11.29964     0.0004134972        159.6327                0               0                0               0
1.09901                 0.996246       -11.39707     0.0004223798        158.3025                0               0                0               0
1.10561                0.9961301       -11.49522     0.0004332218        157.0109                0               0                0               0
1.11221                0.9960126       -11.59415     0.0004461775        155.7155                0               0                0               0
1.11881                0.9958933       -11.69387     0.0004613589         154.375                0               0                0               0
1.12541                0.9957716       -11.79441     0.0004788326        152.9517                0               0                0               0
1.13201                0.9956473        -11.8958     0.0004986209        151.4136                0               0                0               0
1.13861                0.9955199       -11.99806     0.0005207045        149.7352                0               0                0               0
1.14521                0.9953891        -12.1012     0.0005450285        147.8986                0               0                0               0
1.15182                0.9952545       -12.20524     0.0005715076        145.8928                0               0                0               0
1.15842                0.9951154        -12.3102     0.0006000327         143.713                0               0                0               0
1.16502                0.9949713       -12.41607     0.0006304772        141.3597                0               0                0               0
1.17162                 0.994822       -12.52287     0.0006627019        138.8375                0               0                0               0
1.17822                0.9946667       -12.63059     0.0006965592         136.154                0               0                0               0
1.18482                0.9945055       -12.73923     0.0007318969         133.319                0               0                0               0
1.19142                0.9943375       -12.84879     0.0007685603        130.3434                0               0                0               0
1.19802                0.9941628       -12.95926     0.0008063945        127.2391                0               0                0               0
1.20462                0.9939808       -13.07063     0.0008452458        124.0178                0               0                0               0
1.21122                0.9937915       -13.18289     0.0008849625        120.6914                0               0                0               0
1.21782                0.9935949       -13.29602     0.0009253964        117.2714                0               0                0               0
1.22442                0.9933907       -13.41003     0.0009664022        113.7686                0               0                0               0
1.23102                 0.993179       -13.52488      0.001007839        110.1936                0               0                0               0
1.23762                  0.99296       -13.64059      0.001049571        106.5562                0               0                0               0
1.24422                0.9927338       -13.75714      0.001091467        102.8654                0               0                0               0
1.25083                0.9925005       -13.87453      0.001133402        99.13016                0               0                0               0
1.25743                0.9922607       -13.99275      0.001175257        95.35839                0               0                0               0
1.26403                0.9920144       -14.11182      0.001216919        91.55775                0               0                0               0
1.27063                0.9917618       -14.23174      0.001258283        87.73535                0               0                0               0
1.27723                0.9915037       -14.35253      0.001299253        83.89791                0               0                0               0
1.28383                  0.99124        -14.4742      0.001339739        80.05174                0               0                0               0
1.29043                0.9909715       -14.59677      0.001379665        76.20281                0               0                0               0
1.29703                0.9906981       -14.72028      0.001418961        72.35674                0               0                0               0
1.30363                0.9904204       -14.84475       0.00145757        68.51891                0               0                0               0
1.31023                0.9901385       -14.97023      0.001495449        64.69438                0               0                0               0
1.31683                0.9898527       -15.09675      0.001532565        60.88797                0               0                0               0
1.32343                 0.989563       -15.22435      0.001568902        57.10427                0               0                0               0
1.33003                0.9892697        -15.3531      0.001604457        53.34762                0               0                0               0
1.33663                0.9889725       -15.48302      0.001639243         49.6221                0               0                0               0
1.34323                0.9886714       -15.61419      0.001673292        45.93157                0               0                0               0
1.34984                0.9883663       -15.74664       0.00170665         42.2796                0               0                0               0
1.35644                0.9880571       -15.88042      0.001739385        38.66948                0               0                0               0
1.36304                 0.987743        -16.0156      0.001771582        35.10418                0               0                0               0
1.36964                 0.987424       -16.15222      0.001803344        31.58632                0               0                0               0
1.37624                0.9870993       -16.29032      0.001834798        28.11814                0               0                0               0
1.38284                0.9867686       -16.42996      0.001866085        24.70141                0               0                0               0
1.38944                0.9864313       -16.57117      0.001897369        21.33746                0               0                0               0
1.39604                0.9860867       -16.71399      0.001928833        18.02704                0               0                0               0
1.40264                 0.985734       -16.85846      0.001960674        14.77036                0               0                0               0
1.40924                0.9853728       -17.00461      0.001993109        11.56696                0               0                0               0
1.41584                0.9850023       -17.15247      0.002026368        8.415735                0               0                0               0
1.42244                 0.984622       -17.30206      0.002060692        5.314884                0               0                0               0
1.42904                0.9842311        -17.4534      0.002096332        2.261888                0               0                0               0
1.43564                0.9838292       -17.60652      0.002133548      -0.7464811                0               0                0               0
1.44224                0.9834157       -17.76144      0.002172598       -3.714138                0               0                0               0
1.44884                0.9829901       -17.91816      0.002213742       -6.645642                0               0                0               0
1.45545                 0.982552       -18.07671      0.002257236        -9.54613                0               0                0               0
1.46205                 0.982101        -18.2371      0.002303323       -12.42123                0               0                0               0
1.46865                0.9816371       -18.39935      0.002352238       -15.27694                0               0                0               0
1.47525                0.9811598       -18.56348      0.002404197       -18.11954                0               0                0               0
1.48185                0.9806692       -18.72951      0.002459396       -20.95541                0               0                0               0
1.48845                 0.980165       -18.89749      0.002518007       -23.79093                0               0                0               0
1.49505                0.9796472       -19.06742      0.002580181       -26.63229                0               0                0               0
1.50165                0.9791159       -19.23936      0.002646038       -29.48544                0               0                0               0
1.50825                0.9785711       -19.41335       0.00271567       -32.35589                0               0                0               0
1.51485                0.9780127       -19.58945      0.002789144       -35.24866                0               0                0               0
1.52145                0.9774408        -19.7677      0.002866497       -38.16817                0               0                0               0
1.52805                0.9768552       -19.94819      0.002947737       -41.11825                0               0                0               0
1.53465                0.9762559       -20.13098      0.003032849         -44.102                0               0                0               0
1.54125                0.9756428       -20.31616      0.003121793       -47.12187                0               0                0               0
1.54785                0.9750155       -20.50381      0.003214509       -50.17965                0               0                0               0
1.55446                0.9743737       -20.69403      0.003310914       -53.27648                0               0                0               0
1.56106                 0.973717       -20.88693      0.003410912       -56.41288                0               0                0               0
1.56766                0.9730445       -21.08261      0.003514393       -59.58881                0               0                0               0
1.57426                0.9723555       -21.28118      0.003621235       -62.80378                0               0                0               0
1.58086                0.9716491       -21.48276       0.00373131       -66.05679                0               0                0               0
1.58746                0.9709241       -21.68746      0.003844483       -69.34651                0               0                0               0
1.59406                0.9701791        -21.8954      0.003960618       -72.67126                0               0                0               0
1.60066                0.9694127        -22.1067      0.004079581       -76.02913                0               0                0               0
1.60726                 0.968623       -22.32147      0.004201238       -79.41797                0               0                0               0
1.61386                0.9678084       -22.53983      0.004325466       -82.83546                0               0                0               0
1.62046                0.9669667       -22.76187      0.004452146       -86.27921                0               0                0               0
1.62706                0.9660957       -22.98772      0.004581171       -89.74672                0               0                0               0
1.63366                0.9651932       -23.21745      0.004712449       -93.23547                0               0                0               0
1.64026                0.9642566       -23.45116      0.004845902       -96.74294                0               0                0               0
1.64686                0.9632835       -23.68893      0.004981469       -100.2666                0               0                0               0
1.65347                0.9622712       -23.93084       0.00511911       -103.8041                0               0                0               0
1.66007                 0.961217       -24.17694      0.005258804       -107.3531                0               0                0               0
1.66667                0.9601184       -24.42729      0.005400556       -110.9112                0               0                0               0
1.67327                0.9589724       -24.68194      0.005544392       -114.4764                0               0                0               0
1.67987                0.9577765       -24.94093      0.005690369       -118.0467                0               0                0               0
1.68647                0.9565279       -25.20428      0.005838566       -121.6202                0               0                0               0
1.69307                0.9552239       -25.47203      0.005989091       -125.1954                0               0                0               0
1.69967                0.9538622       -25.74419      0.006142087       -128.7706                0               0                0               0
1.70627                0.9524402       -26.02077      0.006297719       -132.3448                0               0                0               0
1.71287                0.9509555       -26.30178      0.006456185       -135.9168                0               0                0               0
1.71947                0.9494059       -26.58724      0.006617712       -139.4859                0               0                0               0
1.72607                0.9477893       -26.87714      0.006782558       -143.0513                0               0                0               0
1.73267                0.9461035        -27.1715      0.006951005       -146.6129                0               0                0               0
1.73927                0.9443466       -27.47034      0.007123366       -150.1704                0               0                0               0
1.74587                0.9425167       -27.77365      0.007299977        -153.724                0               0                0               0
1.75248                0.9406122       -28.08147      0.007481198       -157.2742                0               0                0               0
1.75908                0.9386312       -28.39383       0.00766741       -160.8214                0               0                0               0
1.76568                0.9365722       -28.71076      0.007859011       -164.3666                0               0                0               0
1.77228                0.9344333        -29.0323      0.008056414       -167.9109                0               0                0               0
1.77888                0.9322129       -29.35852      0.008260042       -171.4555                0               0                0               0
1.78548                0.9299093       -29.68948      0.008470328       -175.0019                0               0                0               0
1.79208                0.9275209       -30.02526      0.008687706       -178.5518                0               0                0               0
1.79868                0.9250455       -30.36595      0.008912608        177.8931                0               0                0               0
1.80528                0.9224812       -30.71165      0.009145459        174.3308                0               0                0               0
1.81188                0.9198258       -31.06248      0.009386679        170.7593                0               0                0               0
1.81848                 0.917077       -31.41855       0.00963667        167.1766                0               0                0               0
1.82508                0.9142321       -31.78002      0.009895814        163.5804                0               0                0               0
1.83168                0.9112881         -32.147       0.01016447        159.9688                0               0                0               0
1.83828                0.9082419       -32.51967       0.01044297        156.3397                0               0                0               0
1.84488                  0.90509       -32.89816       0.01073162        152.6909                0               0                0               0
1.85149                0.9018288       -33.28264       0.01103068        149.0205                0               0                0               0
