! TOUCHSTONE file generated by CST MICROWAVE STUDIO
! Date and time: Tue Mar 11 13:58:20 2025
! Project name: transverse.cst
! Parameters = {Fracture=1; B=12.5; D=160; F=15; Feed=2.85625; L=100; M=20; R=0.384908; S=2; Theta=270; length=57.125; wave=114.25}
! Header version: 2024
! Port assignment regex: !\s*Touchstone port\s*([0-9]+)\s*=\s*(CST MWS port|CST DES external port|CST DES block port)\s*(.+)\s* \(\"(.*)\"\)(\s*mode\s*([0-9]+))?.*
! Touchstone port assignment:
! Touchstone port 1 = CST MWS port 1 ("")
! Touchstone port 2 = CST MWS port 2 ("")
# GHz S MA R 50
1                      0.9976942        -10.0014     0.0004165883       -170.4645                0               0                0               0
1.00658                0.9976095       -10.09019     0.0004178172       -174.9415                0               0                0               0
1.01316                0.9975227       -10.17946     0.0004178471       -179.2744                0               0                0               0
1.01974                0.9974339       -10.26923     0.0004167144        176.5521                0               0                0               0
1.02632                0.9973432       -10.35951     0.0004144753        172.5553                0               0                0               0
1.03289                0.9972509        -10.4503     0.0004112083        168.7544                0               0                0               0
1.03947                0.9971573       -10.54164     0.0004070176        165.1713                0               0                0               0
1.04605                0.9970623       -10.63354     0.0004020376        161.8295                0               0                0               0
1.05263                0.9969662       -10.72601     0.0003964371        158.7546                0               0                0               0
1.05921                0.9968689        -10.8191     0.0003904235        155.9729                0               0                0               0
1.06579                0.9967704        -10.9128     0.0003842477        153.5105                0               0                0               0
1.07237                0.9966709       -11.00717     0.0003782077        151.3908                0               0                0               0
1.07895                0.9965701       -11.10221     0.0003726492        149.6321                0               0                0               0
1.08553                0.9964681       -11.19796     0.0003679646        148.2426                0               0                0               0
1.09211                0.9963644       -11.29444     0.0003645848        147.2166                0               0                0               0
1.09868                0.9962592       -11.39168     0.0003629648        146.5291                0               0                0               0
1.10526                0.9961519        -11.4897     0.0003635602        146.1326                0               0                0               0
1.11184                0.9960423       -11.58852     0.0003667981        145.9563                0               0                0               0
1.11842                0.9959302       -11.68817     0.0003730441        145.9098                0               0                0               0
1.125                  0.9958149       -11.78866     0.0003825723        145.8907                0               0                0               0
1.13158                0.9956963          -11.89     0.0003955454         145.796                0               0                0               0
1.13816                 0.995574        -11.9922     0.0004120093        145.5328                0               0                0               0
1.14474                0.9954475       -12.09529     0.0004319007        145.0272                0               0                0               0
1.15132                0.9953163       -12.19926     0.0004550666        144.2285                0               0                0               0
1.15789                0.9951804       -12.30412     0.0004812887        143.1086                0               0                0               0
1.16447                0.9950391       -12.40987     0.0005103066        141.6597                0               0                0               0
1.17105                0.9948923       -12.51651     0.0005418385         139.889                0               0                0               0
1.17763                0.9947393       -12.62404     0.0005755949        137.8141                0               0                0               0
1.18421                0.9945804       -12.73245     0.0006112902        135.4587                0               0                0               0
1.19079                 0.994415       -12.84174      0.000648647        132.8496                0               0                0               0
1.19737                0.9942432        -12.9519     0.0006874001        130.0144                0               0                0               0
1.20395                0.9940648       -13.06294     0.0007272971        126.9798                0               0                0               0
1.21053                0.9938799       -13.17484     0.0007680991        123.7713                0               0                0               0
1.21711                0.9936881       -13.28761      0.000809579        120.4124                0               0                0               0
1.22368                0.9934897       -13.40123     0.0008515221        116.9245                0               0                0               0
1.23026                 0.993285       -13.51571     0.0008937247         113.327                0               0                0               0
1.23684                0.9930737       -13.63106     0.0009359934        109.6373                0               0                0               0
1.24342                0.9928562       -13.74728      0.000978145        105.8714                0               0                0               0
1.25                   0.9926327       -13.86437      0.001020007        102.0435                0               0                0               0
1.25658                0.9924034       -13.98235      0.001061416        98.16659                0               0                0               0
1.26316                0.9921683       -14.10123       0.00110222        94.25252                0               0                0               0
1.26974                0.9919276       -14.22104      0.001142277        90.31212                0               0                0               0
1.27632                0.9916817        -14.3418      0.001181458        86.35542                0               0                0               0
1.28289                0.9914307       -14.46352      0.001219644        82.39175                0               0                0               0
1.28947                0.9911745       -14.58624      0.001256734        78.42985                0               0                0               0
1.29605                0.9909133          -14.71      0.001292637        74.47797                0               0                0               0
1.30263                0.9906473       -14.83481      0.001327281        70.54397                0               0                0               0
1.30921                0.9903764       -14.96073      0.001360612        66.63537                0               0                0               0
1.31579                0.9901003       -15.08779      0.001392593        62.75938                0               0                0               0
1.32237                0.9898189       -15.21602       0.00142321        58.92297                0               0                0               0
1.32895                0.9895323       -15.34546      0.001452472        55.13287                0               0                0               0
1.33553                0.9892403       -15.47616      0.001480412        51.39557                0               0                0               0
1.34211                 0.988942       -15.60816       0.00150709        47.71732                0               0                0               0
1.34868                0.9886377       -15.74147      0.001532595        44.10407                0               0                0               0
1.35526                0.9883267       -15.87616      0.001557046        40.56144                0               0                0               0
1.36184                0.9880086       -16.01223      0.001580595         37.0946                0               0                0               0
1.36842                0.9876828       -16.14974      0.001603426        33.70823                0               0                0               0
1.375                   0.987349       -16.28871      0.001625759        30.40632                0               0                0               0
1.38158                0.9870066       -16.42916      0.001647848         27.1921                0               0                0               0
1.38816                0.9866553       -16.57112      0.001669984        24.06782                0               0                0               0
1.39474                0.9862943       -16.71461      0.001692489        21.03457                0               0                0               0
1.40132                0.9859233       -16.85965       0.00171572        18.09215                0               0                0               0
1.40789                0.9855417       -17.00626       0.00174006        15.23883                0               0                0               0
1.41447                0.9851492       -17.15446      0.001765918        12.47124                0               0                0               0
1.42105                0.9847454       -17.30425      0.001793721        9.784252                0               0                0               0
1.42763                0.9843299       -17.45566      0.001823908        7.170937                0               0                0               0
1.43421                0.9839025       -17.60869      0.001856919        4.622574                0               0                0               0
1.44079                0.9834628       -17.76338      0.001893191        2.128788                0               0                0               0
1.44737                0.9830109       -17.91972      0.001933145      -0.3222489                0               0                0               0
1.45395                0.9825463       -18.07774      0.001977175       -2.743504                0               0                0               0
1.46053                 0.982069       -18.23747      0.002025641       -5.148703                0               0                0               0
1.46711                0.9815792       -18.39893      0.002078864        -7.55189                0               0                0               0
1.47368                0.9810765       -18.56214       0.00213711       -9.966972                0               0                0               0
1.48026                 0.980561       -18.72714      0.002200595       -12.40727                0               0                0               0
1.48684                0.9800328       -18.89398      0.002269477       -14.88509                0               0                0               0
1.49342                0.9794921       -19.06269      0.002343855       -17.41143                0               0                0               0
1.5                    0.9789384       -19.23332      0.002423772       -19.99572                0               0                0               0
1.50658                0.9783721       -19.40594      0.002509215       -22.64565                0               0                0               0
1.51316                0.9777927        -19.5806      0.002600123       -25.36713                0               0                0               0
1.51974                0.9772004       -19.75737      0.002696387       -28.16436                0               0                0               0
1.52632                0.9765948       -19.93632      0.002797859       -31.03985                0               0                0               0
1.53289                0.9759757       -20.11752      0.002904354       -33.99464                0               0                0               0
1.53947                0.9753427       -20.30108      0.003015662        -37.0284                0               0                0               0
1.54605                0.9746952       -20.48706      0.003131545        -40.1397                0               0                0               0
1.55263                0.9740327       -20.67555       0.00325175       -43.32612                0               0                0               0
1.55921                0.9733544       -20.86665      0.003376008       -46.58451                0               0                0               0
1.56579                0.9726594       -21.06046      0.003504041       -49.91111                0               0                0               0
1.57237                0.9719468       -21.25706      0.003635567       -53.30173                0               0                0               0
1.57895                0.9712155       -21.45655      0.003770301       -56.75183                0               0                0               0
1.58553                0.9704643       -21.65901       0.00390796       -60.25669                0               0                0               0
1.59211                0.9696918       -21.86455      0.004048268       -63.81148                0               0                0               0
1.59868                0.9688964       -22.07326      0.004190954        -67.4113                0               0                0               0
1.60526                0.9680767        -22.2852       0.00433576        -71.0513                0               0                0               0
1.61184                0.9672309       -22.50048      0.004482441       -74.72667                0               0                0               0
1.61842                0.9663574       -22.71916      0.004630768       -78.43271                0               0                0               0
1.625                  0.9654544       -22.94132       0.00478053       -82.16485                0               0                0               0
1.63158                0.9645199       -23.16702      0.004931541       -85.91865                0               0                0               0
1.63816                 0.963552       -23.39633      0.005083634       -89.68986                0               0                0               0
1.64474                 0.962549       -23.62931      0.005236674       -93.47438                0               0                0               0
1.65132                0.9615087       -23.86601      0.005390551       -97.26833                0               0                0               0
1.65789                0.9604293       -24.10648       0.00554519        -101.068                0               0                0               0
1.66447                 0.959309       -24.35077      0.005700548       -104.8699                0               0                0               0
1.67105                0.9581457       -24.59891      0.005856622       -108.6707                0               0                0               0
1.67763                0.9569377       -24.85096      0.006013446       -112.4674                0               0                0               0
1.68421                0.9556832       -25.10695      0.006171095       -116.2573                0               0                0               0
1.69079                0.9543806       -25.36692      0.006329691       -120.0376                0               0                0               0
1.69737                0.9530279       -25.63091      0.006489396       -123.8061                0               0                0               0
1.70395                0.9516235       -25.89897      0.006650425       -127.5608                0               0                0               0
1.71053                 0.950166       -26.17114      0.006813037       -131.2999                0               0                0               0
1.71711                0.9486536       -26.44747      0.006977543       -135.0221                0               0                0               0
1.72368                0.9470849       -26.72801        0.0071443       -138.7262                0               0                0               0
1.73026                0.9454583       -27.01283      0.007313716       -142.4114                0               0                0               0
1.73684                0.9437722       -27.30199      0.007486246       -146.0774                0               0                0               0
1.74342                0.9420251       -27.59556      0.007662391       -149.7242                0               0                0               0
1.75                   0.9402154       -27.89363      0.007842697        -153.352                0               0                0               0
1.75658                0.9383413       -28.19629      0.008027746       -156.9616                0               0                0               0
1.76316                0.9364013       -28.50364      0.008218163       -160.5542                0               0                0               0
1.76974                0.9343931       -28.81579      0.008414599       -164.1313                0               0                0               0
1.77632                0.9323151       -29.13284      0.008617731       -167.6947                0               0                0               0
1.78289                0.9301651       -29.45493       0.00882826       -171.2468                0               0                0               0
1.78947                0.9279407       -29.78219      0.009046892       -174.7899                0               0                0               0
1.79605                0.9256394       -30.11475      0.009274347       -178.3271                0               0                0               0
1.80263                0.9232584       -30.45277      0.009511331        178.1385                0               0                0               0
1.80921                0.9207949        -30.7964      0.009758546        174.6036                0               0                0               0
1.81579                0.9182456       -31.14578       0.01001667        171.0648                0               0                0               0
1.82237                0.9156071       -31.50108       0.01028636        167.5184                0               0                0               0
1.82895                0.9128757       -31.86245       0.01056823        163.9608                0               0                0               0
1.83553                0.9100473       -32.23006       0.01086285        160.3884                0               0                0               0
1.84211                0.9071178       -32.60406       0.01117075        156.7976                0               0                0               0
1.84868                0.9040827       -32.98461        0.0114924         153.185                0               0                0               0
