! TOUCHSTONE file generated by CST MICROWAVE STUDIO
! Date and time: Tue Mar 11 13:58:00 2025
! Project name: transverse.cst
! Parameters = {Fracture=5; B=10; D=160; F=25; Feed=2.85625; L=100; M=20; R=0.384908; S=1; Theta=270; length=57.125; wave=114.25}
! Header version: 2024
! Port assignment regex: !\s*Touchstone port\s*([0-9]+)\s*=\s*(CST MWS port|CST DES external port|CST DES block port)\s*(.+)\s* \(\"(.*)\"\)(\s*mode\s*([0-9]+))?.*
! Touchstone port assignment:
! Touchstone port 1 = CST MWS port 1 ("")
! Touchstone port 2 = CST MWS port 2 ("")
# GHz S MA R 50
1                      0.9976213       -9.758123     0.0005066388         175.838                0               0                0               0
1.00658                0.9975591       -9.844583      0.000499284        170.6321                0               0                0               0
1.01316                0.9974973       -9.931759     0.0004899369        165.6053                0               0                0               0
1.01974                0.9974355       -10.01968     0.0004786404        160.7821                0               0                0               0
1.02632                0.9973733       -10.10839     0.0004654666        156.1934                0               0                0               0
1.03289                0.9973099       -10.19789     0.0004505234        151.8778                0               0                0               0
1.03947                0.9972448       -10.28822     0.0004339642        147.8837                0               0                0               0
1.04605                0.9971772        -10.3794     0.0004160003         144.272                0               0                0               0
1.05263                0.9971065       -10.47141     0.0003969191        141.1183                0               0                0               0
1.05921                0.9970321       -10.56428     0.0003771067        138.5155                0               0                0               0
1.06579                0.9969531         -10.658     0.0003570796         136.575                0               0                0               0
1.07237                0.9968691       -10.75256     0.0003375226        135.4229                0               0                0               0
1.07895                0.9967795       -10.84795      0.000319329        135.1886                0               0                0               0
1.08553                0.9966838       -10.94414      0.000303628        135.9754                0               0                0               0
1.09211                0.9965814       -11.04113     0.0002917682        137.8105                0               0                0               0
1.09868                0.9964724       -11.13888     0.0002852111         140.578                0               0                0               0
1.10526                0.9963562       -11.23738     0.0002853032        143.9723                0               0                0               0
1.11184                0.9962329        -11.3366     0.0002929789        147.5256                0               0                0               0
1.11842                0.9961024        -11.4365     0.0003085375        150.7298                0               0                0               0
1.125                  0.9959647       -11.53708     0.0003316371        153.1851                0               0                0               0
1.13158                0.9958202        -11.6383     0.0003614912        154.6796                0               0                0               0
1.13816                0.9956691       -11.74016     0.0003971232        155.1747                0               0                0               0
1.14474                0.9955117       -11.84263     0.0004375605        154.7426                0               0                0               0
1.15132                0.9953485        -11.9457     0.0004819306        153.5047                0               0                0               0
1.15789                0.9951799       -12.04938      0.000529489        151.5922                0               0                0               0
1.16447                0.9950064       -12.15367     0.0005796103        149.1261                0               0                0               0
1.17105                0.9948287       -12.25857     0.0006317675        146.2104                0               0                0               0
1.17763                0.9946471       -12.36411     0.0006855102        142.9309                0               0                0               0
1.18421                0.9944621       -12.47029     0.0007404454        139.3577                0               0                0               0
1.19079                0.9942744       -12.57716      0.000796224        135.5471                0               0                0               0
1.19737                0.9940842       -12.68475     0.0008525284        131.5451                0               0                0               0
1.20395                0.9938922       -12.79309     0.0009090667        127.3887                0               0                0               0
1.21053                0.9936981       -12.90223      0.000965565        123.1084                0               0                0               0
1.21711                0.9935025       -13.01221      0.001021765        118.7295                0               0                0               0
1.22368                0.9933053        -13.1231      0.001077422        114.2728                0               0                0               0
1.23026                0.9931063       -13.23494        0.0011323        109.7562                0               0                0               0
1.23684                0.9929057       -13.34778      0.001186177        105.1949                0               0                0               0
1.24342                0.9927029       -13.46168      0.001238839        100.6021                0               0                0               0
1.25                   0.9924975       -13.57668      0.001290082        95.98945                0               0                0               0
1.25658                 0.992289       -13.69285      0.001339715        91.36731                0               0                0               0
1.26316                0.9920769       -13.81021      0.001387557        86.74515                0               0                0               0
1.26974                0.9918604       -13.92882      0.001433441        82.13168                0               0                0               0
1.27632                0.9916386        -14.0487      0.001477214        77.53508                0               0                0               0
1.28289                0.9914109       -14.16989       0.00151874        72.96313                0               0                0               0
1.28947                0.9911762        -14.2924      0.001557901        68.42334                0               0                0               0
1.29605                0.9909338       -14.41626      0.001594598        63.92307                0               0                0               0
1.30263                0.9906827       -14.54147      0.001628754         59.4696                0               0                0               0
1.30921                0.9904219       -14.66803      0.001660319         55.0702                0               0                0               0
1.31579                 0.990151       -14.79594      0.001689268         50.7322                0               0                0               0
1.32237                 0.989869       -14.92519      0.001715609        46.46301                0               0                0               0
1.32895                0.9895752       -15.05576      0.001739382        42.27016                0               0                0               0
1.33553                0.9892691       -15.18764      0.001760665        38.16127                0               0                0               0
1.34211                0.9889502       -15.32079      0.001779576        34.14407                0               0                0               0
1.34868                0.9886183       -15.45519      0.001796278        30.22632                0               0                0               0
1.35526                0.9882732       -15.59083      0.001810981         26.4157                0               0                0               0
1.36184                0.9879147       -15.72767      0.001823947        22.71972                0               0                0               0
1.36842                0.9875431       -15.86568      0.001835495        19.14549                0               0                0               0
1.375                  0.9871583       -16.00485      0.001845999        15.69954                0               0                0               0
1.38158                 0.986761       -16.14516      0.001855892        12.38743                0               0                0               0
1.38816                0.9863514        -16.2866       0.00186567        9.213496                0               0                0               0
1.39474                0.9859301       -16.42916      0.001875886        6.180323                0               0                0               0
1.40132                0.9854977       -16.57286      0.001887149        3.288354                0               0                0               0
1.40789                0.9850548        -16.7177      0.001900116       0.5353936                0               0                0               0
1.41447                0.9846024        -16.8637      0.001915487        -2.08383                0               0                0               0
1.42105                 0.984141       -17.01089      0.001933986       -4.578016                0               0                0               0
1.42763                0.9836712       -17.15933      0.001956348       -6.959498                0               0                0               0
1.43421                 0.983194       -17.30905      0.001983301       -9.244226                0               0                0               0
1.44079                0.9827097       -17.46012      0.002015543        -11.4515                0               0                0               0
1.44737                0.9822189       -17.61262      0.002053718       -13.60341                0               0                0               0
1.45395                0.9817221       -17.76661        0.0020984       -15.72402                0               0                0               0
1.46053                0.9812195       -17.92219       0.00215007       -17.83834                0               0                0               0
1.46711                0.9807112       -18.07945      0.002209106       -19.97121                0               0                0               0
1.47368                 0.980197       -18.23849      0.002275771       -22.14619                0               0                0               0
1.48026                 0.979677        -18.3994      0.002350214       -24.38459                0               0                0               0
1.48684                0.9791506        -18.5623      0.002432468       -26.70475                0               0                0               0
1.49342                0.9786173       -18.72728      0.002522461       -29.12149                0               0                0               0
1.5                    0.9780762       -18.89446      0.002620025       -31.64603                0               0                0               0
1.50658                0.9775265       -19.06394       0.00272491       -34.28597                0               0                0               0
1.51316                 0.976967       -19.23581      0.002836795       -37.04558                0               0                0               0
1.51974                0.9763963       -19.41017      0.002955305       -39.92617                0               0                0               0
1.52632                0.9758131       -19.58711      0.003080022       -42.92657                0               0                0               0
1.53289                0.9752159        -19.7667      0.003210494       -46.04358                0               0                0               0
1.53947                0.9746031       -19.94903      0.003346248       -49.27246                0               0                0               0
1.54605                0.9739728       -20.13415      0.003486798        -52.6073                0               0                0               0
1.55263                0.9733234       -20.32212      0.003631648        -56.0414                0               0                0               0
1.55921                 0.972653         -20.513      0.003780303       -59.56756                0               0                0               0
1.56579                  0.97196       -20.70681      0.003932268       -63.17831                0               0                0               0
1.57237                0.9712426       -20.90359      0.004087057       -66.86609                0               0                0               0
1.57895                 0.970499       -21.10336      0.004244193       -70.62337                0               0                0               0
1.58553                0.9697278       -21.30614      0.004403211       -74.44277                0               0                0               0
1.59211                0.9689273       -21.51193      0.004563663       -78.31712                0               0                0               0
1.59868                0.9680961       -21.72074      0.004725117       -82.23948                0               0                0               0
1.60526                0.9672331       -21.93258      0.004887164       -86.20321                0               0                0               0
1.61184                 0.966337       -22.14745      0.005049413       -90.20192                0               0                0               0
1.61842                0.9654068       -22.36535      0.005211503       -94.22953                0               0                0               0
1.625                  0.9644418       -22.58628      0.005373099       -98.28021                0               0                0               0
1.63158                 0.963441       -22.81025      0.005533895       -102.3484                0               0                0               0
1.63816                 0.962404       -23.03727       0.00569362       -106.4289                0               0                0               0
1.64474                0.9613299       -23.26737      0.005852038       -110.5166                0               0                0               0
1.65132                0.9602188       -23.50055      0.006008954       -114.6067                0               0                0               0
1.65789                0.9590699       -23.73688      0.006164214       -118.6947                0               0                0               0
1.66447                0.9578829       -23.97639      0.006317708       -122.7761                0               0                0               0
1.67105                0.9566578       -24.21913      0.006469379        -126.847                0               0                0               0
1.67763                0.9553941       -24.46518      0.006619222       -130.9033                0               0                0               0
1.68421                0.9540913       -24.71463      0.006767286       -134.9414                0               0                0               0
1.69079                0.9527492       -24.96755      0.006913679       -138.9578                0               0                0               0
1.69737                0.9513671       -25.22406      0.007058574       -142.9495                0               0                0               0
1.70395                0.9499444       -25.48428      0.007202205       -146.9133                0               0                0               0
1.71053                0.9484803       -25.74833      0.007344879       -150.8468                0               0                0               0
1.71711                0.9469737       -26.01635      0.007486968       -154.7475                0               0                0               0
1.72368                0.9454234       -26.28849      0.007628918       -158.6136                0               0                0               0
1.73026                0.9438281       -26.56491      0.007771246       -162.4435                0               0                0               0
1.73684                 0.942186       -26.84575      0.007914541       -166.2359                0               0                0               0
1.74342                0.9404954        -27.1312      0.008059463       -169.9903                0               0                0               0
1.75                   0.9387539       -27.42142      0.008206741       -173.7064                0               0                0               0
1.75658                0.9369592       -27.71657      0.008357167       -177.3846                0               0                0               0
1.76316                0.9351087       -28.01684      0.008511595        178.9743                0               0                0               0
1.76974                0.9331994       -28.32238      0.008670929        175.3686                0               0                0               0
1.77632                0.9312282       -28.63337      0.008836121        171.7964                0               0                0               0
1.78289                0.9291917       -28.94998       0.00900816        168.2548                0               0                0               0
1.78947                0.9270864       -29.27234      0.009188055        164.7406                0               0                0               0
1.79605                0.9249085       -29.60063      0.009376833        161.2498                0               0                0               0
1.80263                 0.922654       -29.93499      0.009575519        157.7782                0               0                0               0
1.80921                0.9203189       -30.27555      0.009785122        154.3206                0               0                0               0
1.81579                0.9178988       -30.62246       0.01000663         150.872                0               0                0               0
1.82237                0.9153897       -30.97582       0.01024097        147.4268                0               0                0               0
1.82895                0.9127869       -31.33576       0.01048904        143.9792                0               0                0               0
1.83553                 0.910086       -31.70241       0.01075165        140.5234                0               0                0               0
1.84211                0.9072823       -32.07584       0.01102953        137.0535                0               0                0               0
1.84868                0.9043713       -32.45618       0.01132335        133.5639                0               0                0               0
