! TOUCHSTONE file generated by CST MICROWAVE STUDIO
! Date and time: Tue Mar 11 13:58:05 2025
! Project name: transverse.cst
! Parameters = {Fracture=1; B=12.5; D=160; F=5; Feed=2.85625; L=100; M=20; R=0.384908; S=1; Theta=270; length=57.125; wave=114.25}
! Header version: 2024
! Port assignment regex: !\s*Touchstone port\s*([0-9]+)\s*=\s*(CST MWS port|CST DES external port|CST DES block port)\s*(.+)\s* \(\"(.*)\"\)(\s*mode\s*([0-9]+))?.*
! Touchstone port assignment:
! Touchstone port 1 = CST MWS port 1 ("")
! Touchstone port 2 = CST MWS port 2 ("")
# GHz S MA R 50
1                      0.9978474       -10.03256     0.0003345273        -139.606                0               0                0               0
1.00662                0.9977455       -10.12399          0.00035       -143.8615                0               0                0               0
1.01325                0.9976361       -10.21573     0.0003648373       -148.1354                0               0                0               0
1.01987                  0.99752       -10.30773     0.0003789679       -152.4129                0               0                0               0
1.02649                0.9973982       -10.39995      0.000392327        -156.681                0               0                0               0
1.03311                0.9972718       -10.49238     0.0004048566       -160.9271                0               0                0               0
1.03974                 0.997142         -10.585      0.000416507       -165.1395                0               0                0               0
1.04636                0.9970098       -10.67782     0.0004272366       -169.3069                0               0                0               0
1.05298                0.9968766       -10.77085     0.0004370145       -173.4181                0               0                0               0
1.0596                 0.9967436       -10.86412     0.0004458201       -177.4619                0               0                0               0
1.06623                 0.996612       -10.95766     0.0004536458         178.573                0               0                0               0
1.07285                0.9964826       -11.05154     0.0004604976        174.6982                0               0                0               0
1.07947                0.9963565        -11.1458      0.000466397        170.9252                0               0                0               0
1.08609                0.9962344       -11.24051     0.0004713827        167.2662                0               0                0               0
1.09272                0.9961168       -11.33576     0.0004755125        163.7334                0               0                0               0
1.09934                 0.996004       -11.43163     0.0004788651        160.3392                0               0                0               0
1.10596                0.9958964       -11.52821     0.0004815421        157.0956                0               0                0               0
1.11258                0.9957935       -11.62557     0.0004836694        154.0146                0               0                0               0
1.11921                0.9956956       -11.72382     0.0004853995        151.1069                0               0                0               0
1.12583                0.9956017       -11.82303     0.0004869116        148.3819                0               0                0               0
1.13245                0.9955112       -11.92328     0.0004884125        145.8466                0               0                0               0
1.13907                0.9954231       -12.02465     0.0004901351        143.5049                0               0                0               0
1.1457                 0.9953365       -12.12721     0.0004923369        141.3562                0               0                0               0
1.15232                  0.99525         -12.231     0.0004952947         139.395                0               0                0               0
1.15894                0.9951623       -12.33607     0.0004992988        137.6093                0               0                0               0
1.16556                0.9950722       -12.44245     0.0005046443        135.9805                0               0                0               0
1.17219                 0.994978       -12.55017     0.0005116205        134.4832                0               0                0               0
1.17881                0.9948782       -12.65921     0.0005204988        133.0855                0               0                0               0
1.18543                0.9947717       -12.76959     0.0005315213        131.7509                0               0                0               0
1.19205                0.9946569       -12.88128      0.000544889        130.4398                0               0                0               0
1.19868                0.9945326       -12.99425      0.000560754        129.1119                0               0                0               0
1.2053                 0.9943979       -13.10846     0.0005792137        127.7287                0               0                0               0
1.21192                0.9942518       -13.22387     0.0006003092        126.2561                0               0                0               0
1.21854                0.9940936       -13.34041     0.0006240276        124.6654                0               0                0               0
1.22517                0.9939228       -13.45803     0.0006503066        122.9348                0               0                0               0
1.23179                 0.993739       -13.57667     0.0006790417        121.0491                0               0                0               0
1.23841                0.9935424       -13.69627     0.0007100934        118.9998                0               0                0               0
1.24503                0.9933331       -13.81677     0.0007432956        116.7843                0               0                0               0
1.25166                0.9931115        -13.9381     0.0007784621        114.4044                0               0                0               0
1.25828                0.9928782       -14.06023      0.000815393         111.866                0               0                0               0
1.2649                  0.992634       -14.18312     0.0008538803        109.1773                0               0                0               0
1.27152                0.9923799       -14.30674     0.0008937115        106.3488                0               0                0               0
1.27815                0.9921169       -14.43106     0.0009346729        103.3919                0               0                0               0
1.28477                0.9918464       -14.55609     0.0009765526        100.3187                0               0                0               0
1.29139                0.9915693       -14.68183      0.001019142        97.14133                0               0                0               0
1.29801                0.9912872       -14.80832      0.001062237        93.87209                0               0                0               0
1.30464                0.9910009       -14.93558      0.001105641        90.52284                0               0                0               0
1.31126                0.9907121       -15.06368      0.001149163        87.10504                0               0                0               0
1.31788                0.9904213       -15.19268      0.001192623         83.6297                0               0                0               0
1.3245                 0.9901296       -15.32266       0.00123585        80.10734                0               0                0               0
1.33113                0.9898378       -15.45371      0.001278683        76.54798                0               0                0               0
1.33775                0.9895462       -15.58593      0.001320973        72.96117                0               0                0               0
1.34437                0.9892553       -15.71943      0.001362586        69.35599                0               0                0               0
1.35099                0.9889649       -15.85432      0.001403401        65.74114                0               0                0               0
1.35762                0.9886749       -15.99071      0.001443316        62.12493                0               0                0               0
1.36424                0.9883845       -16.12873      0.001482243        58.51533                0               0                0               0
1.37086                0.9880933       -16.26847      0.001520117        54.91998                0               0                0               0
1.37748                   0.9878       -16.41005      0.001556893        51.34623                0               0                0               0
1.38411                0.9875034       -16.55357      0.001592549        47.80115                0               0                0               0
1.39073                0.9872021       -16.69913      0.001627089        44.29151                0               0                0               0
1.39735                0.9868943       -16.84679      0.001660543        40.82378                0               0                0               0
1.40397                0.9865784       -16.99663      0.001692972         37.4041                0               0                0               0
1.4106                 0.9862524       -17.14871      0.001724466        34.03826                0               0                0               0
1.41722                0.9859144       -17.30306      0.001755149        30.73159                0               0                0               0
1.42384                0.9855623       -17.45971      0.001785178        27.48894                0               0                0               0
1.43046                0.9851941       -17.61866      0.001814746        24.31457                0               0                0               0
1.43709                0.9848081       -17.77993      0.001844081        21.21201                0               0                0               0
1.44371                0.9844025       -17.94347      0.001873449        18.18399                0               0                0               0
1.45033                0.9839756       -18.10928      0.001903149        15.23228                0               0                0               0
1.45695                0.9835259       -18.27731      0.001933515        12.35754                0               0                0               0
1.46358                0.9830523       -18.44752      0.001964914        9.559225                0               0                0               0
1.4702                 0.9825538       -18.61985      0.001997738         6.83544                0               0                0               0
1.47682                0.9820296       -18.79424      0.002032406        4.182864                0               0                0               0
1.48344                0.9814793       -18.97065      0.002069351        1.596702                0               0                0               0
1.49007                0.9809027       -19.14901      0.002109018      -0.9293242                0               0                0               0
1.49669                0.9802996       -19.32928      0.002151855       -3.402904                0               0                0               0
1.50331                0.9796705       -19.51143      0.002198302       -5.833009                0               0                0               0
1.50993                0.9790158       -19.69541      0.002248788        -8.22969                0               0                0               0
1.51656                0.9783361       -19.88121      0.002303713       -10.60382                0               0                0               0
1.52318                0.9776322       -20.06882      0.002363451       -12.96677                0               0                0               0
1.5298                  0.976905       -20.25827      0.002428333       -15.33007                0               0                0               0
1.53642                0.9761556       -20.44957      0.002498647       -17.70508                0               0                0               0
1.54305                0.9753847       -20.64279      0.002574631       -20.10258                0               0                0               0
1.54967                0.9745935       -20.83797      0.002656473       -22.53257                0               0                0               0
1.55629                0.9737826       -21.03521      0.002744307       -25.00392                0               0                0               0
1.56291                0.9729527       -21.23461      0.002838217       -27.52428                0               0                0               0
1.56954                0.9721044        -21.4363      0.002938238       -30.09989                0               0                0               0
1.57616                0.9712378       -21.64039      0.003044357        -32.7356                0               0                0               0
1.58278                0.9703529       -21.84704      0.003156526       -35.43486                0               0                0               0
1.5894                 0.9694494        -22.0564      0.003274655       -38.19976                0               0                0               0
1.59603                0.9685266       -22.26864       0.00339863       -41.03121                0               0                0               0
1.60265                0.9675834       -22.48392      0.003528309         -43.929                0               0                0               0
1.60927                0.9666183       -22.70242      0.003663532       -46.89199                0               0                0               0
1.61589                0.9656297        -22.9243      0.003804128       -49.91822                0               0                0               0
1.62252                0.9646153       -23.14973      0.003949916       -53.00512                0               0                0               0
1.62914                0.9635728       -23.37886      0.004100714       -56.14958                0               0                0               0
1.63576                0.9624993       -23.61183      0.004256342       -59.34811                0               0                0               0
1.64238                0.9613917       -23.84878      0.004416625       -62.59699                0               0                0               0
1.64901                0.9602469       -24.08981      0.004581401       -65.89227                0               0                0               0
1.65563                0.9590611       -24.33503       0.00475052       -69.22996                0               0                0               0
1.66225                0.9578309       -24.58451      0.004923853       -72.60603                0               0                0               0
1.66887                0.9565527        -24.8383      0.005101292       -76.01651                0               0                0               0
1.6755                 0.9552223       -25.09645      0.005282752       -79.45754                0               0                0               0
1.68212                0.9538365       -25.35896      0.005468181       -82.92536                0               0                0               0
1.68874                0.9523915       -25.62584      0.005657552       -86.41643                0               0                0               0
1.69536                0.9508837       -25.89705      0.005850877        -89.9274                0               0                0               0
1.70199                0.9493101       -26.17256      0.006048201       -93.45514                0               0                0               0
1.70861                0.9476674       -26.45232      0.006249607       -96.99677                0               0                0               0
1.71523                 0.945953       -26.73626      0.006455222       -100.5497                0               0                0               0
1.72185                0.9441644       -27.02429       0.00666521       -104.1116                0               0                0               0
1.72848                0.9422995       -27.31635       0.00687978       -107.6804                0               0                0               0
1.7351                 0.9403565       -27.61235      0.007099186       -111.2544                0               0                0               0
1.74172                 0.938334       -27.91221      0.007323723       -114.8322                0               0                0               0
1.74834                0.9362308       -28.21586      0.007553733       -118.4126                0               0                0               0
1.75497                 0.934046       -28.52323      0.007789597        -121.995                0               0                0               0
1.76159                0.9317792       -28.83428      0.008031742       -125.5788                0               0                0               0
1.76821                0.9294299       -29.14896      0.008280631       -129.1639                0               0                0               0
1.77483                0.9269981       -29.46727      0.008536765       -132.7504                0               0                0               0
1.78146                0.9244837       -29.78921       0.00880068       -136.3389                0               0                0               0
1.78808                0.9218869       -30.11482      0.009072941       -139.9301                0               0                0               0
1.7947                 0.9192075       -30.44415      0.009354137       -143.5249                0               0                0               0
1.80132                0.9164456       -30.77729      0.009644879       -147.1248                0               0                0               0
1.80795                0.9136008       -31.11435      0.009945789       -150.7311                0               0                0               0
1.81457                 0.910673       -31.45547        0.0102575       -154.3456                0               0                0               0
1.82119                0.9076612       -31.80081       0.01058066       -157.9701                0               0                0               0
1.82781                0.9045645       -32.15056       0.01091589       -161.6067                0               0                0               0
1.83444                0.9013813       -32.50493       0.01126381       -165.2574                0               0                0               0
1.84106                0.8981095       -32.86415       0.01162503       -168.9244                0               0                0               0
1.84768                0.8947468       -33.22845       0.01200012       -172.6099                0               0                0               0
1.8543                   0.89129       -33.59808       0.01238964        -176.316                0               0                0               0
