! TOUCHSTONE file generated by CST MICROWAVE STUDIO
! Date and time: Tue Mar 11 13:57:59 2025
! Project name: transverse.cst
! Parameters = {Fracture=1; B=10; D=160; F=25; Feed=2.85625; L=100; M=10; R=0.384908; S=2; Theta=270; length=57.125; wave=114.25}
! Header version: 2024
! Port assignment regex: !\s*Touchstone port\s*([0-9]+)\s*=\s*(CST MWS port|CST DES external port|CST DES block port)\s*(.+)\s* \(\"(.*)\"\)(\s*mode\s*([0-9]+))?.*
! Touchstone port assignment:
! Touchstone port 1 = CST MWS port 1 ("")
! Touchstone port 2 = CST MWS port 2 ("")
# GHz S MA R 50
1                      0.9977234        -9.98266      0.000581272       -152.5697                0               0                0               0
1.00758                0.9976425       -10.08473     0.0005955928       -158.5479                0               0                0               0
1.01515                0.9975588       -10.18763     0.0006086053       -164.4342                0               0                0               0
1.02273                0.9974722       -10.29137     0.0006202344       -170.2278                0               0                0               0
1.0303                 0.9973824       -10.39597     0.0006304108        -175.927                0               0                0               0
1.03788                0.9972892       -10.50144     0.0006390722        178.4712                0               0                0               0
1.04545                0.9971922       -10.60779     0.0006461649        172.9708                0               0                0               0
1.05303                0.9970909       -10.71504     0.0006516442        167.5768                0               0                0               0
1.06061                0.9969854        -10.8232     0.0006554766        162.2957                0               0                0               0
1.06818                0.9968751       -10.93227     0.0006576411        157.1354                0               0                0               0
1.07576                0.9967599       -11.04226     0.0006581316        152.1051                0               0                0               0
1.08333                0.9966395       -11.15317     0.0006569592        147.2161                0               0                0               0
1.09091                0.9965136       -11.26502     0.0006541552        142.4812                0               0                0               0
1.09848                0.9963819       -11.37781     0.0006497748        137.9156                0               0                0               0
1.10606                0.9962444       -11.49152      0.000643901        133.5368                0               0                0               0
1.11364                 0.996101       -11.60618     0.0006366501        129.3645                0               0                0               0
1.12121                0.9959512       -11.72179     0.0006281774        125.4213                0               0                0               0
1.12879                0.9957953       -11.83834     0.0006186842        121.7321                0               0                0               0
1.13636                 0.995633       -11.95584     0.0006084259        118.3242                0               0                0               0
1.14394                0.9954643       -12.07429     0.0005977205         115.226                0               0                0               0
1.15152                0.9952893        -12.1937     0.0005869573        112.4663                0               0                0               0
1.15909                0.9951078       -12.31408     0.0005766046        110.0712                0               0                0               0
1.16667                0.9949199       -12.43543     0.0005672142        108.0616                0               0                0               0
1.17424                0.9947258       -12.55777     0.0005594207        106.4476                0               0                0               0
1.18182                0.9945256       -12.68111     0.0005539305        105.2236                0               0                0               0
1.18939                0.9943191       -12.80546     0.0005514987        104.3624                0               0                0               0
1.19697                0.9941066       -12.93084     0.0005528909        103.8108                0               0                0               0
1.20455                0.9938882       -13.05727     0.0005588317        103.4888                0               0                0               0
1.21212                0.9936639       -13.18477     0.0005699472        103.2942                0               0                0               0
1.2197                 0.9934336       -13.31336     0.0005867137        103.1121                0               0                0               0
1.22727                0.9931978       -13.44309     0.0006094236        102.8284                0               0                0               0
1.23485                0.9929562       -13.57396     0.0006381772        102.3422                0               0                0               0
1.24242                0.9927088       -13.70602     0.0006729006        101.5761                0               0                0               0
1.25                   0.9924558        -13.8393     0.0007133808        100.4791                0               0                0               0
1.25758                0.9921969       -13.97383      0.000759307        99.02632                0               0                0               0
1.26515                0.9919321       -14.10966     0.0008103109          97.214                0               0                0               0
1.27273                0.9916614       -14.24681     0.0008659987        95.05403                0               0                0               0
1.2803                 0.9913843       -14.38532     0.0009259723        92.56828                0               0                0               0
1.28788                0.9911008       -14.52524     0.0009898445        89.78412                0               0                0               0
1.29545                0.9908106        -14.6666      0.001057245        86.73106                0               0                0               0
1.30303                0.9905137       -14.80944      0.001127826        83.43855                0               0                0               0
1.31061                0.9902093       -14.95381      0.001201256        79.93466                0               0                0               0
1.31818                0.9898973       -15.09973      0.001277225        76.24539                0               0                0               0
1.32576                0.9895776       -15.24724       0.00135544        72.39432                0               0                0               0
1.33333                0.9892493       -15.39639       0.00143562        68.40262                0               0                0               0
1.34091                0.9889124       -15.54721        0.0015175        64.28917                0               0                0               0
1.34848                0.9885663       -15.69973      0.001600821        60.07072                0               0                0               0
1.35606                0.9882108       -15.85399      0.001685336        55.76209                0               0                0               0
1.36364                0.9878454       -16.01002      0.001770802        51.37646                0               0                0               0
1.37121                0.9874696       -16.16785      0.001856987        46.92553                0               0                0               0
1.37879                0.9870831       -16.32752       0.00194366        42.41975                0               0                0               0
1.38636                0.9866858       -16.48906      0.002030601        37.86847                0               0                0               0
1.39394                0.9862771        -16.6525      0.002117591        33.28012                0               0                0               0
1.40152                0.9858568       -16.81789       0.00220442        28.66234                0               0                0               0
1.40909                0.9854245       -16.98525      0.002290881        24.02209                0               0                0               0
1.41667                0.9849802       -17.15463      0.002376779        19.36578                0               0                0               0
1.42424                0.9845237       -17.32606      0.002461922        14.69934                0               0                0               0
1.43182                0.9840546        -17.4996      0.002546128        10.02829                0               0                0               0
1.43939                0.9835726       -17.67529      0.002629226        5.357817                0               0                0               0
1.44697                0.9830779       -17.85318      0.002711057       0.6928569                0               0                0               0
1.45455                0.9825701       -18.03334      0.002791472       -3.961894                0               0                0               0
1.46212                0.9820493       -18.21583       0.00287034       -8.601919                0               0                0               0
1.4697                 0.9815149       -18.40071      0.002947544       -13.22284                0               0                0               0
1.47727                0.9809669       -18.58806      0.003022985       -17.82042                0               0                0               0
1.48485                0.9804051       -18.77797      0.003096588       -22.39047                0               0                0               0
1.49242                 0.979829       -18.97051      0.003168298       -26.92893                0               0                0               0
1.5                    0.9792384       -19.16578      0.003238089       -31.43177                0               0                0               0
1.50758                0.9786328       -19.36389      0.003305959       -35.89503                0               0                0               0
1.51515                0.9780115       -19.56493      0.003371941       -40.31482                0               0                0               0
1.52273                0.9773741       -19.76902      0.003436104       -44.68732                0               0                0               0
1.5303                 0.9767194       -19.97628       0.00349855       -49.00878                0               0                0               0
1.53788                0.9760468       -20.18682      0.003559427        -53.2756                0               0                0               0
1.54545                0.9753552       -20.40078      0.003618925       -57.48431                0               0                0               0
1.55303                0.9746433       -20.61827       0.00367728       -61.63165                0               0                0               0
1.56061                0.9739097       -20.83944      0.003734782       -65.71463                0               0                0               0
1.56818                0.9731528       -21.06441      0.003791774       -69.73057                0               0                0               0
1.57576                0.9723709       -21.29332      0.003848652        -73.6772                0               0                0               0
1.58333                0.9715622       -21.52629      0.003905874       -77.55279                0               0                0               0
1.59091                0.9707245       -21.76347      0.003963954       -81.35617                0               0                0               0
1.59848                0.9698557       -22.00499      0.004023466       -85.08693                0               0                0               0
1.60606                0.9689533       -22.25096      0.004085042       -88.74546                0               0                0               0
1.61364                0.9680149       -22.50152       0.00414937       -92.33309                0               0                0               0
1.62121                0.9670377       -22.75679       0.00421719        -95.8522                0               0                0               0
1.62879                0.9660189       -23.01687      0.004289286       -99.30625                0               0                0               0
1.63636                0.9649556       -23.28189      0.004366481       -102.6999                0               0                0               0
1.64394                0.9638448       -23.55194       0.00444963        -106.039                0               0                0               0
1.65152                0.9626834       -23.82713      0.004539602       -109.3304                0               0                0               0
1.65909                0.9614682       -24.10755      0.004637277       -112.5824                0               0                0               0
1.66667                 0.960196       -24.39328      0.004743522       -115.8038                0               0                0               0
1.67424                0.9588634        -24.6844      0.004859187       -119.0045                0               0                0               0
1.68182                0.9574673         -24.981      0.004985091       -122.1948                0               0                0               0
1.68939                0.9560042       -25.28315      0.005121998       -125.3853                0               0                0               0
1.69697                0.9544709       -25.59091      0.005270621       -128.5867                0               0                0               0
1.70455                0.9528641       -25.90436      0.005431603       -131.8096                0               0                0               0
1.71212                0.9511804       -26.22355       0.00560551       -135.0638                0               0                0               0
1.7197                 0.9494167       -26.54856       0.00579283       -138.3585                0               0                0               0
1.72727                0.9475695       -26.87944      0.005993969       -141.7021                0               0                0               0
1.73485                0.9456358       -27.21627      0.006209244        -145.102                0               0                0               0
1.74242                0.9436122        -27.5591      0.006438898       -148.5643                0               0                0               0
1.75                   0.9414955       -27.90803      0.006683087       -152.0939                0               0                0               0
1.75758                0.9392825       -28.26312        0.0069419        -155.695                0               0                0               0
1.76515                0.9369699       -28.62446      0.007215351       -159.3701                0               0                0               0
1.77273                0.9345541       -28.99215      0.007503393       -163.1211                0               0                0               0
1.7803                 0.9320318       -29.36628      0.007805923       -166.9489                0               0                0               0
1.78788                0.9293996       -29.74696      0.008122784       -170.8535                0               0                0               0
1.79545                0.9266536       -30.13432      0.008453774       -174.8343                0               0                0               0
1.80303                  0.92379       -30.52848      0.008798649       -178.8901                0               0                0               0
1.81061                0.9208049       -30.92957       0.00915713        176.9809                0               0                0               0
1.81818                0.9176937       -31.33775      0.009528905        172.7807                0               0                0               0
1.82576                 0.914452       -31.75316      0.009913632        168.5116                0               0                0               0
1.83333                 0.911075       -32.17596       0.01031095        164.1763                0               0                0               0
1.84091                0.9075576       -32.60632       0.01072046        159.7774                0               0                0               0
1.84848                 0.903894       -33.04441       0.01114176        155.3177                0               0                0               0
1.85606                0.9000785       -33.49039       0.01157443        150.8001                0               0                0               0
1.86364                0.8961048       -33.94444       0.01201801        146.2273                0               0                0               0
1.87121                0.8919663       -34.40672       0.01247204        141.6022                0               0                0               0
1.87879                0.8876558        -34.8774       0.01293604        136.9275                0               0                0               0
1.88636                0.8831658        -35.3566       0.01340954        132.2058                0               0                0               0
1.89394                0.8784885       -35.84448       0.01389202        127.4397                0               0                0               0
1.90152                0.8736153       -36.34115       0.01438296        122.6318                0               0                0               0
1.90909                 0.868538       -36.84671       0.01488185        117.7844                0               0                0               0
1.91667                0.8632472       -37.36123       0.01538814        112.8997                0               0                0               0
1.92424                0.8577336       -37.88475       0.01590128          107.98                0               0                0               0
1.93182                0.8519876       -38.41727       0.01642072        103.0272                0               0                0               0
1.93939                0.8459996       -38.95877       0.01694589        98.04348                0               0                0               0
1.94697                0.8397592       -39.50917        0.0174762        93.03056                0               0                0               0
1.95455                0.8332566       -40.06835       0.01801109        87.99025                0               0                0               0
1.96212                0.8264818       -40.63613       0.01854995         82.9242                0               0                0               0
1.9697                 0.8194243       -41.21228       0.01909218        77.83402                0               0                0               0
1.97727                0.8120745       -41.79651       0.01963718        72.72119                0               0                0               0
