! TOUCHSTONE file generated by CST MICROWAVE STUDIO
! Date and time: Tue Mar 11 13:55:58 2025
! Project name: transverse.cst
! Parameters = {Fracture=5; B=10; D=160; F=25; Feed=2.85625; L=100; M=20; R=0.384908; S=1; Theta=0; length=57.125; wave=114.25}
! Header version: 2024
! Port assignment regex: !\s*Touchstone port\s*([0-9]+)\s*=\s*(CST MWS port|CST DES external port|CST DES block port)\s*(.+)\s* \(\"(.*)\"\)(\s*mode\s*([0-9]+))?.*
! Touchstone port assignment:
! Touchstone port 1 = CST MWS port 1 ("")
! Touchstone port 2 = CST MWS port 2 ("")
# GHz S MA R 50
1                      0.9976165       -9.758928     0.0005166447        175.1193                0               0                0               0
1.00658                0.9975544       -9.845374     0.0005087633        169.8169                0               0                0               0
1.01316                 0.997493        -9.93254     0.0004988075        164.6887                0               0                0               0
1.01974                0.9974315       -10.02046     0.0004868138        159.7586                0               0                0               0
1.02632                0.9973695       -10.10916      0.000472847        155.0569                0               0                0               0
1.03289                0.9973066       -10.19866     0.0004570062        150.6219                0               0                0               0
1.03947                0.9972418         -10.289     0.0004394346         146.502                0               0                0               0
1.04605                0.9971747       -10.38018     0.0004203321        142.7591                0               0                0               0
1.05263                0.9971044       -10.47221     0.0003999729        139.4712                0               0                0               0
1.05921                0.9970304        -10.5651     0.0003787305        136.7363                0               0                0               0
1.06579                0.9969519       -10.65884     0.0003571113        134.6752                0               0                0               0
1.07237                0.9968681       -10.75343      0.000335798        133.4306                0               0                0               0
1.07895                0.9967788       -10.84884     0.0003157012        133.1576                0               0                0               0
1.08553                0.9966833       -10.94507     0.0002980028        133.9958                0               0                0               0
1.09211                0.9965812       -11.04209     0.0002841605         136.013                0               0                0               0
1.09868                0.9964722       -11.13988     0.0002758094        139.1203                0               0                0               0
1.10526                0.9963561       -11.23842     0.0002745094        142.9978                0               0                0               0
1.11184                0.9962328       -11.33767     0.0002813735        147.1091                0               0                0               0
1.11842                 0.996102       -11.43762     0.0002967669        150.8488                0               0                0               0
1.125                  0.9959642       -11.53823     0.0003202822        153.7392                0               0                0               0
1.13158                0.9958195       -11.63949     0.0003509881        155.5386                0               0                0               0
1.13816                 0.995668       -11.74138     0.0003877547        156.2181                0               0                0               0
1.14474                0.9955103       -11.84388     0.0004294859         155.877                0               0                0               0
1.15132                0.9953465       -11.94698     0.0004752248        154.6654                0               0                0               0
1.15789                0.9951774       -12.05068     0.0005241744        152.7372                0               0                0               0
1.16447                0.9950035       -12.15499     0.0005756781        150.2298                0               0                0               0
1.17105                0.9948252       -12.25991     0.0006291911        147.2579                0               0                0               0
1.17763                 0.994643       -12.36545     0.0006842527        143.9144                0               0                0               0
1.18421                0.9944578       -12.47164     0.0007404643        140.2736                0               0                0               0
1.19079                0.9942695       -12.57852     0.0007974724        136.3947                0               0                0               0
1.19737                 0.994079        -12.6861     0.0008549572         132.325                0               0                0               0
1.20395                0.9938864       -12.79443     0.0009126235        128.1025                0               0                0               0
1.21053                0.9936921       -12.90357     0.0009701956        123.7583                0               0                0               0
1.21711                0.9934963       -13.01355      0.001027413        119.3177                0               0                0               0
1.22368                0.9932989       -13.12442      0.001084026        114.8018                0               0                0               0
1.23026                0.9930998       -13.23625        0.0011398        110.2282                0               0                0               0
1.23684                0.9928991       -13.34908      0.001194506        105.6122                0               0                0               0
1.24342                0.9926963       -13.46297      0.001247928        100.9667                0               0                0               0
1.25                   0.9924911       -13.57796       0.00129986        96.30342                0               0                0               0
1.25658                0.9922829       -13.69412      0.001350105        91.63247                0               0                0               0
1.26316                0.9920709       -13.81148      0.001398479        86.96321                0               0                0               0
1.26974                0.9918547       -13.93009      0.001444814        82.30425                0               0                0               0
1.27632                0.9916333       -14.04998      0.001488951        77.66367                0               0                0               0
1.28289                0.9914059       -14.17117      0.001530752        73.04916                0               0                0               0
1.28947                0.9911715        -14.2937      0.001570093        68.46818                0               0                0               0
1.29605                0.9909296       -14.41757      0.001606874        63.92803                0               0                0               0
1.30263                0.9906788       -14.54281      0.001641014        59.43598                0               0                0               0
1.30921                0.9904185        -14.6694      0.001672461         54.9993                0               0                0               0
1.31579                0.9901479       -14.79734      0.001701187        50.62536                0               0                0               0
1.32237                0.9898661       -14.92663      0.001727198        46.32164                0               0                0               0
1.32895                0.9895725       -15.05724      0.001750532        42.09574                0               0                0               0
1.33553                0.9892666       -15.18915      0.001771265        37.95545                0               0                0               0
1.34211                0.9889479       -15.32235      0.001789517        33.90866                0               0                0               0
1.34868                 0.988616       -15.45681      0.001805449        29.96335                0               0                0               0
1.35526                0.9882708       -15.59249      0.001819275        26.12748                0               0                0               0
1.36184                0.9879122       -15.72937       0.00183126        22.40888                0               0                0               0
1.36842                0.9875403       -15.86744      0.001841727        18.81503                0               0                0               0
1.375                  0.9871553       -16.00665      0.001851056        15.35287                0               0                0               0
1.38158                0.9867576       -16.14701      0.001859691        12.02844                0               0                0               0
1.38816                0.9863476       -16.28849      0.001868138        8.846509                0               0                0               0
1.39474                0.9859258        -16.4311      0.001876966        5.810163                0               0                0               0
1.40132                0.9854929       -16.57483        0.0018868        2.920274                0               0                0               0
1.40789                0.9850495        -16.7197       0.00189832       0.1750033                0               0                0               0
1.41447                0.9845965       -16.86573      0.001912249       -2.430684                0               0                0               0
1.42105                0.9841345       -17.01295      0.001929337       -4.905427                0               0                0               0
1.42763                0.9836642       -17.16141       0.00195035       -7.261716                0               0                0               0
1.43421                0.9831863       -17.31115      0.001976044       -9.515911                0               0                0               0
1.44079                0.9827015       -17.46223      0.002007146         -11.688                0               0                0               0
1.44737                0.9822103       -17.61474      0.002044329       -13.80099                0               0                0               0
1.45395                 0.981713       -17.76874      0.002088188       -15.88008                0               0                0               0
1.46053                0.9812099       -17.92433      0.002139227       -17.95156                0               0                0               0
1.46711                0.9807013       -18.08159      0.002197836       -20.04154                0               0                0               0
1.47368                0.9801869       -18.24063      0.002264284       -22.17486                0               0                0               0
1.48026                0.9796666       -18.40155      0.002338721       -24.37392                0               0                0               0
1.48684                0.9791402       -18.56445      0.002421174       -26.65795                0               0                0               0
1.49342                0.9786068       -18.72945      0.002511562       -29.04247                0               0                0               0
1.5                    0.9780657       -18.89663      0.002609702       -31.53911                0               0                0               0
1.50658                0.9775161       -19.06612      0.002715326       -34.15565                0               0                0               0
1.51316                0.9769566       -19.23801      0.002828094       -36.89639                0               0                0               0
1.51974                0.9763862       -19.41239       0.00294761       -39.76247                0               0                0               0
1.52632                0.9758032       -19.58935      0.003073435       -42.75244                0               0                0               0
1.53289                0.9752063       -19.76897      0.003205099       -45.86278                0               0                0               0
1.53947                0.9745935       -19.95133      0.003342108       -49.08834                0               0                0               0
1.54605                0.9739635       -20.13649      0.003483958       -52.42285                0               0                0               0
1.55263                0.9733143       -20.32451      0.003630135       -55.85921                0               0                0               0
1.55921                0.9726442       -20.51544       0.00378013       -59.38984                0               0                0               0
1.56579                0.9719513        -20.7093      0.003933433       -63.00693                0               0                0               0
1.57237                0.9712338       -20.90614      0.004089543       -66.70261                0               0                0               0
1.57895                0.9704903       -21.10597      0.004247972       -70.46906                0               0                0               0
1.58553                0.9697191       -21.30882      0.004408243       -74.29867                0               0                0               0
1.59211                0.9689184       -21.51468      0.004569898       -78.18404                0               0                0               0
1.59868                0.9680871       -21.72357      0.004732496       -82.11805                0               0                0               0
1.60526                0.9672237       -21.93549      0.004895617       -86.09387                0               0                0               0
1.61184                0.9663271       -22.15043      0.005058865       -90.10498                0               0                0               0
1.61842                0.9653964        -22.3684      0.005221869       -94.14517                0               0                0               0
1.625                  0.9644308       -22.58941      0.005384289        -98.2085                0               0                0               0
1.63158                0.9634293       -22.81345      0.005545812       -102.2893                0               0                0               0
1.63816                0.9623914       -23.04055      0.005706162       -106.3823                0               0                0               0
1.64474                0.9613167       -23.27071      0.005865099       -110.4823                0               0                0               0
1.65132                0.9602046       -23.50396      0.006022422       -114.5845                0               0                0               0
1.65789                0.9590548       -23.74035      0.006177975       -118.6841                0               0                0               0
1.66447                 0.957867       -23.97992      0.006331648       -122.7769                0               0                0               0
1.67105                0.9566408       -24.22272      0.006483379       -126.8586                0               0                0               0
1.67763                0.9553761       -24.46883      0.006633162       -130.9253                0               0                0               0
1.68421                0.9540724       -24.71832      0.006781047       -134.9732                0               0                0               0
1.69079                0.9527293       -24.97129      0.006927143       -138.9988                0               0                0               0
1.69737                0.9513462       -25.22784      0.007071625        -142.999                0               0                0               0
1.70395                0.9499226       -25.48811      0.007214729       -146.9707                0               0                0               0
1.71053                0.9484576        -25.7522      0.007356767       -150.9113                0               0                0               0
1.71711                0.9469503       -26.02027      0.007498118       -154.8183                0               0                0               0
1.72368                0.9453992       -26.29245      0.007639229       -158.6899                0               0                0               0
1.73026                0.9438033        -26.5689       0.00778063       -162.5243                0               0                0               0
1.73684                0.9421606        -26.8498      0.007922916       -166.3205                0               0                0               0
1.74342                0.9404692       -27.13529      0.008066759       -170.0776                0               0                0               0
1.75                   0.9387272       -27.42556      0.008212898       -173.7955                0               0                0               0
1.75658                0.9369319       -27.72077      0.008362138       -177.4745                0               0                0               0
1.76316                 0.935081       -28.02109      0.008515347        178.8844                0               0                0               0
1.76974                0.9331712       -28.32671      0.008673447        175.2798                0               0                0               0
1.77632                0.9311994       -28.63777      0.008837403        171.7096                0               0                0               0
1.78289                0.9291624       -28.95445      0.009008219        168.1708                0               0                0               0
1.78947                0.9270566       -29.27691      0.009186925        164.6603                0               0                0               0
1.79605                 0.924878       -29.60529      0.009374561         161.174                0               0                0               0
1.80263                 0.922623       -29.93975       0.00957217        157.7074                0               0                0               0
1.80921                0.9202872       -30.28042      0.009780777        154.2556                0               0                0               0
1.81579                0.9178664       -30.62743       0.01000138        150.8132                0               0                0               0
1.82237                0.9153564       -30.98092       0.01023493        147.3745                0               0                0               0
1.82895                0.9127527       -31.34099       0.01048233        143.9337                0               0                0               0
1.83553                0.9100506       -31.70777       0.01074441        140.4848                0               0                0               0
1.84211                0.9072458       -32.08134        0.0110219        137.0218                0               0                0               0
1.84868                0.9043334       -32.46183       0.01131547         133.539                0               0                0               0
