! TOUCHSTONE file generated by CST MICROWAVE STUDIO
! Date and time: Tue Mar 11 13:57:16 2025
! Project name: transverse.cst
! Parameters = {Fracture=5; B=10; D=160; F=15; Feed=2.85625; L=100; M=20; R=0.384908; S=1; Theta=180; length=57.125; wave=114.25}
! Header version: 2024
! Port assignment regex: !\s*Touchstone port\s*([0-9]+)\s*=\s*(CST MWS port|CST DES external port|CST DES block port)\s*(.+)\s* \(\"(.*)\"\)(\s*mode\s*([0-9]+))?.*
! Touchstone port assignment:
! Touchstone port 1 = CST MWS port 1 ("")
! Touchstone port 2 = CST MWS port 2 ("")
# GHz S MA R 50
1                      0.9977485       -9.750595     0.0004055532       -157.3472                0               0                0               0
1.00658                0.9976476       -9.837988     0.0004100888       -161.9482                0               0                0               0
1.01316                0.9975435       -9.925677     0.0004133792       -166.4332                0               0                0               0
1.01974                 0.997437       -10.01366     0.0004154228       -170.7896                0               0                0               0
1.02632                0.9973291       -10.10196     0.0004162338       -175.0029                0               0                0               0
1.03289                0.9972204       -10.19057     0.0004158442       -179.0565                0               0                0               0
1.03947                0.9971117       -10.27954     0.0004143074         177.068                0               0                0               0
1.04605                0.9970037       -10.36889     0.0004117015        173.3915                0               0                0               0
1.05263                0.9968971       -10.45867     0.0004081332        169.9373                0               0                0               0
1.05921                0.9967922       -10.54892     0.0004037426        166.7306                0               0                0               0
1.06579                0.9966898       -10.63971     0.0003987086        163.7985                0               0                0               0
1.07237                0.9965897       -10.73108     0.0003932539        161.1691                0               0                0               0
1.07895                0.9964922        -10.8231       0.00038765        158.8695                0               0                0               0
1.08553                0.9963973       -10.91583      0.000382222        156.9239                0               0                0               0
1.09211                0.9963046       -11.00933     0.0003773492          155.35                0               0                0               0
1.09868                0.9962141       -11.10367     0.0003734631         154.154                0               0                0               0
1.10526                 0.996125        -11.1989     0.0003710374         153.326                0               0                0               0
1.11184                0.9960365       -11.29508     0.0003705704        152.8348                0               0                0               0
1.11842                0.9959483       -11.39225      0.000372558        152.6242                0               0                0               0
1.125                  0.9958592       -11.49045     0.0003774586        152.6143                0               0                0               0
1.13158                0.9957682       -11.58972     0.0003856571        152.7054                0               0                0               0
1.13816                0.9956745       -11.69008     0.0003974328        152.7891                0               0                0               0
1.14474                 0.995577       -11.79155      0.000412941        152.7593                0               0                0               0
1.15132                0.9954746       -11.89413     0.0004322099        152.5246                0               0                0               0
1.15789                0.9953662       -11.99782     0.0004551539        152.0155                0               0                0               0
1.16447                0.9952511       -12.10261     0.0004815966        151.1877                0               0                0               0
1.17105                0.9951281       -12.20848     0.0005112974        150.0204                0               0                0               0
1.17763                0.9949968       -12.31541     0.0005439765        148.5123                0               0                0               0
1.18421                0.9948561       -12.42335     0.0005793345        146.6759                0               0                0               0
1.19079                0.9947058       -12.53228     0.0006170678         144.533                0               0                0               0
1.19737                0.9945453       -12.64216     0.0006568762        142.1102                0               0                0               0
1.20395                0.9943746       -12.75293     0.0006984693        139.4364                0               0                0               0
1.21053                0.9941937       -12.86456     0.0007415685        136.5403                0               0                0               0
1.21711                0.9940024       -12.97701     0.0007859071        133.4493                0               0                0               0
1.22368                0.9938013       -13.09025     0.0008312313        130.1892                0               0                0               0
1.23026                0.9935908       -13.20423     0.0008772984        126.7835                0               0                0               0
1.23684                0.9933712       -13.31893     0.0009238765        123.2534                0               0                0               0
1.24342                0.9931436       -13.43434     0.0009707444        119.6184                0               0                0               0
1.25                   0.9929085       -13.55044       0.00101769        115.8957                0               0                0               0
1.25658                0.9926668       -13.66724      0.001064511         112.101                0               0                0               0
1.26316                0.9924194       -13.78474      0.001111015        108.2485                0               0                0               0
1.26974                0.9921671       -13.90298      0.001157019        104.3511                0               0                0               0
1.27632                0.9919109       -14.02196      0.001202351        100.4205                0               0                0               0
1.28289                0.9916514       -14.14175      0.001246849        96.46763                0               0                0               0
1.28947                0.9913897        -14.2624      0.001290367        92.50254                0               0                0               0
1.29605                 0.991126       -14.38396      0.001332768        88.53468                0               0                0               0
1.30263                 0.990861        -14.5065      0.001373934        84.57295                0               0                0               0
1.30921                0.9905948       -14.63011       0.00141376        80.62586                0               0                0               0
1.31579                0.9903279       -14.75485      0.001452163        76.70152                0               0                0               0
1.32237                0.9900598       -14.88082      0.001489079        72.80778                0               0                0               0
1.32895                0.9897906        -15.0081      0.001524469        68.95225                0               0                0               0
1.33553                0.9895197       -15.13678      0.001558316        65.14235                0               0                0               0
1.34211                0.9892465       -15.26694      0.001590633        61.38528                0               0                0               0
1.34868                  0.98897       -15.39865      0.001621465        57.68806                0               0                0               0
1.35526                0.9886894         -15.532      0.001650888        54.05749                0               0                0               0
1.36184                0.9884034       -15.66704      0.001679015        50.50008                0               0                0               0
1.36842                0.9881109       -15.80384      0.001705999          47.022                0               0                0               0
1.375                  0.9878105       -15.94243      0.001732033        43.62896                0               0                0               0
1.38158                0.9875007       -16.08287      0.001757352        40.32609                0               0                0               0
1.38816                0.9871801       -16.22516       0.00178224        37.11775                0               0                0               0
1.39474                0.9868471       -16.36933      0.001807024        34.00737                0               0                0               0
1.40132                0.9865003       -16.51538      0.001832077         30.9972                0               0                0               0
1.40789                0.9861385        -16.6633       0.00185782        28.08809                0               0                0               0
1.41447                0.9857602       -16.81307      0.001884711        25.27928                0               0                0               0
1.42105                0.9853646       -16.96467       0.00191325        22.56812                0               0                0               0
1.42763                0.9849506       -17.11806      0.001943967        19.94995                0               0                0               0
1.43421                0.9845174       -17.27321      0.001977414        17.41793                0               0                0               0
1.44079                0.9840644       -17.43006      0.002014158        14.96305                0               0                0               0
1.44737                0.9835912       -17.58858      0.002054766        12.57418                0               0                0               0
1.45395                0.9830978       -17.74874      0.002099796        10.23826                0               0                0               0
1.46053                0.9825841       -17.91047       0.00214978        7.940705                0               0                0               0
1.46711                0.9820504       -18.07376      0.002205212         5.66576                0               0                0               0
1.47368                0.9814973       -18.23858      0.002266538        3.397099                0               0                0               0
1.48026                0.9809252        -18.4049      0.002334146        1.118385                0               0                0               0
1.48684                0.9803348       -18.57272      0.002408353       -1.186148                0               0                0               0
1.49342                0.9797272       -18.74206      0.002489408       -3.531158                0               0                0               0
1.5                    0.9791031       -18.91292      0.002577483       -5.929753                0               0                0               0
1.50658                0.9784635       -19.08535      0.002672681       -8.393158                0               0                0               0
1.51316                0.9778094        -19.2594      0.002775031       -10.93052                0               0                0               0
1.51974                0.9771418       -19.43513      0.002884498       -13.54883                0               0                0               0
1.52632                0.9764614       -19.61263       0.00300099       -16.25296                0               0                0               0
1.53289                0.9757688       -19.79199       0.00312436       -19.04581                0               0                0               0
1.53947                0.9750646       -19.97332      0.003254419       -21.92846                0               0                0               0
1.54605                0.9743489       -20.15676      0.003390941       -24.90043                0               0                0               0
1.55263                 0.973622       -20.34242      0.003533671       -27.95992                0               0                0               0
1.55921                0.9728834       -20.53045      0.003682329       -31.10404                0               0                0               0
1.56579                0.9721328         -20.721       0.00383662       -34.32907                0               0                0               0
1.57237                0.9713693       -20.91422      0.003996235       -37.63063                0               0                0               0
1.57895                0.9705918       -21.11026      0.004160862       -41.00388                0               0                0               0
1.58553                0.9697988       -21.30927      0.004330184       -44.44371                0               0                0               0
1.59211                0.9689887       -21.51139      0.004503887       -47.94478                0               0                0               0
1.59868                0.9681593       -21.71677      0.004681664       -51.50172                0               0                0               0
1.60526                0.9673085       -21.92552      0.004863217       -55.10915                0               0                0               0
1.61184                0.9664338       -22.13777       0.00504826       -58.76176                0               0                0               0
1.61842                0.9655325       -22.35361      0.005236522       -62.45437                0               0                0               0
1.625                  0.9646019       -22.57314      0.005427755       -66.18196                0               0                0               0
1.63158                0.9636388       -22.79643      0.005621729       -69.93969                0               0                0               0
1.63816                0.9626406       -23.02354      0.005818242       -73.72292                0               0                0               0
1.64474                0.9616041       -23.25449      0.006017119       -77.52723                0               0                0               0
1.65132                0.9605265       -23.48932      0.006218217       -81.34844                0               0                0               0
1.65789                0.9594048       -23.72803      0.006421426       -85.18257                0               0                0               0
1.66447                0.9582365       -23.97062      0.006626675       -89.02594                0               0                0               0
1.67105                 0.957019       -24.21707      0.006833933       -92.87506                0               0                0               0
1.67763                0.9557499       -24.46735      0.007043211       -96.72672                0               0                0               0
1.68421                0.9544272       -24.72142      0.007254566        -100.578                0               0                0               0
1.69079                 0.953049       -24.97924      0.007468105       -104.4261                0               0                0               0
1.69737                0.9516139       -25.24076      0.007683982       -108.2688                0               0                0               0
1.70395                0.9501204       -25.50596      0.007902408       -112.1038                0               0                0               0
1.71053                0.9485677       -25.77478      0.008123643       -115.9293                0               0                0               0
1.71711                0.9469549        -26.0472      0.008348006       -119.7438                0               0                0               0
1.72368                0.9452815       -26.32321      0.008575869       -123.5461                0               0                0               0
1.73026                0.9435473       -26.60279      0.008807664       -127.3353                0               0                0               0
1.73684                0.9417519       -26.88596      0.009043871       -131.1107                0               0                0               0
1.74342                0.9398954       -27.17275      0.009285031       -134.8722                0               0                0               0
1.75                   0.9379779       -27.46321      0.009531732       -138.6199                0               0                0               0
1.75658                0.9359994       -27.75743      0.009784612       -142.3542                0               0                0               0
1.76316                0.9339597        -28.0555       0.01004435        -146.076                0               0                0               0
1.76974                 0.931859       -28.35754       0.01031168       -149.7864                0               0                0               0
1.77632                0.9296966        -28.6637       0.01058734       -153.4868                0               0                0               0
1.78289                0.9274721       -28.97416       0.01087212        -157.179                0               0                0               0
1.78947                0.9251845        -29.2891       0.01116683       -160.8651                0               0                0               0
1.79605                0.9228327       -29.60874       0.01147228       -164.5474                0               0                0               0
1.80263                0.9204151       -29.93331       0.01178929       -168.2285                0               0                0               0
1.80921                0.9179293       -30.26306       0.01211867       -171.9111                0               0                0               0
1.81579                0.9153729       -30.59825       0.01246124       -175.5982                0               0                0               0
1.82237                0.9127427       -30.93914       0.01281776       -179.2927                0               0                0               0
1.82895                 0.910035         -31.286       0.01318898        177.0022                0               0                0               0
1.83553                0.9072455        -31.6391       0.01357562        173.2836                0               0                0               0
1.84211                0.9043695        -31.9987       0.01397834        169.5484                0               0                0               0
1.84868                0.9014016       -32.36507       0.01439773        165.7935                0               0                0               0
