! TOUCHSTONE file generated by CST MICROWAVE STUDIO
! Date and time: Tue Mar 11 13:58:01 2025
! Project name: transverse.cst
! Parameters = {Fracture=1; B=10; D=160; F=25; Feed=2.85625; L=100; M=30; R=0.384908; S=1; Theta=270; length=57.125; wave=114.25}
! Header version: 2024
! Port assignment regex: !\s*Touchstone port\s*([0-9]+)\s*=\s*(CST MWS port|CST DES external port|CST DES block port)\s*(.+)\s* \(\"(.*)\"\)(\s*mode\s*([0-9]+))?.*
! Touchstone port assignment:
! Touchstone port 1 = CST MWS port 1 ("")
! Touchstone port 2 = CST MWS port 2 ("")
# GHz S MA R 50
1                       0.997559       -9.988842      0.000511885        167.9717                0               0                0               0
1.00658                0.9974949         -10.076     0.0005082325        162.1721                0               0                0               0
1.01316                0.9974334       -10.16384     0.0005024861        156.4927                0               0                0               0
1.01974                0.9973737       -10.25243     0.0004946213        150.9457                0               0                0               0
1.02632                0.9973157       -10.34181     0.0004846289        145.5465                0               0                0               0
1.03289                0.9972584       -10.43202     0.0004725167        140.3154                0               0                0               0
1.03947                0.9972012       -10.52311     0.0004583137        135.2784                0               0                0               0
1.04605                0.9971431        -10.6151     0.0004420747        130.4693                0               0                0               0
1.05263                0.9970835       -10.70803     0.0004238874        125.9321                0               0                0               0
1.05921                0.9970213       -10.80189     0.0004038816        121.7242                0               0                0               0
1.06579                0.9969554       -10.89672     0.0003822446        117.9221                0               0                0               0
1.07237                0.9968852       -10.99249     0.0003592424        114.6267                0               0                0               0
1.07895                0.9968097       -11.08922      0.000335252        111.9727                0               0                0               0
1.08553                 0.996728       -11.18688     0.0003108102        110.1377                0               0                0               0
1.09211                0.9966391       -11.28544     0.0002866854        109.3492                0               0                0               0
1.09868                0.9965429        -11.3849     0.0002639729        109.8787                0               0                0               0
1.10526                0.9964384        -11.4852     0.0002441986        111.9971                0               0                0               0
1.11184                0.9963251       -11.58632     0.0002293594        115.8529                0               0                0               0
1.11842                 0.996203       -11.68821     0.0002217418        121.2589                0               0                0               0
1.125                  0.9960721       -11.79084     0.0002233654        127.5185                0               0                0               0
1.13158                0.9959319       -11.89416     0.0002352285        133.5674                0               0                0               0
1.13816                0.9957828       -11.99815     0.0002569668         138.451                0               0                0               0
1.14474                0.9956251       -12.10275     0.0002872392        141.6952                0               0                0               0
1.15132                0.9954592       -12.20795     0.0003244036        143.2838                0               0                0               0
1.15789                0.9952856       -12.31371     0.0003669679        143.4389                0               0                0               0
1.16447                0.9951049       -12.42002     0.0004137377        142.4418                0               0                0               0
1.17105                0.9949178       -12.52686     0.0004637983        140.5485                0               0                0               0
1.17763                 0.994725       -12.63424     0.0005164499         137.966                0               0                0               0
1.18421                0.9945275       -12.74216      0.000571145        134.8538                0               0                0               0
1.19079                0.9943259       -12.85063     0.0006274402        131.3324                0               0                0               0
1.19737                 0.994121       -12.95967     0.0006849629        127.4932                0               0                0               0
1.20395                0.9939136       -13.06933     0.0007433889        123.4053                0               0                0               0
1.21053                0.9937044       -13.17964     0.0008024277        119.1221                0               0                0               0
1.21711                0.9934938       -13.29065     0.0008618115         114.685                0               0                0               0
1.22368                0.9932822       -13.40241       0.00092129        110.1265                0               0                0               0
1.23026                0.9930702       -13.51499     0.0009806257        105.4728                0               0                0               0
1.23684                0.9928579       -13.62846       0.00103959         100.745                0               0                0               0
1.24342                0.9926452       -13.74287      0.001097965        95.96042                0               0                0               0
1.25                   0.9924319        -13.8583      0.001155537        91.13368                0               0                0               0
1.25658                0.9922181       -13.97482      0.001212102        86.27706                0               0                0               0
1.26316                0.9920028        -14.0925      0.001267461        81.40117                0               0                0               0
1.26974                0.9917856        -14.2114      0.001321426        76.51532                0               0                0               0
1.27632                0.9915659       -14.33158      0.001373814        71.62779                0               0                0               0
1.28289                0.9913426        -14.4531      0.001424453        66.74611                0               0                0               0
1.28947                0.9911149         -14.576      0.001473182        61.87718                0               0                0               0
1.29605                0.9908813       -14.70032       0.00151985        57.02749                0               0                0               0
1.30263                 0.990641       -14.82609      0.001564319        52.20322                0               0                0               0
1.30921                0.9903929       -14.95333      0.001606469        47.41033                0               0                0               0
1.31579                0.9901356       -15.08206      0.001646191        42.65467                0               0                0               0
1.32237                 0.989868       -15.21227      0.001683399        37.94199                0               0                0               0
1.32895                 0.989589       -15.34396      0.001718025        33.27812                0               0                0               0
1.33553                0.9892977       -15.47711      0.001750022        28.66887                0               0                0               0
1.34211                0.9889931        -15.6117      0.001779372        24.12017                0               0                0               0
1.34868                0.9886741        -15.7477       0.00180608        19.63807                0               0                0               0
1.35526                0.9883407       -15.88507      0.001830183        15.22873                0               0                0               0
1.36184                0.9879917       -16.02378      0.001851749        10.89842                0               0                0               0
1.36842                0.9876272        -16.1638      0.001870883        6.653528                0               0                0               0
1.375                  0.9872472       -16.30507      0.001887727        2.500487                0               0                0               0
1.38158                0.9868514       -16.44755      0.001902465       -1.554276                0               0                0               0
1.38816                0.9864401       -16.59123      0.001915324       -5.504446                0               0                0               0
1.39474                0.9860139       -16.73605      0.001926578        -9.34395                0               0                0               0
1.40132                 0.985573       -16.88202      0.001936549       -13.06713                0               0                0               0
1.40789                0.9851181        -17.0291      0.001945611       -16.66898                0               0                0               0
1.41447                0.9846501       -17.17729      0.001954186       -20.14538                0               0                0               0
1.42105                0.9841698       -17.32661      0.001962748       -23.49341                0               0                0               0
1.42763                 0.983678       -17.47707      0.001971818       -26.71175                0               0                0               0
1.43421                0.9831757       -17.62869      0.001981961       -29.80095                0               0                0               0
1.44079                0.9826635       -17.78154      0.001993777       -32.76389                0               0                0               0
1.44737                0.9821423       -17.93565      0.002007895       -35.60601                0               0                0               0
1.45395                0.9816131        -18.0911       0.00202496       -38.33563                0               0                0               0
1.46053                0.9810761       -18.24796      0.002045618       -40.96405                0               0                0               0
1.46711                 0.980532       -18.40633      0.002070501       -43.50546                0               0                0               0
1.47368                0.9799808        -18.5663      0.002100205       -45.97675                0               0                0               0
1.48026                0.9794227       -18.72798      0.002135277       -48.39702                0               0                0               0
1.48684                0.9788575       -18.89146      0.002176199       -50.78696                0               0                0               0
1.49342                0.9782849       -19.05688      0.002223366         -53.168                0               0                0               0
1.5                     0.977704       -19.22434      0.002277081        -55.5615                0               0                0               0
1.50658                0.9771142       -19.39395       0.00233755       -57.98787                0               0                0               0
1.51316                0.9765142       -19.56582      0.002404872       -60.46576                0               0                0               0
1.51974                0.9759027       -19.74006      0.002479047        -63.0115                0               0                0               0
1.52632                0.9752781       -19.91677       0.00255998       -65.63862                0               0                0               0
1.53289                0.9746387       -20.09601       0.00264749       -68.35772                0               0                0               0
1.53947                0.9739827       -20.27789      0.002741318       -71.17638                0               0                0               0
1.54605                 0.973308       -20.46245      0.002841145       -74.09936                0               0                0               0
1.55263                0.9726126       -20.64976      0.002946597       -77.12883                0               0                0               0
1.55921                0.9718943       -20.83983      0.003057255       -80.26471                0               0                0               0
1.56579                0.9711512       -21.03271      0.003172674       -83.50507                0               0                0               0
1.57237                0.9703809        -21.2284      0.003292382       -86.84645                0               0                0               0
1.57895                0.9695818       -21.42688      0.003415896       -90.28421                0               0                0               0
1.58553                0.9687518       -21.62815      0.003542722       -93.81287                0               0                0               0
1.59211                0.9678892       -21.83218      0.003672364       -97.42631                0               0                0               0
1.59868                0.9669926       -22.03894      0.003804329        -101.118                0               0                0               0
1.60526                0.9660606       -22.24837      0.003938127       -104.8813                0               0                0               0
1.61184                0.9650923       -22.46043      0.004073283       -108.7094                0               0                0               0
1.61842                0.9640869       -22.67507      0.004209329       -112.5954                0               0                0               0
1.625                  0.9630438       -22.89223      0.004345815       -116.5327                0               0                0               0
1.63158                0.9619627       -23.11188       0.00448231       -120.5146                0               0                0               0
1.63816                0.9608438       -23.33397      0.004618402       -124.5349                0               0                0               0
1.64474                0.9596874       -23.55847      0.004753702       -128.5872                0               0                0               0
1.65132                0.9584937       -23.78536      0.004887847       -132.6654                0               0                0               0
1.65789                0.9572637       -24.01463      0.005020503       -136.7639                0               0                0               0
1.66447                 0.955998       -24.24631      0.005151368       -140.8769                0               0                0               0
1.67105                0.9546976       -24.48041      0.005280171        -144.999                0               0                0               0
1.67763                0.9533635         -24.717      0.005406681        -149.125                0               0                0               0
1.68421                0.9519968       -24.95614      0.005530707       -153.2496                0               0                0               0
1.69079                0.9505985       -25.19793      0.005652102        -157.368                0               0                0               0
1.69737                0.9491694       -25.44249      0.005770766       -161.4753                0               0                0               0
1.70395                0.9477104       -25.68996       0.00588665       -165.5671                0               0                0               0
1.71053                0.9462218        -25.9405      0.005999762       -169.6389                0               0                0               0
1.71711                0.9447041       -26.19431      0.006110165       -173.6863                0               0                0               0
1.72368                 0.943157       -26.45157      0.006217989       -177.7054                0               0                0               0
1.73026                0.9415804       -26.71251      0.006323425        178.3077                0               0                0               0
1.73684                0.9399734       -26.97736      0.006426739        174.3566                0               0                0               0
1.74342                0.9383346       -27.24637      0.006528265        170.4446                0               0                0               0
1.75                   0.9366627       -27.51978      0.006628416        166.5746                0               0                0               0
1.75658                0.9349552       -27.79787       0.00672768        162.7493                0               0                0               0
1.76316                0.9332101       -28.08087      0.006826626        158.9709                0               0                0               0
1.76974                0.9314238       -28.36905        0.0069259         155.241                0               0                0               0
1.77632                0.9295931       -28.66266      0.007026228        151.5607                0               0                0               0
1.78289                0.9277142       -28.96193       0.00712841        147.9305                0               0                0               0
1.78947                0.9257827       -29.26709      0.007233319        144.3501                0               0                0               0
1.79605                0.9237941       -29.57835      0.007341896        140.8186                0               0                0               0
1.80263                0.9217436       -29.89592      0.007455136        137.3341                0               0                0               0
1.80921                0.9196259       -30.21995      0.007574086        133.8939                0               0                0               0
1.81579                0.9174358        -30.5506      0.007699829        130.4945                0               0                0               0
1.82237                0.9151678       -30.88802       0.00783347        127.1313                0               0                0               0
1.82895                0.9128165        -31.2323      0.007976123        123.7993                0               0                0               0
1.83553                 0.910376       -31.58353      0.008128894        120.4922                0               0                0               0
1.84211                0.9078413        -31.9418       0.00829286        117.2033                0               0                0               0
1.84868                0.9052068       -32.30713      0.008469057        113.9254                0               0                0               0
