! TOUCHSTONE file generated by CST MICROWAVE STUDIO
! Date and time: Tue Mar 11 13:57:04 2025
! Project name: transverse.cst
! Parameters = {Fracture=1; B=12.5; D=160; F=15; Feed=2.85625; L=100; M=30; R=0.384908; S=2; Theta=90; length=57.125; wave=114.25}
! Header version: 2024
! Port assignment regex: !\s*Touchstone port\s*([0-9]+)\s*=\s*(CST MWS port|CST DES external port|CST DES block port)\s*(.+)\s* \(\"(.*)\"\)(\s*mode\s*([0-9]+))?.*
! Touchstone port assignment:
! Touchstone port 1 = CST MWS port 1 ("")
! Touchstone port 2 = CST MWS port 2 ("")
# GHz S MA R 50
1                      0.9975394       -9.990476     0.0004691411        173.0909                0               0                0               0
1.00658                0.9974678       -10.07788     0.0004669281        167.5491                0               0                0               0
1.01316                0.9973976       -10.16591     0.0004628291        162.1257                0               0                0               0
1.01974                0.9973291       -10.25463     0.0004568261        156.8334                0               0                0               0
1.02632                0.9972614       -10.34407     0.0004489151        151.6883                0               0                0               0
1.03289                0.9971944       -10.43428     0.0004391095        146.7108                0               0                0               0
1.03947                0.9971273       -10.52528     0.0004274426        141.9267                0               0                0               0
1.04605                0.9970596       -10.61712     0.0004139727        137.3688                0               0                0               0
1.05263                0.9969905       -10.70982     0.0003987893        133.0788                0               0                0               0
1.05921                0.9969194        -10.8034     0.0003820223        129.1104                0               0                0               0
1.06579                0.9968453       -10.89788     0.0003638538        125.5324                0               0                0               0
1.07237                0.9967676       -10.99325      0.000344537        122.4335                0               0                0               0
1.07895                0.9966855       -11.08953      0.000324421        119.9273                0               0                0               0
1.08553                0.9965982       -11.18671     0.0003039876        118.1565                0               0                0               0
1.09211                0.9965052       -11.28477        0.0002839        117.2942                0               0                0               0
1.09868                0.9964055        -11.3837     0.0002650619        117.5327                0               0                0               0
1.10526                0.9962988       -11.48348     0.0002486714        119.0474                0               0                0               0
1.11184                0.9961846       -11.58408      0.000236226        121.9167                0               0                0               0
1.11842                0.9960624       -11.68547     0.0002293984        126.0022                0               0                0               0
1.125                  0.9959322       -11.78762     0.0002297156        130.8518                0               0                0               0
1.13158                0.9957937        -11.8905     0.0002381202        135.7571                0               0                0               0
1.13816                 0.995647       -11.99408     0.0002546896        139.9963                0               0                0               0
1.14474                0.9954922       -12.09833     0.0002787324        143.0892                0               0                0               0
1.15132                0.9953294       -12.20322     0.0003091492        144.8716                0               0                0               0
1.15789                0.9951592       -12.30872      0.000344779        145.4083                0               0                0               0
1.16447                0.9949817       -12.41482     0.0003845888        144.8705                0               0                0               0
1.17105                0.9947977       -12.52149      0.000427727        143.4517                0               0                0               0
1.17763                0.9946076       -12.62875     0.0004735096        141.3282                0               0                0               0
1.18421                0.9944122       -12.73657     0.0005213857        138.6465                0               0                0               0
1.19079                 0.994212       -12.84498     0.0005709029        135.5239                0               0                0               0
1.19737                0.9940077       -12.95398     0.0006216795        132.0523                0               0                0               0
1.20395                   0.9938        -13.0636     0.0006733846        128.3037                0               0                0               0
1.21053                0.9935896       -13.17386     0.0007257227        124.3345                0               0                0               0
1.21711                0.9933768        -13.2848     0.0007784248        120.1894                0               0                0               0
1.22368                0.9931623       -13.39646     0.0008312406         115.904                0               0                0               0
1.23026                0.9929465        -13.5089      0.000883934        111.5071                0               0                0               0
1.23684                0.9927295       -13.62216     0.0009362806         107.022                0               0                0               0
1.24342                0.9925117       -13.73631     0.0009880651        102.4684                0               0                0               0
1.25                   0.9922931        -13.8514       0.00103908        97.86246                0               0                0               0
1.25658                0.9920734       -13.96749      0.001089127        93.21809                0               0                0               0
1.26316                0.9918526       -14.08465      0.001138014        88.54732                0               0                0               0
1.26974                0.9916302       -14.20294      0.001185557        83.86069                0               0                0               0
1.27632                0.9914058       -14.32241       0.00123158        79.16764                0               0                0               0
1.28289                0.9911787       -14.44312      0.001275918        74.47672                0               0                0               0
1.28947                0.9909482       -14.56512      0.001318415        69.79583                0               0                0               0
1.29605                0.9907135       -14.68846      0.001358928         65.1324                0               0                0               0
1.30263                0.9904738       -14.81317      0.001397325        60.49352                0               0                0               0
1.30921                0.9902279       -14.93929      0.001433489        55.88606                0               0                0               0
1.31579                0.9899751       -15.06684      0.001467321        51.31676                0               0                0               0
1.32237                0.9897143       -15.19583      0.001498738        46.79235                0               0                0               0
1.32895                0.9894445       -15.32628      0.001527679        42.31959                0               0                0               0
1.33553                0.9891648       -15.45818      0.001554105        37.90532                0               0                0               0
1.34211                0.9888742       -15.59154      0.001578002        33.55654                0               0                0               0
1.34868                0.9885721       -15.72634      0.001599385        29.28042                0               0                0               0
1.35526                0.9882576       -15.86256      0.001618297        25.08434                0               0                0               0
1.36184                0.9879303       -16.00018      0.001634817        20.97584                0               0                0               0
1.36842                0.9875895       -16.13918      0.001649062        16.96265                0               0                0               0
1.375                  0.9872352       -16.27953      0.001661186         13.0526                0               0                0               0
1.38158                0.9868672       -16.42121      0.001671392        9.253554                0               0                0               0
1.38816                0.9864851       -16.56419      0.001679924        5.573263                0               0                0               0
1.39474                0.9860892       -16.70845       0.00168708        2.019182                0               0                0               0
1.40132                  0.98568       -16.85397      0.001693211       -1.401776                0               0                0               0
1.40789                0.9852575       -17.00075      0.001698723       -4.683545                0               0                0               0
1.41447                0.9848224       -17.14876      0.001704074       -7.821295                0               0                0               0
1.42105                0.9843752       -17.29803       0.00170978       -10.81187                0               0                0               0
1.42763                0.9839165       -17.44855      0.001716407        -13.6543                0               0                0               0
1.43421                0.9834469       -17.60036      0.001724567       -16.35029                0               0                0               0
1.44079                0.9829672       -17.75348      0.001734909       -18.90474                0               0                0               0
1.44737                0.9824781       -17.90795      0.001748106       -21.32616                0               0                0               0
1.45395                0.9819801       -18.06384      0.001764842        -23.6269                0               0                0               0
1.46053                0.9814739        -18.2212      0.001785792       -25.82324                0               0                0               0
1.46711                0.9809599        -18.3801      0.001811599       -27.93507                0               0                0               0
1.47368                0.9804384       -18.54064       0.00184286        -29.9854                0               0                0               0
1.48026                0.9799096       -18.70289      0.001880099       -31.99943                0               0                0               0
1.48684                0.9793737       -18.86696      0.001923753       -34.00353                0               0                0               0
1.49342                0.9788303       -19.03296      0.001974157       -36.02391                0               0                0               0
1.5                    0.9782792       -19.20098      0.002031538       -38.08554                0               0                0               0
1.50658                0.9777198       -19.37113      0.002096013       -40.21098                0               0                0               0
1.51316                0.9771514       -19.54354      0.002167589       -42.41957                0               0                0               0
1.51974                 0.976573       -19.71829      0.002246174       -44.72697                0               0                0               0
1.52632                0.9759835       -19.89551      0.002331588       -47.14487                0               0                0               0
1.53289                0.9753813       -20.07528      0.002423574       -49.68111                0               0                0               0
1.53947                0.9747652       -20.25771      0.002521813       -52.33996                0               0                0               0
1.54605                0.9741334       -20.44287      0.002625937       -55.12255                0               0                0               0
1.55263                 0.973484       -20.63085      0.002735542       -58.02735                0               0                0               0
1.55921                0.9728154        -20.8217      0.002850198       -61.05074                0               0                0               0
1.56579                0.9721253        -21.0155      0.002969458       -64.18743                0               0                0               0
1.57237                 0.971412       -21.21228      0.003092868       -67.43099                0               0                0               0
1.57895                0.9706733       -21.41208       0.00321997       -70.77414                0               0                0               0
1.58553                0.9699073       -21.61492      0.003350312       -74.20914                0               0                0               0
1.59211                0.9691122       -21.82082      0.003483447       -77.72797                0               0                0               0
1.59868                0.9682861       -22.02977      0.003618939       -81.32255                0               0                0               0
1.60526                0.9674274       -22.24179      0.003756369       -84.98487                0               0                0               0
1.61184                0.9665343       -22.45685      0.003895332       -88.70709                0               0                0               0
1.61842                0.9656058       -22.67494      0.004035445        -92.4816                0               0                0               0
1.625                  0.9646405       -22.89604      0.004176345       -96.30107                0               0                0               0
1.63158                0.9636372       -23.12013      0.004317696       -100.1585                0               0                0               0
1.63816                0.9625953        -23.3472      0.004459187       -104.0471                0               0                0               0
1.64474                0.9615141       -23.57723      0.004600538       -107.9605                0               0                0               0
1.65132                0.9603933       -23.81021        0.0047415       -111.8926                0               0                0               0
1.65789                0.9592323       -24.04613      0.004881861       -115.8377                0               0                0               0
1.66447                0.9580313       -24.28501      0.005021446       -119.7901                0               0                0               0
1.67105                0.9567899       -24.52686       0.00516012       -123.7447                0               0                0               0
1.67763                0.9555086       -24.77172      0.005297796       -127.6966                0               0                0               0
1.68421                 0.954187       -25.01963      0.005434431        -131.641                0               0                0               0
1.69079                0.9528259       -25.27065      0.005570034       -135.5736                0               0                0               0
1.69737                 0.951425       -25.52486      0.005704668       -139.4904                0               0                0               0
1.70395                0.9499846       -25.78235      0.005838455       -143.3875                0               0                0               0
1.71053                0.9485045       -26.04324      0.005971573       -147.2615                0               0                0               0
1.71711                 0.946985       -26.30766      0.006104268       -151.1093                0               0                0               0
1.72368                0.9454253       -26.57576      0.006236846        -154.928                0               0                0               0
1.73026                0.9438252       -26.84769      0.006369684       -158.7154                0               0                0               0
1.73684                0.9421837       -27.12362      0.006503225       -162.4694                0               0                0               0
1.74342                0.9404998       -27.40374       0.00663798       -166.1886                0               0                0               0
1.75                   0.9387725       -27.68826      0.006774532       -169.8721                0               0                0               0
1.75658                0.9369996       -27.97736      0.006913523       -173.5195                0               0                0               0
1.76316                0.9351793       -28.27127      0.007055665       -177.1309                0               0                0               0
1.76974                0.9333092        -28.5702      0.007201727        179.2929                0               0                0               0
1.77632                0.9313866       -28.87436      0.007352531        175.7503                0               0                0               0
1.78289                0.9294083       -29.18397      0.007508948        172.2395                0               0                0               0
1.78947                0.9273711       -29.49924      0.007671884        168.7575                0               0                0               0
1.79605                0.9252711       -29.82037      0.007842278         165.301                0               0                0               0
1.80263                0.9231044       -30.14756      0.008021083        161.8659                0               0                0               0
1.80921                0.9208666         -30.481      0.008209256        158.4478                0               0                0               0
1.81579                0.9185532       -30.82087      0.008407752        155.0416                0               0                0               0
1.82237                0.9161595       -31.16733      0.008617499        151.6417                0               0                0               0
1.82895                0.9136804       -31.52053      0.008839396        148.2425                0               0                0               0
1.83553                0.9111111        -31.8806      0.009074293         144.838                0               0                0               0
1.84211                0.9084463       -32.24769      0.009322983        141.4221                0               0                0               0
1.84868                0.9056808        -32.6219      0.009586188        137.9888                0               0                0               0
