! TOUCHSTONE file generated by CST MICROWAVE STUDIO
! Date and time: Tue Mar 11 13:57:09 2025
! Project name: transverse.cst
! Parameters = {Fracture=1; B=10; D=160; F=5; Feed=2.85625; L=100; M=10; R=0.384908; S=1; Theta=180; length=57.125; wave=114.25}
! Header version: 2024
! Port assignment regex: !\s*Touchstone port\s*([0-9]+)\s*=\s*(CST MWS port|CST DES external port|CST DES block port)\s*(.+)\s* \(\"(.*)\"\)(\s*mode\s*([0-9]+))?.*
! Touchstone port assignment:
! Touchstone port 1 = CST MWS port 1 ("")
! Touchstone port 2 = CST MWS port 2 ("")
# GHz S MA R 50
1                      0.9979639       -10.01689     0.0003095859       -119.2782                0               0                0               0
1.0066                 0.9978754       -10.10867     0.0003332203       -124.4504                0               0                0               0
1.0132                 0.9977775       -10.20081     0.0003559698       -129.6678                0               0                0               0
1.0198                 0.9976705       -10.29327      0.000377701       -134.9121                0               0                0               0
1.0264                 0.9975558       -10.38599     0.0003982842        -140.169                0               0                0               0
1.033                   0.997434       -10.47892     0.0004175924       -145.4267                0               0                0               0
1.0396                 0.9973068       -10.57202     0.0004355036       -150.6749                0               0                0               0
1.0462                  0.997175       -10.66528     0.0004518993       -155.9045                0               0                0               0
1.05281                0.9970403       -10.75869     0.0004666675        -161.107                0               0                0               0
1.05941                0.9969043       -10.85224     0.0004797016       -166.2743                0               0                0               0
1.06601                0.9967682       -10.94597     0.0004909025       -171.3981                0               0                0               0
1.07261                0.9966334       -11.03991     0.0005001791       -176.4697                0               0                0               0
1.07921                0.9965016       -11.13411     0.0005074496        178.5198                0               0                0               0
1.08581                0.9963735       -11.22864     0.0005126426        173.5807                0               0                0               0
1.09241                0.9962503       -11.32356     0.0005156991        168.7241                0               0                0               0
1.09901                 0.996133       -11.41898     0.0005165735        163.9629                0               0                0               0
1.10561                0.9960222       -11.51498     0.0005152361         159.312                0               0                0               0
1.11221                0.9959181       -11.61166     0.0005116755        154.7889                0               0                0               0
1.11881                0.9958209       -11.70913     0.0005059016        150.4143                0               0                0               0
1.12541                0.9957302        -11.8075     0.0004979495         146.213                0               0                0               0
1.13201                0.9956461       -11.90688     0.0004878851        142.2148                0               0                0               0
1.13861                0.9955672       -12.00736     0.0004758106        138.4561                0               0                0               0
1.14521                0.9954931       -12.10904     0.0004618743        134.9813                0               0                0               0
1.15182                0.9954223       -12.21201     0.0004462814        131.8444                0               0                0               0
1.15842                0.9953536       -12.31635     0.0004293103         129.111                0               0                0               0
1.16502                0.9952853       -12.42212     0.0004113319        126.8601                0               0                0               0
1.17162                0.9952157       -12.52938     0.0003928367        125.1843                0               0                0               0
1.17822                 0.995143       -12.63815     0.0003744653         124.187                0               0                0               0
1.18482                0.9950654       -12.74845     0.0003570415        123.9741                0               0                0               0
1.19142                0.9949811       -12.86031      0.000341597        124.6345                0               0                0               0
1.19802                0.9948882       -12.97369     0.0003293646        126.2058                0               0                0               0
1.20462                0.9947849       -13.08858     0.0003217111        128.6288                0               0                0               0
1.21122                0.9946699       -13.20493     0.0003199793        131.7063                0               0                0               0
1.21782                0.9945417        -13.3227     0.0003252538        135.1023                0               0                0               0
1.22442                0.9943989       -13.44182      0.000338137        138.4048                0               0                0               0
1.23102                0.9942407       -13.56221     0.0003586516        141.2329                0               0                0               0
1.23762                0.9940664        -13.6838     0.0003863195        143.3247                0               0                0               0
1.24422                0.9938756        -13.8065     0.0004203539        144.5638                0               0                0               0
1.25083                 0.993668       -13.93025      0.000459854        144.9513                0               0                0               0
1.25743                0.9934439       -14.05494     0.0005039397        144.5593                0               0                0               0
1.26403                0.9932036        -14.1805     0.0005518165        143.4897                0               0                0               0
1.27063                0.9929479       -14.30688     0.0006027941        141.8495                0               0                0               0
1.27723                0.9926774       -14.43399     0.0006562803        139.7375                0               0                0               0
1.28383                0.9923936       -14.56181     0.0007117664        137.2396                0               0                0               0
1.29043                0.9920974       -14.69028     0.0007688109        134.4284                0               0                0               0
1.29703                0.9917907        -14.8194     0.0008270259        131.3639                0               0                0               0
1.30363                0.9914746       -14.94916      0.000886066        128.0958                0               0                0               0
1.31023                0.9911508       -15.07957     0.0009456202        124.6652                0               0                0               0
1.31683                0.9908208       -15.21068      0.001005406         121.106                0               0                0               0
1.32343                0.9904859       -15.34252      0.001065167        117.4469                0               0                0               0
1.33003                0.9901477       -15.47517      0.001124667        113.7118                0               0                0               0
1.33663                0.9898075        -15.6087      0.001183693        109.9214                0               0                0               0
1.34323                 0.989466       -15.74322      0.001242051        106.0931                0               0                0               0
1.34984                0.9891241       -15.87884      0.001299572        102.2427                0               0                0               0
1.35644                0.9887821       -16.01566      0.001356106        98.38361                0               0                0               0
1.36304                0.9884405       -16.15382       0.00141153        94.52814                0               0                0               0
1.36964                0.9880989       -16.29345      0.001465743        90.68726                0               0                0               0
1.37624                 0.987757       -16.43468      0.001518675          86.871                0               0                0               0
1.38284                0.9874139       -16.57764      0.001570286        83.08856                0               0                0               0
1.38944                0.9870688       -16.72245       0.00162057         79.3484                0               0                0               0
1.39604                0.9867201       -16.86925      0.001669555        75.65834                0               0                0               0
1.40264                0.9863662       -17.01811      0.001717308        72.02555                0               0                0               0
1.40924                0.9860053       -17.16916      0.001763939        68.45657                0               0                0               0
1.41584                0.9856352       -17.32246        0.0018096        64.95728                0               0                0               0
1.42244                0.9852537       -17.47808      0.001854491        61.53283                0               0                0               0
1.42904                0.9848585       -17.63607       0.00189886        58.18752                0               0                0               0
1.43564                0.9844471       -17.79645      0.001943002        54.92472                0               0                0               0
1.44224                0.9840175       -17.95923      0.001987265        51.74671                0               0                0               0
1.44884                0.9835671       -18.12441      0.002032042        48.65454                0               0                0               0
1.45545                0.9830939       -18.29196      0.002077776         45.6479                0               0                0               0
1.46205                0.9825956       -18.46183      0.002124951        42.72494                0               0                0               0
1.46865                0.9820706       -18.63396      0.002174089        39.88219                0               0                0               0
1.47525                0.9815172        -18.8083      0.002225745         37.1145                0               0                0               0
1.48185                0.9809344       -18.98476      0.002280494        34.41498                0               0                0               0
1.48845                 0.980321       -19.16325      0.002338925        31.77512                0               0                0               0
1.49505                0.9796767       -19.34368      0.002401626        29.18488                0               0                0               0
1.50165                0.9790009       -19.52598      0.002469176        26.63294                0               0                0               0
1.50825                0.9782936       -19.71004      0.002542129          24.107                0               0                0               0
1.51485                0.9775554       -19.89581      0.002621002        21.59416                0               0                0               0
1.52145                0.9767871        -20.0832      0.002706269         19.0813                0               0                0               0
1.52805                0.9759895       -20.27216      0.002798347        16.55553                0               0                0               0
1.53465                0.9751636       -20.46266       0.00289759        14.00458                0               0                0               0
1.54125                0.9743113       -20.65469      0.003004284        11.41712                0               0                0               0
1.54785                0.9734337       -20.84823      0.003118647        8.783122                0               0                0               0
1.55446                0.9725327       -21.04331      0.003240824        6.094001                0               0                0               0
1.56106                0.9716098       -21.23999      0.003370895        3.342768                0               0                0               0
1.56766                0.9706666       -21.43835      0.003508874       0.5240634                0               0                0               0
1.57426                0.9697046       -21.63846      0.003654714       -2.365878                0               0                0               0
1.58086                0.9687251       -21.84046      0.003808319       -5.329316                0               0                0               0
1.58746                0.9677292       -22.04448      0.003969539       -8.367145                0               0                0               0
1.59406                0.9667176       -22.25069      0.004138189       -11.47905                0               0                0               0
1.60066                0.9656907       -22.45926      0.004314045       -14.66368                0               0                0               0
1.60726                0.9646487        -22.6704       0.00449686       -17.91881                0               0                0               0
1.61386                 0.963591       -22.88429       0.00468636       -21.24154                0               0                0               0
1.62046                0.9625169       -23.10116      0.004882259       -24.62841                0               0                0               0
1.62706                0.9614249       -23.32121      0.005084258       -28.07559                0               0                0               0
1.63366                0.9603134       -23.54466      0.005292052       -31.57892                0               0                0               0
1.64026                0.9591801       -23.77172      0.005505338       -35.13409                0               0                0               0
1.64686                0.9580223       -24.00259      0.005723814       -38.73669                0               0                0               0
1.65347                0.9568368       -24.23744      0.005947185       -42.38229                0               0                0               0
1.66007                0.9556203       -24.47645      0.006175172       -46.06647                0               0                0               0
1.66667                 0.954369       -24.71976      0.006407509       -49.78493                0               0                0               0
1.67327                0.9530788       -24.96751       0.00664395       -53.53342                0               0                0               0
1.67987                0.9517455        -25.2198      0.006884272        -57.3079                0               0                0               0
1.68647                0.9503647       -25.47669      0.007128281       -61.10443                0               0                0               0
1.69307                 0.948932       -25.73823      0.007375812        -64.9193                0               0                0               0
1.69967                0.9474432       -26.00445      0.007626736       -68.74897                0               0                0               0
1.70627                0.9458936       -26.27535      0.007880959       -72.59011                0               0                0               0
1.71287                0.9442794       -26.55089      0.008138429       -76.43959                0               0                0               0
1.71947                0.9425965       -26.83102       0.00839914       -80.29454                0               0                0               0
1.72607                0.9408415       -27.11566      0.008663129       -84.15228                0               0                0               0
1.73267                0.9390111       -27.40472      0.008930483        -88.0104                0               0                0               0
1.73927                0.9371024       -27.69811      0.009201343       -91.86671                0               0                0               0
1.74587                 0.935113        -27.9957      0.009475901       -95.71929                0               0                0               0
1.75248                0.9330409       -28.29738      0.009754408       -99.56648                0               0                0               0
1.75908                0.9308846       -28.60303       0.01003717       -103.4069                0               0                0               0
1.76568                 0.928643       -28.91254       0.01032454       -107.2393                0               0                0               0
1.77228                0.9263154        -29.2258       0.01061694       -111.0631                0               0                0               0
1.77888                0.9239017       -29.54274       0.01091483       -114.8775                0               0                0               0
1.78548                0.9214018       -29.86328       0.01121876       -118.6823                0               0                0               0
1.79208                0.9188162       -30.18739        0.0115293       -122.4775                0               0                0               0
1.79868                0.9161456       -30.51504       0.01184706       -126.2635                0               0                0               0
1.80528                0.9133906       -30.84625       0.01217273       -130.0408                0               0                0               0
1.81188                0.9105522       -31.18108       0.01250701       -133.8102                0               0                0               0
1.81848                0.9076312       -31.51962       0.01285065        -137.573                0               0                0               0
1.82508                0.9046281       -31.86198       0.01320441       -141.3305                0               0                0               0
1.83168                0.9015435       -32.20834       0.01356908       -145.0843                0               0                0               0
1.83828                0.8983777       -32.55889       0.01394547       -148.8363                0               0                0               0
1.84488                0.8951302       -32.91387       0.01433439       -152.5885                0               0                0               0
1.85149                0.8918004       -33.27354       0.01473663       -156.3429                0               0                0               0
