! TOUCHSTONE file generated by CST MICROWAVE STUDIO
! Date and time: Tue Mar 11 13:58:02 2025
! Project name: transverse.cst
! Parameters = {Fracture=5; B=10; D=160; F=25; Feed=2.85625; L=100; M=30; R=0.384908; S=1; Theta=270; length=57.125; wave=114.25}
! Header version: 2024
! Port assignment regex: !\s*Touchstone port\s*([0-9]+)\s*=\s*(CST MWS port|CST DES external port|CST DES block port)\s*(.+)\s* \(\"(.*)\"\)(\s*mode\s*([0-9]+))?.*
! Touchstone port assignment:
! Touchstone port 1 = CST MWS port 1 ("")
! Touchstone port 2 = CST MWS port 2 ("")
# GHz S MA R 50
1                      0.9975476       -9.743507     0.0005218574        167.4729                0               0                0               0
1.00658                0.9974849       -9.829024     0.0005177096        161.5993                0               0                0               0
1.01316                 0.997425       -9.915247     0.0005114048        155.8432                0               0                0               0
1.01974                0.9973671       -10.00224     0.0005029161         150.216                0               0                0               0
1.02632                0.9973108       -10.09003     0.0004922306        144.7329                0               0                0               0
1.03289                0.9972553       -10.17868      0.000479353        139.4132                0               0                0               0
1.03947                   0.9972       -10.26823     0.0004643077        134.2826                0               0                0               0
1.04605                0.9971437       -10.35871     0.0004471443        129.3742                0               0                0               0
1.05263                0.9970857       -10.45013     0.0004279443        124.7317                0               0                0               0
1.05921                0.9970249       -10.54252     0.0004068299        120.4128                0               0                0               0
1.06579                0.9969603       -10.63588     0.0003839792        116.4949                0               0                0               0
1.07237                0.9968912       -10.73021     0.0003596478        113.0824                0               0                0               0
1.07895                0.9968161        -10.8255     0.0003342016        110.3169                0               0                0               0
1.08553                0.9967348       -10.92173     0.0003081706        108.3901                0               0                0               0
1.09211                0.9966461       -11.01888     0.0002823268         107.556                0               0                0               0
1.09868                0.9965494       -11.11691     0.0002577995        108.1329                0               0                0               0
1.10526                0.9964442        -11.2158     0.0002362131        110.4627                0               0                0               0
1.11184                0.9963299       -11.31549     0.0002197722         114.773                0               0                0               0
1.11842                0.9962065       -11.41596     0.0002110885        120.8992                0               0                0               0
1.125                  0.9960737       -11.51715     0.0002125036        128.0236                0               0                0               0
1.13158                0.9959316       -11.61902     0.0002251057        134.8443                0               0                0               0
1.13816                0.9957805       -11.72154     0.0002483102        140.2323                0               0                0               0
1.14474                0.9956204       -11.82466     0.0002804302        143.7013                0               0                0               0
1.15132                0.9954522       -11.92836     0.0003195507        145.3179                0               0                0               0
1.15789                0.9952761       -12.03261     0.0003640299        145.3916                0               0                0               0
1.16447                 0.995093       -12.13738     0.0004126113        144.2631                0               0                0               0
1.17105                0.9949036       -12.24267     0.0004643637        142.2218                0               0                0               0
1.17763                0.9947088       -12.34848     0.0005185892        139.4914                0               0                0               0
1.18421                0.9945092       -12.45482     0.0005747484        136.2389                0               0                0               0
1.19079                0.9943058       -12.56169     0.0006324067        132.5877                0               0                0               0
1.19737                0.9940995       -12.66914     0.0006911988        128.6295                0               0                0               0
1.20395                0.9938908       -12.77719      0.000750806        124.4333                0               0                0               0
1.21053                0.9936807       -12.88588     0.0008109414        120.0513                0               0                0               0
1.21711                0.9934696       -12.99528     0.0008713398        115.5239                0               0                0               0
1.22368                 0.993258       -13.10543     0.0009317516        110.8829                0               0                0               0
1.23026                0.9930462       -13.21641     0.0009919388        106.1534                0               0                0               0
1.23684                0.9928343       -13.32829      0.001051673        101.3557                0               0                0               0
1.24342                0.9926224       -13.44112      0.001110733        96.50657                0               0                0               0
1.25                   0.9924102         -13.555      0.001168905        91.61987                0               0                0               0
1.25658                0.9921976       -13.66998      0.001225982        86.70745                0               0                0               0
1.26316                0.9919838       -13.78615      0.001281765        81.77949                0               0                0               0
1.26974                0.9917681       -13.90355      0.001336059        76.84494                0               0                0               0
1.27632                0.9915499       -14.02227      0.001388683        71.91178                0               0                0               0
1.28289                 0.991328       -14.14234      0.001439461        66.98727                0               0                0               0
1.28947                0.9911017       -14.26382      0.001488229        62.07813                0               0                0               0
1.29605                0.9908695       -14.38675      0.001534836        57.19068                0               0                0               0
1.30263                0.9906303       -14.51115      0.001579141        52.33097                0               0                0               0
1.30921                0.9903829       -14.63705      0.001621022        47.50489                0               0                0               0
1.31579                0.9901261       -14.76444       0.00166037         42.7182                0               0                0               0
1.32237                0.9898587       -14.89334      0.001697099        37.97668                0               0                0               0
1.32895                0.9895794       -15.02372      0.001731139        33.28613                0               0                0               0
1.33553                0.9892873       -15.15558      0.001762447        28.65243                0               0                0               0
1.34211                0.9889815       -15.28888      0.001791002        24.08158                0               0                0               0
1.34868                0.9886612        -15.4236      0.001816814        19.57973                0               0                0               0
1.35526                0.9883257       -15.55969      0.001839923        15.15319                0               0                0               0
1.36184                0.9879746       -15.69711        0.0018604        10.80842                0               0                0               0
1.36842                0.9876075       -15.83581      0.001878356         6.55202                0               0                0               0
1.375                  0.9872245       -15.97577       0.00189394        2.390671                0               0                0               0
1.38158                0.9868255       -16.11693      0.001907344       -1.668917                0               0                0               0
1.38816                0.9864109       -16.25926      0.001918806       -5.620117                0               0                0               0
1.39474                0.9859811       -16.40273      0.001928612       -9.456528                0               0                0               0
1.40132                0.9855366       -16.54732      0.001937101       -13.17215                0               0                0               0
1.40789                0.9850782         -16.693      0.001944661       -16.76165                0               0                0               0
1.41447                0.9846067       -16.83979      0.001951735       -20.22059                0               0                0               0
1.42105                 0.984123       -16.98768       0.00195882       -23.54583                0               0                0               0
1.42763                 0.983628        -17.1367      0.001966461       -26.73587                0               0                0               0
1.43421                0.9831226       -17.28688      0.001975251       -29.79124                0               0                0               0
1.44079                0.9826077       -17.43827      0.001985819       -32.71494                0               0                0               0
1.44737                0.9820842       -17.59092      0.001998825       -35.51278                0               0                0               0
1.45395                0.9815528       -17.74492      0.002014945       -38.19363                0               0                0               0
1.46053                0.9810141       -17.90033      0.002034853        -40.7696                0               0                0               0
1.46711                0.9804685       -18.05725      0.002059207       -43.25594                0               0                0               0
1.47368                0.9799163       -18.21578      0.002088628       -45.67076                0               0                0               0
1.48026                0.9793575       -18.37604       0.00212368       -48.03456                0               0                0               0
1.48684                0.9787919       -18.53814      0.002164853       -50.36943                0               0                0               0
1.49342                 0.978219       -18.70218      0.002212549       -52.69823                0               0                0               0
1.5                    0.9776381       -18.86829      0.002267067       -55.04356                0               0                0               0
1.50658                0.9770483       -19.03659      0.002328598       -57.42687                0               0                0               0
1.51316                0.9764484       -19.20718      0.002397226       -59.86761                0               0                0               0
1.51974                 0.975837       -19.38016      0.002472928       -62.38257                0               0                0               0
1.52632                0.9752125       -19.55565      0.002555583       -64.98549                0               0                0               0
1.53289                 0.974573       -19.73372      0.002644979        -67.6869                0               0                0               0
1.53947                0.9739167       -19.91444       0.00274083       -70.49408                0               0                0               0
1.54605                0.9732414       -20.09789      0.002842784       -73.41135                0               0                0               0
1.55263                0.9725451       -20.28411      0.002950437       -76.44032                0               0                0               0
1.55921                0.9718254       -20.47313      0.003063347        -79.5803                0               0                0               0
1.56579                0.9710803       -20.66497       0.00318104        -82.8287                0               0                0               0
1.57237                0.9703077       -20.85964      0.003303022       -86.18146                0               0                0               0
1.57895                0.9695056       -21.05713      0.003428788       -89.63333                0               0                0               0
1.58553                0.9686721       -21.25742      0.003557825       -93.17829                0               0                0               0
1.59211                0.9678055       -21.46048       0.00368962       -96.80975                0               0                0               0
1.59868                0.9669043       -21.66627      0.003823665       -100.5208                0               0                0               0
1.60526                0.9659672       -21.87474      0.003959458       -104.3043                0               0                0               0
1.61184                0.9649933       -22.08583       0.00409651       -108.1531                0               0                0               0
1.61842                0.9639819        -22.2995      0.004234344       -112.0603                0               0                0               0
1.625                  0.9629322        -22.5157      0.004372501       -116.0188                0               0                0               0
1.63158                0.9618444       -22.73436      0.004510541       -120.0218                0               0                0               0
1.63816                0.9607184       -22.95545      0.004648045       -124.0629                0               0                0               0
1.64474                0.9595546       -23.17894       0.00478462       -128.1356                0               0                0               0
1.65132                0.9583535       -23.40482      0.004919897       -132.2339                0               0                0               0
1.65789                0.9571159       -23.63307      0.005053539       -136.3516                0               0                0               0
1.66447                0.9558426        -23.8637      0.005185238       -140.4833                0               0                0               0
1.67105                0.9545347       -24.09677      0.005314726       -144.6233                0               0                0               0
1.67763                0.9531931       -24.33231      0.005441767       -148.7662                0               0                0               0
1.68421                0.9518191       -24.57041      0.005566172        -152.907                0               0                0               0
1.69079                0.9504138       -24.81117      0.005687795       -157.0406                0               0                0               0
1.69737                0.9489778        -25.0547      0.005806537       -161.1622                0               0                0               0
1.70395                 0.947512       -25.30116      0.005922353       -165.2673                0               0                0               0
1.71053                0.9460169       -25.55072      0.006035254       -169.3511                0               0                0               0
1.71711                0.9444927       -25.80355      0.006145313       -173.4096                0               0                0               0
1.72368                0.9429395       -26.05989      0.006252662       -177.4386                0               0                0               0
1.73026                0.9413567       -26.31993      0.006357505        178.5658                0               0                0               0
1.73684                0.9397436       -26.58393      0.006460116        174.6072                0               0                0               0
1.74342                0.9380988       -26.85213      0.006560842         170.689                0               0                0               0
1.75                   0.9364206       -27.12479      0.006660107        166.8142                0               0                0               0
1.75658                0.9347069       -27.40216      0.006758418        162.9854                0               0                0               0
1.76316                 0.932955       -27.68451      0.006856359        159.2048                0               0                0               0
1.76974                0.9311617        -27.9721      0.006954594        155.4741                0               0                0               0
1.77632                0.9293234       -28.26517       0.00705387        151.7944                0               0                0               0
1.78289                0.9274364       -28.56396      0.007155009        148.1661                0               0                0               0
1.78947                0.9254962        -28.8687      0.007258908         144.589                0               0                0               0
1.79605                 0.923498        -29.1796      0.007366529        141.0619                0               0                0               0
1.80263                0.9214371       -29.49684      0.007478894        137.5831                0               0                0               0
1.80921                0.9193079       -29.82061      0.007597076        134.1497                0               0                0               0
1.81579                0.9171055       -30.15105      0.007722182         130.758                0               0                0               0
1.82237                0.9148241       -30.48828       0.00785534        127.4034                0               0                0               0
1.82895                0.9124581       -30.83242       0.00799769        124.0806                0               0                0               0
1.83553                0.9100021       -31.18356      0.008150357        120.7831                0               0                0               0
1.84211                0.9074506       -31.54174       0.00831444        117.5042                0               0                0               0
1.84868                0.9047982       -31.90702      0.008490988        114.2363                0               0                0               0
