! TOUCHSTONE file generated by CST MICROWAVE STUDIO
! Date and time: Tue Mar 11 13:56:26 2025
! Project name: transverse.cst
! Parameters = {Fracture=1; B=12.5; D=160; F=25; Feed=2.85625; L=100; M=20; R=0.384908; S=1; Theta=0; length=57.125; wave=114.25}
! Header version: 2024
! Port assignment regex: !\s*Touchstone port\s*([0-9]+)\s*=\s*(CST MWS port|CST DES external port|CST DES block port)\s*(.+)\s* \(\"(.*)\"\)(\s*mode\s*([0-9]+))?.*
! Touchstone port assignment:
! Touchstone port 1 = CST MWS port 1 ("")
! Touchstone port 2 = CST MWS port 2 ("")
# GHz S MA R 50
1                      0.9976272        -10.0193     0.0004936957        175.6505                0               0                0               0
1.00658                0.9975602       -10.10754     0.0004885425        170.5137                0               0                0               0
1.01316                0.9974936       -10.19645       0.00048156         165.548                0               0                0               0
1.01974                0.9974268       -10.28605     0.0004727869        160.7749                0               0                0               0
1.02632                0.9973597       -10.37639     0.0004622886        156.2207                0               0                0               0
1.03289                0.9972916       -10.46748     0.0004501624         151.918                0               0                0               0
1.03947                0.9972221       -10.55935     0.0004365445        147.9068                0               0                0               0
1.04605                0.9971507       -10.65202     0.0004216208        144.2357                0               0                0               0
1.05263                0.9970768        -10.7455     0.0004056386        140.9636                0               0                0               0
1.05921                0.9969997        -10.8398     0.0003889239        138.1607                0               0                0               0
1.06579                0.9969191       -10.93492     0.0003719018        135.9085                0               0                0               0
1.07237                0.9968342       -11.03087     0.0003551204        134.2965                0               0                0               0
1.07895                0.9967445       -11.12764     0.0003392753        133.4147                0               0                0               0
1.08553                0.9966498       -11.22522     0.0003252259        133.3368                0               0                0               0
1.09211                0.9965493       -11.32361     0.0003139889        134.0927                0               0                0               0
1.09868                0.9964428       -11.42278      0.000306685        135.6316                0               0                0               0
1.10526                0.9963303       -11.52272     0.0003044223        137.7894                0               0                0               0
1.11184                0.9962111       -11.62341     0.0003081213        140.2851                0               0                0               0
1.11842                0.9960855       -11.72484     0.0003183421        142.7649                0               0                0               0
1.125                  0.9959532       -11.82698     0.0003351906         144.885                0               0                0               0
1.13158                0.9958144       -11.92982     0.0003583545         146.388                0               0                0               0
1.13816                0.9956692       -12.03335     0.0003872347        147.1368                0               0                0               0
1.14474                0.9955177       -12.13755      0.000421099         147.102                0               0                0               0
1.15132                0.9953602       -12.24242     0.0004591999        146.3267                0               0                0               0
1.15789                0.9951971       -12.34794     0.0005008419        144.8909                0               0                0               0
1.16447                0.9950287       -12.45412     0.0005454067        142.8866                0               0                0               0
1.17105                0.9948554       -12.56097     0.0005923555        140.4031                0               0                0               0
1.17763                0.9946775       -12.66849     0.0006412199        137.5211                0               0                0               0
1.18421                0.9944955        -12.7767     0.0006915896        134.3095                0               0                0               0
1.19079                  0.99431       -12.88561     0.0007431006        130.8269                0               0                0               0
1.19737                0.9941208       -12.99527      0.000795425        127.1218                0               0                0               0
1.20395                0.9939287       -13.10568     0.0008482638        123.2347                0               0                0               0
1.21053                0.9937336        -13.2169       0.00090134        119.1991                0               0                0               0
1.21711                0.9935359       -13.32895     0.0009543952        115.0432                0               0                0               0
1.22368                0.9933356       -13.44189      0.001007186        110.7906                0               0                0               0
1.23026                0.9931326       -13.55574      0.001059482        106.4614                0               0                0               0
1.23684                0.9929271       -13.67056      0.001111066        102.0729                0               0                0               0
1.24342                0.9927187        -13.7864      0.001161729        97.63984                0               0                0               0
1.25                   0.9925072        -13.9033      0.001211276        93.17543                0               0                0               0
1.25658                0.9922921        -14.0213      0.001259522        88.69129                0               0                0               0
1.26316                0.9920731       -14.14044      0.001306296         84.1979                0               0                0               0
1.26974                0.9918496       -14.26077      0.001351437        79.70486                0               0                0               0
1.27632                0.9916208       -14.38231        0.0013948        75.22106                0               0                0               0
1.28289                0.9913864       -14.50511      0.001436257        70.75484                0               0                0               0
1.28947                0.9911453       -14.62917      0.001475694        66.31415                0               0                0               0
1.29605                 0.990897       -14.75454      0.001513019        61.90667                0               0                0               0
1.30263                0.9906408       -14.88121      0.001548158        57.53986                0               0                0               0
1.30921                0.9903758        -15.0092      0.001581065        53.22108                0               0                0               0
1.31579                0.9901013       -15.13852      0.001611716        48.95761                0               0                0               0
1.32237                0.9898166       -15.26916      0.001640117         44.7567                0               0                0               0
1.32895                 0.989521       -15.40112      0.001666304        40.62557                0               0                0               0
1.33553                0.9892142       -15.53438       0.00169035        36.57147                0               0                0               0
1.34211                0.9888955       -15.66894      0.001712363        32.60153                0               0                0               0
1.34868                0.9885647       -15.80478      0.001732492        28.72284                0               0                0               0
1.35526                0.9882213       -15.94188       0.00175093        24.94227                0               0                0               0
1.36184                0.9878652       -16.08022      0.001767915        21.26636                0               0                0               0
1.36842                0.9874965        -16.2198      0.001783736        17.70118                0               0                0               0
1.375                  0.9871151       -16.36058       0.00179873        14.25209                0               0                0               0
1.38158                0.9867211       -16.50256      0.001813289        10.92349                0               0                0               0
1.38816                0.9863149       -16.64575      0.001827854         7.71852                0               0                0               0
1.39474                0.9858968       -16.79012      0.001842918        4.638698                0               0                0               0
1.40132                0.9854671       -16.93568       0.00185902        1.683594                0               0                0               0
1.40789                0.9850266       -17.08245      0.001876741       -1.149542                0               0                0               0
1.41447                0.9845754       -17.23045      0.001896695        -3.86609                0               0                0               0
1.42105                0.9841143       -17.37969      0.001919515       -6.474288                0               0                0               0
1.42763                0.9836438       -17.53021      0.001945845       -8.985347                0               0                0               0
1.43421                0.9831643       -17.68206      0.001976321       -11.41339                0               0                0               0
1.44079                0.9826765       -17.83529      0.002011555       -13.77517                0               0                0               0
1.44737                0.9821807       -17.98995      0.002052116       -16.08964                0               0                0               0
1.45395                0.9816771       -18.14611      0.002098515        -18.3773                0               0                0               0
1.46053                 0.981166       -18.30385      0.002151189       -20.65937                0               0                0               0
1.46711                0.9806477       -18.46324      0.002210491       -22.95694                0               0                0               0
1.47368                0.9801218       -18.62438      0.002276681       -25.29013                0               0                0               0
1.48026                0.9795885       -18.78735      0.002349921       -27.67734                0               0                0               0
1.48684                0.9790472       -18.95225       0.00243028       -30.13461                0               0                0               0
1.49342                0.9784978       -19.11916      0.002517735       -32.67524                0               0                0               0
1.5                     0.977939       -19.28819      0.002612178       -35.30962                0               0                0               0
1.50658                0.9773705       -19.45942      0.002713427       -38.04516                0               0                0               0
1.51316                0.9767912       -19.63294      0.002821235        -40.8865                0               0                0               0
1.51974                0.9761999       -19.80886      0.002935303       -43.83572                0               0                0               0
1.52632                0.9755956       -19.98724      0.003055286       -46.89275                0               0                0               0
1.53289                0.9749766       -20.16817      0.003180805       -50.05563                0               0                0               0
1.53947                0.9743415       -20.35172      0.003311456       -53.32097                0               0                0               0
1.54605                 0.973689       -20.53795      0.003446814       -56.68421                0               0                0               0
1.55263                0.9730174       -20.72691      0.003586446       -60.13998                0               0                0               0
1.55921                0.9723249       -20.91866      0.003729907        -63.6823                0               0                0               0
1.56579                  0.97161       -21.11323      0.003876753       -67.30486                0               0                0               0
1.57237                0.9708712       -21.31067      0.004026542       -71.00112                0               0                0               0
1.57895                0.9701067       -21.51098      0.004178833        -74.7645                0               0                0               0
1.58553                0.9693151        -21.7142      0.004333197       -78.58843                0               0                0               0
1.59211                 0.968495       -21.92034      0.004489215       -82.46649                0               0                0               0
1.59868                 0.967645       -22.12941      0.004646479       -86.39237                0               0                0               0
1.60526                0.9667639        -22.3414      0.004804599       -90.35999                0               0                0               0
1.61184                0.9658506       -22.55633      0.004963201       -94.36348                0               0                0               0
1.61842                0.9649042       -22.77421      0.005121935       -98.39716                0               0                0               0
1.625                  0.9639234       -22.99502      0.005280468       -102.4556                0               0                0               0
1.63158                0.9629081       -23.21879        0.0054385       -106.5337                0               0                0               0
1.63816                0.9618573       -23.44552      0.005595753       -110.6263                0               0                0               0
1.64474                0.9607704       -23.67524      0.005751982       -114.7287                0               0                0               0
1.65132                0.9596474       -23.90795      0.005906978       -118.8364                0               0                0               0
1.65789                0.9584876       -24.14371      0.006060567        -122.945                0               0                0               0
1.66447                0.9572909       -24.38255      0.006212614       -127.0503                0               0                0               0
1.67105                 0.956057       -24.62452      0.006363028       -131.1484                0               0                0               0
1.67763                0.9547857       -24.86969      0.006511764       -135.2354                0               0                0               0
1.68421                0.9534766       -25.11814      0.006658828       -139.3079                0               0                0               0
1.69079                0.9521297       -25.36996      0.006804275       -143.3624                0               0                0               0
1.69737                0.9507442       -25.62525      0.006948219       -147.3958                0               0                0               0
1.70395                0.9493199       -25.88412      0.007090828       -151.4051                0               0                0               0
1.71053                0.9478561       -26.14669      0.007232333       -155.3878                0               0                0               0
1.71711                 0.946352       -26.41312       0.00737303       -159.3414                0               0                0               0
1.72368                0.9448065       -26.68353      0.007513276       -163.2638                0               0                0               0
1.73026                0.9432184        -26.9581      0.007653494       -167.1532                0               0                0               0
1.73684                0.9415865       -27.23697      0.007794179       -171.0082                0               0                0               0
1.74342                0.9399088       -27.52033      0.007935884       -174.8279                0               0                0               0
1.75                   0.9381835       -27.80835      0.008079233       -178.6116                0               0                0               0
1.75658                0.9364084        -28.1012      0.008224908        177.6409                0               0                0               0
1.76316                0.9345811       -28.39907      0.008373656         173.929                0               0                0               0
1.76974                0.9326988       -28.70215      0.008526272        170.2519                0               0                0               0
1.77632                0.9307585       -29.01059      0.008683606        166.6082                0               0                0               0
1.78289                0.9287571        -29.3246      0.008846541        162.9959                0               0                0               0
1.78947                 0.926691       -29.64434      0.009016002        159.4124                0               0                0               0
1.79605                0.9245567       -29.96997      0.009192928        155.8547                0               0                0               0
1.80263                0.9223501       -30.30165      0.009378274         152.319                0               0                0               0
1.80921                0.9200674       -30.63956      0.009572992        148.8013                0               0                0               0
1.81579                0.9177042       -30.98383      0.009778026         145.297                0               0                0               0
1.82237                0.9152561       -31.33459      0.009994288        141.8013                0               0                0               0
1.82895                0.9127188         -31.692       0.01022265         138.309                0               0                0               0
1.83553                0.9100876       -32.05617       0.01046395        134.8147                0               0                0               0
1.84211                0.9073579       -32.42722       0.01071894         131.313                0               0                0               0
1.84868                0.9045249       -32.80527       0.01098832        127.7984                0               0                0               0
