! TOUCHSTONE file generated by CST MICROWAVE STUDIO
! Date and time: Tue Mar 11 13:55:56 2025
! Project name: transverse.cst
! Parameters = {Fracture=5; B=10; D=160; F=25; Feed=2.85625; L=100; M=10; R=0.384908; S=1; Theta=0; length=57.125; wave=114.25}
! Header version: 2024
! Port assignment regex: !\s*Touchstone port\s*([0-9]+)\s*=\s*(CST MWS port|CST DES external port|CST DES block port)\s*(.+)\s* \(\"(.*)\"\)(\s*mode\s*([0-9]+))?.*
! Touchstone port assignment:
! Touchstone port 1 = CST MWS port 1 ("")
! Touchstone port 2 = CST MWS port 2 ("")
# GHz S MA R 50
1                      0.9976494       -9.753455     0.0003571798       -156.5673                0               0                0               0
1.00658                0.9975818       -9.839757     0.0003608705       -160.0837                0               0                0               0
1.01316                 0.997515       -9.926704     0.0003639265       -163.4415                0               0                0               0
1.01974                0.9974488       -10.01433     0.0003664311       -166.6269                0               0                0               0
1.02632                0.9973827       -10.10268     0.0003684899       -169.6263                0               0                0               0
1.03289                0.9973164       -10.19178     0.0003702335       -172.4267                0               0                0               0
1.03947                0.9972493       -10.28166     0.0003718191       -175.0167                0               0                0               0
1.04605                0.9971812       -10.37234     0.0003734315       -177.3875                0               0                0               0
1.05263                 0.997111       -10.46385     0.0003752834       -179.5339                0               0                0               0
1.05921                0.9970384        -10.5562     0.0003776138         178.544                0               0                0               0
1.06579                0.9969627       -10.64941     0.0003806849        176.8396                0               0                0               0
1.07237                0.9968832       -10.74347     0.0003847759        175.3383                0               0                0               0
1.07895                0.9967994        -10.8384     0.0003901757        174.0167                0               0                0               0
1.08553                0.9967105       -10.93418     0.0003971712        172.8425                0               0                0               0
1.09211                0.9966162       -11.03081     0.0004060358        171.7753                0               0                0               0
1.09868                 0.996516       -11.12827     0.0004170167        170.7687                0               0                0               0
1.10526                 0.996409       -11.22655     0.0004303232        169.7729                0               0                0               0
1.11184                0.9962953       -11.32563     0.0004461189        168.7385                0               0                0               0
1.11842                0.9961746       -11.42549     0.0004645158        167.6194                0               0                0               0
1.125                  0.9960466        -11.5261     0.0004855743        166.3761                0               0                0               0
1.13158                0.9959112       -11.62744     0.0005093056        164.9773                0               0                0               0
1.13816                0.9957684       -11.72949     0.0005356781        163.4003                0               0                0               0
1.14474                0.9956185       -11.83223     0.0005646237        161.6316                0               0                0               0
1.15132                0.9954614       -11.93563     0.0005960466        159.6653                0               0                0               0
1.15789                0.9952976       -12.03969     0.0006298299        157.5019                0               0                0               0
1.16447                0.9951272       -12.14439     0.0006658419         155.147                0               0                0               0
1.17105                0.9949509       -12.24973     0.0007039417        152.6099                0               0                0               0
1.17763                 0.994769       -12.35569     0.0007439827        149.9021                0               0                0               0
1.18421                0.9945819       -12.46229     0.0007858161        147.0365                0               0                0               0
1.19079                0.9943903       -12.56954     0.0008292924        144.0267                0               0                0               0
1.19737                0.9941946       -12.67744     0.0008742634        140.8865                0               0                0               0
1.20395                 0.993995       -12.78603     0.0009205831        137.6291                0               0                0               0
1.21053                0.9937925       -12.89533     0.0009681083        134.2673                0               0                0               0
1.21711                0.9935871       -13.00537        0.0010167        130.8133                0               0                0               0
1.22368                0.9933791       -13.11618      0.001066222        127.2784                0               0                0               0
1.23026                0.9931691       -13.22782      0.001116542        123.6732                0               0                0               0
1.23684                 0.992957       -13.34033      0.001167536        120.0074                0               0                0               0
1.24342                0.9927429       -13.45375       0.00121908        116.2902                0               0                0               0
1.25                   0.9925269       -13.56814       0.00127106        112.5298                0               0                0               0
1.25658                0.9923086       -13.68354      0.001323365         108.734                0               0                0               0
1.26316                0.9920881       -13.80001      0.001375893        104.9099                0               0                0               0
1.26974                 0.991865        -13.9176      0.001428548        101.0641                0               0                0               0
1.27632                0.9916385       -14.03635      0.001481242        97.20276                0               0                0               0
1.28289                0.9914085       -14.15631      0.001533898        93.33146                0               0                0               0
1.28947                0.9911743       -14.27752      0.001586444        89.45547                0               0                0               0
1.29605                0.9909351       -14.40001      0.001638822        85.57965                0               0                0               0
1.30263                0.9906903       -14.52382      0.001690984        81.70853                0               0                0               0
1.30921                 0.990439       -14.64897      0.001742894        77.84629                0               0                0               0
1.31579                0.9901806       -14.77549      0.001794527        73.99682                0               0                0               0
1.32237                0.9899142       -14.90338      0.001845873        70.16369                0               0                0               0
1.32895                0.9896392       -15.03266      0.001896936         66.3502                0               0                0               0
1.33553                0.9893548       -15.16334      0.001947734        62.55934                0               0                0               0
1.34211                0.9890603        -15.2954      0.001998301        58.79381                0               0                0               0
1.34868                0.9887552       -15.42885      0.002048687        55.05603                0               0                0               0
1.35526                0.9884389       -15.56368      0.002098957        51.34811                0               0                0               0
1.36184                0.9881111       -15.69988      0.002149193        47.67181                0               0                0               0
1.36842                0.9877713       -15.83742      0.002199493         44.0286                0               0                0               0
1.375                  0.9874197       -15.97631      0.002249973        40.41958                0               0                0               0
1.38158                0.9870557       -16.11653      0.002300762        36.84548                0               0                0               0
1.38816                0.9866795       -16.25807      0.002352006        33.30667                0               0                0               0
1.39474                0.9862914       -16.40092      0.002403865        29.80311                0               0                0               0
1.40132                0.9858914       -16.54508      0.002456511        26.33437                0               0                0               0
1.40789                  0.98548       -16.69055      0.002510129        22.89961                0               0                0               0
1.41447                0.9850574       -16.83735      0.002564913        19.49759                0               0                0               0
1.42105                0.9846239       -16.98547      0.002621065        16.12665                0               0                0               0
1.42763                0.9841803       -17.13496      0.002678792        12.78476                0               0                0               0
1.43421                0.9837269       -17.28584      0.002738305        9.469501                0               0                0               0
1.44079                0.9832641       -17.43815      0.002799814        6.178151                0               0                0               0
1.44737                0.9827925       -17.59194      0.002863529        2.907677                0               0                0               0
1.45395                0.9823124       -17.74727      0.002929651      -0.3452046                0               0                0               0
1.46053                0.9818242        -17.9042      0.002998377       -3.583966                0               0                0               0
1.46711                0.9813282        -18.0628      0.003069891       -6.812211                0               0                0               0
1.47368                0.9808243       -18.22316      0.003144366       -10.03362                0               0                0               0
1.48026                0.9803127       -18.38536      0.003221956       -13.25186                0               0                0               0
1.48684                0.9797932       -18.54949      0.003302801       -16.47056                0               0                0               0
1.49342                0.9792655       -18.71565       0.00338702       -19.69322                0               0                0               0
1.5                    0.9787291       -18.88393      0.003474713       -22.92313                0               0                0               0
1.50658                0.9781834       -19.05444      0.003565957       -26.16338                0               0                0               0
1.51316                0.9776277       -19.22726       0.00366081       -29.41677                0               0                0               0
1.51974                 0.977061       -19.40251      0.003759307       -32.68578                0               0                0               0
1.52632                0.9764822       -19.58027      0.003861461       -35.97255                0               0                0               0
1.53289                  0.97589       -19.76063      0.003967266       -39.27888                0               0                0               0
1.53947                0.9752831       -19.94369      0.004076696       -42.60617                0               0                0               0
1.54605                0.9746601       -20.12951      0.004189707       -45.95548                0               0                0               0
1.55263                0.9740192       -20.31819       0.00430624       -49.32752                0               0                0               0
1.55921                 0.973359       -20.50977       0.00442622       -52.72263                0               0                0               0
1.56579                0.9726776       -20.70432      0.004549561       -56.14082                0               0                0               0
1.57237                0.9719736       -20.90189       0.00467617       -59.58183                0               0                0               0
1.57895                0.9712449       -21.10253      0.004805942        -63.0451                0               0                0               0
1.58553                0.9704901       -21.30628       0.00493877       -66.52981                0               0                0               0
1.59211                0.9697075       -21.51316      0.005074543       -70.03495                0               0                0               0
1.59868                0.9688954        -21.7232      0.005213153       -73.55929                0               0                0               0
1.60526                0.9680524       -21.93643      0.005354494       -77.10147                0               0                0               0
1.61184                0.9671771       -22.15286      0.005498465       -80.65997                0               0                0               0
1.61842                0.9662681       -22.37251      0.005644975       -84.23318                0               0                0               0
1.625                  0.9653245       -22.59539      0.005793943       -87.81942                0               0                0               0
1.63158                0.9643449       -22.82153      0.005945302       -91.41694                0               0                0               0
1.63816                0.9633284       -23.05095      0.006099002       -95.02398                0               0                0               0
1.64474                0.9622742       -23.28367      0.006255013       -98.63878                0               0                0               0
1.65132                0.9611815       -23.51973      0.006413322       -102.2596                0               0                0               0
1.65789                0.9600496       -23.75917      0.006573945       -105.8847                0               0                0               0
1.66447                0.9588778       -24.00203       0.00673692       -109.5125                0               0                0               0
1.67105                0.9576654       -24.24837      0.006902314       -113.1414                0               0                0               0
1.67763                0.9564118       -24.49828      0.007070223         -116.77                0               0                0               0
1.68421                0.9551164       -24.75182      0.007240775       -120.3969                0               0                0               0
1.69079                0.9537784       -25.00909      0.007414131        -124.021                0               0                0               0
1.69737                0.9523967       -25.27021      0.007590482       -127.6412                0               0                0               0
1.70395                0.9509708       -25.53529      0.007770059       -131.2567                0               0                0               0
1.71053                0.9494992       -25.80444      0.007953121       -134.8667                0               0                0               0
1.71711                0.9479805       -26.07784      0.008139967       -138.4708                0               0                0               0
1.72368                0.9464133       -26.35561      0.008330927       -142.0687                0               0                0               0
1.73026                0.9447957       -26.63792      0.008526364       -145.6604                0               0                0               0
1.73684                0.9431255       -26.92493      0.008726675       -149.2461                0               0                0               0
1.74342                0.9414004       -27.21681      0.008932284       -152.8261                0               0                0               0
1.75                   0.9396176       -27.51375      0.009143641       -156.4011                0               0                0               0
1.75658                 0.937774       -27.81589      0.009361225       -159.9719                0               0                0               0
1.76316                0.9358665       -28.12342      0.009585531       -163.5397                0               0                0               0
1.76974                0.9338912        -28.4365       0.00981707       -167.1058                0               0                0               0
1.77632                0.9318442       -28.75529       0.01005637       -170.6716                0               0                0               0
1.78289                0.9297211       -29.07994       0.01030396       -174.2388                0               0                0               0
1.78947                0.9275176       -29.41059       0.01056037       -177.8094                0               0                0               0
1.79605                0.9252288       -29.74736       0.01082614        178.6148                0               0                0               0
1.80263                0.9228497       -30.09037       0.01110179        175.0316                0               0                0               0
1.80921                0.9203751       -30.43971       0.01138783        171.4388                0               0                0               0
1.81579                0.9177998       -30.79546       0.01168474        167.8341                0               0                0               0
1.82237                0.9151184       -31.15768       0.01199299        164.2153                0               0                0               0
1.82895                0.9123252       -31.52641         0.012313        160.5801                0               0                0               0
1.83553                0.9094149       -31.90167       0.01264519        156.9263                0               0                0               0
1.84211                0.9063822       -32.28346        0.0129899        153.2517                0               0                0               0
1.84868                0.9032213       -32.67177       0.01334745        149.5542                0               0                0               0
