! TOUCHSTONE file generated by CST MICROWAVE STUDIO
! Date and time: Tue Mar 11 13:57:15 2025
! Project name: transverse.cst
! Parameters = {Fracture=5; B=10; D=160; F=15; Feed=2.85625; L=100; M=10; R=0.384908; S=1; Theta=180; length=57.125; wave=114.25}
! Header version: 2024
! Port assignment regex: !\s*Touchstone port\s*([0-9]+)\s*=\s*(CST MWS port|CST DES external port|CST DES block port)\s*(.+)\s* \(\"(.*)\"\)(\s*mode\s*([0-9]+))?.*
! Touchstone port assignment:
! Touchstone port 1 = CST MWS port 1 ("")
! Touchstone port 2 = CST MWS port 2 ("")
# GHz S MA R 50
1                      0.9979149       -9.767779     0.0003324936       -125.7177                0               0                0               0
1.00658                0.9978149       -9.856624     0.0003497334       -130.6155                0               0                0               0
1.01316                0.9977085       -9.945741     0.0003659218       -135.4884                0               0                0               0
1.01974                0.9975965        -10.0351     0.0003809631       -140.3245                0               0                0               0
1.02632                0.9974803       -10.12468     0.0003947683       -145.1123                0               0                0               0
1.03289                0.9973609       -10.21447     0.0004072558       -149.8406                0               0                0               0
1.03947                0.9972392       -10.30447     0.0004183528       -154.4979                0               0                0               0
1.04605                0.9971168       -10.39471     0.0004279976       -159.0721                0               0                0               0
1.05263                0.9969944        -10.4852     0.0004361401       -163.5502                0               0                0               0
1.05921                0.9968736         -10.576     0.0004427457       -167.9182                0               0                0               0
1.06579                0.9967547       -10.66715     0.0004477961       -172.1605                0               0                0               0
1.07237                0.9966391       -10.75871     0.0004512938       -176.2596                0               0                0               0
1.07895                0.9965271       -10.85075     0.0004532648        179.8037                0               0                0               0
1.08553                0.9964193       -10.94335      0.000453763        176.0512                0               0                0               0
1.09211                0.9963161       -11.03658     0.0004528755        172.5071                0               0                0               0
1.09868                0.9962173       -11.13054     0.0004507279        169.1983                0               0                0               0
1.10526                0.9961229        -11.2253     0.0004474916        166.1541                0               0                0               0
1.11184                0.9960326       -11.32096     0.0004433916        163.4057                0               0                0               0
1.11842                0.9959457       -11.41759     0.0004387138        160.9853                0               0                0               0
1.125                  0.9958614       -11.51527     0.0004338134        158.9241                0               0                0               0
1.13158                0.9957788       -11.61407     0.0004291214        157.2487                0               0                0               0
1.13816                0.9956967       -11.71405     0.0004251464        155.9775                0               0                0               0
1.14474                0.9956139       -11.81524      0.000422471        155.1141                0               0                0               0
1.15132                0.9955289       -11.91771     0.0004217365        154.6414                0               0                0               0
1.15789                0.9954404       -12.02146     0.0004236157        154.5155                0               0                0               0
1.16447                 0.995347       -12.12652      0.000428771        154.6633                0               0                0               0
1.17105                0.9952469       -12.23287     0.0004378039        154.9844                0               0                0               0
1.17763                0.9951392       -12.34052     0.0004512039        155.3605                0               0                0               0
1.18421                0.9950223       -12.44943     0.0004693092        155.6686                0               0                0               0
1.19079                 0.994895       -12.55958     0.0004922886        155.7961                0               0                0               0
1.19737                0.9947562        -12.6709     0.0005201475        155.6531                0               0                0               0
1.20395                0.9946053       -12.78336     0.0005527538        155.1784                0               0                0               0
1.21053                0.9944415        -12.8969     0.0005898729        154.3396                0               0                0               0
1.21711                0.9942643       -13.01144     0.0006312037         153.129                0               0                0               0
1.22368                0.9940734       -13.12693     0.0006764098        151.5571                0               0                0               0
1.23026                0.9938691        -13.2433     0.0007251419        149.6464                0               0                0               0
1.23684                0.9936515       -13.36049     0.0007770521        147.4264                0               0                0               0
1.24342                0.9934211       -13.47844     0.0008318032        144.9291                0               0                0               0
1.25                   0.9931785        -13.5971     0.0008890724         142.187                0               0                0               0
1.25658                0.9929245       -13.71642     0.0009485532        139.2308                0               0                0               0
1.26316                0.9926603       -13.83639      0.001009956        136.0895                0               0                0               0
1.26974                0.9923868       -13.95698      0.001073005         132.789                0               0                0               0
1.27632                0.9921053       -14.07818       0.00113744         129.353                0               0                0               0
1.28289                0.9918172       -14.20001      0.001203015        125.8024                0               0                0               0
1.28947                0.9915235       -14.32249      0.001269496         122.156                0               0                0               0
1.29605                0.9912256       -14.44564      0.001336661        118.4302                0               0                0               0
1.30263                0.9909246       -14.56954      0.001404303        114.6401                0               0                0               0
1.30921                0.9906213       -14.69423      0.001472225        110.7987                0               0                0               0
1.31579                0.9903171       -14.81981      0.001540246        106.9181                0               0                0               0
1.32237                0.9900122       -14.94634      0.001608198        103.0088                0               0                0               0
1.32895                0.9897075       -15.07393      0.001675928        99.08056                0               0                0               0
1.33553                0.9894029       -15.20269      0.001743301        95.14222                0               0                0               0
1.34211                0.9890985       -15.33271        0.0018102         91.2018                0               0                0               0
1.34868                0.9887941       -15.46411      0.001876526        87.26668                0               0                0               0
1.35526                 0.988489       -15.59699      0.001942204        83.34366                0               0                0               0
1.36184                0.9881828       -15.73145      0.002007182        79.43899                0               0                0               0
1.36842                0.9878742       -15.86759      0.002071432        75.55846                0               0                0               0
1.375                  0.9875621       -16.00552      0.002134954        71.70737                0               0                0               0
1.38158                 0.987245        -16.1453      0.002197777         67.8906                0               0                0               0
1.38816                0.9869214         -16.287      0.002259961        64.11256                0               0                0               0
1.39474                0.9865897       -16.43069      0.002321599        60.37723                0               0                0               0
1.40132                0.9862478        -16.5764      0.002382817        56.68809                0               0                0               0
1.40789                0.9858941       -16.72417      0.002443777        53.04813                0               0                0               0
1.41447                0.9855269         -16.874      0.002504678        49.45976                0               0                0               0
1.42105                0.9851444       -17.02589      0.002565753        45.92481                0               0                0               0
1.42763                0.9847448       -17.17984      0.002627273        42.44447                0               0                0               0
1.43421                0.9843265       -17.33581      0.002689541        39.01922                0               0                0               0
1.44079                0.9838884       -17.49378      0.002752899        35.64877                0               0                0               0
1.44737                0.9834293       -17.65368      0.002817715        32.33207                0               0                0               0
1.45395                0.9829481       -17.81547      0.002884384        29.06723                0               0                0               0
1.46053                0.9824445       -17.97909      0.002953331        25.85151                0               0                0               0
1.46711                0.9819177       -18.14448       0.00302499        22.68135                0               0                0               0
1.47368                 0.981368       -18.31159      0.003099815        19.55237                0               0                0               0
1.48026                0.9807952       -18.48036      0.003178261        16.45945                0               0                0               0
1.48684                0.9801998       -18.65074      0.003260784        13.39677                0               0                0               0
1.49342                0.9795824        -18.8227      0.003347829        10.35799                0               0                0               0
1.5                    0.9789441       -18.99621      0.003439827        7.336296                0               0                0               0
1.50658                0.9782855       -19.17127      0.003537183        4.324617                0               0                0               0
1.51316                0.9776081       -19.34787      0.003640273        1.315762                0               0                0               0
1.51974                 0.976913       -19.52605      0.003749437        -1.69741                0               0                0               0
1.52632                0.9762014       -19.70584      0.003864971       -4.721825                0               0                0               0
1.53289                0.9754745       -19.88732      0.003987129       -7.764043                0               0                0               0
1.53947                0.9747337       -20.07056      0.004116113       -10.83012                0               0                0               0
1.54605                  0.97398       -20.25566      0.004252077       -13.92551                0               0                0               0
1.55263                0.9732142       -20.44275      0.004395125       -17.05495                0               0                0               0
1.55921                0.9724369       -20.63196      0.004545308       -20.22246                0               0                0               0
1.56579                0.9716485       -20.82345      0.004702631       -23.43127                0               0                0               0
1.57237                 0.970849       -21.01738      0.004867052       -26.68384                0               0                0               0
1.57895                0.9700383       -21.21393      0.005038488       -29.98188                0               0                0               0
1.58553                0.9692156       -21.41328      0.005216814       -33.32638                0               0                0               0
1.59211                0.9683797       -21.61562      0.005401872       -36.71766                0               0                0               0
1.59868                0.9675294       -21.82114      0.005593471       -40.15547                0               0                0               0
1.60526                0.9666627       -22.03002      0.005791394       -43.63899                0               0                0               0
1.61184                0.9657774       -22.24244      0.005995404       -47.16699                0               0                0               0
1.61842                0.9648709       -22.45856      0.006205243       -50.73778                0               0                0               0
1.625                  0.9639404       -22.67855      0.006420641        -54.3494                0               0                0               0
1.63158                0.9629825       -22.90254       0.00664132       -57.99959                0               0                0               0
1.63816                0.9619938       -23.13065      0.006866995        -61.6859                0               0                0               0
1.64474                0.9609707       -23.36299      0.007097384        -65.4057                0               0                0               0
1.65132                0.9599095       -23.59964      0.007332206       -69.15629                0               0                0               0
1.65789                0.9588063       -23.84065      0.007571188       -72.93485                0               0                0               0
1.66447                0.9576572       -24.08606       0.00781407       -76.73856                0               0                0               0
1.67105                0.9564584       -24.33589      0.008060605       -80.56456                0               0                0               0
1.67763                0.9552062       -24.59013      0.008310568       -84.41006                0               0                0               0
1.68421                0.9538971       -24.84875      0.008563754       -88.27226                0               0                0               0
1.69079                0.9525279        -25.1117      0.008819986       -92.14847                0               0                0               0
1.69737                0.9510953       -25.37894      0.009079115       -96.03605                0               0                0               0
1.70395                0.9495969       -25.65038       0.00934103       -99.93248                0               0                0               0
1.71053                  0.94803       -25.92595      0.009605651       -103.8353                0               0                0               0
1.71711                0.9463927       -26.20557      0.009872944       -107.7423                0               0                0               0
1.72368                0.9446834       -26.48915       0.01014291       -111.6513                0               0                0               0
1.73026                0.9429008        -26.7766        0.0104156       -115.5603                0               0                0               0
1.73684                0.9410436       -27.06785       0.01069111       -119.4674                0               0                0               0
1.74342                0.9391116       -27.36285        0.0109696        -123.371                0               0                0               0
1.75                   0.9371042       -27.66155       0.01125125       -127.2696                0               0                0               0
1.75658                0.9350215        -27.9639       0.01153632       -131.1619                0               0                0               0
1.76316                0.9328634       -28.26991       0.01182511       -135.0468                0               0                0               0
1.76974                0.9306302        -28.5796       0.01211799       -138.9235                0               0                0               0
1.77632                0.9283221       -28.89301       0.01241536       -142.7912                0               0                0               0
1.78289                0.9259396       -29.21021       0.01271769       -146.6496                0               0                0               0
1.78947                0.9234827        -29.5313       0.01302549       -150.4984                0               0                0               0
1.79605                0.9209514       -29.85642       0.01333933       -154.3377                0               0                0               0
1.80263                0.9183455       -30.18573       0.01365981       -158.1678                0               0                0               0
1.80921                0.9156644       -30.51941       0.01398757       -161.9893                0               0                0               0
1.81579                0.9129073       -30.85769       0.01432331       -165.8027                0               0                0               0
1.82237                0.9100726       -31.20079       0.01466774       -169.6093                0               0                0               0
1.82895                0.9071584       -31.54898       0.01502159       -173.4101                0               0                0               0
1.83553                0.9041621       -31.90252       0.01538561       -177.2066                0               0                0               0
1.84211                0.9010808        -32.2617       0.01576058        178.9996                0               0                0               0
1.84868                0.8979104        -32.6268       0.01614726        175.2068                0               0                0               0
