! TOUCHSTONE file generated by CST MICROWAVE STUDIO
! Date and time: Tue Mar 11 13:57:39 2025
! Project name: transverse.cst
! Parameters = {Fracture=1; B=12.5; D=160; F=5; Feed=2.85625; L=100; M=30; R=0.384908; S=2; Theta=180; length=57.125; wave=114.25}
! Header version: 2024
! Port assignment regex: !\s*Touchstone port\s*([0-9]+)\s*=\s*(CST MWS port|CST DES external port|CST DES block port)\s*(.+)\s* \(\"(.*)\"\)(\s*mode\s*([0-9]+))?.*
! Touchstone port assignment:
! Touchstone port 1 = CST MWS port 1 ("")
! Touchstone port 2 = CST MWS port 2 ("")
# GHz S MA R 50
1                      0.9976613       -10.00769     0.0003854734       -170.8832                0               0                0               0
1.00658                0.9975633       -10.09677     0.0003895229        -175.391                0               0                0               0
1.01316                0.9974618       -10.18623     0.0003924306       -179.8058                0               0                0               0
1.01974                0.9973576       -10.27604     0.0003941891        175.8845                0               0                0               0
1.02632                0.9972511       -10.36622     0.0003948026        171.6934                0               0                0               0
1.03289                0.9971428       -10.45678     0.0003942897        167.6361                0               0                0               0
1.03947                0.9970335       -10.54774      0.000392685        163.7295                0               0                0               0
1.04605                0.9969236       -10.63911     0.0003900416        159.9927                0               0                0               0
1.05263                0.9968136       -10.73093      0.000386435        156.4472                0               0                0               0
1.05921                 0.996704       -10.82323     0.0003819655        153.1165                0               0                0               0
1.06579                0.9965951       -10.91606     0.0003767632        150.0267                0               0                0               0
1.07237                0.9964871       -11.00945     0.0003709922        147.2056                0               0                0               0
1.07895                0.9963803       -11.10344     0.0003648554        144.6821                0               0                0               0
1.08553                0.9962745        -11.1981     0.0003585993        142.4848                0               0                0               0
1.09211                0.9961698       -11.29347     0.0003525175        140.6398                0               0                0               0
1.09868                0.9960659       -11.38959     0.0003469526        139.1669                0               0                0               0
1.10526                0.9959626       -11.48652     0.0003422944        138.0753                0               0                0               0
1.11184                0.9958593       -11.58429     0.0003389711        137.3584                0               0                0               0
1.11842                0.9957555       -11.68295     0.0003374347        136.9882                0               0                0               0
1.125                  0.9956508       -11.78254     0.0003381359        136.9114                0               0                0               0
1.13158                0.9955443       -11.88308     0.0003414929        137.0494                0               0                0               0
1.13816                0.9954353        -11.9846     0.0003478577        137.3027                0               0                0               0
1.14474                0.9953231       -12.08712     0.0003574858        137.5605                0               0                0               0
1.15132                0.9952069       -12.19065      0.000370518        137.7132                0               0                0               0
1.15789                0.9950858        -12.2952     0.0003869771        137.6648                0               0                0               0
1.16447                0.9949593       -12.40075     0.0004067798        137.3417                0               0                0               0
1.17105                0.9948264       -12.50732     0.0004297586        136.6959                0               0                0               0
1.17763                0.9946866       -12.61487     0.0004556868        135.7041                0               0                0               0
1.18421                0.9945393        -12.7234     0.0004843026        134.3636                0               0                0               0
1.19079                0.9943841       -12.83288     0.0005153285        132.6864                0               0                0               0
1.19737                0.9942206       -12.94328     0.0005484845        130.6945                0               0                0               0
1.20395                0.9940487       -13.05458      0.000583497         128.415                0               0                0               0
1.21053                0.9938681       -13.16675     0.0006201034        125.8773                0               0                0               0
1.21711                0.9936788       -13.27976     0.0006580544        123.1109                0               0                0               0
1.22368                0.9934812       -13.39357     0.0006971138        120.1441                0               0                0               0
1.23026                0.9932752       -13.50818      0.000737059         117.003                0               0                0               0
1.23684                0.9930615       -13.62356     0.0007776796        113.7119                0               0                0               0
1.24342                0.9928405       -13.73969     0.0008187769        110.2923                0               0                0               0
1.25                   0.9926126       -13.85657     0.0008601628         106.764                0               0                0               0
1.25658                0.9923786        -13.9742     0.0009016593        103.1446                0               0                0               0
1.26316                0.9921389       -14.09258     0.0009430981        99.44975                0               0                0               0
1.26974                0.9918945       -14.21173     0.0009843207        95.69377                0               0                0               0
1.27632                0.9916459       -14.33167      0.001025178         91.8895                0               0                0               0
1.28289                 0.991394       -14.45244      0.001065532         88.0486                0               0                0               0
1.28947                0.9911391       -14.57408      0.001105253        84.18174                0               0                0               0
1.29605                0.9908819       -14.69662      0.001144226        80.29873                0               0                0               0
1.30263                0.9906229       -14.82014      0.001182343        76.40866                0               0                0               0
1.30921                0.9903624       -14.94468      0.001219514           72.52                0               0                0               0
1.31579                0.9901006       -15.07031       0.00125566        68.64072                0               0                0               0
1.32237                0.9898377       -15.19711      0.001290719        64.77832                0               0                0               0
1.32895                0.9895736       -15.32515      0.001324645        60.93994                0               0                0               0
1.33553                0.9893081       -15.45449      0.001357411        57.13237                0               0                0               0
1.34211                0.9890407       -15.58523      0.001389008        53.36211                0               0                0               0
1.34868                0.9887712       -15.71742      0.001419451        49.63534                0               0                0               0
1.35526                0.9884988       -15.85114      0.001448775        45.95799                0               0                0               0
1.36184                0.9882226       -15.98646      0.001477041        42.33561                0               0                0               0
1.36842                0.9879421       -16.12343      0.001504337        38.77346                0               0                0               0
1.375                  0.9876561       -16.26211      0.001530776        35.27637                0               0                0               0
1.38158                0.9873633       -16.40255      0.001556502        31.84869                0               0                0               0
1.38816                0.9870631        -16.5448      0.001581685        28.49423                0               0                0               0
1.39474                 0.986754       -16.68887      0.001606528        25.21611                0               0                0               0
1.40132                0.9864351       -16.83481      0.001631262        22.01667                0               0                0               0
1.40789                0.9861051       -16.98263      0.001656148        18.89734                0               0                0               0
1.41447                 0.985763       -17.13233      0.001681475         15.8585                0               0                0               0
1.42105                0.9854077       -17.28393      0.001707557        12.89933                0               0                0               0
1.42763                0.9850384       -17.43742       0.00173473        10.01775                0               0                0               0
1.43421                0.9846542        -17.5928       0.00176335        7.210247                0               0                0               0
1.44079                0.9842545       -17.75005      0.001793784        4.471911                0               0                0               0
1.44737                0.9838386       -17.90918      0.001826407         1.79637                0               0                0               0
1.45395                0.9834061       -18.07016      0.001861594      -0.8241327                0               0                0               0
1.46053                0.9829567       -18.23298      0.001899714        -3.39861                0               0                0               0
1.46711                0.9824902       -18.39764      0.001941119       -5.937151                0               0                0               0
1.47368                0.9820066       -18.56414       0.00198614       -8.450653                0               0                0               0
1.48026                 0.981506       -18.73247      0.002035078       -10.95053                0               0                0               0
1.48684                0.9809884       -18.90265      0.002088198       -13.44837                0               0                0               0
1.49342                0.9804542        -19.0747      0.002145725       -15.95557                0               0                0               0
1.5                    0.9799036       -19.24863      0.002207838       -18.48304                0               0                0               0
1.50658                0.9793369       -19.42449      0.002274669       -21.04087                0               0                0               0
1.51316                0.9787545       -19.60233      0.002346302       -23.63807                0               0                0               0
1.51974                0.9781567       -19.78221      0.002422775       -26.28243                0               0                0               0
1.52632                0.9775437       -19.96418       0.00250408       -28.98035                0               0                0               0
1.53289                0.9769156       -20.14834      0.002590167       -31.73681                0               0                0               0
1.53947                0.9762724       -20.33477      0.002680947        -34.5554                0               0                0               0
1.54605                 0.975614       -20.52357      0.002776298       -37.43835                0               0                0               0
1.55263                0.9749403       -20.71485      0.002876067       -40.38664                0               0                0               0
1.55921                0.9742503       -20.90871      0.002980078       -43.40013                0               0                0               0
1.56579                0.9735437       -21.10528      0.003088136        -46.4777                0               0                0               0
1.57237                0.9728195       -21.30468      0.003200027       -49.61739                0               0                0               0
1.57895                0.9720766       -21.50702      0.003315532       -52.81653                0               0                0               0
1.58553                0.9713135       -21.71244      0.003434421       -56.07193                0               0                0               0
1.59211                0.9705286       -21.92104      0.003556465       -59.37991                0               0                0               0
1.59868                0.9697203       -22.13294      0.003681435       -62.73652                0               0                0               0
1.60526                0.9688864       -22.34825      0.003809107       -66.13753                0               0                0               0
1.61184                0.9680249       -22.56708      0.003939269       -69.57861                0               0                0               0
1.61842                 0.967133        -22.7895      0.004071719       -73.05533                0               0                0               0
1.625                  0.9662088        -23.0156      0.004206271       -76.56324                0               0                0               0
1.63158                0.9652492       -23.24545      0.004342758       -80.09794                0               0                0               0
1.63816                 0.964252       -23.47912      0.004481037       -83.65509                0               0                0               0
1.64474                0.9632142       -23.71664      0.004620986       -87.23047                0               0                0               0
1.65132                0.9621334       -23.95804      0.004762519          -90.82                0               0                0               0
1.65789                0.9610067       -24.20335      0.004905572       -94.41975                0               0                0               0
1.66447                0.9598316       -24.45258      0.005050123         -98.026                0               0                0               0
1.67105                0.9586057       -24.70573      0.005196184       -101.6352                0               0                0               0
1.67763                0.9573266        -24.9628      0.005343809       -105.2442                0               0                0               0
1.68421                0.9559922       -25.22376      0.005493092       -108.8498                0               0                0               0
1.69079                0.9546004       -25.48861      0.005644174       -112.4493                0               0                0               0
1.69737                0.9531494       -25.75731      0.005797243       -116.0403                0               0                0               0
1.70395                0.9516376       -26.02984      0.005952535       -119.6205                0               0                0               0
1.71053                0.9500636       -26.30618      0.006110338       -123.1884                0               0                0               0
1.71711                 0.948426       -26.58633       0.00627099       -126.7423                0               0                0               0
1.72368                0.9467239       -26.87025      0.006434881       -130.2812                0               0                0               0
1.73026                 0.944956       -27.15796      0.006602448       -133.8045                0               0                0               0
1.73684                0.9431219       -27.44946      0.006774185       -137.3119                0               0                0               0
1.74342                0.9412207       -27.74478       0.00695063       -140.8037                0               0                0               0
1.75                   0.9392518       -28.04395      0.007132363       -144.2805                0               0                0               0
1.75658                0.9372144       -28.34703      0.007320011       -147.7433                0               0                0               0
1.76316                0.9351082       -28.65407      0.007514233       -151.1936                0               0                0               0
1.76974                0.9329322       -28.96517      0.007715723       -154.6334                0               0                0               0
1.77632                0.9306857       -29.28044      0.007925199        -158.065                0               0                0               0
1.78289                0.9283678       -29.59999      0.008143395       -161.4912                0               0                0               0
1.78947                0.9259771       -29.92396      0.008371059       -164.9148                0               0                0               0
1.79605                0.9235123       -30.25251      0.008608936       -168.3393                0               0                0               0
1.80263                0.9209718       -30.58581      0.008857771       -171.7681                0               0                0               0
1.80921                0.9183532       -30.92403      0.009118291        -175.205                0               0                0               0
1.81579                0.9156544       -31.26738      0.009391201       -178.6538                0               0                0               0
1.82237                0.9128724       -31.61603      0.009677172        177.8816                0               0                0               0
1.82895                0.9100041       -31.97022      0.009976841        174.3975                0               0                0               0
1.83553                0.9070457       -32.33013        0.0102908        170.8901                0               0                0               0
1.84211                0.9039933       -32.69597       0.01061957        167.3558                0               0                0               0
1.84868                0.9008424       -33.06795       0.01096364        163.7913                0               0                0               0
