! TOUCHSTONE file generated by CST MICROWAVE STUDIO
! Date and time: Tue Mar 11 13:57:41 2025
! Project name: transverse.cst
! Parameters = {Fracture=1; B=12.5; D=160; F=15; Feed=2.85625; L=100; M=20; R=0.384908; S=1; Theta=180; length=57.125; wave=114.25}
! Header version: 2024
! Port assignment regex: !\s*Touchstone port\s*([0-9]+)\s*=\s*(CST MWS port|CST DES external port|CST DES block port)\s*(.+)\s* \(\"(.*)\"\)(\s*mode\s*([0-9]+))?.*
! Touchstone port assignment:
! Touchstone port 1 = CST MWS port 1 ("")
! Touchstone port 2 = CST MWS port 2 ("")
# GHz S MA R 50
1                      0.9975918        -10.1193     0.0004473276       -170.0976                0               0                0               0
1.00658                 0.997497       -10.20875     0.0004455897       -175.0995                0               0                0               0
1.01316                0.9974016       -10.29861     0.0004421651       -179.9527                0               0                0               0
1.01974                 0.997306        -10.3889     0.0004370662        175.3606                0               0                0               0
1.02632                0.9972109       -10.47965     0.0004303262        170.8621                0               0                0               0
1.03289                0.9971164        -10.5709      0.000422003        166.5782                0               0                0               0
1.03947                 0.997023       -10.66268      0.000412184        162.5412                0               0                0               0
1.04605                0.9969308       -10.75504      0.000400994        158.7901                0               0                0               0
1.05263                0.9968398       -10.84802     0.0003886034         155.372                0               0                0               0
1.05921                0.9967501       -10.94167     0.0003752397        152.3432                0               0                0               0
1.06579                0.9966617       -11.03604     0.0003612026        149.7696                0               0                0               0
1.07237                0.9965739       -11.13118     0.0003468813        147.7264                0               0                0               0
1.07895                0.9964869       -11.22713     0.0003327746        146.2941                0               0                0               0
1.08553                0.9963999       -11.32393       0.00031951        145.5511                0               0                0               0
1.09211                0.9963124       -11.42163     0.0003078548        145.5575                0               0                0               0
1.09868                0.9962239       -11.52025     0.0002987061        146.3309                0               0                0               0
1.10526                0.9961335       -11.61983     0.0002930435         147.816                0               0                0               0
1.11184                0.9960406       -11.72039     0.0002918298        149.8587                0               0                0               0
1.11842                0.9959444       -11.82194      0.000295871        152.2061                0               0                0               0
1.125                  0.9958441        -11.9245     0.0003056765        154.5444                0               0                0               0
1.13158                0.9957389       -12.02806     0.0003213823        156.5668                0               0                0               0
1.13816                 0.995628       -12.13263      0.000342772        158.0378                0               0                0               0
1.14474                0.9955108        -12.2382     0.0003693752        158.8238                0               0                0               0
1.15132                0.9953865       -12.34474     0.0004005885        158.8862                0               0                0               0
1.15789                0.9952548       -12.45225     0.0004357757        158.2539                0               0                0               0
1.16447                 0.995115       -12.56069     0.0004743285        156.9928                0               0                0               0
1.17105                0.9949669       -12.67004     0.0005156942        155.1835                0               0                0               0
1.17763                0.9948102       -12.78026     0.0005593822        152.9072                0               0                0               0
1.18421                 0.994645       -12.89134     0.0006049594        150.2385                0               0                0               0
1.19079                0.9944711       -13.00324     0.0006520413         147.243                0               0                0               0
1.19737                0.9942888       -13.11594     0.0007002834        143.9769                0               0                0               0
1.20395                0.9940984       -13.22941     0.0007493726        140.4874                0               0                0               0
1.21053                0.9939002       -13.34363     0.0007990209        136.8143                0               0                0               0
1.21711                0.9936947       -13.45859     0.0008489602         132.991                0               0                0               0
1.22368                0.9934824       -13.57428     0.0008989387        129.0455                0               0                0               0
1.23026                0.9932641        -13.6907     0.0009487178        125.0018                0               0                0               0
1.23684                0.9930404       -13.80787     0.0009980711        120.8802                0               0                0               0
1.24342                0.9928118        -13.9258      0.001046783        116.6982                0               0                0               0
1.25                   0.9925794       -14.04451      0.001094647        112.4713                0               0                0               0
1.25658                0.9923433       -14.16404      0.001141469         108.213                0               0                0               0
1.26316                0.9921045       -14.28443      0.001187064        103.9355                0               0                0               0
1.26974                0.9918633       -14.40573       0.00123126        99.64983                0               0                0               0
1.27632                0.9916202       -14.52799      0.001273896        95.36613                0               0                0               0
1.28289                0.9913754       -14.65129      0.001314828        91.09395                0               0                0               0
1.28947                0.9911291       -14.77569      0.001353926         86.8423                0               0                0               0
1.29605                0.9908814       -14.90126      0.001391076        82.61984                0               0                0               0
1.30263                0.9906319       -15.02807      0.001426188        78.43501                0               0                0               0
1.30921                0.9903805       -15.15619      0.001459191         74.2961                0               0                0               0
1.31579                0.9901266       -15.28571       0.00149004        70.21134                0               0                0               0
1.32237                0.9898696       -15.41668      0.001518719        66.18894                0               0                0               0
1.32895                0.9896087       -15.54919      0.001545243        62.23713                0               0                0               0
1.33553                0.9893429       -15.68328      0.001569661        58.36421                0               0                0               0
1.34211                0.9890713       -15.81902       0.00159206        54.57845                0               0                0               0
1.34868                0.9887927       -15.95644      0.001612571        50.88812                0               0                0               0
1.35526                0.9885059        -16.0956      0.001631369        47.30137                0               0                0               0
1.36184                0.9882096       -16.23652      0.001648682        43.82609                0               0                0               0
1.36842                0.9879026       -16.37922       0.00166479        40.46974                0               0                0               0
1.375                  0.9875836       -16.52372       0.00168003        37.23913                0               0                0               0
1.38158                0.9872513       -16.67001      0.001694798        34.14005                0               0                0               0
1.38816                0.9869046       -16.81809      0.001709553        31.17698                0               0                0               0
1.39474                0.9865426       -16.96794      0.001724813        28.35261                0               0                0               0
1.40132                0.9861641       -17.11954      0.001741154         25.6674                0               0                0               0
1.40789                0.9857684       -17.27287      0.001759205        23.11911                0               0                0               0
1.41447                0.9853548        -17.4279       0.00177964        20.70236                0               0                0               0
1.42105                 0.984923       -17.58459      0.001803166        18.40829                0               0                0               0
1.42763                0.9844725       -17.74291      0.001830509        16.22436                0               0                0               0
1.43421                0.9840033       -17.90282      0.001862391        14.13443                0               0                0               0
1.44079                0.9835154        -18.0643      0.001899519        12.11899                0               0                0               0
1.44737                 0.983009       -18.22732      0.001942554        10.15581                0               0                0               0
1.45395                0.9824846       -18.39187      0.001992099         8.22077                0               0                0               0
1.46053                0.9819426       -18.55793      0.002048676        6.288866                0               0                0               0
1.46711                0.9813838       -18.72551      0.002112712        4.335392                0               0                0               0
1.47368                0.9808087       -18.89462      0.002184535        2.337006                0               0                0               0
1.48026                0.9802182       -19.06528      0.002264364       0.2727087                0               0                0               0
1.48684                0.9796132       -19.23754      0.002352315       -1.875449                0               0                0               0
1.49342                0.9789942       -19.41144      0.002448403       -4.121916                0               0                0               0
1.5                    0.9783623       -19.58705      0.002552556       -6.477474                0               0                0               0
1.50658                0.9777178       -19.76445      0.002664623       -8.949327                0               0                0               0
1.51316                0.9770616       -19.94373      0.002784388       -11.54137                0               0                0               0
1.51974                0.9763937       -20.12499      0.002911579       -14.25461                0               0                0               0
1.52632                0.9757144       -20.30835      0.003045887       -17.08759                0               0                0               0
1.53289                0.9750239       -20.49394      0.003186967       -20.03691                0               0                0               0
1.53947                0.9743215       -20.68187      0.003334455       -23.09768                0               0                0               0
1.54605                0.9736069       -20.87229      0.003487971       -26.26387                0               0                0               0
1.55263                0.9728793       -21.06534      0.003647129       -29.52874                0               0                0               0
1.55921                0.9721376       -21.26116      0.003811538       -32.88509                0               0                0               0
1.56579                0.9713805       -21.45987      0.003980812       -36.32547                0               0                0               0
1.57237                0.9706061       -21.66163      0.004154572       -39.84241                0               0                0               0
1.57895                0.9698129       -21.86655      0.004332446       -43.42851                0               0                0               0
1.58553                0.9689986       -22.07474      0.004514078       -47.07653                0               0                0               0
1.59211                0.9681611       -22.28633      0.004699126       -50.77952                0               0                0               0
1.59868                0.9672977        -22.5014      0.004887266       -54.53079                0               0                0               0
1.60526                 0.966406       -22.72005      0.005078199       -58.32397                0               0                0               0
1.61184                0.9654832       -22.94233      0.005271645       -62.15302                0               0                0               0
1.61842                0.9645266        -23.1683      0.005467352       -66.01224                0               0                0               0
1.625                  0.9635336       -23.39801      0.005665099       -69.89626                0               0                0               0
1.63158                0.9625012       -23.63148      0.005864697       -73.80004                0               0                0               0
1.63816                0.9614271       -23.86872      0.006065989       -77.71887                0               0                0               0
1.64474                0.9603085       -24.10973      0.006268859       -81.64834                0               0                0               0
1.65132                0.9591434        -24.3545      0.006473229       -85.58438                0               0                0               0
1.65789                0.9579291         -24.603      0.006679064       -89.52318                0               0                0               0
1.66447                0.9566643       -24.85522      0.006886381       -93.46128                0               0                0               0
1.67105                0.9553468       -25.11111      0.007095237       -97.39551                0               0                0               0
1.67763                0.9539751       -25.37065      0.007305747        -101.323                0               0                0               0
1.68421                0.9525482        -25.6338      0.007518077       -105.2411                0               0                0               0
1.69079                 0.951065       -25.90054      0.007732451       -109.1477                0               0                0               0
1.69737                0.9495246       -26.17084      0.007949149       -113.0408                0               0                0               0
1.70395                0.9479267       -26.44469      0.008168508       -116.9188                0               0                0               0
1.71053                0.9462707       -26.72209      0.008390926       -120.7805                0               0                0               0
1.71711                0.9445566       -27.00306      0.008616861       -124.6249                0               0                0               0
1.72368                0.9427841       -27.28764      0.008846827       -128.4515                0               0                0               0
1.73026                0.9409533       -27.57587      0.009081396       -132.2601                0               0                0               0
1.73684                 0.939064       -27.86783      0.009321195       -136.0509                0               0                0               0
1.74342                0.9371165       -28.16362      0.009566902       -139.8245                0               0                0               0
1.75                   0.9351102       -28.46336      0.009819239       -143.5818                0               0                0               0
1.75658                 0.933045       -28.76718       0.01007897       -147.3242                0               0                0               0
1.76316                0.9309203       -29.07526       0.01034691       -151.0532                0               0                0               0
1.76974                0.9287353       -29.38777       0.01062388       -154.7709                0               0                0               0
1.77632                0.9264889       -29.70492       0.01091072       -158.4797                0               0                0               0
1.78289                0.9241794       -30.02693       0.01120831       -162.1821                0               0                0               0
1.78947                0.9218052       -30.35404       0.01151751       -165.8811                0               0                0               0
1.79605                0.9193635        -30.6865       0.01183918       -169.5796                0               0                0               0
1.80263                0.9168517       -31.02455       0.01217416       -173.2809                0               0                0               0
1.80921                0.9142663       -31.36848       0.01252328       -176.9884                0               0                0               0
1.81579                0.9116035       -31.71853       0.01288731        179.2945                0               0                0               0
1.82237                0.9088588       -32.07497         0.013267        175.5645                0               0                0               0
1.82895                0.9060272       -32.43806       0.01366303        171.8182                0               0                0               0
1.83553                0.9031034       -32.80803       0.01407604        168.0522                0               0                0               0
1.84211                0.9000816       -33.18513       0.01450659        164.2635                0               0                0               0
1.84868                0.8969553       -33.56954       0.01495515        160.4492                0               0                0               0
