! TOUCHSTONE file generated by CST MICROWAVE STUDIO
! Date and time: Tue Mar 11 13:58:02 2025
! Project name: transverse.cst
! Parameters = {Fracture=1; B=10; D=160; F=25; Feed=2.85625; L=100; M=30; R=0.384908; S=2; Theta=270; length=57.125; wave=114.25}
! Header version: 2024
! Port assignment regex: !\s*Touchstone port\s*([0-9]+)\s*=\s*(CST MWS port|CST DES external port|CST DES block port)\s*(.+)\s* \(\"(.*)\"\)(\s*mode\s*([0-9]+))?.*
! Touchstone port assignment:
! Touchstone port 1 = CST MWS port 1 ("")
! Touchstone port 2 = CST MWS port 2 ("")
# GHz S MA R 50
1                      0.9975679       -9.998445     0.0004533356        167.3227                0               0                0               0
1.00658                0.9975062       -10.08574     0.0004539948        161.9627                0               0                0               0
1.01316                0.9974475       -10.17378     0.0004530823        156.7182                0               0                0               0
1.01974                0.9973912       -10.26262     0.0004505902        151.6002                0               0                0               0
1.02632                0.9973367       -10.35232     0.0004465238        146.6223                0               0                0               0
1.03289                0.9972831       -10.44292      0.000440904        141.8009                0               0                0               0
1.03947                0.9972295       -10.53446     0.0004337701        137.1558                0               0                0               0
1.04605                0.9971748       -10.62699     0.0004251833        132.7108                0               0                0               0
1.05263                 0.997118       -10.72052     0.0004152308        128.4949                0               0                0               0
1.05921                0.9970578       -10.81506     0.0004040315        124.5424                0               0                0               0
1.06579                0.9969933       -10.91063     0.0003917431        120.8948                0               0                0               0
1.07237                0.9969232       -11.00722     0.0003785711        117.6009                0               0                0               0
1.07895                0.9968465        -11.1048     0.0003647801        114.7174                0               0                0               0
1.08553                0.9967621       -11.20337      0.000350707        112.3087                0               0                0               0
1.09211                0.9966692       -11.30288     0.0003367767         110.444                0               0                0               0
1.09868                 0.996567        -11.4033     0.0003235161        109.1918                0               0                0               0
1.10526                0.9964549       -11.50458     0.0003115639        108.6086                0               0                0               0
1.11184                0.9963324       -11.60668     0.0003016662        108.7212                0               0                0               0
1.11842                0.9961992       -11.70953     0.0002946473        109.5032                0               0                0               0
1.125                  0.9960551       -11.81309     0.0002913433        110.8528                0               0                0               0
1.13158                0.9959004       -11.91731     0.0002925014        112.5831                0               0                0               0
1.13816                0.9957351       -12.02212     0.0002986643        114.4401                0               0                0               0
1.14474                0.9955596       -12.12749     0.0003100847         116.148                0               0                0               0
1.15132                0.9953746       -12.23338     0.0003267053        117.4653                0               0                0               0
1.15789                0.9951807       -12.33975     0.0003482105        118.2241                0               0                0               0
1.16447                0.9949787       -12.44657     0.0003741172        118.3419                0               0                0               0
1.17105                0.9947697       -12.55383      0.000403868         117.807                0               0                0               0
1.17763                0.9945544       -12.66151     0.0004368991        116.6555                0               0                0               0
1.18421                 0.994334       -12.76963     0.0004726801        114.9486                0               0                0               0
1.19079                0.9941095        -12.8782     0.0005107298        112.7566                0               0                0               0
1.19737                0.9938818       -12.98724     0.0005506196        110.1488                0               0                0               0
1.20395                 0.993652       -13.09679     0.0005919684        107.1892                0               0                0               0
1.21053                0.9934209        -13.2069     0.0006344357         103.934                0               0                0               0
1.21711                0.9931892       -13.31762     0.0006777148        100.4316                0               0                0               0
1.22368                0.9929575       -13.42902     0.0007215259        96.72328                0               0                0               0
1.23026                0.9927262       -13.54116     0.0007656111        92.84399                0               0                0               0
1.23684                0.9924959       -13.65413     0.0008097305        88.82333                0               0                0               0
1.24342                0.9922663         -13.768     0.0008536585        84.68641                0               0                0               0
1.25                   0.9920374       -13.88284     0.0008971825        80.45471                0               0                0               0
1.25658                0.9918091       -13.99876     0.0009401003        76.14668                0               0                0               0
1.26316                0.9915807       -14.11581     0.0009822202        71.77834                0               0                0               0
1.26974                0.9913516       -14.23408       0.00102336        67.36372                0               0                0               0
1.27632                0.9911209       -14.35363      0.001063346        62.91527                0               0                0               0
1.28289                0.9908876       -14.47453      0.001102015        58.44417                0               0                0               0
1.28947                0.9906507       -14.59683      0.001139215        53.96058                0               0                0               0
1.29605                0.9904089       -14.72058      0.001174801        49.47387                0               0                0               0
1.30263                0.9901609        -14.8458      0.001208644        44.99281                0               0                0               0
1.30921                0.9899053       -14.97253      0.001240624        40.52571                0               0                0               0
1.31579                0.9896409       -15.10076      0.001270637        36.08057                0               0                0               0
1.32237                0.9893663       -15.23051      0.001298594        31.66519                0               0                0               0
1.32895                0.9890802       -15.36176      0.001324423        27.28727                0               0                0               0
1.33553                0.9887817       -15.49449      0.001348072        22.95447                0               0                0               0
1.34211                0.9884694       -15.62868      0.001369506        18.67452                0               0                0               0
1.34868                0.9881427       -15.76428      0.001388719        14.45524                0               0                0               0
1.35526                0.9878008       -15.90125      0.001405724        10.30461                0               0                0               0
1.36184                0.9874431       -16.03954      0.001420568        6.230777                0               0                0               0
1.36842                0.9870694       -16.17912      0.001433324        2.242054                0               0                0               0
1.375                  0.9866795       -16.31992      0.001444102       -1.653079                0               0                0               0
1.38158                0.9862735        -16.4619      0.001453048       -5.446047                0               0                0               0
1.38816                0.9858518       -16.60501      0.001460347       -9.128266                0               0                0               0
1.39474                0.9854148       -16.74922       0.00146623       -12.69128                0               0                0               0
1.40132                 0.984963        -16.8945       0.00147097       -16.12698                0               0                0               0
1.40789                0.9844975       -17.04082      0.001474892       -19.42784                0               0                0               0
1.41447                 0.984019       -17.18819       0.00147837       -22.58728                0               0                0               0
1.42105                0.9835287       -17.33658      0.001481829        -25.6001                0               0                0               0
1.42763                0.9830274       -17.48604      0.001485743       -28.46294                0               0                0               0
1.43421                0.9825165       -17.63659      0.001490633       -31.17484                0               0                0               0
1.44079                0.9819969       -17.78826      0.001497064       -33.73782                0               0                0               0
1.44737                0.9814697       -17.94113      0.001505631       -36.15741                0               0                0               0
1.45395                0.9809357       -18.09526      0.001516951       -38.44308                0               0                0               0
1.46053                0.9803958       -18.25074      0.001531648       -40.60854                0               0                0               0
1.46711                0.9798506       -18.40766      0.001550336       -42.67167                0               0                0               0
1.47368                0.9793003       -18.56614      0.001573596       -44.65421                0               0                0               0
1.48026                0.9787454       -18.72629      0.001601962       -46.58112                0               0                0               0
1.48684                0.9781856       -18.88822      0.001635898       -48.47948                0               0                0               0
1.49342                0.9776207       -19.05207      0.001675786       -50.37732                0               0                0               0
1.5                    0.9770501       -19.21797      0.001721911       -52.30222                0               0                0               0
1.50658                0.9764728       -19.38603       0.00177446          -54.28                0               0                0               0
1.51316                0.9758878       -19.55638      0.001833518       -56.33362                0               0                0               0
1.51974                0.9752938       -19.72914      0.001899073        -58.4824                0               0                0               0
1.52632                0.9746891       -19.90442      0.001971028        -60.7415                0               0                0               0
1.53289                0.9740718       -20.08232      0.002049208       -63.12187                0               0                0               0
1.53947                0.9734402       -20.26291      0.002133373       -65.63038                0               0                0               0
1.54605                0.9727919       -20.44629      0.002223234       -68.27024                0               0                0               0
1.55263                0.9721248       -20.63251      0.002318464       -71.04149                0               0                0               0
1.55921                0.9714368        -20.8216      0.002418704       -73.94156                0               0                0               0
1.56579                0.9707253       -21.01361      0.002523581       -76.96589                0               0                0               0
1.57237                0.9699883       -21.20855      0.002632708       -80.10841                0               0                0               0
1.57895                0.9692237       -21.40641      0.002745697       -83.36197                0               0                0               0
1.58553                0.9684293       -21.60719      0.002862156       -86.71878                0               0                0               0
1.59211                0.9676034       -21.81085      0.002981703       -90.17067                0               0                0               0
1.59868                0.9667444       -22.01736      0.003103961       -93.70933                0               0                0               0
1.60526                0.9658506       -22.22668      0.003228566       -97.32651                0               0                0               0
1.61184                0.9649212       -22.43876      0.003355166       -101.0141                0               0                0               0
1.61842                0.9639551       -22.65354      0.003483424       -104.7643                0               0                0               0
1.625                  0.9629516       -22.87098      0.003613023       -108.5695                0               0                0               0
1.63158                0.9619107       -23.09102      0.003743659       -112.4225                0               0                0               0
1.63816                0.9608321       -23.31362      0.003875055       -116.3166                0               0                0               0
1.64474                 0.959716       -23.53876      0.004006952       -120.2452                0               0                0               0
1.65132                 0.958563        -23.7664      0.004139115       -124.2022                0               0                0               0
1.65789                0.9573736       -23.99655      0.004271336       -128.1819                0               0                0               0
1.66447                0.9561487       -24.22921      0.004403435       -132.1788                0               0                0               0
1.67105                0.9548891       -24.46441      0.004535261       -136.1878                0               0                0               0
1.67763                0.9535961       -24.70222      0.004666694       -140.2041                0               0                0               0
1.68421                0.9522705       -24.94269      0.004797649       -144.2231                0               0                0               0
1.69079                0.9509134       -25.18593      0.004928074       -148.2408                0               0                0               0
1.69737                0.9495255       -25.43205      0.005057959       -152.2532                0               0                0               0
1.70395                0.9481078       -25.68121      0.005187331       -156.2566                0               0                0               0
1.71053                0.9466607       -25.93355      0.005316257       -160.2478                0               0                0               0
1.71711                0.9451845       -26.18928      0.005444854       -164.2236                0               0                0               0
1.72368                0.9436791        -26.4486      0.005573277       -168.1815                0               0                0               0
1.73026                0.9421441       -26.71173      0.005701732       -172.1189                0               0                0               0
1.73684                0.9405789        -26.9789       0.00583047       -176.0339                0               0                0               0
1.74342                 0.938982       -27.25037       0.00595979       -179.9247                0               0                0               0
1.75                   0.9373521       -27.52639      0.006090042        176.2101                0               0                0               0
1.75658                0.9356867       -27.80722      0.006221619        172.3712                0               0                0               0
1.76316                0.9339836       -28.09311      0.006354962        168.5594                0               0                0               0
1.76974                0.9322395       -28.38434      0.006490558        164.7745                0               0                0               0
1.77632                0.9304512       -28.68115      0.006628934        161.0163                0               0                0               0
1.78289                0.9286146       -28.98379      0.006770653        157.2839                0               0                0               0
1.78947                0.9267257       -29.29248      0.006916315         153.576                0               0                0               0
1.79605                0.9247799       -29.60745      0.007066547        149.8908                0               0                0               0
1.80263                0.9227722        -29.9289      0.007221998         146.226                0               0                0               0
1.80921                0.9206978         -30.257      0.007383332         142.579                0               0                0               0
1.81579                0.9185512       -30.59193      0.007551222        138.9466                0               0                0               0
1.82237                0.9163271       -30.93383       0.00772634        135.3253                0               0                0               0
1.82895                0.9140201       -31.28282      0.007909351        131.7114                0               0                0               0
1.83553                0.9116247         -31.639      0.008100904        128.1007                0               0                0               0
1.84211                0.9091355       -32.00247      0.008301617         124.489                0               0                0               0
1.84868                0.9065471       -32.37329      0.008512082        120.8718                0               0                0               0
