! TOUCHSTONE file generated by CST MICROWAVE STUDIO
! Date and time: Tue Mar 11 13:57:24 2025
! Project name: transverse.cst
! Parameters = {Fracture=1; B=10; D=160; F=25; Feed=2.85625; L=100; M=30; R=0.384908; S=2; Theta=180; length=57.125; wave=114.25}
! Header version: 2024
! Port assignment regex: !\s*Touchstone port\s*([0-9]+)\s*=\s*(CST MWS port|CST DES external port|CST DES block port)\s*(.+)\s* \(\"(.*)\"\)(\s*mode\s*([0-9]+))?.*
! Touchstone port assignment:
! Touchstone port 1 = CST MWS port 1 ("")
! Touchstone port 2 = CST MWS port 2 ("")
# GHz S MA R 50
1                      0.9975276       -10.01487     0.0004812922        165.3995                0               0                0               0
1.0066                 0.9974693       -10.10236     0.0004807299         159.781                0               0                0               0
1.0132                 0.9974149       -10.19065      0.000478397        154.2761                0               0                0               0
1.0198                 0.9973637       -10.27979     0.0004742779        148.8953                0               0                0               0
1.0264                 0.9973147       -10.36986     0.0004683703        143.6518                0               0                0               0
1.033                   0.997267        -10.4609     0.0004606875        138.5617                0               0                0               0
1.0396                 0.9972193       -10.55295     0.0004512608        133.6454                0               0                0               0
1.0462                 0.9971706       -10.64606     0.0004401434        128.9279                0               0                0               0
1.05281                0.9971194       -10.74025     0.0004274144        124.4402                0               0                0               0
1.05941                0.9970645       -10.83552     0.0004131856        120.2211                0               0                0               0
1.06601                0.9970045       -10.93188      0.000397609        116.3184                0               0                0               0
1.07261                0.9969381       -11.02931     0.0003808884        112.7918                0               0                0               0
1.07921                0.9968642       -11.12779     0.0003632943        109.7142                0               0                0               0
1.08581                0.9967816        -11.2273     0.0003451835        107.1745                0               0                0               0
1.09241                0.9966893       -11.32777     0.0003270242        105.2769                0               0                0               0
1.09901                0.9965865       -11.42918     0.0003094268        104.1372                0               0                0               0
1.10561                0.9964726       -11.53146     0.0002931724        103.8701                0               0                0               0
1.11221                0.9963471       -11.63454     0.0002792297        104.5617                0               0                0               0
1.11881                0.9962098       -11.73837     0.0002687326        106.2245                0               0                0               0
1.12541                0.9960604       -11.84288     0.0002628855        108.7409                0               0                0               0
1.13201                0.9958994       -11.94801      0.000262779        111.8266                0               0                0               0
1.13861                0.9957271        -12.0537      0.000269158        115.0583                0               0                0               0
1.14521                 0.995544        -12.1599      0.000282253        117.9777                0               0                0               0
1.15182                0.9953508       -12.26656     0.0003017758        120.2173                0               0                0               0
1.15842                0.9951484       -12.37364     0.0003270689        121.5721                0               0                0               0
1.16502                 0.994938       -12.48111     0.0003573068        121.9918                0               0                0               0
1.17162                0.9947205       -12.58896     0.0003916536        121.5304                0               0                0               0
1.17822                0.9944972       -12.69719     0.0004293484        120.2925                0               0                0               0
1.18482                0.9942692        -12.8058      0.000469733        118.3964                0               0                0               0
1.19142                0.9940378       -12.91481      0.000512249        115.9545                0               0                0               0
1.19802                0.9938041       -13.02426     0.0005564228         113.065                0               0                0               0
1.20462                0.9935691        -13.1342     0.0006018482        109.8106                0               0                0               0
1.21122                0.9933339       -13.24467     0.0006481703        106.2592                0               0                0               0
1.21782                0.9930992       -13.35576      0.000695074        102.4664                0               0                0               0
1.22442                0.9928658       -13.46753     0.0007422737        98.47726                0               0                0               0
1.23102                0.9926339       -13.58007     0.0007895069        94.32886                0               0                0               0
1.23762                0.9924038       -13.69346     0.0008365289        90.05161                0               0                0               0
1.24422                0.9921758        -13.8078     0.0008831095        85.67077                0               0                0               0
1.25083                0.9919492       -13.92318     0.0009290305        81.20753                0               0                0               0
1.25743                0.9917239       -14.03968     0.0009740845        76.67981                0               0                0               0
1.26403                0.9914992        -14.1574      0.001018074        72.10304                0               0                0               0
1.27063                0.9912741       -14.27642      0.001060809         67.4906                0               0                0               0
1.27723                0.9910477        -14.3968      0.001102113        62.85431                0               0                0               0
1.28383                0.9908187       -14.51862      0.001141814         58.2048                0               0                0               0
1.29043                0.9905857       -14.64192      0.001179755         53.5517                0               0                0               0
1.29703                0.9903474       -14.76676      0.001215787        48.90397                0               0                0               0
1.30363                0.9901023       -14.89315      0.001249776        44.27001                0               0                0               0
1.31023                0.9898487       -15.02112      0.001281598        39.65789                0               0                0               0
1.31683                0.9895853       -15.15067      0.001311148        35.07541                0               0                0               0
1.32343                0.9893105       -15.28179      0.001338335        30.53033                0               0                0               0
1.33003                 0.989023       -15.41446      0.001363086        26.03034                0               0                0               0
1.33663                0.9887215       -15.54864      0.001385353        21.58325                0               0                0               0
1.34323                 0.988405       -15.68431      0.001405104        17.19702                0               0                0               0
1.34984                0.9880726        -15.8214      0.001422339        12.87984                0               0                0               0
1.35644                0.9877236       -15.95986      0.001437082        8.640169                0               0                0               0
1.36304                0.9873576       -16.09964      0.001449388        4.486765                0               0                0               0
1.36964                0.9869743       -16.24067      0.001459351       0.4287085                0               0                0               0
1.37624                0.9865737       -16.38289      0.001467098       -3.524626                0               0                0               0
1.38284                0.9861562       -16.52625      0.001472799       -7.363625                0               0                0               0
1.38944                0.9857221        -16.6707      0.001476671       -11.07853                0               0                0               0
1.39604                0.9852722        -16.8162       0.00147898       -14.65963                0               0                0               0
1.40264                0.9848074        -16.9627      0.001480044       -18.09745                0               0                0               0
1.40924                0.9843286        -17.1102      0.001480237       -21.38313                0               0                0               0
1.41584                0.9838371       -17.25868      0.001479994       -24.50883                0               0                0               0
1.42244                 0.983334       -17.40816      0.001479807       -27.46828                0               0                0               0
1.42904                0.9828206       -17.55866      0.001480227        -30.2574                0               0                0               0
1.43564                0.9822983       -17.71021      0.001481859       -32.87508                0               0                0               0
1.44224                0.9817682       -17.86287      0.001485357       -35.32389                0               0                0               0
1.44884                0.9812314       -18.01671       0.00149141       -37.61083                0               0                0               0
1.45545                 0.980689       -18.17183      0.001500728       -39.74793                0               0                0               0
1.46205                0.9801418       -18.32831      0.001514025       -41.75253                0               0                0               0
1.46865                0.9795903       -18.48627      0.001531989       -43.64721                0               0                0               0
1.47525                 0.979035       -18.64583      0.001555266       -45.45927                0               0                0               0
1.48185                 0.978476       -18.80713      0.001584427       -47.21963                0               0                0               0
1.48845                 0.977913        -18.9703      0.001619953       -48.96141                0               0                0               0
1.49505                0.9773456       -19.13547      0.001662215       -50.71812                0               0                0               0
1.50165                0.9767731       -19.30278      0.001711463        -52.5219                0               0                0               0
1.50825                0.9761943       -19.47237      0.001767822       -54.40183                0               0                0               0
1.51485                0.9756078       -19.64438      0.001831304       -56.38276                0               0                0               0
1.52145                0.9750122       -19.81891      0.001901806       -58.48443                0               0                0               0
1.52805                0.9744053       -19.99609      0.001979134       -60.72124                0               0                0               0
1.53465                0.9737853         -20.176      0.002063016        -63.1024                0               0                0               0
1.54125                0.9731498       -20.35875      0.002153118       -65.63238                0               0                0               0
1.54785                0.9724966       -20.54439       0.00224906       -68.31161                0               0                0               0
1.55446                 0.971823       -20.73297      0.002350432       -71.13722                0               0                0               0
1.56106                0.9711267       -20.92454      0.002456801       -74.10382                0               0                0               0
1.56766                0.9704053       -21.11911      0.002567727       -77.20415                0               0                0               0
1.57426                0.9696565       -21.31667      0.002682768       -80.42975                0               0                0               0
1.58086                0.9688778       -21.51723      0.002801481       -83.77137                0               0                0               0
1.58746                0.9680674       -21.72075      0.002923434       -87.21941                0               0                0               0
1.59406                0.9672233       -21.92719      0.003048206       -90.76417                0               0                0               0
1.60066                0.9663439       -22.13649       0.00317539       -94.39608                0               0                0               0
1.60726                0.9654281       -22.34861      0.003304594       -98.10584                0               0                0               0
1.61386                0.9644746       -22.56348      0.003435444       -101.8845                0               0                0               0
1.62046                0.9634827       -22.78103      0.003567586       -105.7236                0               0                0               0
1.62706                0.9624522       -23.00121      0.003700685        -109.615                0               0                0               0
1.63366                0.9613827       -23.22397      0.003834431        -113.551                0               0                0               0
1.64026                0.9602747       -23.44925      0.003968536       -117.5246                0               0                0               0
1.64686                0.9591284       -23.67702      0.004102739        -121.529                0               0                0               0
1.65347                0.9579448       -23.90726      0.004236805       -125.5578                0               0                0               0
1.66007                0.9567246       -24.13998      0.004370528       -129.6051                0               0                0               0
1.66667                0.9554688       -24.37519      0.004503735       -133.6653                0               0                0               0
1.67327                0.9541787       -24.61293      0.004636286       -137.7333                0               0                0               0
1.67987                0.9528555       -24.85326      0.004768072        -141.804                0               0                0               0
1.68647                0.9515003       -25.09629      0.004899028        -145.873                0               0                0               0
1.69307                0.9501144       -25.34211      0.005029126        -149.936                0               0                0               0
1.69967                0.9486985       -25.59088      0.005158379       -153.9891                0               0                0               0
1.70627                0.9472534       -25.84276      0.005286844       -158.0286                0               0                0               0
1.71287                0.9457798       -26.09793      0.005414626       -162.0512                0               0                0               0
1.71947                0.9442777        -26.3566      0.005541879        -166.054                0               0                0               0
1.72607                 0.942747       -26.61901      0.005668801       -170.0341                0               0                0               0
1.73267                 0.941187       -26.88539      0.005795647       -173.9894                0               0                0               0
1.73927                0.9395966         -27.156       0.00592272       -177.9179                0               0                0               0
1.74587                0.9379745        -27.4311      0.006050376        178.1821                0               0                0               0
1.75248                0.9363186       -27.71098      0.006179021        174.3116                0               0                0               0
1.75908                0.9346263       -27.99589      0.006309113        170.4713                0               0                0               0
1.76568                0.9328948        -28.2861      0.006441158        166.6616                0               0                0               0
1.77228                0.9311206        -28.5819      0.006575709        162.8822                0               0                0               0
1.77888                0.9292999       -28.88353      0.006713361        159.1322                0               0                0               0
1.78548                0.9274283       -29.19124      0.006854746        155.4105                0               0                0               0
1.79208                0.9255014       -29.50525      0.007000531        151.7154                0               0                0               0
1.79868                0.9235139       -29.82578      0.007151405        148.0444                0               0                0               0
1.80528                0.9214608       -30.15301      0.007308079        144.3948                0               0                0               0
1.81188                0.9193367       -30.48712      0.007471273        140.7633                0               0                0               0
1.81848                0.9171361       -30.82825      0.007641711        137.1463                0               0                0               0
1.82508                0.9148533       -31.17655      0.007820108        133.5397                0               0                0               0
1.83168                0.9124827       -31.53211      0.008007161        129.9391                0               0                0               0
1.83828                0.9100187       -31.89501      0.008203546        126.3397                0               0                0               0
1.84488                0.9074557       -32.26533      0.008409898         122.737                0               0                0               0
1.85149                0.9047886       -32.64314       0.00862681        119.1258                0               0                0               0
