! TOUCHSTONE file generated by CST MICROWAVE STUDIO
! Date and time: Tue Mar 11 13:58:27 2025
! Project name: transverse.cst
! Parameters = {Fracture=5; B=12.5; D=160; F=25; Feed=2.85625; L=100; M=30; R=0.384908; S=2; Theta=270; length=57.125; wave=114.25}
! Header version: 2024
! Port assignment regex: !\s*Touchstone port\s*([0-9]+)\s*=\s*(CST MWS port|CST DES external port|CST DES block port)\s*(.+)\s* \(\"(.*)\"\)(\s*mode\s*([0-9]+))?.*
! Touchstone port assignment:
! Touchstone port 1 = CST MWS port 1 ("")
! Touchstone port 2 = CST MWS port 2 ("")
# GHz S MA R 50
1                      0.9975584       -9.767705     0.0004444695        166.0512                0               0                0               0
1.00658                0.9974963       -9.853568     0.0004458383        160.6661                0               0                0               0
1.01316                0.9974373       -9.940176     0.0004456932        155.3922                0               0                0               0
1.01974                0.9973812       -10.02759      0.000444023        150.2395                0               0                0               0
1.02632                0.9973269       -10.11587     0.0004408291        145.2204                0               0                0               0
1.03289                0.9972739       -10.20507     0.0004361271          140.35                0               0                0               0
1.03947                 0.997221       -10.29522     0.0004299493        135.6461                0               0                0               0
1.04605                0.9971672       -10.38637      0.000422348        131.1304                0               0                0               0
1.05263                0.9971116       -10.47854     0.0004133986        126.8289                0               0                0               0
1.05921                0.9970526       -10.57175     0.0004032051        122.7725                0               0                0               0
1.06579                0.9969893         -10.666     0.0003919053        118.9982                0               0                0               0
1.07237                0.9969206       -10.76129     0.0003796792        115.5497                0               0                0               0
1.07895                0.9968451       -10.85761      0.000366758        112.4776                0               0                0               0
1.08553                 0.996762       -10.95493     0.0003534355        109.8396                0               0                0               0
1.09211                0.9966704       -11.05322     0.0003400812        107.6986                0               0                0               0
1.09868                0.9965692       -11.15243     0.0003271537        106.1189                0               0                0               0
1.10526                0.9964579       -11.25253     0.0003152106        105.1577                0               0                0               0
1.11184                 0.996336       -11.35346       0.00030491        104.8514                0               0                0               0
1.11842                0.9962031       -11.45518     0.0002969937        105.1973                0               0                0               0
1.125                  0.9960591       -11.55761     0.0002922427        106.1317                0               0                0               0
1.13158                 0.995904       -11.66071     0.0002913991         107.516                0               0                0               0
1.13816                0.9957382       -11.76443      0.000295067        109.1405                0               0                0               0
1.14474                0.9955618       -11.86871     0.0003036194        110.7544                0               0                0               0
1.15132                0.9953755       -11.97351     0.0003171499        112.1126                0               0                0               0
1.15789                0.9951802        -12.0788     0.0003354869        113.0208                0               0                0               0
1.16447                0.9949764       -12.18454     0.0003582594        113.3589                0               0                0               0
1.17105                0.9947652       -12.29072     0.0003849818        113.0799                0               0                0               0
1.17763                0.9945476       -12.39733     0.0004151273        112.1928                0               0                0               0
1.18421                0.9943246       -12.50436     0.0004481786        110.7411                0               0                0               0
1.19079                0.9940974       -12.61185     0.0004836543        108.7854                0               0                0               0
1.19737                0.9938669        -12.7198     0.0005211185        106.3911                0               0                0               0
1.20395                0.9936342       -12.82826     0.0005601813        103.6212                0               0                0               0
1.21053                   0.9934       -12.93727     0.0006004936        100.5329                0               0                0               0
1.21711                0.9931655       -13.04689     0.0006417412        97.17664                0               0                0               0
1.22368                0.9929309       -13.15719     0.0006836386        93.59581                0               0                0               0
1.23026                 0.992697       -13.26824     0.0007259239        89.82756                0               0                0               0
1.23684                0.9924639       -13.38012     0.0007683543        85.90354                0               0                0               0
1.24342                0.9922319        -13.4929     0.0008107032        81.85069                0               0                0               0
1.25                   0.9920007       -13.60668     0.0008527567        77.69206                0               0                0               0
1.25658                0.9917703       -13.72153     0.0008943131        73.44748                0               0                0               0
1.26316                0.9915399       -13.83755     0.0009351809        69.13412                0               0                0               0
1.26974                 0.991309        -13.9548     0.0009751783        64.76702                0               0                0               0
1.27632                0.9910767       -14.07336      0.001014133        60.35945                0               0                0               0
1.28289                0.9908419       -14.19331      0.001051882        55.92329                0               0                0               0
1.28947                0.9906035       -14.31468      0.001088273        51.46929                0               0                0               0
1.29605                0.9903601       -14.43754      0.001123163        47.00732                0               0                0               0
1.30263                0.9901105       -14.56192       0.00115642        42.54655                0               0                0               0
1.30921                0.9898532       -14.68784      0.001187925        38.09564                0               0                0               0
1.31579                0.9895868       -14.81532      0.001217572        33.66288                0               0                0               0
1.32237                0.9893099       -14.94436      0.001245269        29.25629                0               0                0               0
1.32895                 0.989021       -15.07494       0.00127094        24.88375                0               0                0               0
1.33553                0.9887191       -15.20705      0.001294529        20.55308                0               0                0               0
1.34211                 0.988403       -15.34066      0.001315998        16.27213                0               0                0               0
1.34868                0.9880716       -15.47573      0.001335329        12.04881                0               0                0               0
1.35526                0.9877242       -15.61221      0.001352532        7.891165                0               0                0               0
1.36184                0.9873603       -15.75005      0.001367641        3.807412                0               0                0               0
1.36842                0.9869793        -15.8892       0.00138072      -0.1940741                0               0                0               0
1.375                  0.9865811       -16.02961      0.001391864       -4.104764                0               0                0               0
1.38158                0.9861657       -16.17122      0.001401206       -7.916013                0               0                0               0
1.38816                0.9857335       -16.31399      0.001408915       -11.61914                0               0                0               0
1.39474                0.9852847       -16.45786      0.001415202       -15.20558                0               0                0               0
1.40132                0.9848201       -16.60281      0.001420321       -18.66704                0               0                0               0
1.40789                0.9843405        -16.7488      0.001424575       -21.99574                0               0                0               0
1.41447                0.9838467       -16.89583      0.001428315       -25.18481                0               0                0               0
1.42105                0.9833399       -17.04389      0.001431941       -28.22859                0               0                0               0
1.42763                0.9828211       -17.19299      0.001435903       -31.12321                0               0                0               0
1.43421                0.9822915       -17.34315      0.001440697       -33.86705                0               0                0               0
1.44079                0.9817523       -17.49443      0.001446864       -36.46136                0               0                0               0
1.44737                0.9812043       -17.64686      0.001454977        -38.9108                0               0                0               0
1.45395                0.9806487       -17.80053      0.001465635       -41.22392                0               0                0               0
1.46053                0.9800863       -17.95551      0.001479447       -43.41347                0               0                0               0
1.46711                0.9795179        -18.1119      0.001497016       -45.49645                0               0                0               0
1.47368                0.9789437       -18.26981      0.001518923       -47.49387                0               0                0               0
1.48026                0.9783642       -18.42934      0.001545704       -49.43013                0               0                0               0
1.48684                0.9777793       -18.59063      0.001577832       -51.33208                0               0                0               0
1.49342                0.9771887        -18.7538      0.001615704       -53.22782                0               0                0               0
1.5                     0.976592       -18.91897      0.001659628       -55.14526                0               0                0               0
1.50658                0.9759883       -19.08628      0.001709815        -57.1109                0               0                0               0
1.51316                0.9753765       -19.25585      0.001766375       -59.14857                0               0                0               0
1.51974                0.9747552       -19.42779      0.001829327       -61.27854                0               0                0               0
1.52632                 0.974123       -19.60223      0.001898601       -63.51704                0               0                0               0
1.53289                0.9734779       -19.77926       0.00197405       -65.87603                0               0                0               0
1.53947                0.9728181       -19.95897      0.002055462       -68.36332                0               0                0               0
1.54605                0.9721412       -20.14144      0.002142572        -70.9829                0               0                0               0
1.55263                0.9714452       -20.32672      0.002235074       -73.73551                0               0                0               0
1.55921                0.9707277       -20.51487      0.002332635       -76.61912                0               0                0               0
1.56579                0.9699864       -20.70592      0.002434899       -79.62959                0               0                0               0
1.57237                0.9692191       -20.89987      0.002541497       -82.76112                0               0                0               0
1.57895                0.9684236       -21.09673      0.002652056        -86.0068                0               0                0               0
1.58553                0.9675976       -21.29648      0.002766201       -89.35897                0               0                0               0
1.59211                0.9667396       -21.49909       0.00288356       -92.80953                0               0                0               0
1.59868                0.9658476       -21.70453       0.00300377       -96.35023                0               0                0               0
1.60526                0.9649203       -21.91274      0.003126475       -99.97281                0               0                0               0
1.61184                0.9639566       -22.12368       0.00325133       -103.6692                0               0                0               0
1.61842                0.9629553       -22.33727      0.003378005       -107.4315                0               0                0               0
1.625                  0.9619161       -22.55348      0.003506185       -111.2522                0               0                0               0
1.63158                0.9608386       -22.77223       0.00363557        -115.124                0               0                0               0
1.63816                0.9597227       -22.99349       0.00376588       -119.0402                0               0                0               0
1.64474                0.9585687       -23.21721      0.003896853       -122.9942                0               0                0               0
1.65132                0.9573773       -23.44336       0.00402825         -126.98                0               0                0               0
1.65789                0.9561489       -23.67194      0.004159852       -130.9917                0               0                0               0
1.66447                0.9548847       -23.90295      0.004291467       -135.0239                0               0                0               0
1.67105                0.9535856       -24.13642      0.004422929       -139.0715                0               0                0               0
1.67763                0.9522527       -24.37239      0.004554097       -143.1298                0               0                0               0
1.68421                0.9508873       -24.61093      0.004684864       -147.1941                0               0                0               0
1.69079                0.9494905       -24.85214      0.004815154       -151.2604                0               0                0               0
1.69737                0.9480633       -25.09614       0.00494492       -155.3247                0               0                0               0
1.70395                0.9466066       -25.34307      0.005074158       -159.3833                0               0                0               0
1.71053                0.9451212        -25.5931      0.005202893       -163.4329                0               0                0               0
1.71711                0.9436073       -25.84642      0.005331197       -167.4703                0               0                0               0
1.72368                0.9420652       -26.10324      0.005459177       -171.4929                0               0                0               0
1.73026                0.9404945       -26.36378      0.005586986        -175.498                0               0                0               0
1.73684                0.9388944       -26.62829      0.005714814       -179.4836                0               0                0               0
1.74342                0.9372641       -26.89702      0.005842901        176.5525                0               0                0               0
1.75                   0.9356017       -27.17024      0.005971526        172.6116                0               0                0               0
1.75658                0.9339054       -27.44821      0.006101018         168.695                0               0                0               0
1.76316                0.9321725        -27.7312      0.006231744        164.8036                0               0                0               0
1.76974                   0.9304       -28.01948      0.006364115        160.9377                0               0                0               0
1.77632                0.9285847       -28.31331      0.006498585        157.0975                0               0                0               0
1.78289                0.9267223       -28.61294       0.00663564        153.2825                0               0                0               0
1.78947                0.9248089        -28.9186      0.006775805        149.4921                0               0                0               0
1.79605                0.9228397       -29.23052      0.006919636        145.7249                0               0                0               0
1.80263                0.9208099       -29.54891      0.007067712        141.9793                0               0                0               0
1.80921                0.9187143       -29.87393      0.007220633        138.2532                0               0                0               0
1.81579                0.9165474       -30.20577      0.007379013        134.5441                0               0                0               0
1.82237                 0.914304       -30.54456      0.007543474        130.8492                0               0                0               0
1.82895                0.9119785       -30.89041      0.007714638        127.1652                0               0                0               0
1.83553                0.9095655       -31.24344      0.007893119        123.4887                0               0                0               0
1.84211                0.9070593       -31.60371      0.008079514        119.8158                0               0                0               0
1.84868                0.9044548       -31.97129      0.008274399        116.1426                0               0                0               0
