! TOUCHSTONE file generated by CST MICROWAVE STUDIO
! Date and time: Tue Mar 11 13:56:42 2025
! Project name: transverse.cst
! Parameters = {Fracture=1; B=10; D=160; F=25; Feed=2.85625; L=100; M=20; R=0.384908; S=2; Theta=90; length=57.125; wave=114.25}
! Header version: 2024
! Port assignment regex: !\s*Touchstone port\s*([0-9]+)\s*=\s*(CST MWS port|CST DES external port|CST DES block port)\s*(.+)\s* \(\"(.*)\"\)(\s*mode\s*([0-9]+))?.*
! Touchstone port assignment:
! Touchstone port 1 = CST MWS port 1 ("")
! Touchstone port 2 = CST MWS port 2 ("")
# GHz S MA R 50
1                       0.997639       -9.999362     0.0004557737        177.0111                0               0                0               0
1.00658                0.9975662       -10.08765     0.0004556195        172.2518                0               0                0               0
1.01316                0.9974936       -10.17656     0.0004541131        167.6378                0               0                0               0
1.01974                 0.997421       -10.26615     0.0004512925        163.1842                0               0                0               0
1.02632                0.9973482       -10.35643     0.0004472155        158.9083                0               0                0               0
1.03289                0.9972745       -10.44744     0.0004419631        154.8301                0               0                0               0
1.03947                0.9971997        -10.5392     0.0004356428        150.9724                0               0                0               0
1.04605                0.9971233       -10.63174     0.0004283934        147.3606                0               0                0               0
1.05263                0.9970449       -10.72508     0.0004203895        144.0231                0               0                0               0
1.05921                0.9969637       -10.81923     0.0004118475        140.9902                0               0                0               0
1.06579                0.9968794        -10.9142      0.000403031        138.2935                0               0                0               0
1.07237                0.9967915          -11.01     0.0003942562        135.9637                0               0                0               0
1.07895                0.9966991       -11.10663     0.0003858954        134.0278                0               0                0               0
1.08553                 0.996602       -11.20409     0.0003783776        132.5042                0               0                0               0
1.09211                0.9964996       -11.30238     0.0003721824        131.3974                0               0                0               0
1.09868                0.9963915       -11.40148     0.0003678263        130.6911                0               0                0               0
1.10526                0.9962772       -11.50139     0.0003658373        130.3423                0               0                0               0
1.11184                0.9961565       -11.60208     0.0003667191        130.2779                0               0                0               0
1.11842                 0.996029       -11.70355     0.0003709093        130.3976                0               0                0               0
1.125                  0.9958947       -11.80578     0.0003787378        130.5817                0               0                0               0
1.13158                0.9957534       -11.90875     0.0003903976         130.705                0               0                0               0
1.13816                 0.995605       -12.01244     0.0004059339        130.6526                0               0                0               0
1.14474                0.9954496       -12.11684     0.0004252545        130.3318                0               0                0               0
1.15132                0.9952874       -12.22193     0.0004481553        129.6794                0               0                0               0
1.15789                0.9951184        -12.3277     0.0004743537        128.6613                0               0                0               0
1.16447                0.9949429       -12.43414     0.0005035207        127.2686                0               0                0               0
1.17105                0.9947613       -12.54125     0.0005353073        125.5115                0               0                0               0
1.17763                0.9945737       -12.64903     0.0005693629        123.4124                0               0                0               0
1.18421                0.9943807       -12.75747      0.000605347        121.0008                0               0                0               0
1.19079                0.9941825       -12.86659     0.0006429357        118.3088                0               0                0               0
1.19737                0.9939795       -12.97639     0.0006818237        115.3692                0               0                0               0
1.20395                0.9937721       -13.08691     0.0007217244        112.2132                0               0                0               0
1.21053                0.9935606       -13.19815     0.0007623691        108.8697                0               0                0               0
1.21711                0.9933453       -13.31014     0.0008035061        105.3652                0               0                0               0
1.22368                0.9931264       -13.42291     0.0008448981        101.7235                0               0                0               0
1.23026                0.9929041        -13.5365     0.0008863218         97.9658                0               0                0               0
1.23684                0.9926786       -13.65095      0.000927566        94.11122                0               0                0               0
1.24342                0.9924499       -13.76628     0.0009684317         90.1767                0               0                0               0
1.25                   0.9922181       -13.88254      0.001008731         86.1775                0               0                0               0
1.25658                0.9919829       -13.99977      0.001048286        82.12735                0               0                0               0
1.26316                0.9917442       -14.11801      0.001086931        78.03871                0               0                0               0
1.26974                0.9915019       -14.23729      0.001124513        73.92297                0               0                0               0
1.27632                0.9912555       -14.35767      0.001160888        69.79064                0               0                0               0
1.28289                0.9910046       -14.47916      0.001195926        65.65151                0               0                0               0
1.28947                 0.990749       -14.60182      0.001229512        61.51477                0               0                0               0
1.29605                0.9904879       -14.72565      0.001261545        57.38918                0               0                0               0
1.30263                0.9902211        -14.8507      0.001291939        53.28309                0               0                0               0
1.30921                0.9899478       -14.97698      0.001320627        49.20464                0               0                0               0
1.31579                0.9896676       -15.10452      0.001347561        45.16171                0               0                0               0
1.32237                0.9893798       -15.23333      0.001372714        41.16207                0               0                0               0
1.32895                0.9890841       -15.36342      0.001396083        37.21338                0               0                0               0
1.33553                0.9887798       -15.49479      0.001417689        33.32321                0               0                0               0
1.34211                0.9884666       -15.62745       0.00143758        29.49904                0               0                0               0
1.34868                 0.988144       -15.76141      0.001455836        25.74828                0               0                0               0
1.35526                0.9878118       -15.89666      0.001472567        22.07816                0               0                0               0
1.36184                0.9874695        -16.0332      0.001487918        18.49575                0               0                0               0
1.36842                0.9871172       -16.17104      0.001502071        15.00774                0               0                0               0
1.375                  0.9867546       -16.31016      0.001515244         11.6204                0               0                0               0
1.38158                0.9863817       -16.45057      0.001527699        8.339362                0               0                0               0
1.38816                0.9859988       -16.59227      0.001539735        5.169358                0               0                0               0
1.39474                0.9856058       -16.73527      0.001551695        2.114014                0               0                0               0
1.40132                0.9852028       -16.87958       0.00156396      -0.8244732                0               0                0               0
1.40789                0.9847902        -17.0252      0.001576951       -3.645651                0               0                0               0
1.41447                0.9843685       -17.17216      0.001591119       -6.351132                0               0                0               0
1.42105                0.9839377        -17.3205      0.001606947       -8.944883                0               0                0               0
1.42763                0.9834983       -17.47023      0.001624936       -11.43346                0               0                0               0
1.43421                0.9830506       -17.62139      0.001645597       -13.82615                0               0                0               0
1.44079                0.9825948       -17.77404       0.00166944       -16.13495                0               0                0               0
1.44737                0.9821315       -17.92823      0.001696963       -18.37443                0               0                0               0
1.45395                0.9816607       -18.08402      0.001728635       -20.56137                0               0                0               0
1.46053                0.9811826       -18.24147      0.001764884       -22.71421                0               0                0               0
1.46711                0.9806975       -18.40066      0.001806088       -24.85242                0               0                0               0
1.47368                 0.980205       -18.56166      0.001852559       -26.99574                0               0                0               0
1.48026                0.9797052       -18.72457      0.001904545       -29.16336                0               0                0               0
1.48684                0.9791979       -18.88946      0.001962215       -31.37322                0               0                0               0
1.49342                0.9786825       -19.05642      0.002025666       -33.64139                0               0                0               0
1.5                    0.9781586       -19.22555      0.002094923       -35.98158                0               0                0               0
1.50658                0.9776256       -19.39694      0.002169943       -38.40488                0               0                0               0
1.51316                0.9770823       -19.57069      0.002250621       -40.91969                0               0                0               0
1.51974                0.9765282       -19.74687        0.0023368       -43.53171                0               0                0               0
1.52632                 0.975962       -19.92559      0.002428276       -46.24418                0               0                0               0
1.53289                0.9753824       -20.10693      0.002524811       -49.05811                0               0                0               0
1.53947                0.9747883       -20.29095      0.002626134       -51.97259                0               0                0               0
1.54605                 0.974178       -20.47776      0.002731955       -54.98516                0               0                0               0
1.55263                0.9735503        -20.6674      0.002841968        -58.0921                0               0                0               0
1.55921                0.9729034       -20.85995      0.002955859       -61.28872                0               0                0               0
1.56579                0.9722359       -21.05545      0.003073306       -64.56964                0               0                0               0
1.57237                0.9715459       -21.25398       0.00319399         -67.929                0               0                0               0
1.57895                 0.970832       -21.45555      0.003317594       -71.36066                0               0                0               0
1.58553                0.9700927       -21.66023      0.003443809       -74.85832                0               0                0               0
1.59211                0.9693261       -21.86803      0.003572334       -78.41568                0               0                0               0
1.59868                0.9685309       -22.07899      0.003702882       -82.02649                0               0                0               0
1.60526                0.9677054       -22.29312      0.003835181       -85.68463                0               0                0               0
1.61184                0.9668486       -22.51045      0.003968974       -89.38414                0               0                0               0
1.61842                0.9659588       -22.73101      0.004104025       -93.11931                0               0                0               0
1.625                  0.9650351       -22.95479       0.00424012       -96.88464                0               0                0               0
1.63158                0.9640762       -23.18183      0.004377068       -100.6749                0               0                0               0
1.63816                0.9630812       -23.41214      0.004514704        -104.485                0               0                0               0
1.64474                0.9620492       -23.64575      0.004652891       -108.3103                0               0                0               0
1.65132                0.9609794       -23.88268      0.004791523       -112.1463                0               0                0               0
1.65789                 0.959871       -24.12297      0.004930527       -115.9887                0               0                0               0
1.66447                0.9587234       -24.36666      0.005069863       -119.8338                0               0                0               0
1.67105                0.9575358       -24.61379      0.005209528       -123.6778                0               0                0               0
1.67763                0.9563079       -24.86441      0.005349559       -127.5172                0               0                0               0
1.68421                0.9550389       -25.11862      0.005490035       -131.3492                0               0                0               0
1.69079                0.9537281       -25.37646      0.005631072       -135.1708                0               0                0               0
1.69737                0.9523751       -25.63804      0.005772836       -138.9795                0               0                0               0
1.70395                0.9509792       -25.90345      0.005915533       -142.7732                0               0                0               0
1.71053                0.9495393       -26.17281      0.006059417       -146.5501                0               0                0               0
1.71711                0.9480548       -26.44623      0.006204789       -150.3086                0               0                0               0
1.72368                0.9465244       -26.72385      0.006351992       -154.0477                0               0                0               0
1.73026                0.9449469       -27.00581      0.006501418       -157.7666                0               0                0               0
1.73684                0.9433211       -27.29226      0.006653501        -161.465                0               0                0               0
1.74342                0.9416451       -27.58336      0.006808716       -165.1429                0               0                0               0
1.75                   0.9399173       -27.87927      0.006967577       -168.8008                0               0                0               0
1.75658                0.9381356       -28.18018      0.007130638       -172.4396                0               0                0               0
1.76316                0.9362976       -28.48625      0.007298474       -176.0606                0               0                0               0
1.76974                0.9344008       -28.79767      0.007471696       -179.6656                0               0                0               0
1.77632                0.9324421       -29.11463      0.007650929        176.7434                0               0                0               0
1.78289                0.9304189       -29.43731      0.007836815        173.1638                0               0                0               0
1.78947                0.9283276       -29.76589          0.00803        169.5928                0               0                0               0
1.79605                0.9261646       -30.10057      0.008231133        166.0273                0               0                0               0
1.80263                0.9239261       -30.44151      0.008440849         162.464                0               0                0               0
1.80921                0.9216079       -30.78891      0.008659774        158.8991                0               0                0               0
1.81579                 0.919206       -31.14293      0.008888505        155.3291                0               0                0               0
1.82237                0.9167156       -31.50374      0.009127611          151.75                0               0                0               0
1.82895                0.9141321       -31.87152      0.009377621        148.1582                0               0                0               0
1.83553                0.9114507       -32.24641      0.009639021        144.5497                0               0                0               0
1.84211                0.9086662       -32.62857      0.009912247        140.9209                0               0                0               0
1.84868                0.9057734       -33.01815       0.01019768        137.2683                0               0                0               0
