! TOUCHSTONE file generated by CST MICROWAVE STUDIO
! Date and time: Tue Mar 11 13:56:35 2025
! Project name: transverse.cst
! Parameters = {Fracture=1; B=10; D=160; F=15; Feed=2.85625; L=100; M=10; R=0.384908; S=1; Theta=90; length=57.125; wave=114.25}
! Header version: 2024
! Port assignment regex: !\s*Touchstone port\s*([0-9]+)\s*=\s*(CST MWS port|CST DES external port|CST DES block port)\s*(.+)\s* \(\"(.*)\"\)(\s*mode\s*([0-9]+))?.*
! Touchstone port assignment:
! Touchstone port 1 = CST MWS port 1 ("")
! Touchstone port 2 = CST MWS port 2 ("")
# GHz S MA R 50
1                      0.9979284       -10.00759     0.0003333819       -121.5249                0               0                0               0
1.00658                0.9978275       -10.09804     0.0003527655       -126.7137                0               0                0               0
1.01316                  0.99772       -10.18874     0.0003710811       -131.8667                0               0                0               0
1.01974                0.9976068       -10.27967     0.0003882219        -136.975                0               0                0               0
1.02632                0.9974891        -10.3708     0.0004040867         -142.03                0               0                0               0
1.03289                0.9973681       -10.46213     0.0004185804       -147.0231                0               0                0               0
1.03947                0.9972448       -10.55365     0.0004316157       -151.9452                0               0                0               0
1.04605                0.9971206       -10.64538     0.0004431144       -156.7867                0               0                0               0
1.05263                0.9969967       -10.73734     0.0004530094       -161.5368                0               0                0               0
1.05921                0.9968742       -10.82959     0.0004612461       -166.1838                0               0                0               0
1.06579                 0.996754       -10.92217     0.0004677851       -170.7147                0               0                0               0
1.07237                0.9966371       -11.01514     0.0004726049       -175.1144                0               0                0               0
1.07895                0.9965241       -11.10857     0.0004757044       -179.3661                0               0                0               0
1.08553                0.9964157       -11.20254     0.0004771076        176.5493                0               0                0               0
1.09211                 0.996312       -11.29715     0.0004768672        172.6539                0               0                0               0
1.09868                0.9962133       -11.39246     0.0004750705        168.9724                0               0                0               0
1.10526                0.9961192       -11.48858     0.0004718455         165.533                0               0                0               0
1.11184                0.9960297       -11.58559      0.000467369        162.3667                0               0                0               0
1.11842                0.9959439       -11.68357     0.0004618744        159.5076                0               0                0               0
1.125                   0.995861       -11.78261     0.0004556619        156.9917                0               0                0               0
1.13158                0.9957802       -11.88277     0.0004491084        154.8549                0               0                0               0
1.13816                0.9957001       -11.98412     0.0004426756        153.1304                0               0                0               0
1.14474                0.9956197       -12.08671     0.0004369157        151.8432                0               0                0               0
1.15132                0.9955372       -12.19058     0.0004324689        151.0039                0               0                0               0
1.15789                0.9954514       -12.29575     0.0004300495        150.6008                0               0                0               0
1.16447                0.9953607       -12.40224     0.0004304161        150.5923                0               0                0               0
1.17105                0.9952635       -12.51006     0.0004343239        150.9018                0               0                0               0
1.17763                0.9951585       -12.61918     0.0004424629        151.4198                0               0                0               0
1.18421                0.9950442       -12.72959     0.0004553946        152.0129                0               0                0               0
1.19079                0.9949195       -12.84124      0.000473501        152.5401                0               0                0               0
1.19737                 0.994783        -12.9541      0.000496962        152.8723                0               0                0               0
1.20395                0.9946342       -13.06809      0.000525763        152.9067                0               0                0               0
1.21053                0.9944721       -13.18318     0.0005597285        152.5748                0               0                0               0
1.21711                0.9942964       -13.29927     0.0005985672        151.8422                0               0                0               0
1.22368                0.9941066       -13.41632     0.0006419176        150.7033                0               0                0               0
1.23026                 0.993903       -13.53425     0.0006893845        149.1729                0               0                0               0
1.23684                0.9936857       -13.65299     0.0007405651        147.2787                0               0                0               0
1.24342                0.9934552       -13.77248     0.0007950653        145.0554                0               0                0               0
1.25                   0.9932121       -13.89268     0.0008525085        142.5397                0               0                0               0
1.25658                0.9929574       -14.01353     0.0009125383        139.7679                0               0                0               0
1.26316                 0.992692       -14.13499     0.0009748203        136.7741                0               0                0               0
1.26974                0.9924173       -14.25706       0.00103904        133.5897                0               0                0               0
1.27632                0.9921342       -14.37972      0.001104902        130.2427                0               0                0               0
1.28289                0.9918443       -14.50298      0.001172127         126.758                0               0                0               0
1.28947                0.9915488       -14.62686      0.001240454        123.1579                0               0                0               0
1.29605                 0.991249       -14.75139      0.001309635        119.4619                0               0                0               0
1.30263                0.9909461       -14.87663      0.001379436        115.6872                0               0                0               0
1.30921                0.9906413       -15.00264      0.001449639        111.8492                0               0                0               0
1.31579                0.9903354        -15.1295      0.001520039        107.9613                0               0                0               0
1.32237                0.9900291       -15.25729      0.001590446        104.0359                0               0                0               0
1.32895                0.9897232       -15.38612      0.001660686        100.0837                0               0                0               0
1.33553                0.9894177       -15.51609        0.0017306        96.11466                0               0                0               0
1.34211                0.9891129       -15.64731      0.001800051        92.13761                0               0                0               0
1.34868                0.9888084       -15.77988      0.001868918        88.16069                0               0                0               0
1.35526                0.9885038       -15.91392      0.001937104        84.19136                0               0                0               0
1.36184                0.9881983       -16.04953      0.002004533        80.23646                0               0                0               0
1.36842                0.9878909       -16.18682      0.002071155        76.30229                0               0                0               0
1.375                  0.9875804       -16.32588      0.002136948        72.39463                0               0                0               0
1.38158                0.9872654        -16.4668      0.002201918        68.51883                0               0                0               0
1.38816                0.9869441       -16.60964      0.002266103        64.67974                0               0                0               0
1.39474                0.9866151       -16.75447      0.002329573        60.88178                0               0                0               0
1.40132                0.9862764       -16.90133      0.002392434         57.1289                0               0                0               0
1.40789                0.9859262       -17.05025      0.002454827        53.42454                0               0                0               0
1.41447                0.9855625       -17.20124      0.002516929        49.77161                0               0                0               0
1.42105                0.9851836       -17.35432      0.002578958        46.17247                0               0                0               0
1.42763                0.9847877       -17.50945      0.002641168        42.62884                0               0                0               0
1.43421                0.9843735       -17.66662       0.00270385        39.14175                0               0                0               0
1.44079                0.9839393       -17.82579      0.002767334        35.71153                0               0                0               0
1.44737                0.9834841       -17.98691      0.002831982         32.3377                0               0                0               0
1.45395                0.9830068       -18.14992      0.002898189        29.01898                0               0                0               0
1.46053                0.9825068       -18.31476      0.002966377         25.7532                0               0                0               0
1.46711                0.9819836       -18.48137      0.003036992        22.53736                0               0                0               0
1.47368                0.9814372        -18.6497      0.003110496        19.36757                0               0                0               0
1.48026                0.9808676       -18.81968      0.003187363        16.23913                0               0                0               0
1.48684                0.9802752       -18.99127      0.003268071        13.14658                0               0                0               0
1.49342                0.9796608       -19.16442      0.003353093        10.08377                0               0                0               0
1.5                     0.979025       -19.33911      0.003442891        7.044035                0               0                0               0
1.50658                 0.978369       -19.51533      0.003537906        4.020272                0               0                0               0
1.51316                0.9776942       -19.69307      0.003638553        1.005146                0               0                0               0
1.51974                0.9770014       -19.87236      0.003745213       -2.008755                0               0                0               0
1.52632                0.9762922       -20.05325      0.003858224       -5.028736                0               0                0               0
1.53289                 0.975568       -20.23578      0.003977883       -8.061837                0               0                0               0
1.53947                0.9748298       -20.42005      0.004104435       -11.11467                0               0                0               0
1.54605                0.9740788       -20.60616      0.004238073        -14.1933                0               0                0               0
1.55263                0.9733159       -20.79422      0.004378937       -17.30311                0               0                0               0
1.55921                0.9725419       -20.98438      0.004527115       -20.44878                0               0                0               0
1.56579                0.9717571       -21.17679      0.004682643       -23.63416                0               0                0               0
1.57237                0.9709617       -21.37162      0.004845506       -26.86234                0               0                0               0
1.57895                0.9701553       -21.56904      0.005015642       -30.13558                0               0                0               0
1.58553                0.9693374       -21.76925      0.005192945        -33.4554                0               0                0               0
1.59211                0.9685069       -21.97242      0.005377273       -36.82257                0               0                0               0
1.59868                0.9676624       -22.17876      0.005568444       -40.23724                0               0                0               0
1.60526                 0.966802       -22.38845      0.005766248       -43.69892                0               0                0               0
1.61184                0.9659234       -22.60166      0.005970449       -47.20664                0               0                0               0
1.61842                0.9650243       -22.81858      0.006180789       -50.75896                0               0                0               0
1.625                  0.9641014       -23.03935      0.006396995       -54.35405                0               0                0               0
1.63158                0.9631517       -23.26413      0.006618782        -57.9898                0               0                0               0
1.63816                0.9621715       -23.49303      0.006845855       -61.66383                0               0                0               0
1.64474                0.9611573       -23.72616      0.007077919       -65.37357                0               0                0               0
1.65132                0.9601052        -23.9636      0.007314679        -69.1163                0               0                0               0
1.65789                0.9590113        -24.2054      0.007555847       -72.88923                0               0                0               0
1.66447                0.9578717       -24.45162      0.007801143        -76.6895                0               0                0               0
1.67105                0.9566825       -24.70224        0.0080503       -80.51421                0               0                0               0
1.67763                  0.95544       -24.95728      0.008303073        -84.3605                0               0                0               0
1.68421                0.9541405       -25.21669      0.008559232       -88.22552                0               0                0               0
1.69079                0.9527808       -25.48043      0.008818579       -92.10649                0               0                0               0
1.69737                0.9513577       -25.74844      0.009080934       -96.00069                0               0                0               0
1.70395                0.9498686       -26.02065      0.009346166       -99.90551                0               0                0               0
1.71053                0.9483109       -26.29696      0.009614164       -103.8184                0               0                0               0
1.71711                0.9466826       -26.57728      0.009884862       -107.7371                0               0                0               0
1.72368                 0.944982       -26.86153       0.01015824       -111.6592                0               0                0               0
1.73026                 0.943208       -27.14963       0.01043431       -115.5826                0               0                0               0
1.73684                0.9413594       -27.44147       0.01071314       -119.5055                0               0                0               0
1.74342                0.9394359       -27.73701       0.01099486       -123.4259                0               0                0               0
1.75                    0.937437       -28.03618       0.01127963       -127.3424                0               0                0               0
1.75658                0.9353628       -28.33895       0.01156766       -131.2535                0               0                0               0
1.76316                0.9332135        -28.6453       0.01185924        -135.158                0               0                0               0
1.76974                0.9309895       -28.95526       0.01215469       -139.0548                0               0                0               0
1.77632                 0.928691       -29.26886        0.0124544       -142.9433                0               0                0               0
1.78289                0.9263185       -29.58616       0.01275879       -146.8228                0               0                0               0
1.78947                0.9238724       -29.90728       0.01306837        -150.693                0               0                0               0
1.79605                0.9213527       -30.23234       0.01338366       -154.5538                0               0                0               0
1.80263                0.9187594       -30.56149       0.01370524       -158.4053                0               0                0               0
1.80921                0.9160921       -30.89494       0.01403376        -162.248                0               0                0               0
1.81579                  0.91335       -31.23289       0.01436986       -166.0825                0               0                0               0
1.82237                0.9105317       -31.57558       0.01471425       -169.9095                0               0                0               0
1.82895                0.9076354       -31.92327       0.01506766       -173.7302                0               0                0               0
1.83553                0.9046588       -32.27626       0.01543083        -177.546                0               0                0               0
1.84211                0.9015987        -32.6348       0.01580451        178.6418                0               0                0               0
1.84868                0.8984517       -32.99921       0.01618948        174.8315                0               0                0               0
