! TOUCHSTONE file generated by CST MICROWAVE STUDIO
! Date and time: Tue Mar 11 13:55:44 2025
! Project name: transverse.cst
! Parameters = {Fracture=5; B=10; D=160; F=5; Feed=2.85625; L=100; M=10; R=0.384908; S=1; Theta=0; length=57.125; wave=114.25}
! Header version: 2024
! Port assignment regex: !\s*Touchstone port\s*([0-9]+)\s*=\s*(CST MWS port|CST DES external port|CST DES block port)\s*(.+)\s* \(\"(.*)\"\)(\s*mode\s*([0-9]+))?.*
! Touchstone port assignment:
! Touchstone port 1 = CST MWS port 1 ("")
! Touchstone port 2 = CST MWS port 2 ("")
# GHz S MA R 50
1                      0.9979232       -9.744266     0.0003113394       -114.6593                0               0                0               0
1.00658                0.9978404       -9.833402     0.0003364327        -120.172                0               0                0               0
1.01316                0.9977496       -9.922968     0.0003606092       -125.6911                0               0                0               0
1.01974                0.9976511       -10.01291      0.000383734       -131.2062                0               0                0               0
1.02632                0.9975458       -10.10319     0.0004056743       -136.7092                0               0                0               0
1.03289                0.9974342       -10.19376     0.0004262999       -142.1932                0               0                0               0
1.03947                0.9973176        -10.2846     0.0004454838       -147.6518                0               0                0               0
1.04605                0.9971967       -10.37569     0.0004631031       -153.0792                0               0                0               0
1.05263                0.9970728       -10.46701     0.0004790396       -158.4697                0               0                0               0
1.05921                 0.996947       -10.55858     0.0004931809       -163.8175                0               0                0               0
1.06579                0.9968206       -10.65041      0.000505421       -169.1165                0               0                0               0
1.07237                0.9966945       -10.74252     0.0005156618       -174.3599                0               0                0               0
1.07895                  0.99657       -10.83497     0.0005238136       -179.5407                0               0                0               0
1.08553                 0.996448       -10.92779     0.0005297966        175.3496                0               0                0               0
1.09211                0.9963294       -11.02105     0.0005335424        170.3204                0               0                0               0
1.09868                 0.996215       -11.11483     0.0005349954        165.3826                0               0                0               0
1.10526                0.9961052       -11.20919     0.0005341144        160.5492                0               0                0               0
1.11184                0.9960005       -11.30423     0.0005308753        155.8353                0               0                0               0
1.11842                0.9959008       -11.40002     0.0005252734        151.2595                0               0                0               0
1.125                  0.9958063       -11.49667     0.0005173273        146.8438                0               0                0               0
1.13158                0.9957165       -11.59426     0.0005070824        142.6152                0               0                0               0
1.13816                0.9956308       -11.69288     0.0004946179        138.6069                0               0                0               0
1.14474                0.9955486       -11.79261     0.0004800537        134.8598                0               0                0               0
1.15132                0.9954691       -11.89352     0.0004635613        131.4246                0               0                0               0
1.15789                0.9953909        -11.9957     0.0004453776        128.3645                0               0                0               0
1.16447                0.9953129       -12.09919     0.0004258251        125.7574                0               0                0               0
1.17105                0.9952337       -12.20405     0.0004053374        123.6985                0               0                0               0
1.17763                0.9951516       -12.31032     0.0003844945        122.3013                0               0                0               0
1.18421                0.9950654       -12.41801     0.0003640639        121.6939                0               0                0               0
1.19079                0.9949733       -12.52713     0.0003450453         122.006                0               0                0               0
1.19737                0.9948739        -12.6377     0.0003286994        123.3393                0               0                0               0
1.20395                0.9947656       -12.74969     0.0003165258        125.7153                0               0                0               0
1.21053                0.9946471       -12.86307     0.0003101394        129.0092                0               0                0               0
1.21711                 0.994517       -12.97781     0.0003110159         132.905                0               0                0               0
1.22368                0.9943745       -13.09387     0.0003201632        136.9296                0               0                0               0
1.23026                0.9942184       -13.21118      0.000337888        140.5785                0               0                0               0
1.23684                0.9940482       -13.32969     0.0003637998        143.4622                0               0                0               0
1.24342                0.9938632       -13.44933     0.0003970326         145.381                0               0                0               0
1.25                   0.9936633       -13.57003      0.000436523        146.3054                0               0                0               0
1.25658                0.9934484       -13.69174     0.0004812156        146.3126                0               0                0               0
1.26316                0.9932189       -13.81438     0.0005301656        145.5264                0               0                0               0
1.26974                0.9929749        -13.9379     0.0005825666        144.0786                0               0                0               0
1.27632                0.9927173       -14.06224     0.0006377414        142.0903                0               0                0               0
1.28289                0.9924468       -14.18737     0.0006951201        139.6651                0               0                0               0
1.28947                0.9921645       -14.31325      0.000754217        136.8891                0               0                0               0
1.29605                0.9918713       -14.43987     0.0008146116        133.8321                0               0                0               0
1.30263                0.9915686       -14.56721      0.000875933         130.551                0               0                0               0
1.30921                0.9912576       -14.69529     0.0009378498         127.092                0               0                0               0
1.31579                0.9909395       -14.82414      0.001000062        123.4929                0               0                0               0
1.32237                0.9906155       -14.95378      0.001062296        119.7847                0               0                0               0
1.32895                0.9902868       -15.08427      0.001124302        115.9934                0               0                0               0
1.33553                0.9899545       -15.21569       0.00118585        112.1409                0               0                0               0
1.34211                0.9896194        -15.3481      0.001246731        108.2458                0               0                0               0
1.34868                0.9892822        -15.4816      0.001306758        104.3243                0               0                0               0
1.35526                0.9889433       -15.61629      0.001365765        100.3904                0               0                0               0
1.36184                 0.988603       -15.75228      0.001423607        96.45672                0               0                0               0
1.36842                0.9882614       -15.88967      0.001480166        92.53445                0               0                0               0
1.375                  0.9879181       -16.02858       0.00153535        88.63378                0               0                0               0
1.38158                0.9875725       -16.16913      0.001589094        84.76405                0               0                0               0
1.38816                0.9872239       -16.31143      0.001641368        80.93386                0               0                0               0
1.39474                 0.986871       -16.45558      0.001692172        77.15117                0               0                0               0
1.40132                0.9865127       -16.60169      0.001741547        73.42335                0               0                0               0
1.40789                0.9861473       -16.74984      0.001789572        69.75721                0               0                0               0
1.41447                0.9857731       -16.90012       0.00183637        66.15896                0               0                0               0
1.42105                0.9853883       -17.05259      0.001882107        62.63419                0               0                0               0
1.42763                0.9849908        -17.2073         0.001927        59.18778                0               0                0               0
1.43421                0.9845786       -17.36428      0.001971311        55.82379                0               0                0               0
1.44079                0.9841495       -17.52357      0.002015358        52.54538                0               0                0               0
1.44737                0.9837016       -17.68516      0.002059505         49.3546                0               0                0               0
1.45395                0.9832329       -17.84904      0.002104167        46.25229                0               0                0               0
1.46053                0.9827413       -18.01518      0.002149807        43.23792                0               0                0               0
1.46711                0.9822255       -18.18356      0.002196932        40.30941                0               0                0               0
1.47368                0.9816835       -18.35411      0.002246083        37.46305                0               0                0               0
1.48026                0.9811144       -18.52679      0.002297837        34.69343                0               0                0               0
1.48684                0.9805169       -18.70152      0.002352787        31.99341                0               0                0               0
1.49342                0.9798905       -18.87823       0.00241154        29.35419                0               0                0               0
1.5                    0.9792345       -19.05686      0.002474698        26.76548                0               0                0               0
1.50658                0.9785488       -19.23733      0.002542854        24.21569                0               0                0               0
1.51316                0.9778334       -19.41958       0.00261657        21.69227                0               0                0               0
1.51974                0.9770889       -19.60355      0.002696371         19.1821                0               0                0               0
1.52632                0.9763157       -19.78919      0.002782731        16.67187                0               0                0               0
1.53289                0.9755148       -19.97646      0.002876066        14.14852                0               0                0               0
1.53947                0.9746871       -20.16535      0.002976725        11.59967                0               0                0               0
1.54605                0.9738338       -20.35585      0.003084987        9.013942                0               0                0               0
1.55263                0.9729564       -20.54798      0.003201056        6.381256                0               0                0               0
1.55921                0.9720558       -20.74177      0.003325066        3.693039                0               0                0               0
1.56579                0.9711337       -20.93728      0.003457079       0.9423457                0               0                0               0
1.57237                0.9701911       -21.13458      0.003597091       -1.876124                0               0                0               0
1.57895                0.9692293       -21.33378      0.003745039       -4.766055                0               0                0               0
1.58553                0.9682491       -21.53499      0.003900805       -7.729616                0               0                0               0
1.59211                0.9672514       -21.73835      0.004064221       -10.76761                0               0                0               0
1.59868                0.9662363         -21.944      0.004235081       -13.87962                0               0                0               0
1.60526                0.9652043       -22.15212      0.004413143        -17.0642                0               0                0               0
1.61184                 0.964155       -22.36289      0.004598139       -20.31906                0               0                0               0
1.61842                0.9630877       -22.57649      0.004789779        -23.6412                0               0                0               0
1.625                  0.9620016        -22.7931      0.004987758       -27.02712                0               0                0               0
1.63158                 0.960895       -23.01293      0.005191762       -30.47288                0               0                0               0
1.63816                0.9597663       -23.23616       0.00540147       -33.97432                0               0                0               0
1.64474                0.9586131       -23.46299      0.005616566       -37.52707                0               0                0               0
1.65132                 0.957433       -23.69358      0.005836735       -41.12667                0               0                0               0
1.65789                0.9562227        -23.9281      0.006061671       -44.76868                0               0                0               0
1.66447                0.9549792        -24.1667      0.006291085       -48.44866                0               0                0               0
1.67105                0.9536988        -24.4095        0.0065247       -52.16227                0               0                0               0
1.67763                0.9523779       -24.65662      0.006762267       -55.90527                0               0                0               0
1.68421                0.9510124       -24.90815      0.007003553        -59.6736                0               0                0               0
1.69079                0.9495984       -25.16414      0.007248362       -63.46332                0               0                0               0
1.69737                0.9481318       -25.42465      0.007496525       -67.27071                0               0                0               0
1.70395                0.9466086       -25.68969       0.00774791       -71.09224                0               0                0               0
1.71053                 0.945025       -25.95924      0.008002424       -74.92457                0               0                0               0
1.71711                0.9433772        -26.2333      0.008260017       -78.76459                0               0                0               0
1.72368                0.9416617       -26.51181      0.008520681       -82.60942                0               0                0               0
1.73026                0.9398752       -26.79471      0.008784458        -86.4564                0               0                0               0
1.73684                 0.938015       -27.08191      0.009051441       -90.30312                0               0                0               0
1.74342                0.9360782       -27.37335      0.009321776       -94.14741                0               0                0               0
1.75                   0.9340628       -27.66893      0.009595662       -97.98737                0               0                0               0
1.75658                0.9319669       -27.96854      0.009873353       -101.8213                0               0                0               0
1.76316                0.9297892        -28.2721       0.01015516       -105.6479                0               0                0               0
1.76974                0.9275285       -28.57951       0.01044146       -109.4661                0               0                0               0
1.77632                0.9251843       -28.89071       0.01073267       -113.2749                0               0                0               0
1.78289                0.9227561       -29.20563       0.01102927        -117.074                0               0                0               0
1.78947                 0.920244       -29.52424       0.01133181       -120.8629                0               0                0               0
1.79605                0.9176482        -29.8465       0.01164086       -124.6419                0               0                0               0
1.80263                0.9149688       -30.17245       0.01195707       -128.4111                0               0                0               0
1.80921                0.9122065        -30.5021       0.01228111       -132.1713                0               0                0               0
1.81579                0.9093617       -30.83553       0.01261371       -135.9234                0               0                0               0
1.82237                0.9064347       -31.17284        0.0129556       -139.6684                0               0                0               0
1.82895                0.9034258       -31.51418       0.01330757       -143.4079                0               0                0               0
1.83553                0.9003352       -31.85969       0.01367041       -147.1435                0               0                0               0
1.84211                0.8971622        -32.2096       0.01404493       -150.8771                0               0                0               0
1.84868                0.8939064       -32.56414       0.01443193       -154.6107                0               0                0               0
