! TOUCHSTONE file generated by CST MICROWAVE STUDIO
! Date and time: Tue Mar 11 13:57:24 2025
! Project name: transverse.cst
! Parameters = {Fracture=5; B=10; D=160; F=25; Feed=2.85625; L=100; M=30; R=0.384908; S=2; Theta=180; length=57.125; wave=114.25}
! Header version: 2024
! Port assignment regex: !\s*Touchstone port\s*([0-9]+)\s*=\s*(CST MWS port|CST DES external port|CST DES block port)\s*(.+)\s* \(\"(.*)\"\)(\s*mode\s*([0-9]+))?.*
! Touchstone port assignment:
! Touchstone port 1 = CST MWS port 1 ("")
! Touchstone port 2 = CST MWS port 2 ("")
# GHz S MA R 50
1                      0.9975385       -9.750651     0.0004763345        166.0042                0               0                0               0
1.0066                 0.9974797       -9.836418     0.0004759788        160.4246                0               0                0               0
1.0132                 0.9974244       -9.922967     0.0004738847        154.9593                0               0                0               0
1.0198                 0.9973724       -10.01037     0.0004700378        149.6188                0               0                0               0
1.0264                 0.9973223       -10.09867     0.0004644371        144.4164                0               0                0               0
1.033                  0.9972734       -10.18794     0.0004570973        139.3685                0               0                0               0
1.0396                 0.9972247       -10.27821     0.0004480513        134.4952                0               0                0               0
1.0462                 0.9971747       -10.36952     0.0004373536        129.8216                0               0                0               0
1.05281                0.9971224       -10.46189     0.0004250851        125.3784                0               0                0               0
1.05941                0.9970665       -10.55533     0.0004113591        121.2038                0               0                0               0
1.06601                0.9970056       -10.64985     0.0003963294        117.3449                0               0                0               0
1.07261                0.9969385       -10.74543     0.0003802009        113.8594                0               0                0               0
1.07921                0.9968641       -10.84206     0.0003632442        110.8182                0               0                0               0
1.08581                0.9967811       -10.93969     0.0003458143        108.3056                0               0                0               0
1.09241                0.9966886        -11.0383     0.0003283741          106.42                0               0                0               0
1.09901                 0.996586       -11.13782     0.0003115217        105.2684                0               0                0               0
1.10561                0.9964723       -11.23822     0.0002960149        104.9539                0               0                0               0
1.11221                0.9963473       -11.33942     0.0002827839          105.55                0               0                0               0
1.11881                0.9962107       -11.44137      0.000272905        107.0595                0               0                0               0
1.12541                0.9960624       -11.54401     0.0002675113        109.3657                0               0                0               0
1.13201                0.9959025       -11.64727     0.0002676244        112.2029                0               0                0               0
1.13861                0.9957315        -11.7511      0.000273949        115.1825                0               0                0               0
1.14521                0.9955498       -11.85545     0.0002867224        117.8834                0               0                0               0
1.15182                0.9953582       -11.96026     0.0003057051        119.9627                0               0                0               0
1.15842                0.9951576       -12.06551     0.0003303084        121.2198                0               0                0               0
1.16502                0.9949488       -12.17117     0.0003597713        121.5957                0               0                0               0
1.17162                0.9947329       -12.27721     0.0003933071          121.13                0               0                0               0
1.17822                0.9945113       -12.38364     0.0004301871        119.9139                0               0                0               0
1.18482                0.9942849       -12.49046     0.0004697723        118.0552                0               0                0               0
1.19142                0.9940549        -12.5977     0.0005115148        115.6591                0               0                0               0
1.19802                0.9938226       -12.70538     0.0005549464        112.8192                0               0                0               0
1.20462                0.9935887       -12.81355     0.0005996632        109.6153                0               0                0               0
1.21122                0.9933546       -12.92227     0.0006453118        106.1137                0               0                0               0
1.21782                0.9931206        -13.0316     0.0006915769        102.3689                0               0                0               0
1.22442                0.9928877       -13.14161     0.0007381736        98.42579                0               0                0               0
1.23102                0.9926562        -13.2524     0.0007848396        94.32107                0               0                0               0
1.23762                0.9924264       -13.36403     0.0008313305         90.0852                0               0                0               0
1.24422                0.9921981        -13.4766     0.0008774165        85.74352                0               0                0               0
1.25083                0.9919714        -13.5902     0.0009228801        81.31732                0               0                0               0
1.25743                0.9917457       -13.70492     0.0009675147         76.8247                0               0                0               0
1.26403                0.9915204       -13.82084      0.001011123        72.28119                0               0                0               0
1.27063                0.9912947       -13.93805      0.001053518        67.70035                0               0                0               0
1.27723                0.9910676        -14.0566      0.001094522        63.09414                0               0                0               0
1.28383                0.9908378       -14.17658      0.001133965        58.47328                0               0                0               0
1.29043                0.9906041       -14.29803       0.00117169        53.84753                0               0                0               0
1.29703                0.9903651       -14.42099       0.00120755        49.22595                0               0                0               0
1.30363                0.9901194        -14.5455      0.001241411        44.61702                0               0                0               0
1.31023                0.9898653       -14.67157      0.001273152        40.02887                0               0                0               0
1.31683                0.9896016        -14.7992      0.001302665        35.46938                0               0                0               0
1.32343                0.9893266       -14.92839      0.001329863        30.94633                0               0                0               0
1.33003                0.9890392       -15.05912      0.001354672        26.46745                0               0                0               0
1.33663                 0.988738       -15.19137      0.001377043        22.04056                0               0                0               0
1.34323                0.9884222       -15.32508      0.001396947        17.67362                0               0                0               0
1.34984                0.9880905       -15.46021      0.001414381         13.3748                0               0                0               0
1.35644                0.9877425       -15.59672       0.00142937        9.152514                0               0                0               0
1.36304                0.9873778       -15.73454      0.001441969         5.01548                0               0                0               0
1.36964                 0.986996       -15.87361      0.001452268       0.9726943                0               0                0               0
1.37624                0.9865972       -16.01389      0.001460393       -2.966568                0               0                0               0
1.38284                0.9861816        -16.1553      0.001466514       -6.792815                0               0                0               0
1.38944                0.9857497       -16.29781      0.001470844       -10.49645                0               0                0               0
1.39604                 0.985302       -16.44138      0.001473644       -14.06791                0               0                0               0
1.40264                0.9848396       -16.58596      0.001475229       -17.49795                0               0                0               0
1.40924                0.9843632       -16.73155      0.001475967        -20.7779                0               0                0               0
1.41584                0.9838742       -16.87814      0.001476285       -23.90016                0               0                0               0
1.42244                0.9833735       -17.02573      0.001476669       -26.85868                0               0                0               0
1.42904                0.9828626       -17.17434       0.00147766       -29.64958                0               0                0               0
1.43564                0.9823425       -17.32401      0.001479853       -32.27192                0               0                0               0
1.44224                0.9818146       -17.47481      0.001483889       -34.72835                0               0                0               0
1.44884                0.9812799       -17.62679      0.001490447       -37.02586                0               0                0               0
1.45545                0.9807395       -17.78004      0.001500222       -39.17632                0               0                0               0
1.46205                0.9801939       -17.93467      0.001513913       -41.19678                0               0                0               0
1.46865                 0.979644       -18.09077      0.001532199       -43.10937                0               0                0               0
1.47525                0.9790901       -18.24847      0.001555714       -44.94076                0               0                0               0
1.48185                0.9785323        -18.4079       0.00158502       -46.72118                0               0                0               0
1.48845                0.9779703       -18.56918      0.001620592       -48.48296                0               0                0               0
1.49505                0.9774038       -18.73246        0.0016628       -50.25887                0               0                0               0
1.50165                 0.976832       -18.89787      0.001711894       -52.08034                0               0                0               0
1.50825                0.9762538       -19.06555      0.001768006       -53.97592                0               0                0               0
1.51485                0.9756678       -19.23562      0.001831151       -55.97003                0               0                0               0
1.52145                0.9750727        -19.4082      0.001901238       -58.08222                0               0                0               0
1.52805                0.9744664        -19.5834      0.001978085       -60.32682                0               0                0               0
1.53465                0.9738469       -19.76133      0.002061429        -62.7131                0               0                0               0
1.54125                0.9732121       -19.94206      0.002150948       -65.24572                0               0                0               0
1.54785                0.9725596       -20.12567      0.002246275       -67.92535                0               0                0               0
1.55446                 0.971887        -20.3122      0.002347008        -70.7494                0               0                0               0
1.56106                0.9711919        -20.5017      0.002452727       -73.71277                0               0                0               0
1.56766                 0.970472       -20.69419         0.002563       -76.80852                0               0                0               0
1.57426                0.9697248       -20.88966      0.002677391       -80.02843                0               0                0               0
1.58086                0.9689482       -21.08811      0.002795467        -83.3635                0               0                0               0
1.58746                  0.96814       -21.28951      0.002916801       -86.80436                0               0                0               0
1.59406                0.9672986       -21.49382      0.003040977        -90.3415                0               0                0               0
1.60066                0.9664223       -21.70099      0.003167594       -93.96552                0               0                0               0
1.60726                0.9655097       -21.91097      0.003296262       -97.66725                0               0                0               0
1.61386                0.9645598        -22.1237      0.003426611       -101.4379                0               0                0               0
1.62046                 0.963572       -22.33912      0.003558292        -105.269                0               0                0               0
1.62706                0.9625456       -22.55716       0.00369097       -109.1526                0               0                0               0
1.63366                0.9614807       -22.77779      0.003824337       -113.0811                0               0                0               0
1.64026                0.9603773       -23.00094      0.003958107       -117.0474                0               0                0               0
1.64686                0.9592361       -23.22659      0.004092018       -121.0448                0               0                0               0
1.65347                0.9580575       -23.45472      0.004225835       -125.0671                0               0                0               0
1.66007                0.9568423       -23.68534      0.004359354       -129.1082                0               0                0               0
1.66667                0.9555918       -23.91844      0.004492397       -133.1628                0               0                0               0
1.67327                 0.954307       -24.15409      0.004624825       -137.2254                0               0                0               0
1.67987                0.9529891       -24.39233      0.004756527       -141.2914                0               0                0               0
1.68647                0.9516392       -24.63327      0.004887434       -145.3562                0               0                0               0
1.69307                0.9502583       -24.87701      0.005017514       -149.4155                0               0                0               0
1.69967                0.9488475       -25.12369      0.005146776       -153.4654                0               0                0               0
1.70627                0.9474075       -25.37347      0.005275274       -157.5022                0               0                0               0
1.71287                0.9459387       -25.62654      0.005403106       -161.5227                0               0                0               0
1.71947                0.9444415       -25.88311      0.005530419       -165.5238                0               0                0               0
1.72607                0.9429154       -26.14338      0.005657408       -169.5028                0               0                0               0
1.73267                  0.94136       -26.40762      0.005784316       -173.4575                0               0                0               0
1.73927                0.9397743       -26.67607      0.005911442       -177.3858                0               0                0               0
1.74587                0.9381567       -26.94898       0.00603913        178.7138                0               0                0               0
1.75248                0.9365054       -27.22665      0.006167781        174.8425                0               0                0               0
1.75908                0.9348178       -27.50932      0.006297842        171.0011                0               0                0               0
1.76568                 0.933091       -27.79727      0.006429808        167.1899                0               0                0               0
1.77228                0.9313218       -28.09077      0.006564227        163.4086                0               0                0               0
1.77888                0.9295061       -28.39006      0.006701678        159.6567                0               0                0               0
1.78548                  0.92764        -28.6954      0.006842789        155.9328                0               0                0               0
1.79208                0.9257186       -29.00701      0.006988214        152.2354                0               0                0               0
1.79868                0.9237373        -29.3251      0.007138636        148.5621                0               0                0               0
1.80528                0.9216909       -29.64987      0.007294759        144.9103                0               0                0               0
1.81188                0.9195738       -29.98148      0.007457294        141.2767                0               0                0               0
1.81848                0.9173807       -30.32008       0.00762696        137.6579                0               0                0               0
1.82508                0.9151062       -30.66581      0.007804468        134.0498                0               0                0               0
1.83168                0.9127444       -31.01878      0.007990513         130.448                0               0                0               0
1.83828                0.9102899       -31.37907      0.008185764         126.848                0               0                0               0
1.84488                0.9077372       -31.74676      0.008390862        123.2451                0               0                0               0
1.85149                0.9050809       -32.12191        0.0086064        119.6345                0               0                0               0
