! TOUCHSTONE file generated by CST MICROWAVE STUDIO
! Date and time: Tue Mar 11 13:57:25 2025
! Project name: transverse.cst
! Parameters = {Fracture=1; B=12.5; D=160; F=5; Feed=2.85625; L=100; M=10; R=0.384908; S=2; Theta=180; length=57.125; wave=114.25}
! Header version: 2024
! Port assignment regex: !\s*Touchstone port\s*([0-9]+)\s*=\s*(CST MWS port|CST DES external port|CST DES block port)\s*(.+)\s* \(\"(.*)\"\)(\s*mode\s*([0-9]+))?.*
! Touchstone port assignment:
! Touchstone port 1 = CST MWS port 1 ("")
! Touchstone port 2 = CST MWS port 2 ("")
# GHz S MA R 50
1                      0.9978402       -9.998066     0.0002725695       -126.6488                0               0                0               0
1.00658                0.9977573       -10.08818     0.0002925519       -130.8205                0               0                0               0
1.01316                0.9976683       -10.17874     0.0003119615       -135.1192                0               0                0               0
1.01974                0.9975737        -10.2697     0.0003306731       -139.5096                0               0                0               0
1.02632                0.9974738       -10.36105     0.0003485691       -143.9635                0               0                0               0
1.03289                0.9973695       -10.45276     0.0003655386       -148.4579                0               0                0               0
1.03947                0.9972613       -10.54482     0.0003814773       -152.9731                0               0                0               0
1.04605                0.9971502       -10.63723     0.0003962875       -157.4922                0               0                0               0
1.05263                0.9970368       -10.72998     0.0004098788       -161.9999                0               0                0               0
1.05921                0.9969221        -10.8231     0.0004221688       -166.4822                0               0                0               0
1.06579                0.9968068        -10.9166     0.0004330835       -170.9253                0               0                0               0
1.07237                0.9966917       -11.01051     0.0004425591       -175.3159                0               0                0               0
1.07895                0.9965775       -11.10486     0.0004505428       -179.6405                0               0                0               0
1.08553                0.9964649       -11.19972     0.0004569946        176.1152                0               0                0               0
1.09211                0.9963543       -11.29512      0.000461889        171.9662                0               0                0               0
1.09868                0.9962461       -11.39113     0.0004652172        167.9286                0               0                0               0
1.10526                0.9961407        -11.4878       0.00046699        164.0203                0               0                0               0
1.11184                0.9960381       -11.58521     0.0004672404        160.2607                0               0                0               0
1.11842                0.9959382       -11.68342     0.0004660274        156.6717                0               0                0               0
1.125                  0.9958408       -11.78249     0.0004634407        153.2773                0               0                0               0
1.13158                0.9957455        -11.8825     0.0004596055        150.1042                0               0                0               0
1.13816                0.9956518       -11.98351     0.0004546882        147.1815                0               0                0               0
1.14474                 0.995559       -12.08557     0.0004489039        144.5406                0               0                0               0
1.15132                0.9954664       -12.18874     0.0004425229         142.214                0               0                0               0
1.15789                0.9953728       -12.29307     0.0004358782        140.2341                0               0                0               0
1.16447                0.9952775       -12.39858     0.0004293715        138.6302                0               0                0               0
1.17105                0.9951794       -12.50533     0.0004234764        137.4245                0               0                0               0
1.17763                0.9950771       -12.61332     0.0004187357         136.627                0               0                0               0
1.18421                0.9949697       -12.72256     0.0004157499        136.2291                0               0                0               0
1.19079                 0.994856       -12.83307     0.0004151537        136.1969                0               0                0               0
1.19737                 0.994735       -12.94483       0.00041758        136.4677                0               0                0               0
1.20395                0.9946056       -13.05783     0.0004236124          136.95                0               0                0               0
1.21053                0.9944669       -13.17205     0.0004337355        137.5303                0               0                0               0
1.21711                0.9943181       -13.28745     0.0004482929        138.0854                0               0                0               0
1.22368                0.9941585       -13.40401     0.0004674649        138.4973                0               0                0               0
1.23026                0.9939875       -13.52169     0.0004912687        138.6674                0               0                0               0
1.23684                 0.993805       -13.64043     0.0005195798        138.5243                0               0                0               0
1.24342                0.9936105       -13.76021     0.0005521668         138.026                0               0                0               0
1.25                   0.9934041       -13.88097     0.0005887278        137.1572                0               0                0               0
1.25658                0.9931859       -14.00268     0.0006289225        135.9233                0               0                0               0
1.26316                0.9929561        -14.1253     0.0006723979        134.3437                0               0                0               0
1.26974                0.9927153        -14.2488     0.0007188039        132.4462                0               0                0               0
1.27632                0.9924639       -14.37315      0.000767804        130.2627                0               0                0               0
1.28289                0.9922027       -14.49834     0.0008190798         127.826                0               0                0               0
1.28947                0.9919324       -14.62436     0.0008723332        125.1679                0               0                0               0
1.29605                0.9916539       -14.75122     0.0009272867        122.3183                0               0                0               0
1.30263                0.9913679       -14.87892     0.0009836822        119.3045                0               0                0               0
1.30921                0.9910755       -15.00749       0.00104128         116.151                0               0                0               0
1.31579                0.9907773       -15.13696       0.00109986          112.88                0               0                0               0
1.32237                0.9904742       -15.26738      0.001159215         109.511                0               0                0               0
1.32895                0.9901668       -15.39881      0.001219159        106.0616                0               0                0               0
1.33553                0.9898558        -15.5313      0.001279519        102.5471                0               0                0               0
1.34211                0.9895416       -15.66494      0.001340139        98.98155                0               0                0               0
1.34868                0.9892244       -15.79979      0.001400881         95.3772                0               0                0               0
1.35526                0.9889045       -15.93595      0.001461624        91.74515                0               0                0               0
1.36184                0.9885816        -16.0735      0.001522263        88.09533                0               0                0               0
1.36842                0.9882556       -16.21253      0.001582717         84.4367                0               0                0               0
1.375                  0.9879258       -16.35314      0.001642921        80.77734                0               0                0               0
1.38158                0.9875919        -16.4954      0.001702834        77.12455                0               0                0               0
1.38816                0.9872526       -16.63941      0.001762439        73.48491                0               0                0               0
1.39474                0.9869072       -16.78525      0.001821741        69.86435                0               0                0               0
1.40132                0.9865544       -16.93299      0.001880771        66.26818                0               0                0               0
1.40789                0.9861929       -17.08269      0.001939589        62.70107                0               0                0               0
1.41447                0.9858211       -17.23441      0.001998281        59.16714                0               0                0               0
1.42105                0.9854378       -17.38819      0.002056962        55.66987                0               0                0               0
1.42763                0.9850412       -17.54408      0.002115776        52.21215                0               0                0               0
1.43421                0.9846298        -17.7021      0.002174897        48.79621                0               0                0               0
1.44079                0.9842019       -17.86224      0.002234528        45.42365                0               0                0               0
1.44737                0.9837562       -18.02454      0.002294899        42.09536                0               0                0               0
1.45395                0.9832912       -18.18897      0.002356269        38.81151                0               0                0               0
1.46053                0.9828055       -18.35551      0.002418922        35.57157                0               0                0               0
1.46711                0.9822979       -18.52415      0.002483165        32.37422                0               0                0               0
1.47368                0.9817675       -18.69486      0.002549323        29.21743                0               0                0               0
1.48026                0.9812134       -18.86759      0.002617741        26.09842                0               0                0               0
1.48684                0.9806348       -19.04232      0.002688772         23.0137                0               0                0               0
1.49342                0.9800314         -19.219      0.002762779        19.95913                0               0                0               0
1.5                     0.979403       -19.39761      0.002840124           16.93                0               0                0               0
1.50658                0.9787492       -19.57811      0.002921169         13.9211                0               0                0               0
1.51316                0.9780703       -19.76047      0.003006264        10.92683                0               0                0               0
1.51974                0.9773666       -19.94467      0.003095747        7.941347                0               0                0               0
1.52632                0.9766385       -20.13071      0.003189936        4.958645                0               0                0               0
1.53289                0.9758865       -20.31859      0.003289124        1.972742                0               0                0               0
1.53947                0.9751113       -20.50832      0.003393576       -1.022219                0               0                0               0
1.54605                0.9743134       -20.69994      0.003503528       -4.031839                0               0                0               0
1.55263                0.9734938       -20.89348      0.003619177       -7.061349                0               0                0               0
1.55921                0.9726528       -21.08901      0.003740689       -10.11552                0               0                0               0
1.56579                0.9717913       -21.28659       0.00386819       -13.19858                0               0                0               0
1.57237                0.9709096       -21.48632      0.004001771       -16.31418                0               0                0               0
1.57895                0.9700081       -21.68829      0.004141486       -19.46534                0               0                0               0
1.58553                0.9690871       -21.89263      0.004287353       -22.65446                0               0                0               0
1.59211                0.9681465       -22.09946      0.004439359        -25.8833                0               0                0               0
1.59868                0.9671858       -22.30891      0.004597458       -29.15304                0               0                0               0
1.60526                0.9662048       -22.52113      0.004761579       -32.46428                0               0                0               0
1.61184                0.9652024       -22.73626      0.004931621        -35.8171                0               0                0               0
1.61842                0.9641777       -22.95447      0.005107467        -39.2111                0               0                0               0
1.625                  0.9631289        -23.1759      0.005288977       -42.64549                0               0                0               0
1.63158                0.9620547       -23.40071      0.005475998       -46.11909                0               0                0               0
1.63816                0.9609527       -23.62904      0.005668363       -49.63043                0               0                0               0
1.64474                0.9598207       -23.86103      0.005865902       -53.17777                0               0                0               0
1.65132                0.9586562       -24.09681      0.006068431       -56.75918                0               0                0               0
1.65789                0.9574563       -24.33651      0.006275771       -60.37256                0               0                0               0
1.66447                0.9562182       -24.58023      0.006487746        -64.0157                0               0                0               0
1.67105                0.9549384       -24.82807      0.006704177       -67.68629                0               0                0               0
1.67763                0.9536139       -25.08009      0.006924901       -71.38201                0               0                0               0
1.68421                0.9522413       -25.33637       0.00714976       -75.10049                0               0                0               0
1.69079                0.9508174       -25.59695      0.007378613       -78.83939                0               0                0               0
1.69737                0.9493385       -25.86185      0.007611333       -82.59639                0               0                0               0
1.70395                0.9478014       -26.13109      0.007847814       -86.36923                0               0                0               0
1.71053                0.9462031       -26.40466      0.008087972       -90.15573                0               0                0               0
1.71711                0.9445403       -26.68256      0.008331746       -93.95377                0               0                0               0
1.72368                0.9428103       -26.96475      0.008579103       -97.76137                0               0                0               0
1.73026                0.9410104        -27.2512      0.008830038       -101.5766                0               0                0               0
1.73684                0.9391381       -27.54187      0.009084576       -105.3978                0               0                0               0
1.74342                0.9371913        -27.8367      0.009342774       -109.2232                0               0                0               0
1.75                   0.9351681       -28.13566      0.009604726       -113.0514                0               0                0               0
1.75658                0.9330668       -28.43868      0.009870558       -116.8811                0               0                0               0
1.76316                0.9308858       -28.74575       0.01014043       -120.7111                0               0                0               0
1.76974                0.9286239       -29.05681       0.01041454       -124.5404                0               0                0               0
1.77632                0.9262802       -29.37185       0.01069313       -128.3682                0               0                0               0
1.78289                0.9238538       -29.69086       0.01097647       -132.1938                0               0                0               0
1.78947                0.9213439       -30.01385       0.01126486       -136.0167                0               0                0               0
1.79605                  0.91875       -30.34083       0.01155865       -139.8367                0               0                0               0
1.80263                0.9160714       -30.67186        0.0118582       -143.6537                0               0                0               0
1.80921                0.9133076         -31.007       0.01216393       -147.4677                0               0                0               0
1.81579                0.9104577       -31.34634       0.01247626       -151.2791                0               0                0               0
1.82237                0.9075209       -31.68998       0.01279565       -155.0882                0               0                0               0
1.82895                0.9044961       -32.03806       0.01312258       -158.8957                0               0                0               0
1.83553                0.9013822       -32.39073       0.01345755       -162.7024                0               0                0               0
1.84211                0.8981774       -32.74816       0.01380105       -166.5091                0               0                0               0
1.84868                0.8948797       -33.11053       0.01415361        -170.317                0               0                0               0
