! TOUCHSTONE file generated by CST MICROWAVE STUDIO
! Date and time: Tue Mar 11 13:57:08 2025
! Project name: transverse.cst
! Parameters = {Fracture=1; B=12.5; D=160; F=25; Feed=2.85625; L=100; M=30; R=0.384908; S=2; Theta=90; length=57.125; wave=114.25}
! Header version: 2024
! Port assignment regex: !\s*Touchstone port\s*([0-9]+)\s*=\s*(CST MWS port|CST DES external port|CST DES block port)\s*(.+)\s* \(\"(.*)\"\)(\s*mode\s*([0-9]+))?.*
! Touchstone port assignment:
! Touchstone port 1 = CST MWS port 1 ("")
! Touchstone port 2 = CST MWS port 2 ("")
# GHz S MA R 50
1                      0.9975241        -10.0212     0.0004685198        164.4998                0               0                0               0
1.0066                 0.9974652       -10.10872     0.0004690783        158.8781                0               0                0               0
1.0132                 0.9974103       -10.19704     0.0004679578        153.3659                0               0                0               0
1.0198                 0.9973589       -10.28621     0.0004651397        147.9724                0               0                0               0
1.0264                 0.9973101        -10.3763     0.0004606179        142.7095                0               0                0               0
1.033                  0.9972628       -10.46737     0.0004544002        137.5915                0               0                0               0
1.0396                  0.997216       -10.55946     0.0004465108        132.6366                0               0                0               0
1.0462                 0.9971683       -10.65262     0.0004369935        127.8666                0               0                0               0
1.05281                0.9971185       -10.74687     0.0004259151        123.3088                0               0                0               0
1.05941                0.9970652       -10.84222     0.0004133706        118.9965                0               0                0               0
1.06601                 0.997007       -10.93868     0.0003994898        114.9708                0               0                0               0
1.07261                0.9969426       -11.03623     0.0003844464         111.282                0               0                0               0
1.07921                0.9968708       -11.13486     0.0003684689        107.9914                0               0                0               0
1.08581                0.9967903       -11.23453     0.0003518568         105.173                0               0                0               0
1.09241                0.9967002        -11.3352     0.0003349992        102.9135                0               0                0               0
1.09901                0.9965995       -11.43682     0.0003183984        101.3101                0               0                0               0
1.10561                0.9964875       -11.53934     0.0003026938        100.4628                0               0                0               0
1.11221                0.9963637       -11.64269     0.0002886799        100.4573                0               0                0               0
1.11881                0.9962279       -11.74681     0.0002773023        101.3349                0               0                0               0
1.12541                0.9960799       -11.85162     0.0002696096          103.05                0               0                0               0
1.13201                0.9959199       -11.95708     0.0002666388        105.4313                0               0                0               0
1.13861                0.9957481       -12.06311     0.0002692415         108.174                0               0                0               0
1.14521                0.9955652       -12.16966     0.0002779092        110.8898                0               0                0               0
1.15182                0.9953718       -12.27668     0.0002926842        113.2029                0               0                0               0
1.15842                0.9951689       -12.38412     0.0003132049        114.8383                0               0                0               0
1.16502                0.9949574       -12.49196     0.0003388459        115.6574                0               0                0               0
1.17162                0.9947386       -12.60018      0.000368874          115.64                0               0                0               0
1.17822                0.9945136       -12.70877     0.0004025616        114.8418                0               0                0               0
1.18482                0.9942836       -12.81773     0.0004392451        113.3549                0               0                0               0
1.19142                0.9940498       -12.92709     0.0004783449        111.2807                0               0                0               0
1.19802                0.9938136       -13.03688     0.0005193619        108.7153                0               0                0               0
1.20462                0.9935759       -13.14714     0.0005618667        105.7436                0               0                0               0
1.21122                0.9933379       -13.25792     0.0006054851        102.4375                0               0                0               0
1.21782                0.9931003       -13.36931     0.0006498872         98.8573                0               0                0               0
1.22442                0.9928641       -13.48136      0.000694777         95.0525                0               0                0               0
1.23102                0.9926295       -13.59418     0.0007398844        91.06409                0               0                0               0
1.23762                0.9923969       -13.70783       0.00078496        86.92595                0               0                0               0
1.24422                0.9921661       -13.82244      0.000829771        82.66622                0               0                0               0
1.25083                0.9919375       -13.93807     0.0008740981        78.30853                0               0                0               0
1.25743                0.9917103       -14.05484     0.0009177331        73.87285                0               0                0               0
1.26403                0.9914838       -14.17282      0.000960479        69.37627                0               0                0               0
1.27063                0.9912574       -14.29211      0.001002148        64.83358                0               0                0               0
1.27723                0.9910299       -14.41279      0.001042561        60.25775                0               0                0               0
1.28383                0.9907999       -14.53492      0.001081549        55.66032                0               0                0               0
1.29043                0.9905665       -14.65856      0.001118955        51.05172                0               0                0               0
1.29703                0.9903277       -14.78376      0.001154628         46.4415                0               0                0               0
1.30363                0.9900823       -14.91055      0.001188433        41.83858                0               0                0               0
1.31023                0.9898284       -15.03896      0.001220245        37.25139                0               0                0               0
1.31683                0.9895647       -15.16898      0.001249955        32.68807                0               0                0               0
1.32343                0.9892895       -15.30062      0.001277466        28.15653                0               0                0               0
1.33003                0.9890013       -15.43386      0.001302702        23.66464                0               0                0               0
1.33663                0.9886988       -15.56866      0.001325602        19.22026                0               0                0               0
1.34323                0.9883808       -15.70498       0.00134613        14.83136                0               0                0               0
1.34984                0.9880463       -15.84278       0.00136427        10.50609                0               0                0               0
1.35644                0.9876945       -15.98199      0.001380033        6.252804                0               0                0               0
1.36304                0.9873249       -16.12255      0.001393459        2.080145                0               0                0               0
1.36964                0.9869369       -16.26441       0.00140462       -2.002971                0               0                0               0
1.37624                0.9865309       -16.40749      0.001413622       -5.987344                0               0                0               0
1.38284                0.9861067       -16.55173      0.001420609       -9.863535                0               0                0               0
1.38944                0.9856649       -16.69708      0.001425769       -13.62195                0               0                0               0
1.39604                0.9852059       -16.84349      0.001429334       -17.25296                0               0                0               0
1.40264                0.9847306       -16.99092      0.001431585       -20.74713                0               0                0               0
1.40924                0.9842402       -17.13934      0.001432857       -24.09548                0               0                0               0
1.41584                0.9837357       -17.28873      0.001433539       -27.28987                0               0                0               0
1.42244                0.9832185        -17.4391      0.001434078       -30.32347                0               0                0               0
1.42904                0.9826896       -17.59047      0.001434976       -33.19139                0               0                0               0
1.43564                0.9821505       -17.74285      0.001436789       -35.89128                0               0                0               0
1.44224                0.9816024       -17.89631      0.001440123       -38.42413                0               0                0               0
1.44884                0.9810467       -18.05091      0.001445623       -40.79494                0               0                0               0
1.45545                0.9804842       -18.20673      0.001453962       -43.01339                0               0                0               0
1.46205                 0.979916       -18.36386      0.001465823       -45.09423                0               0                0               0
1.46865                0.9793428       -18.52241      0.001481881       -47.05738                0               0                0               0
1.47525                0.9787649        -18.6825      0.001502775       -48.92764                0               0                0               0
1.48185                0.9781829       -18.84427      0.001529091       -50.73379                0               0                0               0
1.48845                0.9775964       -19.00784      0.001561336       -52.50747                0               0                0               0
1.49505                 0.977005       -19.17335      0.001599921       -54.28143                0               0                0               0
1.50165                0.9764083       -19.34094      0.001645147       -56.08793                0               0                0               0
1.50825                0.9758049       -19.51075        0.0016972       -57.95697                0               0                0               0
1.51485                0.9751939       -19.68291       0.00175615       -59.91492                0               0                0               0
1.52145                0.9745735       -19.85755      0.001821962       -61.98354                0               0                0               0
1.52805                 0.973942       -20.03478        0.0018945        -64.1795                0               0                0               0
1.53465                0.9732973        -20.2147       0.00197355       -66.51428                0               0                0               0
1.54125                0.9726371       -20.39741       0.00205883       -68.99454                0               0                0               0
1.54785                0.9719591       -20.58297      0.002150007       -71.62264                0               0                0               0
1.55446                0.9712609       -20.77144      0.002246711        -74.3974                0               0                0               0
1.56106                  0.97054       -20.96285      0.002348546       -77.31477                0               0                0               0
1.56766                0.9697939       -21.15724      0.002455104        -80.3686                0               0                0               0
1.57426                0.9690201        -21.3546      0.002565965       -83.55121                0               0                0               0
1.58086                0.9682165       -21.55491      0.002680714       -86.85398                0               0                0               0
1.58746                0.9673808       -21.75815      0.002798936       -90.26771                0               0                0               0
1.59406                0.9665112       -21.96428      0.002920227       -93.78297                0               0                0               0
1.60066                0.9656059       -22.17325      0.003044194       -97.39039                0               0                0               0
1.60726                0.9646637       -22.38498      0.003170456       -101.0807                0               0                0               0
1.61386                0.9636834       -22.59943      0.003298646       -104.8451                0               0                0               0
1.62046                0.9626642       -22.81651      0.003428417        -108.675                0               0                0               0
1.62706                0.9616058       -23.03616      0.003559436       -112.5624                0               0                0               0
1.63366                0.9605079       -23.25833      0.003691394       -116.4995                0               0                0               0
1.64026                0.9593708       -23.48295      0.003823999       -120.4791                0               0                0               0
1.64686                0.9581951       -23.70998      0.003956982       -124.4945                0               0                0               0
1.65347                0.9569814       -23.93939      0.004090099       -128.5393                0               0                0               0
1.66007                0.9557308       -24.17118      0.004223131       -132.6075                0               0                0               0
1.66667                0.9544443       -24.40536      0.004355884       -136.6936                0               0                0               0
1.67327                0.9531233       -24.64195      0.004488197       -140.7922                0               0                0               0
1.67987                0.9517691       -24.88103      0.004619935       -144.8985                0               0                0               0
1.68647                0.9503831       -25.12266      0.004750998       -149.0079                0               0                0               0
1.69307                0.9489664       -25.36697      0.004881322       -153.1161                0               0                0               0
1.69967                0.9475203       -25.61408      0.005010877       -157.2191                0               0                0               0
1.70627                0.9460456       -25.86416      0.005139671       -161.3133                0               0                0               0
1.71287                0.9445432        -26.1174      0.005267756       -165.3952                0               0                0               0
1.71947                0.9430133       -26.37399      0.005395222       -169.4618                0               0                0               0
1.72607                 0.941456       -26.63418      0.005522205       -173.5102                0               0                0               0
1.73267                0.9398707       -26.89821      0.005648886       -177.5379                0               0                0               0
1.73927                0.9382568       -27.16633      0.005775491        178.4572                0               0                0               0
1.74587                0.9366127       -27.43883      0.005902292        174.4769                0               0                0               0
1.75248                0.9349366       -27.71596       0.00602961        170.5228                0               0                0               0
1.75908                0.9332263       -27.99803      0.006157812        166.5958                0               0                0               0
1.76568                0.9314787        -28.2853      0.006287309        162.6968                0               0                0               0
1.77228                0.9296908       -28.57805      0.006418557         158.826                0               0                0               0
1.77888                0.9278583       -28.87654      0.006552053        154.9832                0               0                0               0
1.78548                0.9259773       -29.18103      0.006688334        151.1679                0               0                0               0
1.79208                0.9240431       -29.49174      0.006827969        147.3788                0               0                0               0
1.79868                0.9220508       -29.80889      0.006971561        143.6146                0               0                0               0
1.80528                0.9199949       -30.13269      0.007119731        139.8732                0               0                0               0
1.81188                0.9178703       -30.46331      0.007273125        136.1522                0               0                0               0
1.81848                0.9156713       -30.80088      0.007432393        132.4486                0               0                0               0
1.82508                0.9133921       -31.14556      0.007598194        128.7593                0               0                0               0
1.83168                0.9110271       -31.49742      0.007771178        125.0805                0               0                0               0
1.83828                0.9085708       -31.85656      0.007951984        121.4084                0               0                0               0
1.84488                0.9060175       -32.22305      0.008141228        117.7389                0               0                0               0
1.85149                0.9033619       -32.59693        0.0083395        114.0675                0               0                0               0
