! TOUCHSTONE file generated by CST MICROWAVE STUDIO
! Date and time: Tue Mar 11 13:57:18 2025
! Project name: transverse.cst
! Parameters = {Fracture=5; B=10; D=160; F=15; Feed=2.85625; L=100; M=30; R=0.384908; S=1; Theta=180; length=57.125; wave=114.25}
! Header version: 2024
! Port assignment regex: !\s*Touchstone port\s*([0-9]+)\s*=\s*(CST MWS port|CST DES external port|CST DES block port)\s*(.+)\s* \(\"(.*)\"\)(\s*mode\s*([0-9]+))?.*
! Touchstone port assignment:
! Touchstone port 1 = CST MWS port 1 ("")
! Touchstone port 2 = CST MWS port 2 ("")
# GHz S MA R 50
1                      0.9974809       -9.754833     0.0005330102        175.7188                0               0                0               0
1.0066                 0.9974018       -9.840641     0.0005293097        169.5529                0               0                0               0
1.0132                 0.9973252        -9.92701     0.0005232915        163.4698                0               0                0               0
1.0198                 0.9972513         -10.014     0.0005149031        157.4744                0               0                0               0
1.0264                 0.9971799       -10.10165     0.0005041019        151.5739                0               0                0               0
1.033                  0.9971104       -10.19003     0.0004908565        145.7783                0               0                0               0
1.0396                 0.9970428       -10.27918     0.0004751477        140.1011                0               0                0               0
1.0462                  0.996976       -10.36915     0.0004569707        134.5607                0               0                0               0
1.05281                0.9969099       -10.45999     0.0004363369        129.1821                0               0                0               0
1.05941                0.9968435       -10.55173     0.0004132781        123.9998                0               0                0               0
1.06601                 0.996776       -10.64439     0.0003878508        119.0625                0               0                0               0
1.07261                0.9967065       -10.73801     0.0003601463        114.4397                0               0                0               0
1.07921                0.9966343       -10.83259     0.0003303036        110.2344                0               0                0               0
1.08581                0.9965581       -10.92815     0.0002985361        106.6035                0               0                0               0
1.09241                0.9964774       -11.02469     0.0002651801        103.7956                0               0                0               0
1.09901                 0.996391       -11.12219     0.0002307907        102.2201                0               0                0               0
1.10561                0.9962983       -11.22065     0.0001963464        102.5757                0               0                0               0
1.11221                0.9961985       -11.32003     0.0001636906        106.0567                0               0                0               0
1.11881                 0.996091       -11.42033     0.0001364229        114.4661                0               0                0               0
1.12541                0.9959752       -11.52148      0.000120909        129.0824                0               0                0               0
1.13201                0.9958508       -11.62348     0.0001241972        146.8441                0               0                0               0
1.13861                0.9957174       -11.72627     0.0001470251        160.9942                0               0                0               0
1.14521                0.9955751       -11.82982     0.0001837151          168.99                0               0                0               0
1.15182                0.9954239       -11.93408     0.0002287981        172.2785                0               0                0               0
1.15842                0.9952638       -12.03903     0.0002790675        172.6215                0               0                0               0
1.16502                0.9950953       -12.14462     0.0003327968        171.1612                0               0                0               0
1.17162                0.9949187       -12.25082     0.0003889973        168.5642                0               0                0               0
1.17822                0.9947348       -12.35762     0.0004470385        165.2229                0               0                0               0
1.18482                0.9945441       -12.46499     0.0005064709        161.3766                0               0                0               0
1.19142                0.9943474       -12.57293     0.0005669408        157.1778                0               0                0               0
1.19802                0.9941455       -12.68144      0.000628147        152.7272                0               0                0               0
1.20462                0.9939394       -12.79052     0.0006898185        148.0941                0               0                0               0
1.21122                0.9937297        -12.9002      0.000751702        143.3276                0               0                0               0
1.21782                0.9935175       -13.01049     0.0008135549        138.4635                0               0                0               0
1.22442                0.9933034       -13.12145     0.0008751414        133.5289                0               0                0               0
1.23102                0.9930881       -13.23311     0.0009362309        128.5443                0               0                0               0
1.23762                0.9928724       -13.34553     0.0009965965        123.5264                0               0                0               0
1.24422                0.9926566       -13.45878      0.001056015        118.4883                0               0                0               0
1.25083                0.9924413       -13.57291      0.001114269        113.4412                0               0                0               0
1.25743                0.9922265       -13.68802      0.001171142        108.3945                0               0                0               0
1.26403                0.9920123       -13.80416      0.001226428        103.3565                0               0                0               0
1.27063                0.9917986       -13.92142      0.001279925        98.33445                0               0                0               0
1.27723                0.9915852       -14.03988       0.00133144        93.33525                0               0                0               0
1.28383                0.9913714       -14.15962       0.00138079        88.36527                0               0                0               0
1.29043                0.9911566       -14.28071      0.001427803        83.43066                0               0                0               0
1.29703                0.9909401       -14.40323      0.001472323        78.53743                0               0                0               0
1.30363                0.9907209       -14.52723      0.001514206         73.6916                0               0                0               0
1.31023                0.9904977       -14.65277       0.00155333        68.89928                0               0                0               0
1.31683                0.9902697       -14.77991      0.001589591         64.1667                0               0                0               0
1.32343                0.9900353       -14.90868       0.00162291        59.50034                0               0                0               0
1.33003                0.9897933       -15.03911      0.001653234        54.90695                0               0                0               0
1.33663                0.9895423       -15.17122      0.001680541        50.39362                0               0                0               0
1.34323                0.9892812       -15.30502      0.001704841        45.96778                0               0                0               0
1.34984                0.9890085       -15.44051      0.001726184        41.63723                0               0                0               0
1.35644                0.9887231       -15.57768       0.00174466        37.41016                0               0                0               0
1.36304                0.9884238        -15.7165      0.001760408         33.2951                0               0                0               0
1.36964                0.9881096       -15.85697      0.001773618        29.30082                0               0                0               0
1.37624                0.9877798       -15.99904      0.001784537        25.43631                0               0                0               0
1.38284                0.9874337       -16.14266      0.001793473        21.71052                0               0                0               0
1.38944                0.9870707       -16.28782      0.001800803        18.13213                0               0                0               0
1.39604                0.9866906       -16.43445      0.001806973        14.70931                0               0                0               0
1.40264                0.9862932       -16.58253      0.001812506        11.44916                0               0                0               0
1.40924                0.9858786       -16.73202         0.001818        8.357287                0               0                0               0
1.41584                0.9854472       -16.88287      0.001824127        5.437147                0               0                0               0
1.42244                0.9849991       -17.03507      0.001831633         2.68933                0               0                0               0
1.42904                0.9845353        -17.1886      0.001841327       0.1108493                0               0                0               0
1.43564                0.9840562       -17.34345      0.001854065       -2.305556                0               0                0               0
1.44224                0.9835627       -17.49962      0.001870738       -4.571962                0               0                0               0
1.44884                0.9830557       -17.65714      0.001892244       -6.705548                0               0                0               0
1.45545                 0.982536       -17.81602      0.001919462        -8.72852                0               0                0               0
1.46205                0.9820045       -17.97631      0.001953219       -10.66757                0               0                0               0
1.46865                0.9814622       -18.13807      0.001994263       -12.55288                0               0                0               0
1.47525                0.9809097       -18.30136      0.002043234       -14.41672                0               0                0               0
1.48185                0.9803478       -18.46628      0.002100639       -16.29175                0               0                0               0
1.48845                 0.979777        -18.6329      0.002166842       -18.20936                0               0                0               0
1.49505                0.9791976       -18.80135      0.002242055       -20.19803                0               0                0               0
1.50165                0.9786097       -18.97173      0.002326346       -22.28219                0               0                0               0
1.50825                0.9780131       -19.14417      0.002419642       -24.48139                0               0                0               0
1.51485                0.9774076        -19.3188       0.00252175       -26.81006                0               0                0               0
1.52145                0.9767926       -19.49573      0.002632377       -29.27754                0               0                0               0
1.52805                0.9761671       -19.67512      0.002751144       -31.88863                0               0                0               0
1.53465                0.9755299       -19.85708       0.00287761       -34.64412                0               0                0               0
1.54125                0.9748796       -20.04175      0.003011287       -37.54156                0               0                0               0
1.54785                0.9742147       -20.22923      0.003151653       -40.57598                0               0                0               0
1.55446                 0.973533       -20.41965      0.003298168       -43.74054                0               0                0               0
1.56106                0.9728326       -20.61311      0.003450282       -47.02714                0               0                0               0
1.56766                0.9721111        -20.8097      0.003607439       -50.42687                0               0                0               0
1.57426                0.9713662       -21.00948      0.003769091       -53.93039                0               0                0               0
1.58086                0.9705953       -21.21253      0.003934695       -57.52824                0               0                0               0
1.58746                0.9697959       -21.41888      0.004103724       -61.21103                0               0                0               0
1.59406                0.9689653       -21.62858      0.004275662       -64.96961                0               0                0               0
1.60066                0.9681011       -21.84163      0.004450013       -68.79511                0               0                0               0
1.60726                0.9672007       -22.05805      0.004626303       -72.67909                0               0                0               0
1.61386                0.9662618       -22.27781      0.004804079       -76.61347                0               0                0               0
1.62046                0.9652823       -22.50089      0.004982916       -80.59062                0               0                0               0
1.62706                0.9642601       -22.72726      0.005162416        -84.6033                0               0                0               0
1.63366                0.9631935       -22.95687       0.00534221       -88.64468                0               0                0               0
1.64026                0.9620809       -23.18968      0.005521968       -92.70831                0               0                0               0
1.64686                0.9609212       -23.42563      0.005701393       -96.78812                0               0                0               0
1.65347                 0.959713       -23.66468      0.005880229       -100.8784                0               0                0               0
1.66007                0.9584561       -23.90676      0.006058268       -104.9736                0               0                0               0
1.66667                0.9571497       -24.15185      0.006235343       -109.0688                0               0                0               0
1.67327                0.9557935       -24.39989      0.006411344        -113.159                0               0                0               0
1.67987                0.9543878       -24.65088      0.006586217       -117.2399                0               0                0               0
1.68647                0.9529327       -24.90479      0.006759965       -121.3071                0               0                0               0
1.69307                0.9514286       -25.16163      0.006932656       -125.3567                0               0                0               0
1.69967                0.9498758       -25.42143      0.007104424       -129.3851                0               0                0               0
1.70627                0.9482751       -25.68423      0.007275479        -133.389                0               0                0               0
1.71287                0.9466269        -25.9501      0.007446103       -137.3653                0               0                0               0
1.71947                0.9449318       -26.21912      0.007616656       -141.3113                0               0                0               0
1.72607                0.9431904       -26.49141      0.007787579        -145.225                0               0                0               0
1.73267                0.9414028        -26.7671      0.007959396       -149.1043                0               0                0               0
1.73927                0.9395691       -27.04634      0.008132715       -152.9478                0               0                0               0
1.74587                0.9376894       -27.32931      0.008308226       -156.7547                0               0                0               0
1.75248                0.9357631        -27.6162        0.0084867       -160.5246                0               0                0               0
1.75908                0.9337891       -27.90724      0.008668988       -164.2575                0               0                0               0
1.76568                0.9317666       -28.20263      0.008856018       -167.9543                0               0                0               0
1.77228                0.9296937       -28.50262      0.009048779       -171.6164                0               0                0               0
1.77888                0.9275683       -28.80746      0.009248327       -175.2457                0               0                0               0
1.78548                 0.925388        -29.1174       0.00945577       -178.8448                0               0                0               0
1.79208                0.9231497       -29.43269      0.009672246         177.583                0               0                0               0
1.79868                0.9208499       -29.75358      0.009898931        174.0338                0               0                0               0
1.80528                0.9184848       -30.08033       0.01013701        170.5032                0               0                0               0
1.81188                0.9160499       -30.41316       0.01038766        166.9865                0               0                0               0
1.81848                0.9135404       -30.75229       0.01065204        163.4782                0               0                0               0
1.82508                0.9109512       -31.09796       0.01093128        159.9728                0               0                0               0
1.83168                 0.908277       -31.45033       0.01122646        156.4645                0               0                0               0
1.83828                0.9055118       -31.80959       0.01153859        152.9473                0               0                0               0
1.84488                0.9026498        -32.1759       0.01186862        149.4154                0               0                0               0
1.85149                0.8996849       -32.54937       0.01221737        145.8629                0               0                0               0
