! TOUCHSTONE file generated by CST MICROWAVE STUDIO
! Date and time: Tue Mar 11 13:56:56 2025
! Project name: transverse.cst
! Parameters = {Fracture=5; B=12.5; D=160; F=5; Feed=2.85625; L=100; M=20; R=0.384908; S=2; Theta=90; length=57.125; wave=114.25}
! Header version: 2024
! Port assignment regex: !\s*Touchstone port\s*([0-9]+)\s*=\s*(CST MWS port|CST DES external port|CST DES block port)\s*(.+)\s* \(\"(.*)\"\)(\s*mode\s*([0-9]+))?.*
! Touchstone port assignment:
! Touchstone port 1 = CST MWS port 1 ("")
! Touchstone port 2 = CST MWS port 2 ("")
# GHz S MA R 50
1                      0.9978102       -9.764286      0.000350024       -149.9135                0               0                0               0
1.0066                 0.9977089       -9.853139     0.0003601497       -153.8892                0               0                0               0
1.0132                 0.9976013       -9.942297     0.0003696211        -157.831                0               0                0               0
1.0198                  0.997488       -10.03173      0.000378412       -161.7284                0               0                0               0
1.0264                   0.99737       -10.12142      0.000386504       -165.5711                0               0                0               0
1.033                  0.9972483       -10.21134     0.0003938886       -169.3489                0               0                0               0
1.0396                 0.9971238        -10.3015     0.0004005671       -173.0515                0               0                0               0
1.0462                 0.9969977        -10.3919     0.0004065526       -176.6685                0               0                0               0
1.05281                 0.996871       -10.48257     0.0004118707        179.8104                0               0                0               0
1.05941                0.9967446       -10.57354     0.0004165609        176.3958                0               0                0               0
1.06601                0.9966195       -10.66483      0.000420678        173.0978                0               0                0               0
1.07261                0.9964966       -10.75651     0.0004242933        169.9267                0               0                0               0
1.07921                0.9963765       -10.84863     0.0004274958        166.8918                0               0                0               0
1.08581                0.9962598       -10.94125     0.0004303931         164.002                0               0                0               0
1.09241                0.9961469       -11.03445     0.0004331118        161.2646                0               0                0               0
1.09901                0.9960381       -11.12831     0.0004357984        158.6852                0               0                0               0
1.10561                0.9959332       -11.22289     0.0004386176         156.267                0               0                0               0
1.11221                0.9958321       -11.31828     0.0004417523          154.01                0               0                0               0
1.11881                0.9957346       -11.41455     0.0004453996        151.9103                0               0                0               0
1.12541                0.9956398       -11.51177      0.000449768          149.96                0               0                0               0
1.13201                0.9955474       -11.61002     0.0004550724        148.1458                0               0                0               0
1.13861                0.9954563       -11.70935     0.0004615268        146.4499                0               0                0               0
1.14521                0.9953653       -11.80982     0.0004693381        144.8495                0               0                0               0
1.15182                0.9952735       -11.91147     0.0004786982         143.318                0               0                0               0
1.15842                0.9951798       -12.01434     0.0004897761        141.8255                0               0                0               0
1.16502                0.9950826       -12.11844     0.0005027117        140.3411                0               0                0               0
1.17162                0.9949808       -12.22378     0.0005176109        138.8336                0               0                0               0
1.17822                0.9948733       -12.33038     0.0005345425        137.2741                0               0                0               0
1.18482                0.9947586       -12.43821     0.0005535368        135.6365                0               0                0               0
1.19142                0.9946357       -12.54727     0.0005745878        133.8991                0               0                0               0
1.19802                0.9945037       -12.65751     0.0005976553         132.045                0               0                0               0
1.20462                0.9943617        -12.7689      0.000622669        130.0623                0               0                0               0
1.21122                0.9942089       -12.88141     0.0006495333        127.9437                0               0                0               0
1.21782                0.9940448       -12.99497     0.0006781319        125.6864                0               0                0               0
1.22442                0.9938692       -13.10954     0.0007083328        123.2912                0               0                0               0
1.23102                0.9936816       -13.22507     0.0007399915        120.7618                0               0                0               0
1.23762                0.9934824        -13.3415     0.0007729559        118.1043                0               0                0               0
1.24422                0.9932719       -13.45879     0.0008070682        115.3263                0               0                0               0
1.25083                0.9930502       -13.57689     0.0008421679        112.4367                0               0                0               0
1.25743                0.9928182       -13.69576     0.0008780942        109.4451                0               0                0               0
1.26403                0.9925765       -13.81539     0.0009146871        106.3613                0               0                0               0
1.27063                0.9923261       -13.93574     0.0009517896        103.1955                0               0                0               0
1.27723                0.9920678       -14.05682     0.0009892481        99.95769                0               0                0               0
1.28383                 0.991803       -14.17862      0.001026914        96.65762                0               0                0               0
1.29043                0.9915324       -14.30117      0.001064646        93.30487                0               0                0               0
1.29703                0.9912573       -14.42449      0.001102309        89.90869                0               0                0               0
1.30363                0.9909785       -14.54862      0.001139776        86.47798                0               0                0               0
1.31023                 0.990697       -14.67362       0.00117693        83.02132                0               0                0               0
1.31683                0.9904138       -14.79956      0.001213665        79.54695                0               0                0               0
1.32343                0.9901294       -14.92651      0.001249885        76.06279                0               0                0               0
1.33003                0.9898445       -15.05455      0.001285511        72.57646                0               0                0               0
1.33663                 0.989559       -15.18378      0.001320475        69.09529                0               0                0               0
1.34323                0.9892736       -15.31429      0.001354728        65.62632                0               0                0               0
1.34984                0.9889877       -15.44619      0.001388235        62.17634                0               0                0               0
1.35644                0.9887011       -15.57957      0.001420984        58.75183                0               0                0               0
1.36304                0.9884133       -15.71454      0.001452983        55.35904                0               0                0               0
1.36964                0.9881235       -15.85119      0.001484261        52.00386                0               0                0               0
1.37624                0.9878306       -15.98961      0.001514872        48.69189                0               0                0               0
1.38284                0.9875335        -16.1299      0.001544897        45.42834                0               0                0               0
1.38944                0.9872307       -16.27212      0.001574442        42.21796                0               0                0               0
1.39604                0.9869207       -16.41635      0.001603642        39.06504                0               0                0               0
1.40264                0.9866022       -16.56264      0.001632663        35.97324                0               0                0               0
1.40924                 0.986273       -16.71102      0.001661696        32.94556                0               0                0               0
1.41584                0.9859319       -16.86154      0.001690968         29.9842                0               0                0               0
1.42244                 0.985577       -17.01421       0.00172073        27.09046                0               0                0               0
1.42904                0.9852066       -17.16903      0.001751264        24.26464                0               0                0               0
1.43564                 0.984819         -17.326      0.001782876         21.5059                0               0                0               0
1.44224                0.9844129        -17.4851      0.001815898        18.81223                0               0                0               0
1.44884                 0.983987        -17.6463      0.001850678        16.18034                0               0                0               0
1.45545                0.9835402       -17.80958      0.001887582        13.60565                0               0                0               0
1.46205                0.9830713       -17.97489      0.001926983        11.08231                0               0                0               0
1.46865                0.9825797       -18.14219      0.001969259        8.603262                0               0                0               0
1.47525                0.9820652       -18.31144      0.002014783        6.160366                0               0                0               0
1.48185                0.9815271       -18.48259       0.00206392        3.744583                0               0                0               0
1.48845                0.9809654       -18.65561      0.002117015        1.346193                0               0                0               0
1.49505                0.9803804       -18.83046      0.002174393       -1.044934                0               0                0               0
1.50165                0.9797723       -19.00711      0.002236345       -3.439055                0               0                0               0
1.50825                0.9791416       -19.18556      0.002303133       -5.846251                0               0                0               0
1.51485                0.9784891        -19.3658      0.002374978       -8.276162                0               0                0               0
1.52145                0.9778153       -19.54785      0.002452063       -10.73772                0               0                0               0
1.52805                 0.977121       -19.73172      0.002534526       -13.23894                0               0                0               0
1.53465                0.9764073       -19.91747      0.002622469       -15.78678                0               0                0               0
1.54125                0.9756746       -20.10515       0.00271595       -18.38703                0               0                0               0
1.54785                0.9749241       -20.29483      0.002814992       -21.04425                0               0                0               0
1.55446                0.9741559       -20.48661      0.002919582       -23.76183                0               0                0               0
1.56106                0.9733708       -20.68059      0.003029677       -26.54196                0               0                0               0
1.56766                0.9725689        -20.8769      0.003145207       -29.38577                0               0                0               0
1.57426                0.9717503       -21.07566      0.003266079       -32.29341                0               0                0               0
1.58086                0.9709147       -21.27701      0.003392181       -35.26417                0               0                0               0
1.58746                0.9700616       -21.48111      0.003523386       -38.29661                0               0                0               0
1.59406                  0.96919        -21.6881       0.00365956       -41.38867                0               0                0               0
1.60066                0.9682989       -21.89815      0.003800558       -44.53781                0               0                0               0
1.60726                0.9673867       -22.11142      0.003946234       -47.74109                0               0                0               0
1.61386                0.9664517       -22.32805      0.004096443        -50.9953                0               0                0               0
1.62046                0.9654916        -22.5482      0.004251045       -54.29704                0               0                0               0
1.62706                0.9645041         -22.772      0.004409905       -57.64276                0               0                0               0
1.63366                0.9634865       -22.99958      0.004572898       -61.02888                0               0                0               0
1.64026                0.9624359       -23.23106      0.004739915       -64.45183                0               0                0               0
1.64686                0.9613491       -23.46654      0.004910859       -67.90805                0               0                0               0
1.65347                 0.960223       -23.70611      0.005085654       -71.39412                0               0                0               0
1.66007                0.9590542       -23.94983      0.005264243        -74.9067                0               0                0               0
1.66667                0.9578393       -24.19775       0.00544659       -78.44261                0               0                0               0
1.67327                0.9565749        -24.4499      0.005632688       -81.99884                0               0                0               0
1.67987                0.9552577        -24.7063      0.005822554       -85.57256                0               0                0               0
1.68647                0.9538845       -24.96695      0.006016235       -89.16116                0               0                0               0
1.69307                0.9524521       -25.23182      0.006213807       -92.76223                0               0                0               0
1.69967                0.9509576        -25.5009      0.006415379       -96.37359                0               0                0               0
1.70627                0.9493985       -25.77414      0.006621092       -99.99329                0               0                0               0
1.71287                0.9477722       -26.05149       0.00683112       -103.6196                0               0                0               0
1.71947                0.9460767       -26.33289      0.007045674       -107.2512                0               0                0               0
1.72607                0.9443098        -26.6183      0.007264997       -110.8867                0               0                0               0
1.73267                0.9424702       -26.90765      0.007489367       -114.5253                0               0                0               0
1.73927                0.9405563        -27.2009      0.007719093       -118.1662                0               0                0               0
1.74587                 0.938567       -27.49801       0.00795452       -121.8091                0               0                0               0
1.75248                0.9365017       -27.79895      0.008196025       -125.4537                0               0                0               0
1.75908                0.9343596       -28.10368       0.00844401       -129.1001                0               0                0               0
1.76568                0.9321401       -28.41223      0.008698906       -132.7486                0               0                0               0
1.77228                0.9298429       -28.72459      0.008961168       -136.3998                0               0                0               0
1.77888                0.9274679       -29.04081      0.009231273       -140.0545                0               0                0               0
1.78548                0.9250142       -29.36096       0.00950971       -143.7134                0               0                0               0
1.79208                0.9224818       -29.68512      0.009796986       -147.3779                0               0                0               0
1.79868                0.9198699       -30.01338       0.01009361       -151.0492                0               0                0               0
1.80528                0.9171778        -30.3459       0.01040011       -154.7288                0               0                0               0
1.81188                0.9144046        -30.6828       0.01071699       -158.4182                0               0                0               0
1.81848                0.9115488       -31.02428       0.01104476       -162.1191                0               0                0               0
1.82508                0.9086089       -31.37051       0.01138393       -165.8332                0               0                0               0
1.83168                0.9055824       -31.72171       0.01173497       -169.5622                0               0                0               0
1.83828                0.9024669        -32.0781       0.01209834        -173.308                0               0                0               0
1.84488                0.8992593       -32.43989       0.01247447       -177.0723                0               0                0               0
1.85149                0.8959557       -32.80734       0.01286377        179.1432                0               0                0               0
