! TOUCHSTONE file generated by CST MICROWAVE STUDIO
! Date and time: Tue Mar 11 13:57:37 2025
! Project name: transverse.cst
! Parameters = {Fracture=5; B=12.5; D=160; F=5; Feed=2.85625; L=100; M=20; R=0.384908; S=2; Theta=180; length=57.125; wave=114.25}
! Header version: 2024
! Port assignment regex: !\s*Touchstone port\s*([0-9]+)\s*=\s*(CST MWS port|CST DES external port|CST DES block port)\s*(.+)\s* \(\"(.*)\"\)(\s*mode\s*([0-9]+))?.*
! Touchstone port assignment:
! Touchstone port 1 = CST MWS port 1 ("")
! Touchstone port 2 = CST MWS port 2 ("")
# GHz S MA R 50
1                      0.9978102       -9.764289     0.0003500174       -149.9104                0               0                0               0
1.0066                 0.9977089       -9.853141      0.000360144       -153.8861                0               0                0               0
1.0132                 0.9976013         -9.9423     0.0003696162       -157.8278                0               0                0               0
1.0198                  0.997488       -10.03173     0.0003784079       -161.7252                0               0                0               0
1.0264                 0.9973701       -10.12142     0.0003865007        -165.568                0               0                0               0
1.033                  0.9972483       -10.21134     0.0003938861       -169.3458                0               0                0               0
1.0396                 0.9971238        -10.3015     0.0004005654       -173.0484                0               0                0               0
1.0462                 0.9969976       -10.39191     0.0004065516       -176.6655                0               0                0               0
1.05281                0.9968709       -10.48258     0.0004118704        179.8135                0               0                0               0
1.05941                0.9967446       -10.57354     0.0004165612        176.3988                0               0                0               0
1.06601                0.9966194       -10.66483      0.000420679        173.1009                0               0                0               0
1.07261                0.9964965       -10.75651     0.0004242951        169.9297                0               0                0               0
1.07921                0.9963764       -10.84863     0.0004274983        166.8948                0               0                0               0
1.08581                0.9962597       -10.94125     0.0004303963         164.005                0               0                0               0
1.09241                0.9961469       -11.03446     0.0004331158        161.2676                0               0                0               0
1.09901                0.9960379       -11.12831      0.000435803        158.6882                0               0                0               0
1.10561                0.9959331       -11.22289     0.0004386231        156.2699                0               0                0               0
1.11221                 0.995832       -11.31828     0.0004417585        154.0129                0               0                0               0
1.11881                0.9957344       -11.41455     0.0004454065        151.9132                0               0                0               0
1.12541                0.9956397       -11.51178     0.0004497759        149.9628                0               0                0               0
1.13201                0.9955473       -11.61003      0.000455081        148.1486                0               0                0               0
1.13861                 0.995456       -11.70936     0.0004615363        146.4526                0               0                0               0
1.14521                0.9953652       -11.80983     0.0004693485        144.8522                0               0                0               0
1.15182                0.9952734       -11.91148     0.0004787094        143.3205                0               0                0               0
1.15842                0.9951795       -12.01434     0.0004897882         141.828                0               0                0               0
1.16502                0.9950823       -12.11844     0.0005027247        140.3434                0               0                0               0
1.17162                0.9949806       -12.22378     0.0005176248        138.8359                0               0                0               0
1.17822                 0.994873       -12.33038     0.0005345571        137.2763                0               0                0               0
1.18482                0.9947584       -12.43822     0.0005535523        135.6386                0               0                0               0
1.19142                0.9946356       -12.54727     0.0005746042        133.9011                0               0                0               0
1.19802                0.9945036       -12.65751     0.0005976724        132.0469                0               0                0               0
1.20462                0.9943614        -12.7689     0.0006226867         130.064                0               0                0               0
1.21122                0.9942086        -12.8814     0.0006495517        127.9453                0               0                0               0
1.21782                0.9940446       -12.99497     0.0006781509        125.6879                0               0                0               0
1.22442                0.9938688       -13.10954     0.0007083522        123.2926                0               0                0               0
1.23102                0.9936813       -13.22506     0.0007400115        120.7631                0               0                0               0
1.23762                0.9934822       -13.34149     0.0007729762        118.1055                0               0                0               0
1.24422                0.9932715       -13.45878     0.0008070888        115.3275                0               0                0               0
1.25083                0.9930499       -13.57688     0.0008421889        112.4378                0               0                0               0
1.25743                0.9928179       -13.69576     0.0008781155        109.4461                0               0                0               0
1.26403                0.9925762       -13.81538     0.0009147087        106.3623                0               0                0               0
1.27063                0.9923259       -13.93573     0.0009518115        103.1964                0               0                0               0
1.27723                0.9920677       -14.05681       0.00098927        99.95851                0               0                0               0
1.28383                0.9918028       -14.17861      0.001026936        96.65838                0               0                0               0
1.29043                0.9915323       -14.30116      0.001064668        93.30558                0               0                0               0
1.29703                0.9912571       -14.42448      0.001102331        89.90934                0               0                0               0
1.30363                0.9909783       -14.54861      0.001139798        86.47858                0               0                0               0
1.31023                0.9906969       -14.67361      0.001176952        83.02187                0               0                0               0
1.31683                0.9904136       -14.79955      0.001213686        79.54745                0               0                0               0
1.32343                0.9901293        -14.9265      0.001249907        76.06325                0               0                0               0
1.33003                0.9898442       -15.05454      0.001285532        72.57687                0               0                0               0
1.33663                0.9895589       -15.18377      0.001320496        69.09565                0               0                0               0
1.34323                0.9892735       -15.31428      0.001354748        65.62664                0               0                0               0
1.34984                0.9889875       -15.44617      0.001388255        62.17661                0               0                0               0
1.35644                 0.988701       -15.57956      0.001421003        58.75207                0               0                0               0
1.36304                0.9884133       -15.71452      0.001453002        55.35923                0               0                0               0
1.36964                0.9881234       -15.85117      0.001484278        52.00402                0               0                0               0
1.37624                0.9878305        -15.9896      0.001514889        48.69201                0               0                0               0
1.38284                0.9875334       -16.12989      0.001544913        45.42842                0               0                0               0
1.38944                0.9872307       -16.27211      0.001574457        42.21801                0               0                0               0
1.39604                0.9869208       -16.41634      0.001603657        39.06505                0               0                0               0
1.40264                 0.986602       -16.56263      0.001632676        35.97322                0               0                0               0
1.40924                 0.986273       -16.71101      0.001661708        32.94552                0               0                0               0
1.41584                 0.985932       -16.86153      0.001690979        29.98413                0               0                0               0
1.42244                 0.985577        -17.0142       0.00172074        27.09037                0               0                0               0
1.42904                0.9852065       -17.16902      0.001751272        24.26452                0               0                0               0
1.43564                0.9848189       -17.32599      0.001782883        21.50577                0               0                0               0
1.44224                0.9844128       -17.48509      0.001815903        18.81209                0               0                0               0
1.44884                 0.983987        -17.6463      0.001850683        16.18018                0               0                0               0
1.45545                0.9835401       -17.80957      0.001887585        13.60549                0               0                0               0
1.46205                0.9830713       -17.97489      0.001926985        11.08214                0               0                0               0
1.46865                0.9825797       -18.14219      0.001969259        8.603091                0               0                0               0
1.47525                 0.982065       -18.31143      0.002014782        6.160196                0               0                0               0
1.48185                 0.981527       -18.48258      0.002063918        3.744417                0               0                0               0
1.48845                0.9809654        -18.6556      0.002117012        1.346033                0               0                0               0
1.49505                0.9803803       -18.83045      0.002174388       -1.045086                0               0                0               0
1.50165                0.9797721        -19.0071      0.002236339       -3.439197                0               0                0               0
1.50825                0.9791416       -19.18555      0.002303127       -5.846383                0               0                0               0
1.51485                 0.978489       -19.36579      0.002374971       -8.276284                0               0                0               0
1.52145                0.9778152       -19.54783      0.002452054       -10.73783                0               0                0               0
1.52805                 0.977121       -19.73171      0.002534517       -13.23904                0               0                0               0
1.53465                0.9764071       -19.91745      0.002622458       -15.78687                0               0                0               0
1.54125                0.9756746       -20.10513      0.002715939       -18.38711                0               0                0               0
1.54785                0.9749239       -20.29481       0.00281498       -21.04433                0               0                0               0
1.55446                0.9741559       -20.48659       0.00291957        -23.7619                0               0                0               0
1.56106                0.9733708       -20.68057      0.003029664       -26.54203                0               0                0               0
1.56766                0.9725689       -20.87688      0.003145194       -29.38583                0               0                0               0
1.57426                0.9717504       -21.07563      0.003266065       -32.29347                0               0                0               0
1.58086                0.9709148       -21.27699      0.003392167       -35.26422                0               0                0               0
1.58746                0.9700617       -21.48108      0.003523373       -38.29666                0               0                0               0
1.59406                0.9691901       -21.68808      0.003659545       -41.38873                0               0                0               0
1.60066                 0.968299       -21.89813      0.003800543       -44.53787                0               0                0               0
1.60726                0.9673869        -22.1114      0.003946219       -47.74116                0               0                0               0
1.61386                0.9664519       -22.32803      0.004096428       -50.99538                0               0                0               0
1.62046                0.9654918       -22.54818      0.004251029       -54.29712                0               0                0               0
1.62706                0.9645043       -22.77198      0.004409888       -57.64284                0               0                0               0
1.63366                0.9634868       -22.99956      0.004572882       -61.02897                0               0                0               0
1.64026                0.9624362       -23.23104      0.004739898       -64.45192                0               0                0               0
1.64686                0.9613495       -23.46653      0.004910842       -67.90815                0               0                0               0
1.65347                0.9602233        -23.7061      0.005085635       -71.39423                0               0                0               0
1.66007                0.9590544       -23.94981      0.005264222       -74.90681                0               0                0               0
1.66667                0.9578396       -24.19774      0.005446569       -78.44272                0               0                0               0
1.67327                0.9565752       -24.44989      0.005632666       -81.99896                0               0                0               0
1.67987                 0.955258       -24.70629      0.005822532       -85.57269                0               0                0               0
1.68647                0.9538848       -24.96694      0.006016211       -89.16129                0               0                0               0
1.69307                0.9524524       -25.23182      0.006213782       -92.76236                0               0                0               0
1.69967                 0.950958       -25.50089      0.006415352       -96.37372                0               0                0               0
1.70627                0.9493989       -25.77413      0.006621063       -99.99342                0               0                0               0
1.71287                0.9477726       -26.05148      0.006831091       -103.6198                0               0                0               0
1.71947                 0.946077       -26.33289      0.007045643       -107.2513                0               0                0               0
1.72607                0.9443101        -26.6183      0.007264964       -110.8868                0               0                0               0
1.73267                0.9424705       -26.90765      0.007489332       -114.5254                0               0                0               0
1.73927                0.9405566       -27.20091      0.007719057       -118.1663                0               0                0               0
1.74587                0.9385673       -27.49801      0.007954481       -121.8092                0               0                0               0
1.75248                0.9365021       -27.79895      0.008195985       -125.4538                0               0                0               0
1.75908                0.9343599       -28.10369      0.008443968       -129.1002                0               0                0               0
1.76568                0.9321404       -28.41223      0.008698862       -132.7487                0               0                0               0
1.77228                0.9298433        -28.7246      0.008961123       -136.3999                0               0                0               0
1.77888                 0.927468       -29.04082      0.009231224       -140.0545                0               0                0               0
1.78548                0.9250145       -29.36097      0.009509661       -143.7135                0               0                0               0
1.79208                 0.922482       -29.68512      0.009796936        -147.378                0               0                0               0
1.79868                0.9198701       -30.01339       0.01009356       -151.0493                0               0                0               0
1.80528                 0.917178       -30.34591       0.01040006       -154.7288                0               0                0               0
1.81188                0.9144048       -30.68281       0.01071694       -158.4182                0               0                0               0
1.81848                0.9115491       -31.02429       0.01104471       -162.1191                0               0                0               0
1.82508                0.9086091       -31.37052       0.01138388       -165.8331                0               0                0               0
1.83168                0.9055826       -31.72172       0.01173491       -169.5622                0               0                0               0
1.83828                0.9024671       -32.07811       0.01209828       -173.3079                0               0                0               0
1.84488                0.8992594       -32.43991       0.01247442       -177.0722                0               0                0               0
1.85149                0.8959559       -32.80735       0.01286372        179.1434                0               0                0               0
