! TOUCHSTONE file generated by CST MICROWAVE STUDIO
! Date and time: Tue Mar 11 13:57:49 2025
! Project name: transverse.cst
! Parameters = {Fracture=1; B=10; D=160; F=5; Feed=2.85625; L=100; M=10; R=0.384908; S=1; Theta=270; length=57.125; wave=114.25}
! Header version: 2024
! Port assignment regex: !\s*Touchstone port\s*([0-9]+)\s*=\s*(CST MWS port|CST DES external port|CST DES block port)\s*(.+)\s* \(\"(.*)\"\)(\s*mode\s*([0-9]+))?.*
! Touchstone port assignment:
! Touchstone port 1 = CST MWS port 1 ("")
! Touchstone port 2 = CST MWS port 2 ("")
# GHz S MA R 50
1                      0.9979136       -9.990299     0.0003149877       -113.5622                0               0                0               0
1.00658                0.9978323       -10.08094     0.0003407566       -119.2283                0               0                0               0
1.01316                 0.997743       -10.17202     0.0003655941       -124.8844                0               0                0               0
1.01974                0.9976462       -10.26349     0.0003893631       -130.5242                0               0                0               0
1.02632                0.9975427       -10.35532     0.0004119284        -136.142                0               0                0               0
1.03289                 0.997433       -10.44745     0.0004331567       -141.7333                0               0                0               0
1.03947                0.9973181       -10.53986     0.0004529181       -147.2933                0               0                0               0
1.04605                0.9971989       -10.63254     0.0004710863       -152.8177                0               0                0               0
1.05263                0.9970766       -10.72546     0.0004875398       -158.3021                0               0                0               0
1.05921                0.9969522       -10.81865     0.0005021626       -163.7416                0               0                0               0
1.06579                0.9968271        -10.9121     0.0005148451        -169.131                0               0                0               0
1.07237                 0.996702       -11.00585     0.0005254849       -174.4647                0               0                0               0
1.07895                0.9965784       -11.09993     0.0005339884       -179.7362                0               0                0               0
1.08553                0.9964569       -11.19439     0.0005402712        175.0619                0               0                0               0
1.09211                0.9963386       -11.28929     0.0005442602        169.9382                0               0                0               0
1.09868                 0.996224        -11.3847     0.0005458945        164.9027                0               0                0               0
1.10526                 0.996114        -11.4807     0.0005451271        159.9672                0               0                0               0
1.11184                0.9960086       -11.57735     0.0005419274        155.1461                0               0                0               0
1.11842                0.9959082       -11.67476     0.0005362832        150.4562                0               0                0               0
1.125                  0.9958127         -11.773     0.0005282044        145.9184                0               0                0               0
1.13158                0.9957218       -11.87217     0.0005177264        141.5582                0               0                0               0
1.13816                 0.995635       -11.97234      0.000504916        137.4067                0               0                0               0
1.14474                0.9955516       -12.07362      0.000489878        133.5031                0               0                0               0
1.15132                0.9954707       -12.17606     0.0004727655         129.896                0               0                0               0
1.15789                0.9953913       -12.27974     0.0004537929        126.6467                0               0                0               0
1.16447                0.9953123       -12.38472     0.0004332547        123.8319                0               0                0               0
1.17105                 0.995232       -12.49105     0.0004115511        121.5474                0               0                0               0
1.17763                0.9951492       -12.59877     0.0003892233        119.9108                0               0                0               0
1.18421                0.9950625        -12.7079     0.0003669989        119.0607                0               0                0               0
1.19079                0.9949701       -12.81846     0.0003458452        119.1486                0               0                0               0
1.19737                0.9948705       -12.93044     0.0003270177        120.3137                0               0                0               0
1.20395                0.9947626       -13.04384     0.0003120691         122.631                0               0                0               0
1.21053                0.9946448       -13.15864     0.0003027586        126.0323                0               0                0               0
1.21711                0.9945157       -13.27479     0.0003008021        130.2315                0               0                0               0
1.22368                0.9943743       -13.39226     0.0003074866        134.7264                0               0                0               0
1.23026                0.9942199       -13.51099     0.0003233302        138.9271                0               0                0               0
1.23684                0.9940515       -13.63092      0.000348013        142.3462                0               0                0               0
1.24342                0.9938686         -13.752     0.0003806087        144.7173                0               0                0               0
1.25                   0.9936709       -13.87415     0.0004199279        145.9878                0               0                0               0
1.25658                0.9934584       -13.99732     0.0004647833        146.2412                0               0                0               0
1.26316                0.9932311       -14.12144     0.0005141205        145.6199                0               0                0               0
1.26974                0.9929897       -14.24645     0.0005670524        144.2756                0               0                0               0
1.27632                0.9927346       -14.37231     0.0006228452        142.3464                0               0                0               0
1.28289                0.9924665       -14.49896     0.0006808897        139.9491                0               0                0               0
1.28947                0.9921865       -14.62638     0.0007406732        137.1788                0               0                0               0
1.29605                0.9918954       -14.75455     0.0008017552        134.1124                0               0                0               0
1.30263                0.9915945       -14.88346       0.00086375        130.8114                0               0                0               0
1.30921                0.9912852       -15.01311     0.0009263146        127.3252                0               0                0               0
1.31579                0.9909683       -15.14353     0.0009891384        123.6939                0               0                0               0
1.32237                0.9906454       -15.27475      0.001051939        119.9503                0               0                0               0
1.32895                0.9903173       -15.40683      0.001114457        116.1214                0               0                0               0
1.33553                0.9899854       -15.53982      0.001176455          112.23                0               0                0               0
1.34211                0.9896501        -15.6738      0.001237717        108.2954                0               0                0               0
1.34868                0.9893126       -15.80885      0.001298046        104.3342                0               0                0               0
1.35526                 0.988973       -15.94509      0.001357268        100.3608                0               0                0               0
1.36184                0.9886318        -16.0826      0.001415232        96.38803                0               0                0               0
1.36842                0.9882889       -16.22149      0.001471809        92.42745                0               0                0               0
1.375                  0.9879442       -16.36189      0.001526901        88.48947                0               0                0               0
1.38158                0.9875971        -16.5039      0.001580435        84.58366                0               0                0               0
1.38816                0.9872467       -16.64763      0.001632373         80.7189                0               0                0               0
1.39474                0.9868921       -16.79318      0.001682709        76.90339                0               0                0               0
1.40132                 0.986532       -16.94067      0.001731478        73.14481                0               0                0               0
1.40789                 0.986165       -17.09017      0.001778753         69.4503                0               0                0               0
1.41447                0.9857891       -17.24177      0.001824652        65.82639                0               0                0               0
1.42105                0.9854028       -17.39553      0.001869341        62.27907                0               0                0               0
1.42763                0.9850042       -17.55151      0.001913035        58.81362                0               0                0               0
1.43421                0.9845908       -17.70975      0.001955999        55.43454                0               0                0               0
1.44079                0.9841611       -17.87026      0.001998552        52.14541                0               0                0               0
1.44737                0.9837128       -18.03305      0.002041069        48.94871                0               0                0               0
1.45395                0.9832439       -18.19811      0.002083974        45.84571                0               0                0               0
1.46053                0.9827527       -18.36543      0.002127745         42.8362                0               0                0               0
1.46711                0.9822374       -18.53496      0.002172905        39.91841                0               0                0               0
1.47368                0.9816966       -18.70666      0.002220021         37.0888                0               0                0               0
1.48026                0.9811287       -18.88047      0.002269692          34.342                0               0                0               0
1.48684                 0.980533       -19.05632      0.002322542        31.67075                0               0                0               0
1.49342                0.9799084       -19.23416      0.002379208        29.06596                0               0                0               0
1.5                    0.9792547        -19.4139       0.00244033        26.51684                0               0                0               0
1.50658                0.9785715       -19.59549      0.002506531        24.01113                0               0                0               0
1.51316                0.9778591       -19.77885       0.00257841        21.53546                0               0                0               0
1.51974                0.9771175       -19.96392      0.002656522        19.07574                0               0                0               0
1.52632                0.9763476       -20.15067      0.002741374        16.61762                0               0                0               0
1.53289                0.9755501       -20.33904      0.002833407        14.14697                0               0                0               0
1.53947                 0.974726       -20.52902      0.002932992        11.65033                0               0                0               0
1.54605                0.9738765       -20.72061      0.003040422         9.11536                0               0                0               0
1.55263                0.9730028       -20.91383      0.003155917        6.531096                0               0                0               0
1.55921                0.9721063       -21.10869      0.003279616        3.888239                0               0                0               0
1.56579                0.9711883       -21.30527       0.00341158        1.179266                0               0                0               0
1.57237                  0.97025       -21.50363      0.003551806       -1.601537                0               0                0               0
1.57895                0.9692926       -21.70387      0.003700222       -4.458115                0               0                0               0
1.58553                 0.968317       -21.90611      0.003856699       -7.392756                0               0                0               0
1.59211                 0.967324       -22.11049      0.004021062       -10.40626                0               0                0               0
1.59868                 0.966314       -22.31714      0.004193086       -13.49812                0               0                0               0
1.60526                0.9652872       -22.52625      0.004372518       -16.66671                0               0                0               0
1.61184                0.9642435       -22.73798      0.004559073        -19.9095                0               0                0               0
1.61842                0.9631821       -22.95253      0.004752444       -23.22326                0               0                0               0
1.625                  0.9621021       -23.17009      0.004952309       -26.60416                0               0                0               0
1.63158                0.9610021       -23.39084      0.005158338       -30.04801                0               0                0               0
1.63816                0.9598803       -23.61499      0.005370195       -33.55032                0               0                0               0
1.64474                0.9587346       -23.84271      0.005587544       -37.10646                0               0                0               0
1.65132                0.9575621       -24.07419      0.005810056        -40.7117                0               0                0               0
1.65789                0.9563602        -24.3096      0.006037411       -44.36132                0               0                0               0
1.66447                0.9551253       -24.54907        0.0062693       -48.05066                0               0                0               0
1.67105                 0.953854       -24.79275      0.006505435       -51.77515                0               0                0               0
1.67763                0.9525425       -25.04075      0.006745547       -55.53037                0               0                0               0
1.68421                0.9511869       -25.29316      0.006989395       -59.31204                0               0                0               0
1.69079                 0.949783       -25.55004      0.007236762       -63.11608                0               0                0               0
1.69737                0.9483269       -25.81143      0.007487468        -66.9386                0               0                0               0
1.70395                0.9468146       -26.07736      0.007741367       -70.77593                0               0                0               0
1.71053                0.9452419       -26.34782      0.007998353        -74.6246                0               0                0               0
1.71711                0.9436052       -26.62279      0.008258359       -78.48137                0               0                0               0
1.72368                0.9419009       -26.90221      0.008521372       -82.34327                0               0                0               0
1.73026                0.9401255       -27.18602      0.008787414       -86.20752                0               0                0               0
1.73684                0.9382763       -27.47415      0.009056572       -90.07161                0               0                0               0
1.74342                0.9363505        -27.7665      0.009328978       -93.93329                0               0                0               0
1.75                   0.9343458       -28.06298      0.009604822       -97.79056                0               0                0               0
1.75658                0.9322604       -28.36349      0.009884349       -101.6417                0               0                0               0
1.76316                0.9300929       -28.66793       0.01016786       -105.4852                0               0                0               0
1.76974                0.9278423        -28.9762       0.01045573       -109.3199                0               0                0               0
1.77632                0.9255077       -29.28822       0.01074837        -113.145                0               0                0               0
1.78289                0.9230889       -29.60393       0.01104626       -116.9598                0               0                0               0
1.78947                0.9205858       -29.92327       0.01134993        -120.764                0               0                0               0
1.79605                0.9179988       -30.24622       0.01165997       -124.5576                0               0                0               0
1.80263                0.9153282       -30.57278       0.01197702       -128.3409                0               0                0               0
1.80921                0.9125745       -30.90298       0.01230175       -132.1144                0               0                0               0
1.81579                0.9097382       -31.23687        0.0126349       -135.8791                0               0                0               0
1.82237                  0.90682       -31.57456       0.01297721       -139.6359                0               0                0               0
1.82895                0.9038201       -31.91617       0.01332948       -143.3865                0               0                0               0
1.83553                 0.900739       -32.26187       0.01369251       -147.1322                0               0                0               0
1.84211                0.8975761       -32.61185       0.01406712       -150.8752                0               0                0               0
1.84868                0.8943311       -32.96635       0.01445413       -154.6172                0               0                0               0
