! TOUCHSTONE file generated by CST MICROWAVE STUDIO
! Date and time: Tue Mar 11 13:56:27 2025
! Project name: transverse.cst
! Parameters = {Fracture=5; B=12.5; D=160; F=25; Feed=2.85625; L=100; M=20; R=0.384908; S=2; Theta=0; length=57.125; wave=114.25}
! Header version: 2024
! Port assignment regex: !\s*Touchstone port\s*([0-9]+)\s*=\s*(CST MWS port|CST DES external port|CST DES block port)\s*(.+)\s* \(\"(.*)\"\)(\s*mode\s*([0-9]+))?.*
! Touchstone port assignment:
! Touchstone port 1 = CST MWS port 1 ("")
! Touchstone port 2 = CST MWS port 2 ("")
# GHz S MA R 50
1                      0.9975796       -9.739028     0.0004785011        174.2108                0               0                0               0
1.0066                 0.9975137       -9.825095     0.0004783687        169.0775                0               0                0               0
1.0132                 0.9974498       -9.911868     0.0004766755        164.0743                0               0                0               0
1.0198                 0.9973874       -9.999396     0.0004734343        159.2143                0               0                0               0
1.0264                  0.997326       -10.08772     0.0004686745         154.513                0               0                0               0
1.033                  0.9972647       -10.17689     0.0004624456        149.9887                0               0                0               0
1.0396                  0.997203       -10.26694     0.0004548198        145.6634                0               0                0               0
1.0462                   0.99714       -10.35789     0.0004458967        141.5626                0               0                0               0
1.05281                0.9970747       -10.44976     0.0004358079        137.7165                0               0                0               0
1.05941                0.9970063       -10.54258      0.000424724        134.1599                0               0                0               0
1.06601                0.9969338       -10.63633     0.0004128615        130.9325                0               0                0               0
1.07261                0.9968564       -10.73102     0.0004004917        128.0786                0               0                0               0
1.07921                0.9967731       -10.82665     0.0003879509         125.646                0               0                0               0
1.08581                0.9966833       -10.92319     0.0003756498        123.6826                0               0                0               0
1.09241                0.9965861       -11.02062     0.0003640805        122.2316                0               0                0               0
1.09901                 0.996481       -11.11892     0.0003538188        121.3232                0               0                0               0
1.10561                0.9963674       -11.21804     0.0003455136         120.963                0               0                0               0
1.11221                 0.996245       -11.31795     0.0003398601        121.1187                0               0                0               0
1.11881                0.9961135       -11.41862     0.0003375492        121.7089                0               0                0               0
1.12541                0.9959728       -11.52001     0.0003391995        122.6005                0               0                0               0
1.13201                0.9958229       -11.62207     0.0003452809        123.6188                0               0                0               0
1.13861                0.9956641       -11.72477      0.000356057        124.5724                0               0                0               0
1.14521                0.9954965       -11.82808     0.0003715618         125.284                0               0                0               0
1.15182                0.9953206       -11.93197     0.0003916202        125.6156                0               0                0               0
1.15842                0.9951369       -12.03641     0.0004158995        125.4811                0               0                0               0
1.16502                0.9949461       -12.14138     0.0004439713        124.8443                0               0                0               0
1.17162                0.9947486       -12.24688     0.0004753658        123.7083                0               0                0               0
1.17822                0.9945454       -12.35291     0.0005096115        122.1021                0               0                0               0
1.18482                0.9943372       -12.45946     0.0005462585        120.0689                0               0                0               0
1.19142                0.9941246       -12.56656      0.000584889        117.6575                0               0                0               0
1.19802                0.9939084       -12.67422     0.0006251206         114.917                0               0                0               0
1.20462                0.9936894       -12.78248     0.0006666043        111.8933                0               0                0               0
1.21122                0.9934681       -12.89138     0.0007090215        108.6283                0               0                0               0
1.21782                0.9932449       -13.00095     0.0007520797        105.1589                0               0                0               0
1.22442                0.9930205       -13.11124     0.0007955089        101.5175                0               0                0               0
1.23102                 0.992795       -13.22233     0.0008390581        97.73237                0               0                0               0
1.23762                0.9925686       -13.33425     0.0008824928          93.828                0               0                0               0
1.24422                0.9923414       -13.44708     0.0009255935        89.82574                0               0                0               0
1.25083                0.9921133       -13.56088     0.0009681536        85.74426                0               0                0               0
1.25743                 0.991884        -13.6757      0.001009979        81.59999                0               0                0               0
1.26403                0.9916532       -13.79162      0.001050887        77.40751                0               0                0               0
1.27063                0.9914202       -13.90867      0.001090708        73.17989                0               0                0               0
1.27723                0.9911845       -14.02693      0.001129283        68.92893                0               0                0               0
1.28383                0.9909454       -14.14644      0.001166466        64.66544                0               0                0               0
1.29043                 0.990702       -14.26723      0.001202125        60.39942                0               0                0               0
1.29703                0.9904533       -14.38934      0.001236143        56.14027                0               0                0               0
1.30363                0.9901986        -14.5128      0.001268416        51.89685                0               0                0               0
1.31023                0.9899367       -14.63764       0.00129886        47.67771                0               0                0               0
1.31683                0.9896669       -14.76385      0.001327408        43.49111                0               0                0               0
1.32343                0.9893881       -14.89144      0.001354012        39.34512                0               0                0               0
1.33003                0.9890996       -15.02042      0.001378651        35.24773                0               0                0               0
1.33663                0.9888004       -15.15077      0.001401323        31.20683                0               0                0               0
1.34323                0.9884899       -15.28247      0.001422056         27.2303                0               0                0               0
1.34984                0.9881676       -15.41551      0.001440907        23.32597                0               0                0               0
1.35644                 0.987833       -15.54986      0.001457964        19.50161                0               0                0               0
1.36304                0.9874858        -15.6855      0.001473349        15.76493                0               0                0               0
1.36964                0.9871258        -15.8224      0.001487222        12.12344                0               0                0               0
1.37624                0.9867529       -15.96053      0.001499781        8.584381                0               0                0               0
1.38284                0.9863675       -16.09987      0.001511267        5.154534                0               0                0               0
1.38944                0.9859697        -16.2404      0.001521965        1.840028                0               0                0               0
1.39604                0.9855598       -16.38211      0.001532202       -1.353921                0               0                0               0
1.40264                0.9851385         -16.525      0.001542351       -4.423318                0               0                0               0
1.40924                0.9847063       -16.66906       0.00155283       -7.365736                0               0                0               0
1.41584                 0.984264       -16.81431      0.001564097        -10.1807                0               0                0               0
1.42244                0.9838121       -16.96076      0.001576647       -12.87007                0               0                0               0
1.42904                0.9833516       -17.10844      0.001591003       -15.43838                0               0                0               0
1.43564                 0.982883       -17.25741      0.001607713       -17.89314                0               0                0               0
1.44224                0.9824072       -17.40771      0.001627329         -20.245                0               0                0               0
1.44884                0.9819248        -17.5594      0.001650404       -22.50769                0               0                0               0
1.45545                0.9814363       -17.71256      0.001677469       -24.69788                0               0                0               0
1.46205                0.9809421       -17.86727      0.001709021        -26.8347                0               0                0               0
1.46865                0.9804427       -18.02362      0.001745511       -28.93905                0               0                0               0
1.47525                0.9799379       -18.18171      0.001787325       -31.03287                0               0                0               0
1.48185                0.9794279       -18.34165      0.001834777       -33.13812                0               0                0               0
1.48845                0.9789123       -18.50354      0.001888101       -35.27596                0               0                0               0
1.49505                0.9783908        -18.6675      0.001947447        -37.4658                0               0                0               0
1.50165                0.9778625       -18.83363      0.002012886       -39.72472                0               0                0               0
1.50825                0.9773268       -19.00205      0.002084405       -42.06696                0               0                0               0
1.51485                0.9767824       -19.17287      0.002161923       -44.50365                0               0                0               0
1.52145                0.9762283       -19.34619      0.002245293       -47.04281                0               0                0               0
1.52805                0.9756628       -19.52211      0.002334314       -49.68951                0               0                0               0
1.53465                0.9750845       -19.70071      0.002428741       -52.44608                0               0                0               0
1.54125                0.9744917       -19.88209      0.002528292       -55.31251                0               0                0               0
1.54785                0.9738825       -20.06632      0.002632658       -58.28684                0               0                0               0
1.55446                 0.973255       -20.25345      0.002741513       -61.36553                0               0                0               0
1.56106                0.9726073       -20.44355      0.002854516       -64.54381                0               0                0               0
1.56766                0.9719375       -20.63665       0.00297132       -67.81605                0               0                0               0
1.57426                0.9712437       -20.83278      0.003091576       -71.17601                0               0                0               0
1.58086                0.9705239       -21.03197      0.003214937       -74.61706                0               0                0               0
1.58746                0.9697763       -21.23424      0.003341063       -78.13238                0               0                0               0
1.59406                0.9689993       -21.43957      0.003469621       -81.71511                0               0                0               0
1.60066                0.9681914       -21.64798      0.003600289       -85.35846                0               0                0               0
1.60726                 0.967351       -21.85946      0.003732761       -89.05574                0               0                0               0
1.61386                0.9664769       -22.07399      0.003866746        -92.8005                0               0                0               0
1.62046                0.9655682       -22.29157       0.00400197        -96.5865                0               0                0               0
1.62706                0.9646238       -22.51218      0.004138182       -100.4078                0               0                0               0
1.63366                 0.963643       -22.73582      0.004275149       -104.2586                0               0                0               0
1.64026                0.9626253       -22.96248      0.004412666       -108.1335                0               0                0               0
1.64686                0.9615703       -23.19217      0.004550555       -112.0274                0               0                0               0
1.65347                0.9604777       -23.42489      0.004688665       -115.9354                0               0                0               0
1.66007                0.9593473       -23.66068      0.004826875        -119.853                0               0                0               0
1.66667                0.9581791       -23.89956      0.004965099       -123.7757                0               0                0               0
1.67327                0.9569731       -24.14159      0.005103286       -127.6996                0               0                0               0
1.67987                0.9557294       -24.38682      0.005241421        -131.621                0               0                0               0
1.68647                0.9544479       -24.63533       0.00537953       -135.5362                0               0                0               0
1.69307                0.9531287       -24.88721      0.005517678       -139.4422                0               0                0               0
1.69967                0.9517715       -25.14259      0.005655975       -143.3359                0               0                0               0
1.70627                0.9503762       -25.40157      0.005794575       -147.2149                0               0                0               0
1.71287                0.9489425       -25.66429      0.005933679       -151.0768                0               0                0               0
1.71947                0.9474696       -25.93092      0.006073531       -154.9196                0               0                0               0
1.72607                0.9459568       -26.20161      0.006214427       -158.7417                0               0                0               0
1.73267                0.9444029       -26.47655      0.006356707       -162.5419                0               0                0               0
1.73927                0.9428069       -26.75591      0.006500758       -166.3193                0               0                0               0
1.74587                0.9411668       -27.03991      0.006647015       -170.0734                0               0                0               0
1.75248                0.9394807       -27.32873      0.006795953       -173.8041                0               0                0               0
1.75908                0.9377465       -27.62259      0.006948091       -177.5119                0               0                0               0
1.76568                0.9359616        -27.9217      0.007103984        178.8026                0               0                0               0
1.77228                0.9341228       -28.22626      0.007264219        175.1381                0               0                0               0
1.77888                0.9322272       -28.53649      0.007429413        171.4929                0               0                0               0
1.78548                 0.930271       -28.85257      0.007600205         167.865                0               0                0               0
1.79208                0.9282505       -29.17471       0.00777725        164.2519                0               0                0               0
1.79868                0.9261616       -29.50311      0.007961212        160.6507                0               0                0               0
1.80528                0.9240001       -29.83794      0.008152754        157.0584                0               0                0               0
1.81188                0.9217612       -30.17938      0.008352535        153.4713                0               0                0               0
1.81848                0.9194403       -30.52759      0.008561198        149.8858                0               0                0               0
1.82508                0.9170327       -30.88272      0.008779363         146.298                0               0                0               0
1.83168                0.9145331       -31.24492      0.009007618        142.7039                0               0                0               0
1.83828                0.9119365       -31.61432      0.009246516        139.0995                0               0                0               0
1.84488                0.9092376       -31.99104      0.009496562        135.4808                0               0                0               0
1.85149                0.9064311       -32.37521      0.009758211        131.8438                0               0                0               0
