! TOUCHSTONE file generated by CST MICROWAVE STUDIO
! Date and time: Tue Mar 11 13:57:50 2025
! Project name: transverse.cst
! Parameters = {Fracture=1; B=10; D=160; F=5; Feed=2.85625; L=100; M=10; R=0.384908; S=2; Theta=270; length=57.125; wave=114.25}
! Header version: 2024
! Port assignment regex: !\s*Touchstone port\s*([0-9]+)\s*=\s*(CST MWS port|CST DES external port|CST DES block port)\s*(.+)\s* \(\"(.*)\"\)(\s*mode\s*([0-9]+))?.*
! Touchstone port assignment:
! Touchstone port 1 = CST MWS port 1 ("")
! Touchstone port 2 = CST MWS port 2 ("")
# GHz S MA R 50
1                      0.9978373       -9.995279     0.0002742967       -123.9089                0               0                0               0
1.00658                0.9977574        -10.0851     0.0002948923       -128.1189                0               0                0               0
1.01316                0.9976718       -10.17539     0.0003149087       -132.4598                0               0                0               0
1.01974                0.9975808       -10.26611     0.0003342172       -136.8955                0               0                0               0
1.02632                0.9974846       -10.35723     0.0003526962       -141.3976                0               0                0               0
1.03289                 0.997384       -10.44875     0.0003702311       -145.9428                0               0                0               0
1.03947                0.9972796       -10.54063     0.0003867132       -150.5116                0               0                0               0
1.04605                0.9971721       -10.63289     0.0004020407       -155.0872                0               0                0               0
1.05263                0.9970621       -10.72551     0.0004161183       -159.6545                0               0                0               0
1.05921                0.9969505       -10.81852     0.0004288584       -164.1998                0               0                0               0
1.06579                 0.996838       -10.91192     0.0004401817       -168.7099                0               0                0               0
1.07237                0.9967253       -11.00574     0.0004500183       -173.1718                0               0                0               0
1.07895                0.9966132       -11.10001     0.0004583085       -177.5725                0               0                0               0
1.08553                0.9965019       -11.19479     0.0004650051        178.1015                0               0                0               0
1.09211                0.9963925        -11.2901     0.0004700742        173.8648                0               0                0               0
1.09868                0.9962851       -11.38601      0.000473498        169.7328                0               0                0               0
1.10526                0.9961798       -11.48258     0.0004752767        165.7227                0               0                0               0
1.11184                0.9960771       -11.57985     0.0004754314        161.8534                0               0                0               0
1.11842                0.9959767       -11.67791     0.0004740081        158.1463                0               0                0               0
1.125                  0.9958786       -11.77681     0.0004710811         154.625                0               0                0               0
1.13158                0.9957824       -11.87661     0.0004667587        151.3162                0               0                0               0
1.13816                0.9956876       -11.97738     0.0004611885        148.2497                0               0                0               0
1.14474                0.9955938       -12.07918      0.000454565        145.4583                0               0                0               0
1.15132                0.9955002       -12.18204     0.0004471369        142.9772                0               0                0               0
1.15789                0.9954059       -12.28603     0.0004392158        140.8432                0               0                0               0
1.16447                0.9953099       -12.39119     0.0004311846        139.0923                0               0                0               0
1.17105                0.9952114       -12.49754     0.0004235037        137.7565                0               0                0               0
1.17763                0.9951092       -12.60512     0.0004167134        136.8582                0               0                0               0
1.18421                0.9950024       -12.71393     0.0004114283        136.4033                0               0                0               0
1.19079                0.9948897       -12.82398     0.0004083195        136.3734                0               0                0               0
1.19737                0.9947702       -12.93528     0.0004080811        136.7186                0               0                0               0
1.20395                0.9946428       -13.04782     0.0004113816        137.3541                0               0                0               0
1.21053                0.9945067       -13.16157     0.0004188056        138.1635                0               0                0               0
1.21711                 0.994361       -13.27651     0.0004307975        139.0109                0               0                0               0
1.22368                0.9942049       -13.39262     0.0004476233        139.7577                0               0                0               0
1.23026                0.9940379       -13.50985     0.0004693588        140.2809                0               0                0               0
1.23684                0.9938596       -13.62818     0.0004959077        140.4869                0               0                0               0
1.24342                0.9936696       -13.74756     0.0005270385        140.3168                0               0                0               0
1.25                   0.9934679       -13.86796     0.0005624286        139.7446                0               0                0               0
1.25658                0.9932545       -13.98933     0.0006017062        138.7707                0               0                0               0
1.26316                0.9930295       -14.11163     0.0006444813        137.4142                0               0                0               0
1.26974                0.9927932       -14.23485     0.0006903678        135.7053                0               0                0               0
1.27632                0.9925461       -14.35895     0.0007389959        133.6794                0               0                0               0
1.28289                0.9922888       -14.48391     0.0007900182        131.3736                0               0                0               0
1.28947                0.9920218       -14.60972     0.0008431117        128.8239                0               0                0               0
1.29605                0.9917461       -14.73638     0.0008979781        126.0639                0               0                0               0
1.30263                0.9914622        -14.8639     0.0009543422        123.1242                0               0                0               0
1.30921                0.9911712       -14.99229       0.00101195        120.0323                0               0                0               0
1.31579                0.9908735       -15.12159      0.001070568        116.8127                0               0                0               0
1.32237                0.9905701       -15.25182      0.001129981        113.4869                0               0                0               0
1.32895                0.9902616       -15.38305      0.001189993         110.074                0               0                0               0
1.33553                0.9899486       -15.51531      0.001250422        106.5909                0               0                0               0
1.34211                0.9896316       -15.64869      0.001311108        103.0525                0               0                0               0
1.34868                0.9893108       -15.78325      0.001371905        99.47211                0               0                0               0
1.35526                0.9889864       -15.91906      0.001432688        95.86157                0               0                0               0
1.36184                0.9886585       -16.05621      0.001493347        92.23144                0               0                0               0
1.36842                0.9883269       -16.19479      0.001553797        88.59122                0               0                0               0
1.375                  0.9879911       -16.33487       0.00161397        84.94943                0               0                0               0
1.38158                0.9876507       -16.47655      0.001673822        81.31377                0               0                0               0
1.38816                 0.987305       -16.61991      0.001733332        77.69116                0               0                0               0
1.39474                0.9869529       -16.76502      0.001792504        74.08783                0               0                0               0
1.40132                0.9865933       -16.91196      0.001851369        70.50931                0               0                0               0
1.40789                0.9862253       -17.06078      0.001909985        66.96054                0               0                0               0
1.41447                0.9858473       -17.21157      0.001968439        63.44581                0               0                0               0
1.42105                 0.985458       -17.36434      0.002026846        59.96878                0               0                0               0
1.42763                0.9850559       -17.51916      0.002085352        56.53249                0               0                0               0
1.43421                0.9846396       -17.67605      0.002144134         53.1393                0               0                0               0
1.44079                0.9842074       -17.83502      0.002203399        49.79089                0               0                0               0
1.44737                 0.983758       -17.99608       0.00226338        46.48822                0               0                0               0
1.45395                0.9832898       -18.15924      0.002324343        43.23153                0               0                0               0
1.46053                0.9828017       -18.32447      0.002386578        40.02028                0               0                0               0
1.46711                0.9822922       -18.49177      0.002450397        36.85314                0               0                0               0
1.47368                0.9817606       -18.66111      0.002516137        33.72801                0               0                0               0
1.48026                0.9812056       -18.83245      0.002584149        30.64202                0               0                0               0
1.48684                0.9806267       -19.00577      0.002654796        27.59157                0               0                0               0
1.49342                0.9800232       -19.18102       0.00272845        24.57237                0               0                0               0
1.5                    0.9793949       -19.35818      0.002805484        21.57952                0               0                0               0
1.50658                0.9787414        -19.5372      0.002886268        18.60759                0               0                0               0
1.51316                0.9780628       -19.71807      0.002971164        15.65079                0               0                0               0
1.51974                0.9773594       -19.90076      0.003060518        12.70302                0               0                0               0
1.52632                0.9766312       -20.08526      0.003154656        9.758043                0               0                0               0
1.53289                 0.975879       -20.27156      0.003253878        6.809657                0               0                0               0
1.53947                0.9751031       -20.45967      0.003358459         3.85178                0               0                0               0
1.54605                0.9743041       -20.64962      0.003468637       0.8786197                0               0                0               0
1.55263                0.9734829       -20.84143      0.003584617       -2.115227                0               0                0               0
1.55921                0.9726399       -21.03515      0.003706567       -5.134677                0               0                0               0
1.56579                0.9717758       -21.23086      0.003834617       -8.184072                0               0                0               0
1.57237                0.9708911       -21.42861      0.003968859       -11.26714                0               0                0               0
1.57895                0.9699863        -21.6285      0.004109348       -14.38695                0               0                0               0
1.58553                0.9690617       -21.83064      0.004256105       -17.54592                0               0                0               0
1.59211                0.9681172       -22.03514      0.004409114       -20.74581                0               0                0               0
1.59868                0.9671527       -22.24213      0.004568332       -23.98777                0               0                0               0
1.60526                 0.966168       -22.45174      0.004733683       -27.27233                0               0                0               0
1.61184                0.9651622       -22.66411      0.004905071       -30.59953                0               0                0               0
1.61842                0.9641346       -22.87939      0.005082373       -33.96888                0               0                0               0
1.625                  0.9630839       -23.09773      0.005265453        -37.3795                0               0                0               0
1.63158                0.9620087       -23.31927      0.005454156       -40.83014                0               0                0               0
1.63816                0.9609069       -23.54415      0.005648316       -44.31922                0               0                0               0
1.64474                0.9597766       -23.77253      0.005847761        -47.8449                0               0                0               0
1.65132                0.9586157       -24.00452      0.006052314       -51.40518                0               0                0               0
1.65789                0.9574213       -24.24026      0.006261796       -54.99787                0               0                0               0
1.66447                0.9561908       -24.47985       0.00647603       -58.62067                0               0                0               0
1.67105                0.9549212       -24.72339      0.006694846       -62.27122                0               0                0               0
1.67763                0.9536095       -24.97098      0.006918081        -65.9471                0               0                0               0
1.68421                0.9522524       -25.22267      0.007145585        -69.6459                0               0                0               0
1.69079                0.9508467       -25.47852      0.007377221       -73.36522                0               0                0               0
1.69737                0.9493891       -25.73857      0.007612871        -77.1027                0               0                0               0
1.70395                0.9478764       -26.00283      0.007852437       -80.85605                0               0                0               0
1.71053                0.9463055       -26.27133      0.008095843       -84.62304                0               0                0               0
1.71711                0.9446734       -26.54405      0.008343038       -88.40155                0               0                0               0
1.72368                0.9429772       -26.82097      0.008594002       -92.18956                0               0                0               0
1.73026                0.9412141       -27.10207      0.008848738       -95.98518                0               0                0               0
1.73684                0.9393818        -27.3873      0.009107287       -99.78666                0               0                0               0
1.74342                0.9374778       -27.67662      0.009369722       -103.5924                0               0                0               0
1.75                   0.9355003          -27.97      0.009636148       -107.4008                0               0                0               0
1.75658                0.9334475       -28.26738      0.009906708       -111.2108                0               0                0               0
1.76316                0.9313176       -28.56873       0.01018158       -115.0211                0               0                0               0
1.76974                0.9291096       -28.87399       0.01046098       -118.8307                0               0                0               0
1.77632                0.9268223       -29.18315       0.01074517       -122.6389                0               0                0               0
1.78289                0.9244547       -29.49619       0.01103442        -126.445                0               0                0               0
1.78947                0.9220063       -29.81311       0.01132908       -130.2488                0               0                0               0
1.79605                0.9194762       -30.13392       0.01162949       -134.0498                0               0                0               0
1.80263                0.9168639       -30.45865       0.01193605       -137.8481                0               0                0               0
1.80921                0.9141689       -30.78736       0.01224919       -141.6438                0               0                0               0
1.81579                0.9113905       -31.12011       0.01256935       -145.4373                0               0                0               0
1.82237                0.9085281         -31.457       0.01289701       -149.2291                0               0                0               0
1.82895                0.9055808       -31.79815       0.01323267       -153.0198                0               0                0               0
1.83553                0.9025474        -32.1437       0.01357683       -156.8102                0               0                0               0
1.84211                0.8994269       -32.49379       0.01393002       -160.6014                0               0                0               0
1.84868                0.8962172       -32.84861       0.01429277       -164.3945                0               0                0               0
