! TOUCHSTONE file generated by CST MICROWAVE STUDIO
! Date and time: Tue Mar 11 13:55:51 2025
! Project name: transverse.cst
! Parameters = {Fracture=1; B=10; D=160; F=15; Feed=2.85625; L=100; M=20; R=0.384908; S=2; Theta=0; length=57.125; wave=114.25}
! Header version: 2024
! Port assignment regex: !\s*Touchstone port\s*([0-9]+)\s*=\s*(CST MWS port|CST DES external port|CST DES block port)\s*(.+)\s* \(\"(.*)\"\)(\s*mode\s*([0-9]+))?.*
! Touchstone port assignment:
! Touchstone port 1 = CST MWS port 1 ("")
! Touchstone port 2 = CST MWS port 2 ("")
# GHz S MA R 50
1                      0.9977181       -9.996292     0.0004210038       -169.6284                0               0                0               0
1.0066                 0.9976334       -10.08542     0.0004208134       -174.1104                0               0                0               0
1.0132                 0.9975461       -10.17504     0.0004193581       -178.4314                0               0                0               0
1.0198                 0.9974566       -10.26514     0.0004166871        177.4262                0               0                0               0
1.0264                 0.9973647       -10.35575     0.0004128726        173.4827                0               0                0               0
1.033                  0.9972711       -10.44686     0.0004080129        169.7613                0               0                0               0
1.0396                 0.9971757        -10.5385     0.0004022374        166.2878                0               0                0               0
1.0462                 0.9970787       -10.63068     0.0003957111        163.0907                0               0                0               0
1.05281                0.9969806       -10.72343      0.000388641        160.2007                0               0                0               0
1.05941                0.9968812       -10.81675     0.0003812809        157.6492                0               0                0               0
1.06601                0.9967807       -10.91069     0.0003739377        155.4669                0               0                0               0
1.07261                0.9966791       -11.00526     0.0003669745        153.6798                0               0                0               0
1.07921                0.9965763       -11.10049     0.0003608115        152.3055                0               0                0               0
1.08581                0.9964727       -11.19641       0.00035592        151.3463                0               0                0               0
1.09241                0.9963676       -11.29305     0.0003528082        150.7834                0               0                0               0
1.09901                0.9962612       -11.39043     0.0003519969        150.5708                0               0                0               0
1.10561                0.9961531       -11.48858     0.0003539837        150.6329                0               0                0               0
1.11221                0.9960431       -11.58753     0.0003592021        150.8667                0               0                0               0
1.11881                 0.995931        -11.6873     0.0003679815        151.1517                0               0                0               0
1.12541                0.9958164       -11.78791     0.0003805193        151.3636                0               0                0               0
1.13201                0.9956988       -11.88938     0.0003968711        151.3893                0               0                0               0
1.13861                0.9955778       -11.99173     0.0004169609        151.1395                0               0                0               0
1.14521                0.9954532       -12.09498     0.0004406061        150.5539                0               0                0               0
1.15182                0.9953243       -12.19913     0.0004675494        149.6014                0               0                0               0
1.15842                0.9951909       -12.30418     0.0004974883        148.2755                0               0                0               0
1.16502                0.9950525       -12.41016     0.0005301004        146.5876                0               0                0               0
1.17162                0.9949088       -12.51705     0.0005650609        144.5612                0               0                0               0
1.17822                0.9947592       -12.62486      0.000602053         142.226                0               0                0               0
1.18482                0.9946037       -12.73359     0.0006407746        139.6143                0               0                0               0
1.19142                0.9944419       -12.84323     0.0006809396        136.7587                0               0                0               0
1.19802                0.9942736       -12.95378     0.0007222787        133.6902                0               0                0               0
1.20462                0.9940985       -13.06524     0.0007645386        130.4373                0               0                0               0
1.21122                0.9939166       -13.17759     0.0008074811        127.0262                0               0                0               0
1.21782                0.9937278       -13.29083      0.000850881        123.4805                0               0                0               0
1.22442                0.9935322       -13.40497     0.0008945258        119.8209                0               0                0               0
1.23102                0.9933297       -13.51999     0.0009382137        116.0664                0               0                0               0
1.23762                0.9931204       -13.63589     0.0009817542        112.2336                0               0                0               0
1.24422                0.9929044       -13.75268      0.001024967        108.3374                0               0                0               0
1.25083                 0.992682       -13.87037      0.001067682        104.3914                0               0                0               0
1.25743                0.9924532       -13.98895      0.001109739        100.4077                0               0                0               0
1.26403                0.9922183       -14.10845       0.00115099        96.39745                0               0                0               0
1.27063                0.9919775       -14.22888      0.001191299        92.37084                0               0                0               0
1.27723                0.9917309       -14.35025      0.001230539        88.33733                0               0                0               0
1.28383                0.9914788        -14.4726        0.0012686        84.30574                0               0                0               0
1.29043                0.9912213       -14.59593      0.001305386         80.2844                0               0                0               0
1.29703                0.9909586        -14.7203      0.001340815        76.28119                0               0                0               0
1.30363                0.9906907       -14.84572      0.001374825        72.30368                0               0                0               0
1.31023                0.9904176       -14.97223      0.001407372        68.35913                0               0                0               0
1.31683                0.9901393       -15.09987      0.001438431        64.45458                0               0                0               0
1.32343                0.9898561       -15.22868      0.001468004        60.59682                0               0                0               0
1.33003                0.9895673        -15.3587      0.001496115        56.79249                0               0                0               0
1.33663                 0.989273       -15.48996      0.001522814        53.04797                0               0                0               0
1.34323                0.9889729       -15.62252      0.001548181        49.36942                0               0                0               0
1.34984                0.9886668        -15.7564      0.001572328        45.76271                0               0                0               0
1.35644                0.9883542       -15.89165      0.001595396        42.23336                0               0                0               0
1.36304                0.9880348        -16.0283      0.001617563        38.78642                0               0                0               0
1.36964                0.9877079        -16.1664      0.001639043        35.42638                0               0                0               0
1.37624                0.9873733       -16.30596      0.001660083        32.15702                0               0                0               0
1.38284                0.9870303       -16.44703      0.001680968         28.9812                0               0                0               0
1.38944                0.9866785       -16.58964      0.001702023        25.90076                0               0                0               0
1.39604                0.9863173        -16.7338      0.001723601        22.91621                0               0                0               0
1.40264                0.9859461       -16.87954       0.00174609        20.02665                0               0                0               0
1.40924                0.9855646       -17.02688      0.001769907         17.2295                0               0                0               0
1.41584                0.9851722       -17.17584      0.001795488        14.52041                0               0                0               0
1.42244                0.9847684       -17.32644      0.001823286        11.89311                0               0                0               0
1.42904                0.9843529       -17.47869      0.001853763        9.339443                0               0                0               0
1.43564                0.9839253       -17.63261      0.001887376         6.84941                0               0                0               0
1.44224                0.9834852       -17.78822      0.001924572        4.411343                0               0                0               0
1.44884                0.9830326       -17.94552      0.001965774        2.012187                0               0                0               0
1.45545                0.9825669       -18.10455      0.002011374      -0.3621317                0               0                0               0
1.46205                0.9820883       -18.26531       0.00206172       -2.726253                0               0                0               0
1.46865                0.9815967       -18.42784      0.002117114       -5.094905                0               0                0               0
1.47525                0.9810918       -18.59215        0.0021778       -7.482399                0               0                0               0
1.48185                0.9805737       -18.75829      0.002243961       -9.902181                0               0                0               0
1.48845                0.9800423       -18.92629      0.002315723       -12.36642                0               0                0               0
1.49505                0.9794978       -19.09619      0.002393149       -14.88572                0               0                0               0
1.50165                  0.97894       -19.26804      0.002476243        -17.4689                0               0                0               0
1.50825                0.9783689       -19.44189      0.002564956       -20.12292                0               0                0               0
1.51485                0.9777845        -19.6178      0.002659189       -22.85284                0               0                0               0
1.52145                0.9771867       -19.79584        0.0027588       -25.66196                0               0                0               0
1.52805                0.9765753       -19.97608      0.002863608        -28.5519                0               0                0               0
1.53465                0.9759501        -20.1586      0.002973403        -31.5228                0               0                0               0
1.54125                0.9753107       -20.34349      0.003087947       -34.57355                0               0                0               0
1.54785                0.9746567       -20.53082      0.003206983       -37.70195                0               0                0               0
1.55446                0.9739875       -20.72069      0.003330239       -40.90496                0               0                0               0
1.56106                0.9733024        -20.9132      0.003457436       -44.17884                0               0                0               0
1.56766                0.9726007       -21.10844      0.003588286       -47.51936                0               0                0               0
1.57426                0.9718813       -21.30652      0.003722501        -50.9219                0               0                0               0
1.58086                0.9711431       -21.50753      0.003859796       -54.38163                0               0                0               0
1.58746                 0.970385       -21.71158      0.003999891       -57.89356                0               0                0               0
1.59406                0.9696055       -21.91876      0.004142514       -61.45266                0               0                0               0
1.60066                0.9688031       -22.12917      0.004287406       -65.05391                0               0                0               0
1.60726                0.9679763        -22.3429      0.004434321       -68.69234                0               0                0               0
1.61386                0.9671233       -22.56004      0.004583032       -72.36309                0               0                0               0
1.62046                0.9662421       -22.78068      0.004733328       -76.06145                0               0                0               0
1.62706                0.9653309        -23.0049      0.004885026       -79.78286                0               0                0               0
1.63366                0.9643879       -23.23277      0.005037965       -83.52293                0               0                0               0
1.64026                0.9634107       -23.46436      0.005192011       -87.27747                0               0                0               0
1.64686                0.9623973       -23.69973      0.005347061        -91.0425                0               0                0               0
1.65347                0.9613458       -23.93895      0.005503044       -94.81425                0               0                0               0
1.66007                0.9602537       -24.18207      0.005659928       -98.58915                0               0                0               0
1.66667                0.9591193       -24.42913      0.005817713       -102.3639                0               0                0               0
1.67327                0.9579401       -24.68019      0.005976442       -106.1354                0               0                0               0
1.67987                0.9567144       -24.93527      0.006136199       -109.9009                0               0                0               0
1.68647                  0.95544       -25.19443      0.006297114       -113.6577                0               0                0               0
1.69307                0.9541149       -25.45769      0.006459359       -117.4036                0               0                0               0
1.69967                0.9527373       -25.72509      0.006623157       -121.1367                0               0                0               0
1.70627                0.9513051       -25.99667      0.006788774       -124.8551                0               0                0               0
1.71287                0.9498169       -26.27247      0.006956532       -128.5577                0               0                0               0
1.71947                0.9482707       -26.55253      0.007126791       -132.2432                0               0                0               0
1.72607                0.9466647        -26.8369       0.00729997       -135.9111                0               0                0               0
1.73267                0.9449973       -27.12563      0.007476525        -139.561                0               0                0               0
1.73927                0.9432669       -27.41877      0.007656964        -143.193                0               0                0               0
1.74587                0.9414718       -27.71638      0.007841832       -146.8076                0               0                0               0
1.75248                0.9396102       -28.01855      0.008031715       -150.4055                0               0                0               0
1.75908                0.9376805       -28.32535      0.008227235       -153.9879                0               0                0               0
1.76568                0.9356807       -28.63687      0.008429038       -157.5565                0               0                0               0
1.77228                 0.933609       -28.95321      0.008637797       -161.1132                0               0                0               0
1.77888                0.9314634       -29.27447      0.008854202       -164.6602                0               0                0               0
1.78548                0.9292416       -29.60077      0.009078951       -168.2002                0               0                0               0
1.79208                0.9269414       -29.93224      0.009312746       -171.7361                0               0                0               0
1.79868                0.9245602       -30.26901      0.009556287       -175.2708                0               0                0               0
1.80528                0.9220953       -30.61122      0.009810251       -178.8077                0               0                0               0
1.81188                0.9195436       -30.95901        0.0100753        177.6498                0               0                0               0
1.81848                0.9169021       -31.31253       0.01035207        174.0981                0               0                0               0
1.82508                 0.914167       -31.67193       0.01064116        170.5338                0               0                0               0
1.83168                0.9113346       -32.03737       0.01094311        166.9534                0               0                0               0
1.83828                0.9084009       -32.40901       0.01125843        163.3535                0               0                0               0
1.84488                0.9053616       -32.78699       0.01158757        159.7307                0               0                0               0
1.85149                 0.902212       -33.17145       0.01193091        156.0821                0               0                0               0
