! TOUCHSTONE file generated by CST MICROWAVE STUDIO
! Date and time: Tue Mar 11 13:58:23 2025
! Project name: transverse.cst
! Parameters = {Fracture=5; B=12.5; D=160; F=25; Feed=2.85625; L=100; M=10; R=0.384908; S=1; Theta=270; length=57.125; wave=114.25}
! Header version: 2024
! Port assignment regex: !\s*Touchstone port\s*([0-9]+)\s*=\s*(CST MWS port|CST DES external port|CST DES block port)\s*(.+)\s* \(\"(.*)\"\)(\s*mode\s*([0-9]+))?.*
! Touchstone port assignment:
! Touchstone port 1 = CST MWS port 1 ("")
! Touchstone port 2 = CST MWS port 2 ("")
# GHz S MA R 50
1                      0.9976289       -9.800594     0.0004090947       -168.0009                0               0                0               0
1.00658                0.9975692       -9.887702     0.0004059549        -172.307                0               0                0               0
1.01316                0.9975102       -9.975553     0.0004014085       -176.3947                0               0                0               0
1.01974                0.9974512       -10.06418     0.0003955423        179.7653                0               0                0               0
1.02632                0.9973916       -10.15362       0.00038848        176.2075                0               0                0               0
1.03289                0.9973306        -10.2439       0.00038039         172.972                0               0                0               0
1.03947                0.9972678       -10.33502     0.0003714961        170.1044                0               0                0               0
1.04605                0.9972024       -10.42702     0.0003620882        167.6551                0               0                0               0
1.05263                0.9971336       -10.51989     0.0003525357        165.6772                0               0                0               0
1.05921                0.9970608       -10.61364     0.0003432996        164.2221                0               0                0               0
1.06579                0.9969832       -10.70826     0.0003349408        163.3317                0               0                0               0
1.07237                0.9969001       -10.80374     0.0003281204        163.0268                0               0                0               0
1.07895                0.9968111       -10.90008     0.0003235821        163.2918                0               0                0               0
1.08553                0.9967156       -10.99725     0.0003221102        164.0604                0               0                0               0
1.09211                0.9966131       -11.09522      0.000324462        165.2067                0               0                0               0
1.09868                0.9965034       -11.19398      0.000331281        166.5515                0               0                0               0
1.10526                0.9963863        -11.2935     0.0003430177        167.8857                0               0                0               0
1.11184                0.9962616       -11.39375     0.0003598821         169.006                0               0                0               0
1.11842                0.9961293        -11.4947     0.0003818465        169.7473                0               0                0               0
1.125                  0.9959895       -11.59633     0.0004086903        170.0021                0               0                0               0
1.13158                0.9958423       -11.69861     0.0004400655        169.7205                0               0                0               0
1.13816                0.9956883       -11.80152     0.0004755598        168.9003                0               0                0               0
1.14474                0.9955276       -11.90505     0.0005147441        167.5704                0               0                0               0
1.15132                0.9953605       -12.00919     0.0005572021        165.7773                0               0                0               0
1.15789                0.9951878       -12.11393     0.0006025451        163.5744                0               0                0               0
1.16447                0.9950101       -12.21928     0.0006504166        161.0153                0               0                0               0
1.17105                0.9948276       -12.32524     0.0007004916        158.1502                0               0                0               0
1.17763                0.9946412       -12.43182     0.0007524734        155.0245                0               0                0               0
1.18421                0.9944512       -12.53905     0.0008060897        151.6778                0               0                0               0
1.19079                0.9942584       -12.64696     0.0008610882        148.1447                0               0                0               0
1.19737                0.9940629       -12.75557     0.0009172336         144.455                0               0                0               0
1.20395                0.9938652       -12.86494     0.0009743044        140.6341                0               0                0               0
1.21053                0.9936657       -12.97509      0.001032091        136.7041                0               0                0               0
1.21711                0.9934646       -13.08608      0.001090393        132.6837                0               0                0               0
1.22368                0.9932619       -13.19797       0.00114902        128.5894                0               0                0               0
1.23026                0.9930576       -13.31079      0.001207791        124.4353                0               0                0               0
1.23684                0.9928517       -13.42461      0.001266531        120.2341                0               0                0               0
1.24342                0.9926437       -13.53948      0.001325074        115.9965                0               0                0               0
1.25                   0.9924334       -13.65545      0.001383263        111.7325                0               0                0               0
1.25658                0.9922205       -13.77256       0.00144095        107.4507                0               0                0               0
1.26316                0.9920042       -13.89088      0.001497995         103.159                0               0                0               0
1.26974                0.9917839       -14.01043      0.001554271         98.8647                0               0                0               0
1.27632                0.9915589       -14.13125       0.00160966        94.57431                0               0                0               0
1.28289                0.9913285       -14.25339      0.001664058        90.29394                0               0                0               0
1.28947                0.9910918       -14.37685      0.001717374        86.02929                0               0                0               0
1.29605                 0.990848       -14.50167      0.001769533        81.78566                0               0                0               0
1.30263                0.9905964       -14.62784      0.001820476        77.56809                0               0                0               0
1.30921                 0.990336       -14.75539      0.001870161         73.3813                0               0                0               0
1.31579                0.9900663       -14.88431      0.001918566        69.22978                0               0                0               0
1.32237                0.9897864        -15.0146      0.001965689        65.11778                0               0                0               0
1.32895                0.9894956       -15.14625      0.002011551        61.04932                0               0                0               0
1.33553                0.9891937       -15.27924      0.002056197        57.02817                0               0                0               0
1.34211                  0.98888       -15.41357      0.002099693        53.05785                0               0                0               0
1.34868                0.9885543        -15.5492      0.002142136        49.14161                0               0                0               0
1.35526                0.9882164       -15.68614      0.002183647        45.28237                0               0                0               0
1.36184                0.9878663       -15.82436      0.002224375        41.48271                0               0                0               0
1.36842                0.9875038       -15.96384      0.002264499        37.74478                0               0                0               0
1.375                  0.9871292       -16.10458      0.002304223        34.07027                0               0                0               0
1.38158                0.9867428       -16.24657      0.002343783        30.46035                0               0                0               0
1.38816                 0.986345        -16.3898      0.002383439        26.91559                0               0                0               0
1.39474                0.9859359       -16.53428      0.002423478         23.4359                0               0                0               0
1.40132                0.9855163       -16.68003      0.002464211        20.02045                0               0                0               0
1.40789                0.9850866       -16.82706      0.002505969        16.66765                0               0                0               0
1.41447                0.9846473       -16.97541      0.002549102        13.37507                0               0                0               0
1.42105                 0.984199        -17.1251      0.002593971        10.13946                0               0                0               0
1.42763                0.9837421       -17.27619      0.002640946        6.956688                0               0                0               0
1.43421                0.9832771       -17.42873      0.002690401        3.821833                0               0                0               0
1.44079                0.9828043       -17.58278      0.002742704       0.7291937                0               0                0               0
1.44737                0.9823243       -17.73842      0.002798217       -2.327611                0               0                0               0
1.45395                0.9818369       -17.89571      0.002857283       -5.355527                0               0                0               0
1.46053                0.9813423       -18.05474      0.002920225       -8.361927                0               0                0               0
1.46711                0.9808405        -18.2156      0.002987339       -11.35444                0               0                0               0
1.47368                0.9803312       -18.37838      0.003058884       -14.34079                0               0                0               0
1.48026                 0.979814       -18.54317      0.003135086       -17.32861                0               0                0               0
1.48684                0.9792883       -18.71007      0.003216128       -20.32525                0               0                0               0
1.49342                0.9787536       -18.87917      0.003302151       -23.33765                0               0                0               0
1.5                    0.9782089       -19.05056       0.00339325       -26.37218                0               0                0               0
1.50658                0.9776531       -19.22434      0.003489477       -29.43452                0               0                0               0
1.51316                0.9770853       -19.40058       0.00359084       -32.52959                0               0                0               0
1.51974                0.9765042       -19.57938      0.003697304       -35.66149                0               0                0               0
1.52632                0.9759084        -19.7608      0.003808795       -38.83348                0               0                0               0
1.53289                0.9752965       -19.94492      0.003925202       -42.04799                0               0                0               0
1.53947                0.9746671       -20.13181      0.004046384       -45.30663                0               0                0               0
1.54605                0.9740187        -20.3215      0.004172167       -48.61027                0               0                0               0
1.55263                0.9733497       -20.51407      0.004302355       -51.95905                0               0                0               0
1.55921                0.9726588       -20.70954      0.004436729        -55.3525                0               0                0               0
1.56579                0.9719442       -20.90796      0.004575058        -58.7896                0               0                0               0
1.57237                0.9712048       -21.10936      0.004717093       -62.26881                0               0                0               0
1.57895                0.9704392       -21.31378      0.004862581       -65.78823                0               0                0               0
1.58553                0.9696459       -21.52122      0.005011262       -69.34558                0               0                0               0
1.59211                 0.968824       -21.73173       0.00516288       -72.93832                0               0                0               0
1.59868                0.9679722       -21.94533      0.005317176       -76.56371                0               0                0               0
1.60526                0.9670897       -22.16203      0.005473903       -80.21883                0               0                0               0
1.61184                0.9661754       -22.38188      0.005632822       -83.90066                0               0                0               0
1.61842                0.9652287       -22.60489      0.005793708       -87.60611                0               0                0               0
1.625                  0.9642487       -22.83112      0.005956356       -91.33204                0               0                0               0
1.63158                0.9632347        -23.0606      0.006120574       -95.07532                0               0                0               0
1.63816                0.9621863       -23.29338      0.006286204       -98.83285                0               0                0               0
1.64474                0.9611028       -23.52954      0.006453105       -102.6016                0               0                0               0
1.65132                0.9599835       -23.76914       0.00662117       -106.3785                0               0                0               0
1.65789                0.9588277       -24.01228      0.006790325       -110.1608                0               0                0               0
1.66447                0.9576349       -24.25902      0.006960528       -113.9457                0               0                0               0
1.67105                0.9564041        -24.5095      0.007131777       -117.7305                0               0                0               0
1.67763                0.9551346       -24.76382      0.007304111       -121.5128                0               0                0               0
1.68421                 0.953825        -25.0221       0.00747761       -125.2902                0               0                0               0
1.69079                0.9524743        -25.2845      0.007652399       -129.0606                0               0                0               0
1.69737                0.9510808       -25.55114       0.00782865       -132.8221                0               0                0               0
1.70395                0.9496431       -25.82217       0.00800658       -136.5731                0               0                0               0
1.71053                0.9481589       -26.09777      0.008186461       -140.3119                0               0                0               0
1.71711                0.9466262       -26.37809      0.008368606       -144.0375                0               0                0               0
1.72368                0.9450424       -26.66329      0.008553383       -147.7489                0               0                0               0
1.73026                0.9434049       -26.95354      0.008741207       -151.4454                0               0                0               0
1.73684                0.9417104         -27.249      0.008932539       -155.1267                0               0                0               0
1.74342                0.9399558       -27.54982      0.009127889       -158.7928                0               0                0               0
1.75                   0.9381374       -27.85616      0.009327805       -162.4439                0               0                0               0
1.75658                0.9362513       -28.16816      0.009532876       -166.0808                0               0                0               0
1.76316                0.9342936       -28.48596      0.009743726       -169.7043                0               0                0               0
1.76974                0.9322598       -28.80969       0.00996101       -173.3157                0               0                0               0
1.77632                0.9301456       -29.13945       0.01018541       -176.9167                0               0                0               0
1.78289                0.9279464       -29.47536       0.01041761        179.4908                0               0                0               0
1.78947                0.9256573       -29.81748       0.01065832        175.9047                0               0                0               0
1.79605                0.9232737       -30.16591       0.01090825        172.3225                0               0                0               0
1.80263                0.9207907       -30.52068       0.01116811        168.7415                0               0                0               0
1.80921                0.9182035       -30.88185       0.01143859        165.1588                0               0                0               0
1.81579                0.9155071       -31.24946       0.01172035        161.5716                0               0                0               0
1.82237                0.9126969       -31.62351       0.01201403        157.9765                0               0                0               0
1.82895                0.9097679       -32.00401       0.01232025        154.3706                0               0                0               0
1.83553                0.9067157       -32.39097       0.01263955        150.7506                0               0                0               0
1.84211                0.9035356       -32.78436       0.01297245        147.1134                0               0                0               0
1.84868                0.9002234       -33.18417        0.0133194        143.4559                0               0                0               0
