! TOUCHSTONE file generated by CST MICROWAVE STUDIO
! Date and time: Tue Mar 11 13:56:24 2025
! Project name: transverse.cst
! Parameters = {Fracture=5; B=12.5; D=160; F=25; Feed=2.85625; L=100; M=10; R=0.384908; S=1; Theta=0; length=57.125; wave=114.25}
! Header version: 2024
! Port assignment regex: !\s*Touchstone port\s*([0-9]+)\s*=\s*(CST MWS port|CST DES external port|CST DES block port)\s*(.+)\s* \(\"(.*)\"\)(\s*mode\s*([0-9]+))?.*
! Touchstone port assignment:
! Touchstone port 1 = CST MWS port 1 ("")
! Touchstone port 2 = CST MWS port 2 ("")
# GHz S MA R 50
1                      0.9976287       -9.800589     0.0004090984       -168.0059                0               0                0               0
1.00658                0.9975692       -9.887696     0.0004059573       -172.3121                0               0                0               0
1.01316                0.9975101       -9.975548     0.0004014093       -176.3999                0               0                0               0
1.01974                 0.997451       -10.06418     0.0003955414          179.76                0               0                0               0
1.02632                0.9973914       -10.15362      0.000388477        176.2021                0               0                0               0
1.03289                0.9973305       -10.24389     0.0003803849        172.9665                0               0                0               0
1.03947                0.9972677       -10.33502     0.0003714884        170.0989                0               0                0               0
1.04605                0.9972022       -10.42701     0.0003620779        167.6496                0               0                0               0
1.05263                0.9971335       -10.51988     0.0003525225        165.6719                0               0                0               0
1.05921                0.9970607       -10.61363     0.0003432833         164.217                0               0                0               0
1.06579                 0.996983       -10.70825     0.0003349215        163.3269                0               0                0               0
1.07237                   0.9969       -10.80374     0.0003280982        163.0224                0               0                0               0
1.07895                0.9968111       -10.90007     0.0003235572        163.2881                0               0                0               0
1.08553                0.9967155       -10.99724     0.0003220831        164.0575                0               0                0               0
1.09211                 0.996613       -11.09522     0.0003244334        165.2047                0               0                0               0
1.09868                0.9965034       -11.19398     0.0003312518        166.5504                0               0                0               0
1.10526                0.9963863       -11.29349     0.0003429887        167.8855                0               0                0               0
1.11184                0.9962616       -11.39374     0.0003598542        169.0066                0               0                0               0
1.11842                0.9961292       -11.49469     0.0003818205        169.7486                0               0                0               0
1.125                  0.9959895       -11.59632     0.0004086669        170.0038                0               0                0               0
1.13158                0.9958423        -11.6986      0.000440045        169.7226                0               0                0               0
1.13816                0.9956882       -11.80151     0.0004755425        168.9025                0               0                0               0
1.14474                0.9955274       -11.90504     0.0005147302        167.5727                0               0                0               0
1.15132                0.9953605       -12.00918     0.0005571916        165.7796                0               0                0               0
1.15789                0.9951878       -12.11392     0.0006025381        163.5766                0               0                0               0
1.16447                0.9950101       -12.21927     0.0006504129        161.0174                0               0                0               0
1.17105                0.9948276       -12.32523     0.0007004911        158.1522                0               0                0               0
1.17763                0.9946412       -12.43181     0.0007524761        155.0263                0               0                0               0
1.18421                0.9944513       -12.53904     0.0008060953        151.6795                0               0                0               0
1.19079                0.9942583       -12.64695     0.0008610967        148.1463                0               0                0               0
1.19737                0.9940629       -12.75557     0.0009172449        144.4565                0               0                0               0
1.20395                0.9938653       -12.86493     0.0009743182        140.6354                0               0                0               0
1.21053                0.9936658       -12.97508      0.001032107        136.7053                0               0                0               0
1.21711                0.9934646       -13.08608      0.001090411        132.6848                0               0                0               0
1.22368                0.9932619       -13.19796      0.001149041        128.5903                0               0                0               0
1.23026                0.9930577       -13.31078      0.001207814        124.4362                0               0                0               0
1.23684                0.9928517        -13.4246      0.001266555        120.2348                0               0                0               0
1.24342                0.9926438       -13.53947        0.0013251        115.9972                0               0                0               0
1.25                   0.9924335       -13.65544       0.00138329        111.7331                0               0                0               0
1.25658                0.9922206       -13.77256      0.001440978        107.4512                0               0                0               0
1.26316                0.9920043       -13.89087      0.001498024        103.1595                0               0                0               0
1.26974                 0.991784       -14.01043      0.001554301        98.86509                0               0                0               0
1.27632                 0.991559       -14.13125       0.00160969        94.57463                0               0                0               0
1.28289                0.9913286       -14.25338      0.001664089        90.29421                0               0                0               0
1.28947                0.9910919       -14.37685      0.001717405         86.0295                0               0                0               0
1.29605                0.9908481       -14.50166      0.001769564        81.78583                0               0                0               0
1.30263                0.9905965       -14.62784      0.001820507        77.56821                0               0                0               0
1.30921                0.9903362       -14.75539      0.001870192        73.38138                0               0                0               0
1.31579                0.9900663       -14.88432      0.001918596        69.22983                0               0                0               0
1.32237                0.9897864       -15.01461      0.001965719         65.1178                0               0                0               0
1.32895                0.9894957       -15.14625       0.00201158        61.04931                0               0                0               0
1.33553                0.9891937       -15.27925      0.002056225        57.02814                0               0                0               0
1.34211                  0.98888       -15.41357       0.00209972        53.05781                0               0                0               0
1.34868                0.9885544       -15.54921      0.002142162        49.14156                0               0                0               0
1.35526                0.9882164       -15.68615      0.002183671        45.28231                0               0                0               0
1.36184                0.9878662       -15.82436      0.002224398        41.48264                0               0                0               0
1.36842                0.9875038       -15.96384       0.00226452        37.74471                0               0                0               0
1.375                  0.9871292       -16.10458      0.002304243        34.07021                0               0                0               0
1.38158                0.9867429       -16.24657      0.002343802         30.4603                0               0                0               0
1.38816                 0.986345        -16.3898      0.002383456        26.91556                0               0                0               0
1.39474                0.9859359       -16.53428      0.002423494        23.43589                0               0                0               0
1.40132                0.9855163       -16.68003      0.002464226        20.02046                0               0                0               0
1.40789                0.9850866       -16.82706      0.002505983        16.66768                0               0                0               0
1.41447                0.9846473       -16.97541      0.002549115        13.37513                0               0                0               0
1.42105                0.9841989        -17.1251      0.002593983        10.13955                0               0                0               0
1.42763                0.9837419       -17.27619      0.002640957        6.956808                0               0                0               0
1.43421                 0.983277       -17.42873      0.002690411        3.821988                0               0                0               0
1.44079                0.9828043       -17.58278      0.002742715       0.7293808                0               0                0               0
1.44737                0.9823241       -17.73842      0.002798227       -2.327391                0               0                0               0
1.45395                0.9818367        -17.8957      0.002857294       -5.355273                0               0                0               0
1.46053                0.9813422       -18.05474      0.002920237       -8.361641                0               0                0               0
1.46711                0.9808404       -18.21559       0.00298735       -11.35413                0               0                0               0
1.47368                0.9803311       -18.37837      0.003058897       -14.34045                0               0                0               0
1.48026                0.9798139       -18.54316        0.0031351       -17.32824                0               0                0               0
1.48684                0.9792883       -18.71007      0.003216144       -20.32486                0               0                0               0
1.49342                0.9787535       -18.87916      0.003302168       -23.33726                0               0                0               0
1.5                    0.9782088       -19.05055       0.00339327       -26.37178                0               0                0               0
1.50658                0.9776531       -19.22433      0.003489499       -29.43411                0               0                0               0
1.51316                0.9770853       -19.40058      0.003590865       -32.52918                0               0                0               0
1.51974                0.9765042       -19.57937      0.003697331       -35.66108                0               0                0               0
1.52632                0.9759084        -19.7608      0.003808824       -38.83308                0               0                0               0
1.53289                0.9752965       -19.94492      0.003925235        -42.0476                0               0                0               0
1.53947                0.9746672        -20.1318      0.004046419       -45.30626                0               0                0               0
1.54605                0.9740187        -20.3215      0.004172205       -48.60991                0               0                0               0
1.55263                0.9733498       -20.51406      0.004302395       -51.95871                0               0                0               0
1.55921                0.9726588       -20.70954      0.004436773       -55.35219                0               0                0               0
1.56579                0.9719443       -20.90796      0.004575103       -58.78931                0               0                0               0
1.57237                0.9712048       -21.10936      0.004717141       -62.26856                0               0                0               0
1.57895                0.9704391       -21.31378      0.004862631         -65.788                0               0                0               0
1.58553                0.9696459       -21.52122      0.005011315       -69.34538                0               0                0               0
1.59211                 0.968824       -21.73173      0.005162934       -72.93816                0               0                0               0
1.59868                0.9679722       -21.94533      0.005317232       -76.56358                0               0                0               0
1.60526                0.9670896       -22.16203       0.00547396       -80.21873                0               0                0               0
1.61184                0.9661753       -22.38188      0.005632881       -83.90059                0               0                0               0
1.61842                0.9652285       -22.60489      0.005793769       -87.60607                0               0                0               0
1.625                  0.9642485       -22.83112      0.005956416       -91.33202                0               0                0               0
1.63158                0.9632346        -23.0606      0.006120636       -95.07533                0               0                0               0
1.63816                0.9621862       -23.29338      0.006286266       -98.83289                0               0                0               0
1.64474                0.9611026       -23.52954      0.006453167       -102.6016                0               0                0               0
1.65132                0.9599833       -23.76914      0.006621231       -106.3786                0               0                0               0
1.65789                0.9588275       -24.01227      0.006790385       -110.1609                0               0                0               0
1.66447                0.9576348       -24.25902      0.006960588       -113.9458                0               0                0               0
1.67105                 0.956404       -24.50949      0.007131836       -117.7307                0               0                0               0
1.67763                0.9551344       -24.76381      0.007304168       -121.5129                0               0                0               0
1.68421                0.9538248        -25.0221      0.007477665       -125.2904                0               0                0               0
1.69079                0.9524741       -25.28449      0.007652454       -129.0608                0               0                0               0
1.69737                0.9510807       -25.55113      0.007828702       -132.8224                0               0                0               0
1.70395                0.9496429       -25.82217       0.00800663       -136.5733                0               0                0               0
1.71053                0.9481588       -26.09776      0.008186508       -140.3122                0               0                0               0
1.71711                0.9466261       -26.37808      0.008368651       -144.0377                0               0                0               0
1.72368                0.9450423       -26.66328      0.008553425       -147.7491                0               0                0               0
1.73026                0.9434048       -26.95353      0.008741247       -151.4456                0               0                0               0
1.73684                0.9417104       -27.24898      0.008932576       -155.1269                0               0                0               0
1.74342                0.9399558        -27.5498      0.009127923        -158.793                0               0                0               0
1.75                   0.9381374       -27.85615      0.009327836       -162.4442                0               0                0               0
1.75658                0.9362514       -28.16815      0.009532904        -166.081                0               0                0               0
1.76316                0.9342936       -28.48595      0.009743751       -169.7045                0               0                0               0
1.76974                0.9322598       -28.80968      0.009961033        -173.316                0               0                0               0
1.77632                0.9301456       -29.13944       0.01018542        -176.917                0               0                0               0
1.78289                0.9279465       -29.47534       0.01041762        179.4906                0               0                0               0
1.78947                0.9256575       -29.81747       0.01065834        175.9045                0               0                0               0
1.79605                0.9232739       -30.16589       0.01090827        172.3223                0               0                0               0
1.80263                0.9207908       -30.52067       0.01116813        168.7413                0               0                0               0
1.80921                0.9182036       -30.88185        0.0114386        165.1587                0               0                0               0
1.81579                0.9155072       -31.24945       0.01172036        161.5714                0               0                0               0
1.82237                0.9126969        -31.6235       0.01201404        157.9764                0               0                0               0
1.82895                 0.909768       -32.00401       0.01232026        154.3705                0               0                0               0
1.83553                0.9067158       -32.39097       0.01263957        150.7505                0               0                0               0
1.84211                0.9035357       -32.78436       0.01297247        147.1133                0               0                0               0
1.84868                0.9002235       -33.18417       0.01331942        143.4559                0               0                0               0
