! TOUCHSTONE file generated by CST MICROWAVE STUDIO
! Date and time: Tue Mar 11 13:56:32 2025
! Project name: transverse.cst
! Parameters = {Fracture=5; B=10; D=160; F=5; Feed=2.85625; L=100; M=20; R=0.384908; S=1; Theta=90; length=57.125; wave=114.25}
! Header version: 2024
! Port assignment regex: !\s*Touchstone port\s*([0-9]+)\s*=\s*(CST MWS port|CST DES external port|CST DES block port)\s*(.+)\s* \(\"(.*)\"\)(\s*mode\s*([0-9]+))?.*
! Touchstone port assignment:
! Touchstone port 1 = CST MWS port 1 ("")
! Touchstone port 2 = CST MWS port 2 ("")
# GHz S MA R 50
1                       0.997903       -9.752042     0.0003266376       -117.9546                0               0                0               0
1.00658                0.9978037       -9.841211     0.0003512647       -123.2511                0               0                0               0
1.01316                0.9976963       -9.930681     0.0003751956       -128.5427                0               0                0               0
1.01974                0.9975814        -10.0204     0.0003983163       -133.8199                0               0                0               0
1.02632                0.9974599       -10.11033     0.0004205157       -139.0743                0               0                0               0
1.03289                0.9973331       -10.20044     0.0004416858       -144.2987                0               0                0               0
1.03947                0.9972019        -10.2907     0.0004617225       -149.4862                0               0                0               0
1.04605                0.9970681       -10.38112     0.0004805269       -154.6303                0               0                0               0
1.05263                0.9969324        -10.4717     0.0004980056       -159.7247                0               0                0               0
1.05921                0.9967967       -10.56246     0.0005140726       -164.7628                0               0                0               0
1.06579                0.9966618       -10.65343     0.0005286493       -169.7378                0               0                0               0
1.07237                0.9965291       -10.74467     0.0005416669       -174.6423                0               0                0               0
1.07895                0.9963995       -10.83622      0.000553067       -179.4686                0               0                0               0
1.08553                0.9962742       -10.92817     0.0005628034         175.792                0               0                0               0
1.09211                0.9961537       -11.02057     0.0005708437        171.1487                0               0                0               0
1.09868                0.9960386       -11.11353     0.0005771714         166.612                0               0                0               0
1.10526                0.9959292       -11.20712     0.0005817875        162.1934                0               0                0               0
1.11184                0.9958255       -11.30145     0.0005847139        157.9058                0               0                0               0
1.11842                0.9957275        -11.3966     0.0005859955        153.7632                0               0                0               0
1.125                  0.9956346       -11.49267     0.0005857036        149.7816                0               0                0               0
1.13158                0.9955464       -11.58975     0.0005839401        145.9782                0               0                0               0
1.13816                0.9954619       -11.68792     0.0005808403        142.3719                0               0                0               0
1.14474                0.9953801       -11.78725     0.0005765787         138.983                0               0                0               0
1.15132                0.9952996       -11.88782     0.0005713735         135.833                0               0                0               0
1.15789                0.9952195       -11.98966     0.0005654913        132.9434                0               0                0               0
1.16447                 0.995138       -12.09284     0.0005592513        130.3353                0               0                0               0
1.17105                0.9950536       -12.19738     0.0005530291        128.0272                0               0                0               0
1.17763                0.9949648       -12.30328     0.0005472571        126.0332                0               0                0               0
1.18421                0.9948701       -12.41057     0.0005424218        124.3595                0               0                0               0
1.19079                0.9947678       -12.51921     0.0005390548        123.0019                0               0                0               0
1.19737                0.9946566        -12.6292     0.0005377173        121.9415                0               0                0               0
1.20395                0.9945354       -12.74049     0.0005389756        121.1431                0               0                0               0
1.21053                 0.994403       -12.85304     0.0005433703        120.5537                0               0                0               0
1.21711                0.9942584        -12.9668     0.0005513807        120.1045                0               0                0               0
1.22368                0.9941008        -13.0817     0.0005633907         119.716                0               0                0               0
1.23026                0.9939298       -13.19768     0.0005796627        119.3046                0               0                0               0
1.23684                0.9937451       -13.31467     0.0006003242        118.7912                0               0                0               0
1.24342                0.9935469       -13.43261     0.0006253683        118.1075                0               0                0               0
1.25                   0.9933352       -13.55142     0.0006546683        117.2014                0               0                0               0
1.25658                0.9931105       -13.67106     0.0006880009        116.0383                0               0                0               0
1.26316                0.9928736       -13.79146     0.0007250717        114.6004                0               0                0               0
1.26974                0.9926253       -13.91259     0.0007655397        112.8841                0               0                0               0
1.27632                0.9923665       -14.03442     0.0008090392        110.8968                0               0                0               0
1.28289                0.9920984       -14.15692     0.0008551944        108.6533                0               0                0               0
1.28947                0.9918226       -14.28008     0.0009036313        106.1731                0               0                0               0
1.29605                  0.99154       -14.40393     0.0009539841         103.478                0               0                0               0
1.30263                0.9912522       -14.52848        0.0010059        100.5909                0               0                0               0
1.30921                0.9909605       -14.65378      0.001059041        97.53413                0               0                0               0
1.31579                0.9906659       -14.77987      0.001113084        94.32917                0               0                0               0
1.32237                0.9903695       -14.90684      0.001167723        90.99622                0               0                0               0
1.32895                0.9900724       -15.03476       0.00122267          87.554                0               0                0               0
1.33553                0.9897754       -15.16372      0.001277648        84.01976                0               0                0               0
1.34211                 0.989479       -15.29383      0.001332401        80.40932                0               0                0               0
1.34868                0.9891833       -15.42521      0.001386688        76.73721                0               0                0               0
1.35526                0.9888886       -15.55796      0.001440283        73.01675                0               0                0               0
1.36184                0.9885943       -15.69221      0.001492979        69.26024                0               0                0               0
1.36842                   0.9883       -15.82808      0.001544588        65.47905                0               0                0               0
1.375                  0.9880051       -15.96568       0.00159494        61.68378                0               0                0               0
1.38158                0.9877082       -16.10513      0.001643888        57.88433                0               0                0               0
1.38816                0.9874081       -16.24652      0.001691306        54.09004                0               0                0               0
1.39474                0.9871031       -16.38996      0.001737093        50.30974                0               0                0               0
1.40132                0.9867917       -16.53552      0.001781175        46.55183                0               0                0               0
1.40789                0.9864719       -16.68328      0.001823506        42.82435                0               0                0               0
1.41447                0.9861417       -16.83328      0.001864072        39.13498                0               0                0               0
1.42105                 0.985799       -16.98558      0.001902891        35.49108                0               0                0               0
1.42763                0.9854416       -17.14019      0.001940018         31.8997                0               0                0               0
1.43421                0.9850677       -17.29711      0.001975545        28.36752                0               0                0               0
1.44079                0.9846748       -17.45635      0.002009608        24.90085                0               0                0               0
1.44737                0.9842615       -17.61788      0.002042381        21.50554                0               0                0               0
1.45395                0.9838259       -17.78167      0.002074088        18.18692                0               0                0               0
1.46053                0.9833664       -17.94766      0.002104995        14.94963                0               0                0               0
1.46711                0.9828818       -18.11581      0.002135416        11.79754                0               0                0               0
1.47368                 0.982371       -18.28605      0.002165715        8.733582                0               0                0               0
1.48026                0.9818331       -18.45832      0.002196297         5.75958                0               0                0               0
1.48684                0.9812677       -18.63254      0.002227616        2.876056                0               0                0               0
1.49342                0.9806747       -18.80866      0.002260161      0.08207791                0               0                0               0
1.5                    0.9800539       -18.98662      0.002294459       -2.624903                0               0                0               0
1.50658                0.9794057       -19.16635      0.002331063        -5.24917                0               0                0               0
1.51316                0.9787305       -19.34782      0.002370546       -7.796804                0               0                0               0
1.51974                0.9780295         -19.531      0.002413489       -10.27567                0               0                0               0
1.52632                0.9773032       -19.71587      0.002460468       -12.69536                0               0                0               0
1.53289                0.9765526       -19.90242      0.002512048       -15.06693                0               0                0               0
1.53947                0.9757792       -20.09069      0.002568763       -17.40272                0               0                0               0
1.54605                0.9749839       -20.28072      0.002631108       -19.71593                0               0                0               0
1.55263                 0.974168       -20.47254      0.002699528       -22.02023                0               0                0               0
1.55921                0.9733325       -20.66626      0.002774409       -24.32926                0               0                0               0
1.56579                0.9724782       -20.86196      0.002856068       -26.65625                0               0                0               0
1.57237                0.9716059       -21.05975      0.002944753       -29.01358                0               0                0               0
1.57895                0.9707164       -21.25978      0.003040641       -31.41238                0               0                0               0
1.58553                0.9698095       -21.46218      0.003143835       -33.86232                0               0                0               0
1.59211                0.9688853       -21.66711      0.003254371       -36.37143                0               0                0               0
1.59868                0.9679435       -21.87475      0.003372224       -38.94598                0               0                0               0
1.60526                0.9669831       -22.08527      0.003497309       -41.59052                0               0                0               0
1.61184                0.9660029       -22.29884      0.003629496       -44.30794                0               0                0               0
1.61842                0.9650015       -22.51565      0.003768611       -47.09963                0               0                0               0
1.625                   0.963977       -22.73587      0.003914448       -49.96559                0               0                0               0
1.63158                0.9629267       -22.95966      0.004066776        -52.9047                0               0                0               0
1.63816                0.9618483       -23.18718      0.004225346        -55.9148                0               0                0               0
1.64474                0.9607386       -23.41858      0.004389897       -58.99302                0               0                0               0
1.65132                0.9595945       -23.65399      0.004560167       -62.13581                0               0                0               0
1.65789                0.9584124       -23.89351      0.004735892       -65.33922                0               0                0               0
1.66447                0.9571886       -24.13723      0.004916819       -68.59895                0               0                0               0
1.67105                0.9559193       -24.38523      0.005102705       -71.91054                0               0                0               0
1.67763                0.9546008       -24.63755      0.005293324       -75.26941                0               0                0               0
1.68421                0.9532291       -24.89421      0.005488474         -78.671                0               0                0               0
1.69079                0.9518006       -25.15522      0.005687976       -82.11078                0               0                0               0
1.69737                0.9503115       -25.42056      0.005891681       -85.58437                0               0                0               0
1.70395                0.9487583       -25.69019      0.006099472       -89.08753                0               0                0               0
1.71053                0.9471379       -25.96405       0.00631127       -92.61623                0               0                0               0
1.71711                0.9454471       -26.24209      0.006527033       -96.16668                0               0                0               0
1.72368                0.9436835       -26.52422      0.006746762       -99.73531                0               0                0               0
1.73026                0.9418446       -26.81034        0.0069705       -103.3188                0               0                0               0
1.73684                0.9399284       -27.10037      0.007198337       -106.9143                0               0                0               0
1.74342                0.9379333       -27.39421      0.007430412        -110.519                0               0                0               0
1.75                   0.9358582       -27.69177      0.007666912       -114.1305                0               0                0               0
1.75658                0.9337021       -27.99297      0.007908076       -117.7469                0               0                0               0
1.76316                0.9314643       -28.29774      0.008154191       -121.3662                0               0                0               0
1.76974                0.9291448       -28.60602      0.008405597       -124.9873                0               0                0               0
1.77632                 0.926743       -28.91777      0.008662683       -128.6089                0               0                0               0
1.78289                0.9242596       -29.23298      0.008925883       -132.2304                0               0                0               0
1.78947                0.9216946       -29.55165      0.009195683       -135.8514                0               0                0               0
1.79605                0.9190483       -29.87381       0.00947261       -139.4718                0               0                0               0
1.80263                0.9163211       -30.19954       0.00975723       -143.0919                0               0                0               0
1.80921                0.9135131       -30.52891       0.01005014       -146.7121                0               0                0               0
1.81579                0.9106243       -30.86205       0.01035199       -150.3335                0               0                0               0
1.82237                0.9076547       -31.19911       0.01066342       -153.9571                0               0                0               0
1.82895                0.9046036       -31.54027       0.01098511       -157.5843                0               0                0               0
1.83553                0.9014701        -31.8857       0.01131775       -161.2168                0               0                0               0
1.84211                0.8982529       -32.23565       0.01166204       -164.8563                0               0                0               0
1.84868                0.8949502       -32.59035       0.01201867       -168.5048                0               0                0               0
