! TOUCHSTONE file generated by CST MICROWAVE STUDIO
! Date and time: Tue Mar 11 13:56:39 2025
! Project name: transverse.cst
! Parameters = {Fracture=1; B=10; D=160; F=15; Feed=2.85625; L=100; M=30; R=0.384908; S=2; Theta=90; length=57.125; wave=114.25}
! Header version: 2024
! Port assignment regex: !\s*Touchstone port\s*([0-9]+)\s*=\s*(CST MWS port|CST DES external port|CST DES block port)\s*(.+)\s* \(\"(.*)\"\)(\s*mode\s*([0-9]+))?.*
! Touchstone port assignment:
! Touchstone port 1 = CST MWS port 1 ("")
! Touchstone port 2 = CST MWS port 2 ("")
# GHz S MA R 50
1                      0.9975567       -9.996865     0.0004819322        172.5161                0               0                0               0
1.00658                0.9974851       -10.08467     0.0004777294        166.9194                0               0                0               0
1.01316                0.9974146       -10.17312     0.0004715061        161.4444                0               0                0               0
1.01974                 0.997345       -10.26225      0.000463247        156.1052                0               0                0               0
1.02632                0.9972759       -10.35209     0.0004529522        150.9198                0               0                0               0
1.03289                0.9972069       -10.44269     0.0004406402        145.9113                0               0                0               0
1.03947                0.9971375       -10.53408     0.0004263514        141.1093                0               0                0               0
1.04605                0.9970671       -10.62628     0.0004101538        136.5524                0               0                0               0
1.05263                0.9969952       -10.71932     0.0003921506        132.2907                0               0                0               0
1.05921                 0.996921       -10.81322     0.0003724915        128.3901                0               0                0               0
1.06579                0.9968439       -10.90798     0.0003513892         124.938                0               0                0               0
1.07237                0.9967631       -11.00363     0.0003291438        122.0503                0               0                0               0
1.07895                 0.996678       -11.10015     0.0003061808        119.8807                0               0                0               0
1.08553                0.9965879       -11.19755     0.0002831053        118.6296                0               0                0               0
1.09211                0.9964923       -11.29581     0.0002607807        118.5467                0               0                0               0
1.09868                0.9963905       -11.39493     0.0002404258        119.9108                0               0                0               0
1.10526                0.9962821       -11.49487     0.0002236949        122.9535                0               0                0               0
1.11184                0.9961666       -11.59564     0.0002126371        127.6909                0               0                0               0
1.11842                0.9960438       -11.69719     0.0002093641        133.7032                0               0                0               0
1.125                  0.9959135        -11.7995     0.0002153878        140.0799                0               0                0               0
1.13158                0.9957755       -11.90255     0.0002310228        145.7507                0               0                0               0
1.13816                0.9956299       -12.00631     0.0002554043         149.972                0               0                0               0
1.14474                0.9954767       -12.11076     0.0002870544        152.5095                0               0                0               0
1.15132                0.9953162       -12.21587     0.0003244524         153.486                0               0                0               0
1.15789                0.9951486       -12.32163     0.0003663121        153.1658                0               0                0               0
1.16447                0.9949744       -12.42802     0.0004116297        151.8222                0               0                0               0
1.17105                0.9947938       -12.53503     0.0004596371        149.6882                0               0                0               0
1.17763                0.9946075       -12.64266     0.0005097393        146.9466                0               0                0               0
1.18421                0.9944161       -12.75091      0.000561461        143.7372                0               0                0               0
1.19079                0.9942199       -12.85978     0.0006144092        140.1656                0               0                0               0
1.19737                0.9940196        -12.9693     0.0006682464        136.3118                0               0                0               0
1.20395                0.9938158       -13.07949     0.0007226737        132.2371                0               0                0               0
1.21053                0.9936089       -13.19037     0.0007774186        127.9887                0               0                0               0
1.21711                0.9933994       -13.30197     0.0008322278        123.6039                0               0                0               0
1.22368                0.9931878       -13.41434     0.0008868622         119.112                0               0                0               0
1.23026                0.9929742       -13.52752     0.0009410932         114.537                0               0                0               0
1.23684                0.9927589       -13.64156     0.0009947016        109.8983                0               0                0               0
1.24342                0.9925422       -13.75651      0.001047476        105.2121                0               0                0               0
1.25                   0.9923239       -13.87243      0.001099212        100.4921                0               0                0               0
1.25658                0.9921039       -13.98937      0.001149712        95.75024                0               0                0               0
1.26316                 0.991882       -14.10739      0.001198789        90.99673                0               0                0               0
1.26974                0.9916578       -14.22654      0.001246262         86.2408                0               0                0               0
1.27632                 0.991431       -14.34687       0.00129196        81.49082                0               0                0               0
1.28289                0.9912009       -14.46844      0.001335722        76.75449                0               0                0               0
1.28947                0.9909668       -14.59128        0.0013774        72.03909                0               0                0               0
1.29605                0.9907281       -14.71545      0.001416859        67.35156                0               0                0               0
1.30263                0.9904839       -14.84096       0.00145398        62.69866                0               0                0               0
1.30921                0.9902334       -14.96786      0.001488658        58.08705                0               0                0               0
1.31579                0.9899758       -15.09617       0.00152081         53.5234                0               0                0               0
1.32237                  0.98971        -15.2259      0.001550373        49.01443                0               0                0               0
1.32895                0.9894356       -15.35706      0.001577308          44.567                0               0                0               0
1.33553                0.9891511       -15.48965      0.001601601         40.1881                0               0                0               0
1.34211                0.9888564       -15.62368      0.001623269        35.88499                0               0                0               0
1.34868                0.9885505       -15.75913       0.00164236        31.66508                0               0                0               0
1.35526                0.9882326         -15.896      0.001658957        27.53605                0               0                0               0
1.36184                0.9879026       -16.03426      0.001673184        23.50573                0               0                0               0
1.36842                0.9875599       -16.17391      0.001685205        19.58211                0               0                0               0
1.375                  0.9872042       -16.31492      0.001695231         15.7732                0               0                0               0
1.38158                0.9868355       -16.45727      0.001703524        12.08693                0               0                0               0
1.38816                0.9864536       -16.60095      0.001710397         8.53091                0               0                0               0
1.39474                0.9860586       -16.74594      0.001716218        5.112197                0               0                0               0
1.40132                0.9856509       -16.89223      0.001721414        1.836956                0               0                0               0
1.40789                0.9852307       -17.03982      0.001726471       -1.289937                0               0                0               0
1.41447                0.9847984       -17.18871      0.001731929       -4.265383                0               0                0               0
1.42105                0.9843544       -17.33891      0.001738384       -7.088575                0               0                0               0
1.42763                0.9838994       -17.49044      0.001746479       -9.761546                0               0                0               0
1.43421                0.9834339       -17.64331      0.001756893        -12.2897                0               0                0               0
1.44079                0.9829583       -17.79757       0.00177033       -14.68222                0               0                0               0
1.44737                0.9824736       -17.95327      0.001787505       -16.95234                0               0                0               0
1.45395                0.9819798       -18.11045      0.001809115       -19.11735                0               0                0               0
1.46053                0.9814778       -18.26918      0.001835827       -21.19829                0               0                0               0
1.46711                0.9809675       -18.42953      0.001868251       -23.21933                0               0                0               0
1.47368                0.9804496       -18.59158      0.001906919       -25.20681                0               0                0               0
1.48026                0.9799241       -18.75543      0.001952267       -27.18803                0               0                0               0
1.48684                0.9793907       -18.92116      0.002004622       -29.19001                0               0                0               0
1.49342                0.9788493       -19.08887      0.002064198       -31.23819                0               0                0               0
1.5                    0.9782998       -19.25867      0.002131088       -33.35532                0               0                0               0
1.50658                0.9777414       -19.43066      0.002205277       -35.56068                0               0                0               0
1.51316                0.9771734       -19.60495      0.002286642       -37.86959                0               0                0               0
1.51974                0.9765948       -19.78164      0.002374972       -40.29327                0               0                0               0
1.52632                0.9760046       -19.96083       0.00246998       -42.83894                0               0                0               0
1.53289                0.9754015       -20.14262      0.002571315       -45.51016                0               0                0               0
1.53947                 0.974784        -20.3271      0.002678579       -48.30738                0               0                0               0
1.54605                0.9741506       -20.51436      0.002791341       -51.22838                0               0                0               0
1.55263                0.9734996       -20.70448      0.002909141       -54.26891                0               0                0               0
1.55921                0.9728291       -20.89753      0.003031509       -57.42313                0               0                0               0
1.56579                0.9721374       -21.09356      0.003157967       -60.68408                0               0                0               0
1.57237                0.9714226       -21.29263      0.003288037        -64.0441                0               0                0               0
1.57895                0.9706828       -21.49479      0.003421244       -67.49504                0               0                0               0
1.58553                0.9699161       -21.70006      0.003557124       -71.02859                0               0                0               0
1.59211                0.9691205       -21.90847      0.003695228       -74.63641                0               0                0               0
1.59868                0.9682944       -22.12004      0.003835119       -78.31027                0               0                0               0
1.60526                0.9674362       -22.33478      0.003976382       -82.04213                0               0                0               0
1.61184                0.9665442       -22.55268      0.004118622       -85.82424                0               0                0               0
1.61842                0.9656168       -22.77376      0.004261469       -89.64912                0               0                0               0
1.625                  0.9646531       -22.99801      0.004404581       -93.50961                0               0                0               0
1.63158                0.9636515       -23.22542      0.004547643       -97.39889                0               0                0               0
1.63816                0.9626114       -23.45599      0.004690373       -101.3104                0               0                0               0
1.64474                0.9615317       -23.68972      0.004832527       -105.2381                0               0                0               0
1.65132                0.9604117       -23.92662      0.004973896       -109.1759                0               0                0               0
1.65789                0.9592512       -24.16669      0.005114314       -113.1182                0               0                0               0
1.66447                0.9580491       -24.40995      0.005253658       -117.0599                0               0                0               0
1.67105                0.9568057       -24.65642      0.005391858       -120.9958                0               0                0               0
1.67763                0.9555204       -24.90616      0.005528891       -124.9213                0               0                0               0
1.68421                 0.954193       -25.15921      0.005664792       -128.8318                0               0                0               0
1.69079                0.9528233       -25.41563      0.005799653       -132.7233                0               0                0               0
1.69737                0.9514113        -25.6755      0.005933633       -136.5919                0               0                0               0
1.70395                0.9499564       -25.93892      0.006066949       -140.4342                0               0                0               0
1.71053                0.9484584       -26.20598      0.006199894        -144.247                0               0                0               0
1.71711                0.9469168       -26.47682      0.006332827       -148.0276                0               0                0               0
1.72368                 0.945331       -26.75157       0.00646618       -151.7737                0               0                0               0
1.73026                0.9437002       -27.03037       0.00660046       -155.4834                0               0                0               0
1.73684                0.9420233       -27.31339      0.006736247       -159.1556                0               0                0               0
1.74342                 0.940299        -27.6008      0.006874193       -162.7893                0               0                0               0
1.75                    0.938526       -27.89278      0.007015022       -166.3846                0               0                0               0
1.75658                0.9367022       -28.18952      0.007159522       -169.9418                0               0                0               0
1.76316                0.9348256       -28.49121      0.007308544       -173.4623                0               0                0               0
1.76974                0.9328935       -28.79805      0.007462994       -176.9477                0               0                0               0
1.77632                0.9309035       -29.11025      0.007623825        179.5991                0               0                0               0
1.78289                0.9288526         -29.428      0.007792024         176.175                0               0                0               0
1.78947                0.9267372       -29.75151      0.007968606        172.7759                0               0                0               0
1.79605                0.9245537       -30.08096      0.008154593        169.3973                0               0                0               0
1.80263                0.9222982       -30.41656      0.008351011        166.0339                0               0                0               0
1.80921                0.9199665       -30.75849      0.008558866        162.6802                0               0                0               0
1.81579                0.9175543       -31.10691      0.008779136        159.3299                0               0                0               0
1.82237                0.9150567       -31.46201      0.009012753        155.9769                0               0                0               0
1.82895                0.9124691       -31.82394      0.009260592        152.6147                0               0                0               0
1.83553                0.9097865       -32.19284      0.009523455        149.2369                0               0                0               0
1.84211                0.9070036       -32.56886      0.009802067        145.8372                0               0                0               0
1.84868                0.9041152       -32.95212       0.01009706        142.4095                0               0                0               0
