! TOUCHSTONE file generated by CST MICROWAVE STUDIO
! Date and time: Tue Mar 11 13:57:05 2025
! Project name: transverse.cst
! Parameters = {Fracture=1; B=12.5; D=160; F=25; Feed=2.85625; L=100; M=10; R=0.384908; S=2; Theta=90; length=57.125; wave=114.25}
! Header version: 2024
! Port assignment regex: !\s*Touchstone port\s*([0-9]+)\s*=\s*(CST MWS port|CST DES external port|CST DES block port)\s*(.+)\s* \(\"(.*)\"\)(\s*mode\s*([0-9]+))?.*
! Touchstone port assignment:
! Touchstone port 1 = CST MWS port 1 ("")
! Touchstone port 2 = CST MWS port 2 ("")
# GHz S MA R 50
1                      0.9977815       -10.00329     0.0003664907       -164.7038                0               0                0               0
1.00658                0.9976966       -10.09264     0.0003716267       -168.3625                0               0                0               0
1.01316                0.9976084       -10.18248     0.0003762185       -171.8975                0               0                0               0
1.01974                 0.997517       -10.27282     0.0003803279       -175.2992                0               0                0               0
1.02632                0.9974227       -10.36364     0.0003840323       -178.5586                0               0                0               0
1.03289                0.9973259       -10.45496      0.000387427        178.3325                0               0                0               0
1.03947                0.9972264       -10.54679     0.0003906241        175.3815                0               0                0               0
1.04605                 0.997125       -10.63914     0.0003937549         172.594                0               0                0               0
1.05263                0.9970214       -10.73203     0.0003969682        169.9733                0               0                0               0
1.05921                0.9969161       -10.82547     0.0004004303        167.5199                0               0                0               0
1.06579                0.9968093       -10.91949     0.0004043232        165.2305                0               0                0               0
1.07237                0.9967009       -11.01411      0.000408841        163.0978                0               0                0               0
1.07895                0.9965911       -11.10936     0.0004141864        161.1095                0               0                0               0
1.08553                0.9964798       -11.20527     0.0004205651        159.2484                0               0                0               0
1.09211                0.9963671       -11.30185     0.0004281792        157.4925                0               0                0               0
1.09868                0.9962527       -11.39915     0.0004372207        155.8154                0               0                0               0
1.10526                0.9961367       -11.49719     0.0004478641        154.1873                0               0                0               0
1.11184                0.9960186       -11.59599     0.0004602598        152.5766                0               0                0               0
1.11842                0.9958983       -11.69558     0.0004745297        150.9516                0               0                0               0
1.125                  0.9957754       -11.79599     0.0004907627        149.2818                0               0                0               0
1.13158                0.9956496       -11.89723     0.0005090135        147.5395                0               0                0               0
1.13816                0.9955203       -11.99933      0.000529303        145.7013                0               0                0               0
1.14474                0.9953874        -12.1023     0.0005516205        143.7482                0               0                0               0
1.15132                0.9952503       -12.20615     0.0005759265        141.6666                0               0                0               0
1.15789                0.9951085       -12.31089     0.0006021566        139.4475                0               0                0               0
1.16447                0.9949616       -12.41653     0.0006302263        137.0864                0               0                0               0
1.17105                0.9948093       -12.52308     0.0006600345        134.5827                0               0                0               0
1.17763                 0.994651       -12.63053     0.0006914675        131.9391                0               0                0               0
1.18421                0.9944865       -12.73887     0.0007244024        129.1603                0               0                0               0
1.19079                0.9943155        -12.8481     0.0007587096        126.2532                0               0                0               0
1.19737                0.9941375       -12.95822     0.0007942552        123.2258                0               0                0               0
1.20395                0.9939527       -13.06922     0.0008309031         120.087                0               0                0               0
1.21053                0.9937604       -13.18108     0.0008685159        116.8458                0               0                0               0
1.21711                0.9935609       -13.29381     0.0009069564        113.5117                0               0                0               0
1.22368                0.9933542       -13.40737     0.0009460886        110.0939                0               0                0               0
1.23026                0.9931402       -13.52178     0.0009857787        106.6015                0               0                0               0
1.23684                0.9929191       -13.63703      0.001025895        103.0433                0               0                0               0
1.24342                 0.992691        -13.7531       0.00106631        99.42759                0               0                0               0
1.25                   0.9924561          -13.87      0.001106898        95.76251                0               0                0               0
1.25658                0.9922145       -13.98774      0.001147541        92.05567                0               0                0               0
1.26316                0.9919669       -14.10631      0.001188124        88.31432                0               0                0               0
1.26974                0.9917132       -14.22573      0.001228538        84.54535                0               0                0               0
1.27632                0.9914539       -14.34601      0.001268681        80.75527                0               0                0               0
1.28289                0.9911892       -14.46718      0.001308459        76.95032                0               0                0               0
1.28947                0.9909196       -14.58925      0.001347784        73.13638                0               0                0               0
1.29605                0.9906453       -14.71225      0.001386578        69.31909                0               0                0               0
1.30263                0.9903665       -14.83621      0.001424774        65.50381                0               0                0               0
1.30921                0.9900833       -14.96118      0.001462313        61.69568                0               0                0               0
1.31579                 0.989796       -15.08718       0.00149915        57.89959                0               0                0               0
1.32237                0.9895048       -15.21427      0.001535251        54.12023                0               0                0               0
1.32895                0.9892094       -15.34248      0.001570596        50.36208                0               0                0               0
1.33553                0.9889101       -15.47186      0.001605179        46.62943                0               0                0               0
1.34211                0.9886066       -15.60245      0.001639009        42.92632                0               0                0               0
1.34868                0.9882988       -15.73432      0.001672113        39.25659                0               0                0               0
1.35526                0.9879863       -15.86749      0.001704532        35.62383                0               0                0               0
1.36184                0.9876687       -16.00202      0.001736327        32.03139                0               0                0               0
1.36842                 0.987346       -16.13796      0.001767579        28.48231                0               0                0               0
1.375                  0.9870174       -16.27534      0.001798383        24.97931                0               0                0               0
1.38158                0.9866824        -16.4142      0.001828858        21.52475                0               0                0               0
1.38816                0.9863408       -16.55459      0.001859142        18.12056                0               0                0               0
1.39474                0.9859918       -16.69654      0.001889389        14.76822                0               0                0               0
1.40132                0.9856347       -16.84008      0.001919773        11.46872                0               0                0               0
1.40789                0.9852694       -16.98524      0.001950489        8.222461                0               0                0               0
1.41447                0.9848949       -17.13204      0.001981745        5.029236                0               0                0               0
1.42105                0.9845107       -17.28052      0.002013765        1.888193                0               0                0               0
1.42763                0.9841165       -17.43068      0.002046786       -1.202213                0               0                0               0
1.43421                0.9837118       -17.58256      0.002081056       -4.244234                0               0                0               0
1.44079                0.9832961       -17.73617      0.002116829       -7.240839                0               0                0               0
1.44737                 0.982869       -17.89153      0.002154365        -10.1957                0               0                0               0
1.45395                0.9824303       -18.04866      0.002193922       -13.11316                0               0                0               0
1.46053                0.9819797       -18.20758      0.002235757       -15.99817                0               0                0               0
1.46711                 0.981517       -18.36831      0.002280117       -18.85619                0               0                0               0
1.47368                0.9810422       -18.53088      0.002327241       -21.69315                0               0                0               0
1.48026                 0.980555       -18.69532      0.002377348       -24.51525                0               0                0               0
1.48684                0.9800554       -18.86166      0.002430643       -27.32888                0               0                0               0
1.49342                0.9795432       -19.02994      0.002487306       -30.14047                0               0                0               0
1.5                    0.9790188        -19.2002      0.002547493       -32.95634                0               0                0               0
1.50658                 0.978482        -19.3725      0.002611336       -35.78257                0               0                0               0
1.51316                0.9779327        -19.5469      0.002678937       -38.62487                0               0                0               0
1.51974                0.9773707       -19.72345       0.00275037       -41.48848                0               0                0               0
1.52632                0.9767963       -19.90223      0.002825681       -44.37807                0               0                0               0
1.53289                0.9762089       -20.08333       0.00290489       -47.29771                0               0                0               0
1.53947                0.9756085       -20.26681      0.002987987       -50.25076                0               0                0               0
1.54605                0.9749946       -20.45277      0.003074942       -53.23994                0               0                0               0
1.55263                0.9743668       -20.64132      0.003165699       -56.26728                0               0                0               0
1.55921                0.9737244       -20.83254      0.003260185       -59.33413                0               0                0               0
1.56579                0.9730667       -21.02655      0.003358307       -62.44123                0               0                0               0
1.57237                0.9723927       -21.22346      0.003459959       -65.58874                0               0                0               0
1.57895                0.9717015       -21.42336      0.003565023       -68.77628                0               0                0               0
1.58553                0.9709918       -21.62638      0.003673372       -72.00303                0               0                0               0
1.59211                0.9702621       -21.83262      0.003784873       -75.26774                0               0                0               0
1.59868                0.9695108       -22.04219      0.003899391       -78.56884                0               0                0               0
1.60526                0.9687364       -22.25519      0.004016791       -81.90445                0               0                0               0
1.61184                0.9679368       -22.47173      0.004136937       -85.27248                0               0                0               0
1.61842                0.9671101        -22.6919      0.004259705       -88.67064                0               0                0               0
1.625                  0.9662542        -22.9158      0.004384971       -92.09654                0               0                0               0
1.63158                0.9653667        -23.1435      0.004512625       -95.54768                0               0                0               0
1.63816                0.9644454       -23.37509      0.004642572       -99.02151                0               0                0               0
1.64474                0.9634878       -23.61064      0.004774726       -102.5155                0               0                0               0
1.65132                0.9624914        -23.8502      0.004909022       -106.0271                0               0                0               0
1.65789                0.9614538       -24.09383      0.005045411       -109.5538                0               0                0               0
1.66447                0.9603725       -24.34157      0.005183869       -113.0933                0               0                0               0
1.67105                0.9592451       -24.59347      0.005324389       -116.6431                0               0                0               0
1.67763                0.9580692       -24.84955      0.005466993       -120.2012                0               0                0               0
1.68421                0.9568422       -25.10984      0.005611726       -123.7654                0               0                0               0
1.69079                 0.955562       -25.37436      0.005758662       -127.3339                0               0                0               0
1.69737                0.9542263       -25.64313        0.0059079        -130.905                0               0                0               0
1.70395                0.9528327       -25.91615       0.00605957        -134.477                0               0                0               0
1.71053                0.9513798       -26.19345      0.006213832       -138.0487                0               0                0               0
1.71711                0.9498652       -26.47503      0.006370875       -141.6189                0               0                0               0
1.72368                0.9482871       -26.76091      0.006530916       -145.1867                0               0                0               0
1.73026                 0.946644        -27.0511      0.006694206       -148.7514                0               0                0               0
1.73684                0.9449342       -27.34563       0.00686102       -152.3127                0               0                0               0
1.74342                0.9431561       -27.64453      0.007031664       -155.8702                0               0                0               0
1.75                   0.9413082       -27.94783      0.007206467       -159.4242                0               0                0               0
1.75658                0.9393892       -28.25558      0.007385783       -162.9748                0               0                0               0
1.76316                0.9373975       -28.56783       0.00756999       -166.5227                0               0                0               0
1.76974                0.9353318       -28.88465      0.007759482       -170.0686                0               0                0               0
1.77632                0.9331905       -29.20613       0.00795467       -173.6135                0               0                0               0
1.78289                0.9309722       -29.53234       0.00815598       -177.1587                0               0                0               0
1.78947                0.9286751       -29.86339      0.008363837        179.2943                0               0                0               0
1.79605                0.9262975       -30.19941      0.008578683        175.7441                0               0                0               0
1.80263                0.9238374       -30.54052       0.00880095        172.1887                0               0                0               0
1.80921                0.9212926       -30.88687      0.009031071        168.6264                0               0                0               0
1.81579                0.9186608        -31.2386      0.009269467         165.055                0               0                0               0
1.82237                0.9159391       -31.59588      0.009516547        161.4725                0               0                0               0
1.82895                0.9131247       -31.95889      0.009772702        157.8769                0               0                0               0
1.83553                0.9102144       -32.32779        0.0100383        154.2658                0               0                0               0
1.84211                0.9072043       -32.70277       0.01031368        150.6373                0               0                0               0
1.84868                0.9040906       -33.08403       0.01059916        146.9893                0               0                0               0
