! TOUCHSTONE file generated by CST MICROWAVE STUDIO
! Date and time: Tue Mar 11 13:56:28 2025
! Project name: transverse.cst
! Parameters = {Fracture=5; B=12.5; D=160; F=25; Feed=2.85625; L=100; M=30; R=0.384908; S=1; Theta=0; length=57.125; wave=114.25}
! Header version: 2024
! Port assignment regex: !\s*Touchstone port\s*([0-9]+)\s*=\s*(CST MWS port|CST DES external port|CST DES block port)\s*(.+)\s* \(\"(.*)\"\)(\s*mode\s*([0-9]+))?.*
! Touchstone port assignment:
! Touchstone port 1 = CST MWS port 1 ("")
! Touchstone port 2 = CST MWS port 2 ("")
# GHz S MA R 50
1                      0.9975278        -9.75972     0.0005417437        165.2471                0               0                0               0
1.0066                 0.9974643       -9.845629     0.0005381776        159.1434                0               0                0               0
1.0132                 0.9974038       -9.932253     0.0005323879        153.1468                0               0                0               0
1.0198                 0.9973457       -10.01965     0.0005243358        147.2658                0               0                0               0
1.0264                 0.9972895       -10.10787      0.000513995        141.5121                0               0                0               0
1.033                  0.9972343       -10.19697     0.0005013543        135.9006                0               0                0               0
1.0396                 0.9971794       -10.28699     0.0004864191        130.4514                0               0                0               0
1.0462                 0.9971238       -10.37795     0.0004692155        125.1908                0               0                0               0
1.05281                0.9970665       -10.46988     0.0004497943        120.1536                0               0                0               0
1.05941                0.9970066       -10.56281     0.0004282385        115.3862                0               0                0               0
1.06601                0.9969429       -10.65673     0.0004046731        110.9513                0               0                0               0
1.07261                0.9968744       -10.75165     0.0003792807        106.9349                0               0                0               0
1.07921                0.9968002       -10.84755     0.0003523264         103.456                0               0                0               0
1.08581                0.9967193       -10.94443     0.0003241976        100.6814                0               0                0               0
1.09241                0.9966309       -11.04224     0.0002954686        98.84592                0               0                0               0
1.09901                0.9965343       -11.14097     0.0002670063        98.27553                0               0                0               0
1.10561                0.9964289       -11.24056     0.0002401329        99.39935                0               0                0               0
1.11221                0.9963141       -11.34099     0.0002168386        102.6996                0               0                0               0
1.11881                0.9961898        -11.4422     0.0001999216        108.4871                0               0                0               0
1.12541                 0.996056       -11.54415     0.0001926739        116.4196                0               0                0               0
1.13201                0.9959123        -11.6468     0.0001976986        125.1314                0               0                0               0
1.13861                0.9957593        -11.7501     0.0002154939        132.7829                0               0                0               0
1.14521                 0.995597       -11.85401     0.0002444181        138.1962                0               0                0               0
1.15182                0.9954261        -11.9585     0.0002819845        141.1959                0               0                0               0
1.15842                0.9952472       -12.06355     0.0003259466        142.1554                0               0                0               0
1.16502                0.9950609       -12.16912     0.0003746239        141.5573                0               0                0               0
1.17162                0.9948681       -12.27521     0.0004268305        139.8129                0               0                0               0
1.17822                0.9946695       -12.38182      0.000481724        137.2301                0               0                0               0
1.18482                0.9944661       -12.48895     0.0005386837        134.0301                0               0                0               0
1.19142                0.9942587       -12.59662     0.0005972288        130.3706                0               0                0               0
1.19802                0.9940482       -12.70486     0.0006569669        126.3647                0               0                0               0
1.20462                0.9938354        -12.8137     0.0007175628         122.095                0               0                0               0
1.21122                 0.993621       -12.92318     0.0007787182        117.6226                0               0                0               0
1.21782                0.9934056       -13.03337     0.0008401598        112.9934                0               0                0               0
1.22442                0.9931897       -13.14431     0.0009016315        108.2428                0               0                0               0
1.23102                0.9929736       -13.25609      0.000962889        103.3985                0               0                0               0
1.23762                0.9927576       -13.36876      0.001023698         98.4822                0               0                0               0
1.24422                0.9925416        -13.4824       0.00108383        93.51178                0               0                0               0
1.25083                0.9923254       -13.59709      0.001143066        88.50178                0               0                0               0
1.25743                0.9921088        -13.7129      0.001201191        83.46443                0               0                0               0
1.26403                0.9918911       -13.82991      0.001257997        78.41011                0               0                0               0
1.27063                0.9916718       -13.94817      0.001313282        73.34789                0               0                0               0
1.27723                0.9914499       -14.06776      0.001366853        68.28574                0               0                0               0
1.28383                0.9912246       -14.18873      0.001418525         63.2309                0               0                0               0
1.29043                0.9909947       -14.31113      0.001468123        58.18997                0               0                0               0
1.29703                 0.990759         -14.435      0.001515481        53.16918                0               0                0               0
1.30363                0.9905164       -14.56037      0.001560447        48.17442                0               0                0               0
1.31023                0.9902657       -14.68726      0.001602882        43.21145                0               0                0               0
1.31683                0.9900054       -14.81568      0.001642663        38.28589                0               0                0               0
1.32343                0.9897345       -14.94563      0.001679682        33.40337                0               0                0               0
1.33003                0.9894517       -15.07711      0.001713854        28.56959                0               0                0               0
1.33663                 0.989156       -15.21009      0.001745112        23.79033                0               0                0               0
1.34323                0.9888464       -15.34456      0.001773416        19.07155                0               0                0               0
1.34984                0.9885222       -15.48047      0.001798748        14.41939                0               0                0               0
1.35644                0.9881825        -15.6178      0.001821122        9.840233                0               0                0               0
1.36304                 0.987827        -15.7565      0.001840583          5.3407                0               0                0               0
1.36964                0.9874554       -15.89654       0.00185721       0.9276551                0               0                0               0
1.37624                0.9870673       -16.03786      0.001871123       -3.391805                0               0                0               0
1.38284                 0.986663       -16.18043      0.001882479       -7.610392                0               0                0               0
1.38944                0.9862426       -16.32422      0.001891483       -11.72069                0               0                0               0
1.39604                0.9858065        -16.4692      0.001898388       -15.71528                0               0                0               0
1.40264                0.9853553       -16.61534      0.001903495       -19.58684                0               0                0               0
1.40924                0.9848894       -16.76263      0.001907165        -23.3284                0               0                0               0
1.41584                0.9844098       -16.91107      0.001909809       -26.93359                0               0                0               0
1.42244                0.9839173       -17.06067      0.001911901       -30.39695                0               0                0               0
1.42904                0.9834127       -17.21144      0.001913969       -33.71435                0               0                0               0
1.43564                0.9828967       -17.36342      0.001916596        -36.8834                0               0                0               0
1.44224                0.9823702       -17.51666      0.001920417       -39.90404                0               0                0               0
1.44884                0.9818341        -17.6712       0.00192611       -42.77893                0               0                0               0
1.45545                0.9812889       -17.82713      0.001934382       -45.51403                0               0                0               0
1.46205                0.9807353       -17.98451       0.00194596        -48.1189                0               0                0               0
1.46865                0.9801733       -18.14344      0.001961569       -50.60694                0               0                0               0
1.47525                0.9796033       -18.30401      0.001981912       -52.99537                0               0                0               0
1.48185                0.9790253       -18.46634      0.002007649       -55.30486                0               0                0               0
1.48845                0.9784389       -18.63051      0.002039375       -57.55896                0               0                0               0
1.49505                0.9778437       -18.79665      0.002077595       -59.78314                0               0                0               0
1.50165                0.9772389       -18.96487      0.002122712       -62.00368                0               0                0               0
1.50825                0.9766235       -19.13526      0.002175012        -64.2465                0               0                0               0
1.51485                0.9759965       -19.30794      0.002234659       -66.53592                0               0                0               0
1.52145                0.9753562       -19.48301      0.002301697       -68.89373                0               0                0               0
1.52805                0.9747013       -19.66054      0.002376049       -71.33838                0               0                0               0
1.53465                0.9740299       -19.84062      0.002457535       -73.88459                0               0                0               0
1.54125                0.9733401       -20.02332      0.002545884       -76.54319                0               0                0               0
1.54785                  0.97263       -20.20869      0.002640742       -79.32125                0               0                0               0
1.55446                0.9718976       -20.39677      0.002741697       -82.22237                0               0                0               0
1.56106                0.9711407        -20.5876      0.002848285       -85.24716                0               0                0               0
1.56766                0.9703575       -20.78118      0.002960009       -88.39373                0               0                0               0
1.57426                0.9695459       -20.97752      0.003076346        -91.6582                0               0                0               0
1.58086                0.9687043        -21.1766       0.00319676       -95.03516                0               0                0               0
1.58746                0.9678306       -21.37842      0.003320707        -98.5181                0               0                0               0
1.59406                0.9669236       -21.58292      0.003447643       -102.0998                0               0                0               0
1.60066                 0.965982       -21.79009       0.00357703       -105.7725                0               0                0               0
1.60726                0.9650046       -21.99986      0.003708337       -109.5283                0               0                0               0
1.61386                0.9639905        -22.2122      0.003841046       -113.3593                0               0                0               0
1.62046                0.9629393       -22.42706      0.003974655       -117.2575                0               0                0               0
1.62706                0.9618507       -22.64439      0.004108679       -121.2152                0               0                0               0
1.63366                0.9607244       -22.86416      0.004242654       -125.2248                0               0                0               0
1.64026                0.9595609       -23.08634      0.004376135       -129.2791                0               0                0               0
1.64686                0.9583603        -23.3109      0.004508707       -133.3711                0               0                0               0
1.65347                0.9571234       -23.53785      0.004639976       -137.4939                0               0                0               0
1.66007                0.9558509       -23.76719       0.00476958       -141.6411                0               0                0               0
1.66667                0.9545437       -23.99895       0.00489719       -145.8065                0               0                0               0
1.67327                0.9532028       -24.23317      0.005022508        -149.984                0               0                0               0
1.67987                0.9518289       -24.46995      0.005145275       -154.1679                0               0                0               0
1.68647                0.9504232       -24.70935      0.005265272       -158.3526                0               0                0               0
1.69307                0.9489864        -24.9515      0.005382324       -162.5328                0               0                0               0
1.69967                0.9475193       -25.19652      0.005496303       -166.7031                0               0                0               0
1.70627                0.9460224       -25.44459       0.00560713       -170.8587                0               0                0               0
1.71287                0.9444959       -25.69587      0.005714782       -174.9946                0               0                0               0
1.71947                0.9429397       -25.95056      0.005819294       -179.1062                0               0                0               0
1.72607                0.9413535       -26.20887      0.005920764         176.811                0               0                0               0
1.73267                0.9397366       -26.47104      0.006019352        172.7612                0               0                0               0
1.73927                0.9380876       -26.73728      0.006115291        168.7485                0               0                0               0
1.74587                0.9364051       -27.00785      0.006208886        164.7767                0               0                0               0
1.75248                0.9346869         -27.283       0.00630052        160.8491                0               0                0               0
1.75908                0.9329306       -27.56298      0.006390653        156.9689                0               0                0               0
1.76568                0.9311331       -27.84803      0.006479825        153.1388                0               0                0               0
1.77228                0.9292914       -28.13839      0.006568659         149.361                0               0                0               0
1.77888                0.9274014       -28.43429      0.006657862        145.6371                0               0                0               0
1.78548                 0.925459       -28.73595      0.006748216         141.968                0               0                0               0
1.79208                0.9234598       -29.04357      0.006840584         138.354                0               0                0               0
1.79868                0.9213991       -29.35734      0.006935898        134.7946                0               0                0               0
1.80528                0.9192718       -29.67742      0.007035159        131.2884                0               0                0               0
1.81188                0.9170729       -30.00395      0.007139418        127.8329                0               0                0               0
1.81848                0.9147971       -30.33707      0.007249777        124.4248                0               0                0               0
1.82508                 0.912439       -30.67686      0.007367359        121.0599                0               0                0               0
1.83168                0.9099934       -31.02342       0.00749331        117.7327                0               0                0               0
1.83828                0.9074551       -31.37679      0.007628771        114.4371                0               0                0               0
1.84488                0.9048189       -31.73703      0.007774859        111.1659                0               0                0               0
1.85149                0.9020799       -32.10416      0.007932657        107.9115                0               0                0               0
