! TOUCHSTONE file generated by CST MICROWAVE STUDIO
! Date and time: Tue Mar 11 13:58:24 2025
! Project name: transverse.cst
! Parameters = {Fracture=5; B=12.5; D=160; F=25; Feed=2.85625; L=100; M=10; R=0.384908; S=2; Theta=270; length=57.125; wave=114.25}
! Header version: 2024
! Port assignment regex: !\s*Touchstone port\s*([0-9]+)\s*=\s*(CST MWS port|CST DES external port|CST DES block port)\s*(.+)\s* \(\"(.*)\"\)(\s*mode\s*([0-9]+))?.*
! Touchstone port assignment:
! Touchstone port 1 = CST MWS port 1 ("")
! Touchstone port 2 = CST MWS port 2 ("")
# GHz S MA R 50
1                      0.9977757       -9.765068      0.000390463       -168.5467                0               0                0               0
1.0066                 0.9976911       -9.853193     0.0003927547       -172.5001                0               0                0               0
1.0132                  0.997603       -9.941819     0.0003942114       -176.2917                0               0                0               0
1.0198                  0.997512       -10.03095     0.0003949107       -179.9073                0               0                0               0
1.0264                 0.9974179       -10.12058     0.0003949524        176.6684                0               0                0               0
1.033                  0.9973212       -10.21073     0.0003944612        173.4507                0               0                0               0
1.0396                  0.997222       -10.30141     0.0003935891        170.4544                0               0                0               0
1.0462                 0.9971206       -10.39261     0.0003925171        167.6933                0               0                0               0
1.05281                 0.997017       -10.48437     0.0003914571        165.1789                0               0                0               0
1.05941                0.9969117        -10.5767     0.0003906514        162.9185                0               0                0               0
1.06601                0.9968044       -10.66961     0.0003903711        160.9139                0               0                0               0
1.07261                0.9966957       -10.76314     0.0003909122        159.1593                0               0                0               0
1.07921                0.9965852       -10.85731     0.0003925881        157.6394                0               0                0               0
1.08581                0.9964731       -10.95213     0.0003957191        156.3282                0               0                0               0
1.09241                0.9963595       -11.04765     0.0004006188        155.1885                0               0                0               0
1.09901                 0.996244       -11.14388     0.0004075789        154.1729                0               0                0               0
1.10561                0.9961267       -11.24086     0.0004168533        153.2266                0               0                0               0
1.11221                 0.996007       -11.33861     0.0004286441        152.2903                0               0                0               0
1.11881                0.9958852       -11.43715     0.0004430928        151.3057                0               0                0               0
1.12541                0.9957606        -11.5365     0.0004602754        150.2193                0               0                0               0
1.13201                 0.995633        -11.6367     0.0004802043        148.9858                0               0                0               0
1.13861                0.9955019       -11.73775     0.0005028341        147.5707                0               0                0               0
1.14521                0.9953669       -11.83968     0.0005280711        145.9507                0               0                0               0
1.15182                0.9952278       -11.94249     0.0005557841         144.113                0               0                0               0
1.15842                 0.995084       -12.04619      0.000585814        142.0541                0               0                0               0
1.16502                0.9949352       -12.15079     0.0006179836        139.7774                0               0                0               0
1.17162                0.9947809        -12.2563     0.0006521045        137.2919                0               0                0               0
1.17822                0.9946207       -12.36272     0.0006879832        134.6102                0               0                0               0
1.18482                0.9944541       -12.47003     0.0007254246         131.747                0               0                0               0
1.19142                0.9942813       -12.57825     0.0007642353        128.7179                0               0                0               0
1.19802                0.9941016       -12.68736      0.000804225        125.5392                0               0                0               0
1.20462                0.9939149       -12.79735     0.0008452076        122.2265                0               0                0               0
1.21122                0.9937211       -12.90823     0.0008870023        118.7949                0               0                0               0
1.21782                0.9935202       -13.01997     0.0009294336        115.2588                0               0                0               0
1.22442                 0.993312       -13.13258     0.0009723315        111.6315                0               0                0               0
1.23102                0.9930965       -13.24604      0.001015532        107.9255                0               0                0               0
1.23762                 0.992874       -13.36036      0.001058877        104.1523                0               0                0               0
1.24422                0.9926445       -13.47552      0.001102215        100.3225                0               0                0               0
1.25083                0.9924083       -13.59154      0.001145402         96.4459                0               0                0               0
1.25743                0.9921655        -13.7084      0.001188299         92.5317                0               0                0               0
1.26403                0.9919163       -13.82613      0.001230776         88.5883                0               0                0               0
1.27063                0.9916612       -13.94472      0.001272711        84.62359                0               0                0               0
1.27723                0.9914004        -14.0642      0.001313993         80.6449                0               0                0               0
1.28383                0.9911342       -14.18459      0.001354516        76.65916                0               0                0               0
1.29043                0.9908627        -14.3059      0.001394188        72.67287                0               0                0               0
1.29703                0.9905863       -14.42817      0.001432927         68.6922                0               0                0               0
1.30363                0.9903054       -14.55142      0.001470665        64.72303                0               0                0               0
1.31023                  0.99002        -14.6757      0.001507346        60.77096                0               0                0               0
1.31683                0.9897301       -14.80104      0.001542928        56.84135                0               0                0               0
1.32343                0.9894361       -14.92748      0.001577387        52.93934                0               0                0               0
1.33003                0.9891377       -15.05506      0.001610713        49.06986                0               0                0               0
1.33663                0.9888351       -15.18383      0.001642915        45.23765                0               0                0               0
1.34323                0.9885281       -15.31384      0.001674024        41.44721                0               0                0               0
1.34984                0.9882164       -15.44514      0.001704085        37.70282                0               0                0               0
1.35644                0.9878997       -15.57776       0.00173317        34.00853                0               0                0               0
1.36304                 0.987578       -15.71175      0.001761372        30.36809                0               0                0               0
1.36964                0.9872507       -15.84717      0.001788804        26.78491                0               0                0               0
1.37624                0.9869173       -15.98405      0.001815605        23.26203                0               0                0               0
1.38284                0.9865774       -16.12242      0.001841939        19.80206                0               0                0               0
1.38944                0.9862304       -16.26234      0.001867992        16.40707                0               0                0               0
1.39604                0.9858759       -16.40383      0.001893973        13.07855                0               0                0               0
1.40264                0.9855132       -16.54693      0.001920115        9.817293                0               0                0               0
1.40924                0.9851421       -16.69167      0.001946673        6.623372                0               0                0               0
1.41584                0.9847615       -16.83807      0.001973917        3.496001                0               0                0               0
1.42244                0.9843713       -16.98616      0.002002139       0.4335065                0               0                0               0
1.42904                 0.983971       -17.13596      0.002031642       -2.566739                0               0                0               0
1.43564                0.9835599       -17.28749      0.002062737        -5.50834                0               0                0               0
1.44224                0.9831376       -17.44078      0.002095741       -8.395884                0               0                0               0
1.44884                 0.982704       -17.59585      0.002130973        -11.2349                0               0                0               0
1.45545                0.9822586        -17.7527      0.002168743       -14.03179                0               0                0               0
1.46205                0.9818012       -17.91138      0.002209354       -16.79372                0               0                0               0
1.46865                0.9813315        -18.0719      0.002253089       -19.52851                0               0                0               0
1.47525                0.9808495       -18.23428      0.002300212       -22.24437                0               0                0               0
1.48185                0.9803551       -18.39857       0.00235096       -24.94981                0               0                0               0
1.48845                0.9798482        -18.5648       0.00240554       -27.65336                0               0                0               0
1.49505                0.9793287         -18.733      0.002464124       -30.36336                0               0                0               0
1.50165                0.9787966       -18.90323      0.002526849       -33.08778                0               0                0               0
1.50825                0.9782519       -19.07554      0.002593816       -35.83404                0               0                0               0
1.51485                0.9776946       -19.24999      0.002665086       -38.60883                0               0                0               0
1.52145                0.9771245       -19.42664      0.002740684       -41.41801                0               0                0               0
1.52805                0.9765413       -19.60556      0.002820601       -44.26653                0               0                0               0
1.53465                0.9759453       -19.78685      0.002904795       -47.15839                0               0                0               0
1.54125                0.9753357       -19.97058      0.002993191       -50.09662                0               0                0               0
1.54785                0.9747125       -20.15685      0.003085692       -53.08332                0               0                0               0
1.55446                0.9740749       -20.34576      0.003182174       -56.11972                0               0                0               0
1.56106                0.9734223       -20.53741      0.003282496       -59.20622                0               0                0               0
1.56766                0.9727539        -20.7319      0.003386497        -62.3425                0               0                0               0
1.57426                 0.972069       -20.92935      0.003494011       -65.52757                0               0                0               0
1.58086                0.9713661       -21.12986      0.003604858       -68.75991                0               0                0               0
1.58746                0.9706442       -21.33356      0.003718855       -72.03753                0               0                0               0
1.59406                0.9699017       -21.54054      0.003835818       -75.35806                0               0                0               0
1.60066                 0.969137       -21.75093      0.003955567       -78.71881                0               0                0               0
1.60726                0.9683483       -21.96483      0.004077922       -82.11689                0               0                0               0
1.61386                0.9675338       -22.18234      0.004202715       -85.54925                0               0                0               0
1.62046                0.9666913       -22.40357      0.004329787        -89.0127                0               0                0               0
1.62706                0.9658186       -22.62859      0.004458993       -92.50403                0               0                0               0
1.63366                0.9649135       -22.85751      0.004590203          -96.02                0               0                0               0
1.64026                0.9639734        -23.0904      0.004723306       -99.55741                0               0                0               0
1.64686                0.9629961       -23.32732      0.004858211       -103.1131                0               0                0               0
1.65347                0.9619787       -23.56835      0.004994849       -106.6841                0               0                0               0
1.66007                 0.960919       -23.81353      0.005133179       -110.2673                0               0                0               0
1.66667                0.9598142       -24.06292      0.005273181         -113.86                0               0                0               0
1.67327                 0.958662       -24.31654      0.005414868       -117.4596                0               0                0               0
1.67987                0.9574596       -24.57444       0.00555828       -121.0635                0               0                0               0
1.68647                0.9562047       -24.83664      0.005703492       -124.6696                0               0                0               0
1.69307                0.9548949       -25.10316      0.005850607       -128.2757                0               0                0               0
1.69967                0.9535278       -25.37402      0.005999765       -131.8799                0               0                0               0
1.70627                0.9521015       -25.64922       0.00615114       -135.4808                0               0                0               0
1.71287                0.9506135       -25.92879      0.006304936       -139.0769                0               0                0               0
1.71947                0.9490621       -26.21272      0.006461397       -142.6672                0               0                0               0
1.72607                0.9474452       -26.50105      0.006620799       -146.2508                0               0                0               0
1.73267                0.9457614       -26.79377      0.006783451       -149.8273                0               0                0               0
1.73927                0.9440087       -27.09092      0.006949692       -153.3963                0               0                0               0
1.74587                0.9421855       -27.39252      0.007119895        -156.958                0               0                0               0
1.75248                0.9402904       -27.69861      0.007294456       -160.5127                0               0                0               0
1.75908                0.9383218       -28.00923      0.007473802        -164.061                0               0                0               0
1.76568                0.9362784       -28.32444      0.007658376       -167.6039                0               0                0               0
1.77228                0.9341587        -28.6443      0.007848643       -171.1425                0               0                0               0
1.77888                0.9319608        -28.9689      0.008045077       -174.6783                0               0                0               0
1.78548                0.9296837       -29.29833       0.00824817       -178.2131                0               0                0               0
1.79208                0.9273253       -29.63269      0.008458409        178.2514                0               0                0               0
1.79868                0.9248839       -29.97211      0.008676287        174.7129                0               0                0               0
1.80528                0.9223574       -30.31671      0.008902286        171.1692                0               0                0               0
1.81188                0.9197436       -30.66665      0.009136882         167.618                0               0                0               0
1.81848                0.9170401       -31.02207      0.009380532        164.0568                0               0                0               0
1.82508                0.9142441       -31.38314      0.009633672        160.4831                0               0                0               0
1.83168                0.9113526       -31.75005      0.009896712        156.8943                0               0                0               0
1.83828                0.9083622       -32.12298       0.01017003        153.2879                0               0                0               0
1.84488                0.9052689        -32.5021       0.01045397        149.6616                0               0                0               0
1.85149                 0.902069       -32.88763       0.01074884         146.013                0               0                0               0
