! TOUCHSTONE file generated by CST MICROWAVE STUDIO
! Date and time: Tue Mar 11 13:56:18 2025
! Project name: transverse.cst
! Parameters = {Fracture=5; B=12.5; D=160; F=15; Feed=2.85625; L=100; M=10; R=0.384908; S=2; Theta=0; length=57.125; wave=114.25}
! Header version: 2024
! Port assignment regex: !\s*Touchstone port\s*([0-9]+)\s*=\s*(CST MWS port|CST DES external port|CST DES block port)\s*(.+)\s* \(\"(.*)\"\)(\s*mode\s*([0-9]+))?.*
! Touchstone port assignment:
! Touchstone port 1 = CST MWS port 1 ("")
! Touchstone port 2 = CST MWS port 2 ("")
# GHz S MA R 50
1                       0.997814       -9.747924     0.0003130567       -152.4281                0               0                0               0
1.0066                 0.9977328        -9.83611     0.0003183957       -155.7327                0               0                0               0
1.0132                  0.997647       -9.924785     0.0003232481       -158.9293                0               0                0               0
1.0198                 0.9975571       -10.01394     0.0003276585       -162.0061                0               0                0               0
1.0264                 0.9974634       -10.10356     0.0003316864       -164.9515                0               0                0               0
1.033                  0.9973662       -10.19364     0.0003354082       -167.7548                0               0                0               0
1.0396                 0.9972659       -10.28419     0.0003389179       -170.4059                0               0                0               0
1.0462                 0.9971629        -10.3752     0.0003423281       -172.8968                0               0                0               0
1.05281                0.9970576       -10.46669     0.0003457707       -175.2212                0               0                0               0
1.05941                0.9969504       -10.55868     0.0003493967       -177.3761                0               0                0               0
1.06601                0.9968416       -10.65117     0.0003533751        -179.362                0               0                0               0
1.07261                0.9967318        -10.7442     0.0003578905        178.8159                0               0                0               0
1.07921                0.9966212        -10.8378     0.0003631404        177.1473                0               0                0               0
1.08581                  0.99651       -10.93198     0.0003693295        175.6161                0               0                0               0
1.09241                0.9963983        -11.0268     0.0003766648        174.2006                0               0                0               0
1.09901                0.9962864       -11.12228     0.0003853475        172.8737                0               0                0               0
1.10561                0.9961743       -11.21846     0.0003955666        171.6042                0               0                0               0
1.11221                0.9960617       -11.31539     0.0004074913        170.3581                0               0                0               0
1.11881                0.9959487       -11.41311     0.0004212652        169.1003                0               0                0               0
1.12541                0.9958349       -11.51165     0.0004370018        167.7971                0               0                0               0
1.13201                0.9957199       -11.61105     0.0004547816        166.4173                0               0                0               0
1.13861                0.9956034       -11.71135     0.0004746524        164.9344                0               0                0               0
1.14521                 0.995485       -11.81258     0.0004966304         163.327                0               0                0               0
1.15182                0.9953642       -11.91476     0.0005207028        161.5793                0               0                0               0
1.15842                0.9952401       -12.01793      0.000546832        159.6812                0               0                0               0
1.16502                0.9951124       -12.12209     0.0005749598        157.6277                0               0                0               0
1.17162                0.9949804       -12.22728     0.0006050111         155.418                0               0                0               0
1.17822                0.9948432       -12.33348     0.0006368979         153.055                0               0                0               0
1.18482                0.9947006       -12.44072      0.000670523        150.5443                0               0                0               0
1.19142                0.9945519       -12.54898     0.0007057824        147.8936                0               0                0               0
1.19802                0.9943961       -12.65827     0.0007425672        145.1116                0               0                0               0
1.20462                0.9942333       -12.76858     0.0007807667        142.2082                0               0                0               0
1.21122                0.9940626        -12.8799     0.0008202682        139.1934                0               0                0               0
1.21782                0.9938839        -12.9922     0.0008609597        136.0773                0               0                0               0
1.22442                 0.993697       -13.10548     0.0009027298          132.87                0               0                0               0
1.23102                0.9935014       -13.21972     0.0009454687        129.5812                0               0                0               0
1.23762                 0.993297        -13.3349      0.000989069        126.2201                0               0                0               0
1.24422                0.9930841         -13.451      0.001033426        122.7955                0               0                0               0
1.25083                0.9928625         -13.568       0.00107844        119.3159                0               0                0               0
1.25743                0.9926326        -13.6859      0.001124014        115.7889                0               0                0               0
1.26403                0.9923944       -13.80469      0.001170055        112.2221                0               0                0               0
1.27063                0.9921484       -13.92436      0.001216477        108.6221                0               0                0               0
1.27723                 0.991895       -14.04491        0.0012632        104.9956                0               0                0               0
1.28383                0.9916344       -14.16634       0.00131015        101.3483                0               0                0               0
1.29043                0.9913672       -14.28867       0.00135726         97.6861                0               0                0               0
1.29703                0.9910938       -14.41192      0.001404471        94.01405                0               0                0               0
1.30363                0.9908149        -14.5361      0.001451733        90.33706                0               0                0               0
1.31023                0.9905304       -14.66125      0.001499006        86.65967                0               0                0               0
1.31683                0.9902412        -14.7874       0.00154626         82.9861                0               0                0               0
1.32343                0.9899476       -14.91459      0.001593475        79.32024                0               0                0               0
1.33003                0.9896495       -15.04287      0.001640642         75.6657                0               0                0               0
1.33663                0.9893475        -15.1723      0.001687768        72.02578                0               0                0               0
1.34323                0.9890414       -15.30292      0.001734867        68.40348                0               0                0               0
1.34984                0.9887314        -15.4348      0.001781971        64.80151                0               0                0               0
1.35644                0.9884175       -15.56799      0.001829123        61.22227                0               0                0               0
1.36304                0.9880992       -15.70256      0.001876382        57.66783                0               0                0               0
1.36964                0.9877765       -15.83857      0.001923819        54.13995                0               0                0               0
1.37624                0.9874488       -15.97608      0.001971521        50.64004                0               0                0               0
1.38284                0.9871156       -16.11516      0.002019589        47.16916                0               0                0               0
1.38944                0.9867762       -16.25585      0.002068135        43.72803                0               0                0               0
1.39604                  0.98643       -16.39821      0.002117287        40.31697                0               0                0               0
1.40264                0.9860764        -16.5423      0.002167185        36.93591                0               0                0               0
1.40924                0.9857142       -16.68815      0.002217978        33.58442                0               0                0               0
1.41584                0.9853428       -16.83582      0.002269827        30.26167                0               0                0               0
1.42244                 0.984961       -16.98533        0.0023229        26.96642                0               0                0               0
1.42904                0.9845683       -17.13672      0.002377373        23.69709                0               0                0               0
1.43564                0.9841635       -17.29001      0.002433426        20.45172                0               0                0               0
1.44224                0.9837456       -17.44523       0.00249124        17.22803                0               0                0               0
1.44884                0.9833141       -17.60239         0.002551        14.02343                0               0                0               0
1.45545                0.9828679       -17.76151      0.002612885        10.83509                0               0                0               0
1.46205                0.9824064       -17.92259      0.002677072        7.659934                0               0                0               0
1.46865                0.9819289       -18.08564      0.002743731        4.494758                0               0                0               0
1.47525                0.9814348       -18.25068      0.002813021        1.336237                0               0                0               0
1.48185                0.9809236        -18.4177      0.002885093       -1.818994                0               0                0               0
1.48845                0.9803948       -18.58671      0.002960083       -4.974285                0               0                0               0
1.49505                0.9798485       -18.75773      0.003038112       -8.132911                0               0                0               0
1.50165                 0.979284       -18.93076      0.003119285       -11.29802                0               0                0               0
1.50825                0.9787013       -19.10583      0.003203692       -14.47258                0               0                0               0
1.51485                0.9781003       -19.28296      0.003291401       -17.65932                0               0                0               0
1.52145                 0.977481       -19.46216      0.003382465       -20.86072                0               0                0               0
1.52805                0.9768434       -19.64349      0.003476917       -24.07897                0               0                0               0
1.53465                0.9761873       -19.82697      0.003574772       -27.31592                0               0                0               0
1.54125                 0.975513       -20.01266      0.003676029        -30.5731                0               0                0               0
1.54785                0.9748202       -20.20062      0.003780667       -33.85171                0               0                0               0
1.55446                0.9741091       -20.39092      0.003888654       -37.15262                0               0                0               0
1.56106                0.9733796       -20.58362      0.003999939       -40.47635                0               0                0               0
1.56766                0.9726313       -20.77881      0.004114463       -43.82313                0               0                0               0
1.57426                0.9718639       -20.97659      0.004232153       -47.19287                0               0                0               0
1.58086                0.9710771       -21.17704      0.004352929       -50.58522                0               0                0               0
1.58746                0.9702704       -21.38028      0.004476703       -53.99957                0               0                0               0
1.59406                0.9694429        -21.5864      0.004603385       -57.43509                0               0                0               0
1.60066                0.9685938       -21.79553      0.004732878       -60.89074                0               0                0               0
1.60726                 0.967722       -22.00778       0.00486509        -64.3653                0               0                0               0
1.61386                0.9668264       -22.22326      0.004999928       -67.85743                0               0                0               0
1.62046                0.9659053       -22.44209      0.005137304       -71.36564                0               0                0               0
1.62706                0.9649574        -22.6644      0.005277138       -74.88835                0               0                0               0
1.63366                0.9639808       -22.89029      0.005419357       -78.42393                0               0                0               0
1.64026                0.9629735       -23.11988      0.005563904       -81.97067                0               0                0               0
1.64686                0.9619334       -23.35327       0.00571073       -85.52686                0               0                0               0
1.65347                0.9608585       -23.59058      0.005859809       -89.09077                0               0                0               0
1.66007                 0.959746       -23.83188      0.006011125        -92.6607                0               0                0               0
1.66667                0.9585937       -24.07729      0.006164692       -96.23498                0               0                0               0
1.67327                0.9573989       -24.32687      0.006320538         -99.812                0               0                0               0
1.67987                0.9561591       -24.58072      0.006478723       -103.3902                0               0                0               0
1.68647                0.9548715       -24.83888      0.006639327       -106.9682                0               0                0               0
1.69307                0.9535332       -25.10143      0.006802462       -110.5447                0               0                0               0
1.69967                0.9521417       -25.36841      0.006968268       -114.1183                0               0                0               0
1.70627                0.9506939       -25.63989      0.007136915       -117.6881                0               0                0               0
1.71287                0.9491875        -25.9159      0.007308603       -121.2532                0               0                0               0
1.71947                0.9476194       -26.19646      0.007483568       -124.8128                0               0                0               0
1.72607                0.9459873       -26.48163      0.007662074       -128.3664                0               0                0               0
1.73267                0.9442884       -26.77143      0.007844419       -131.9136                0               0                0               0
1.73927                0.9425199       -27.06589      0.008030929       -135.4543                0               0                0               0
1.74587                0.9406796       -27.36503      0.008221966       -138.9885                0               0                0               0
1.75248                0.9387648       -27.66888      0.008417914       -142.5166                0               0                0               0
1.75908                0.9367733       -27.97747       0.00861919        -146.039                0               0                0               0
1.76568                0.9347026       -28.29084       0.00882623       -149.5565                0               0                0               0
1.77228                0.9325504       -28.60901      0.009039499       -153.0699                0               0                0               0
1.77888                0.9303141       -28.93203      0.009259468       -156.5806                0               0                0               0
1.78548                0.9279916       -29.25994      0.009486638       -160.0897                0               0                0               0
1.79208                0.9255803       -29.59281      0.009721505       -163.5989                0               0                0               0
1.79868                0.9230778       -29.93067      0.009964583       -167.1099                0               0                0               0
1.80528                0.9204814        -30.2736       0.01021638       -170.6245                0               0                0               0
1.81188                0.9177887       -30.62166        0.0104774       -174.1447                0               0                0               0
1.81848                0.9149967       -30.97493       0.01074814       -177.6726                0               0                0               0
1.82508                0.9121026       -31.33349       0.01102909        178.7897                0               0                0               0
1.83168                0.9091031       -31.69742       0.01132071        175.2399                0               0                0               0
1.83828                0.9059953       -32.06681       0.01162344        171.6759                0               0                0               0
1.84488                0.9027752       -32.44175        0.0119377        168.0955                0               0                0               0
1.85149                0.8994394       -32.82233       0.01226386        164.4965                0               0                0               0
