! TOUCHSTONE file generated by CST MICROWAVE STUDIO
! Date and time: Tue Mar 11 13:58:19 2025
! Project name: transverse.cst
! Parameters = {Fracture=1; B=12.5; D=160; F=15; Feed=2.85625; L=100; M=10; R=0.384908; S=2; Theta=270; length=57.125; wave=114.25}
! Header version: 2024
! Port assignment regex: !\s*Touchstone port\s*([0-9]+)\s*=\s*(CST MWS port|CST DES external port|CST DES block port)\s*(.+)\s* \(\"(.*)\"\)(\s*mode\s*([0-9]+))?.*
! Touchstone port assignment:
! Touchstone port 1 = CST MWS port 1 ("")
! Touchstone port 2 = CST MWS port 2 ("")
# GHz S MA R 50
1                      0.9978102       -10.00377     0.0003020835       -149.1029                0               0                0               0
1.00658                0.9977286       -10.09332     0.0003096944        -152.294                0               0                0               0
1.01316                0.9976428       -10.18336     0.0003169452       -155.4239                0               0                0               0
1.01974                0.9975528       -10.27386     0.0003238546       -158.4816                0               0                0               0
1.02632                0.9974592       -10.36482     0.0003304528        -161.457                0               0                0               0
1.03289                0.9973621       -10.45624     0.0003367825       -164.3405                0               0                0               0
1.03947                0.9972621       -10.54811     0.0003428997       -167.1233                0               0                0               0
1.04605                0.9971595       -10.64045     0.0003488747       -169.7981                0               0                0               0
1.05263                0.9970548       -10.73327     0.0003547923       -172.3585                0               0                0               0
1.05921                0.9969484       -10.82657     0.0003607525       -174.8002                0               0                0               0
1.06579                0.9968406       -10.92039     0.0003668698        -177.121                0               0                0               0
1.07237                0.9967318       -11.01474     0.0003732729        -179.321                0               0                0               0
1.07895                0.9966223       -11.10965     0.0003801031        178.5963                0               0                0               0
1.08553                0.9965123       -11.20515     0.0003875121        176.6244                0               0                0               0
1.09211                 0.996402       -11.30129     0.0003956593        174.7532                0               0                0               0
1.09868                0.9962914        -11.3981     0.0004047084        172.9693                0               0                0               0
1.10526                0.9961805       -11.49561     0.0004148226        171.2557                0               0                0               0
1.11184                0.9960694       -11.59387     0.0004261604        169.5929                0               0                0               0
1.11842                0.9959577       -11.69292     0.0004388708         167.959                0               0                0               0
1.125                  0.9958452       -11.79279     0.0004530889         166.331                0               0                0               0
1.13158                0.9957315       -11.89353     0.0004689321         164.686                0               0                0               0
1.13816                0.9956164       -11.99516     0.0004864969        163.0016                0               0                0               0
1.14474                0.9954991       -12.09772     0.0005058576        161.2573                0               0                0               0
1.15132                0.9953793       -12.20123     0.0005270652        159.4353                0               0                0               0
1.15789                0.9952562       -12.30572     0.0005501477        157.5208                0               0                0               0
1.16447                0.9951295       -12.41121     0.0005751115        155.5024                0               0                0               0
1.17105                0.9949982       -12.51771     0.0006019431         153.372                0               0                0               0
1.17763                0.9948618       -12.62522     0.0006306113        151.1248                0               0                0               0
1.18421                0.9947197       -12.73376       0.00066107        148.7587                0               0                0               0
1.19079                0.9945714       -12.84331     0.0006932602        146.2744                0               0                0               0
1.19737                0.9944161       -12.95388     0.0007271126        143.6744                0               0                0               0
1.20395                0.9942537       -13.06546     0.0007625492        140.9629                0               0                0               0
1.21053                0.9940833       -13.17803     0.0007994862        138.1453                0               0                0               0
1.21711                0.9939048       -13.29157     0.0008378347        135.2279                0               0                0               0
1.22368                0.9937181       -13.40608     0.0008775025        132.2175                0               0                0               0
1.23026                0.9935227       -13.52152     0.0009183954        129.1213                0               0                0               0
1.23684                0.9933188       -13.63789      0.000960418        125.9467                0               0                0               0
1.24342                0.9931061       -13.75517      0.001003475         122.701                0               0                0               0
1.25                    0.992885       -13.87334      0.001047473        119.3914                0               0                0               0
1.25658                0.9926555       -13.99238      0.001092317        116.0249                0               0                0               0
1.26316                0.9924179        -14.1123      0.001137919        112.6083                0               0                0               0
1.26974                0.9921726       -14.23308      0.001184191         109.148                0               0                0               0
1.27632                  0.99192       -14.35473      0.001231049        105.6502                0               0                0               0
1.28289                0.9916602       -14.47725      0.001278414        102.1209                0               0                0               0
1.28947                0.9913942       -14.60065      0.001326214        98.56562                0               0                0               0
1.29605                0.9911221       -14.72495       0.00137438        94.98958                0               0                0               0
1.30263                0.9908444       -14.85018      0.001422852        91.39777                0               0                0               0
1.30921                0.9905616       -14.97635      0.001471577        87.79485                0               0                0               0
1.31579                 0.990274       -15.10352      0.001520509        84.18519                0               0                0               0
1.32237                0.9899822       -15.23172      0.001569612         80.5729                0               0                0               0
1.32895                0.9896861         -15.361      0.001618859        76.96179                0               0                0               0
1.33553                0.9893862       -15.49141      0.001668235         73.3554                0               0                0               0
1.34211                0.9890825       -15.62301      0.001717732          69.757                0               0                0               0
1.34868                 0.988775       -15.75584      0.001767359        66.16959                0               0                0               0
1.35526                0.9884636       -15.88999      0.001817131        62.59588                0               0                0               0
1.36184                0.9881481        -16.0255      0.001867081        59.03831                0               0                0               0
1.36842                0.9878281       -16.16244       0.00191725        55.49904                0               0                0               0
1.375                  0.9875034       -16.30086      0.001967695        51.97991                0               0                0               0
1.38158                0.9871732       -16.44083      0.002018485        48.48249                0               0                0               0
1.38816                0.9868371       -16.58241      0.002069702          45.008                0               0                0               0
1.39474                0.9864942       -16.72564      0.002121441        41.55737                0               0                0               0
1.40132                0.9861439       -16.87058      0.002173808        38.13119                0               0                0               0
1.40789                0.9857853       -17.01727      0.002226923         34.7297                0               0                0               0
1.41447                0.9854175       -17.16576      0.002280916        31.35282                0               0                0               0
1.42105                0.9850396       -17.31607      0.002335924        28.00013                0               0                0               0
1.42763                0.9846507       -17.46824      0.002392098        24.67086                0               0                0               0
1.43421                  0.98425       -17.62229      0.002449592        21.36391                0               0                0               0
1.44079                0.9838363       -17.77825      0.002508565        18.07788                0               0                0               0
1.44737                0.9834092       -17.93613      0.002569185        14.81106                0               0                0               0
1.45395                0.9829677       -18.09594      0.002631615        11.56149                0               0                0               0
1.46053                 0.982511        -18.2577      0.002696024        8.326924                0               0                0               0
1.46711                0.9820387        -18.4214      0.002762574        5.104961                0               0                0               0
1.47368                0.9815498       -18.58706      0.002831426        1.893005                0               0                0               0
1.48026                0.9810443       -18.75469      0.002902732       -1.311649                0               0                0               0
1.48684                0.9805215       -18.92429      0.002976638       -4.511784                0               0                0               0
1.49342                0.9799813       -19.09587      0.003053279       -7.710203                0               0                0               0
1.5                    0.9794232       -19.26944      0.003132777       -10.90969                0               0                0               0
1.50658                0.9788473       -19.44502      0.003215243       -14.11295                0               0                0               0
1.51316                0.9782534       -19.62263      0.003300772       -17.32258                0               0                0               0
1.51974                0.9776415        -19.8023      0.003389445       -20.54102                0               0                0               0
1.52632                0.9770115       -19.98407      0.003481325       -23.77052                0               0                0               0
1.53289                0.9763635       -20.16797       0.00357646       -27.01308                0               0                0               0
1.53947                0.9756975       -20.35406      0.003674884       -30.27051                0               0                0               0
1.54605                0.9750135       -20.54239      0.003776611       -33.54429                0               0                0               0
1.55263                0.9743113       -20.73303      0.003881643       -36.83568                0               0                0               0
1.55921                 0.973591       -20.92605      0.003989965       -40.14563                0               0                0               0
1.56579                0.9728522       -21.12154       0.00410155       -43.47481                0               0                0               0
1.57237                0.9720947       -21.31958      0.004216361       -46.82363                0               0                0               0
1.57895                0.9713181       -21.52027      0.004334344       -50.19224                0               0                0               0
1.58553                0.9705216       -21.72371      0.004455442       -53.58051                0               0                0               0
1.59211                0.9697048       -21.93001       0.00457959       -56.98811                0               0                0               0
1.59868                0.9688667       -22.13927      0.004706714       -60.41447                0               0                0               0
1.60526                 0.968006       -22.35161      0.004836742       -63.85886                0               0                0               0
1.61184                0.9671219       -22.56714      0.004969598       -67.32035                0               0                0               0
1.61842                0.9662127       -22.78598      0.005105207       -70.79787                0               0                0               0
1.625                  0.9652768       -23.00825      0.005243497       -74.29022                0               0                0               0
1.63158                0.9643128       -23.23404      0.005384405       -77.79611                0               0                0               0
1.63816                0.9633184       -23.46348      0.005527872       -81.31417                0               0                0               0
1.64474                0.9622917       -23.69666       0.00567385       -84.84295                0               0                0               0
1.65132                0.9612306       -23.93369      0.005822307       -88.38099                0               0                0               0
1.65789                0.9601325       -24.17466      0.005973219       -91.92679                0               0                0               0
1.66447                0.9589953       -24.41965      0.006126585       -95.47888                0               0                0               0
1.67105                0.9578162       -24.66875      0.006282418        -99.0358                0               0                0               0
1.67763                0.9565929       -24.92202      0.006440757       -102.5961                0               0                0               0
1.68421                0.9553226       -25.17954      0.006601659       -106.1585                0               0                0               0
1.69079                0.9540027       -25.44137      0.006765209       -109.7216                0               0                0               0
1.69737                0.9526305       -25.70755      0.006931514       -113.2844                0               0                0               0
1.70395                0.9512035       -25.97813      0.007100714       -116.8456                0               0                0               0
1.71053                0.9497188       -26.25315      0.007272969       -120.4044                0               0                0               0
1.71711                0.9481741       -26.53266      0.007448479         -123.96                0               0                0               0
1.72368                0.9465665       -26.81667      0.007627464       -127.5117                0               0                0               0
1.73026                0.9448939       -27.10523       0.00781018       -131.0591                0               0                0               0
1.73684                0.9431536       -27.39835      0.007996911       -134.6018                0               0                0               0
1.74342                0.9413431       -27.69608      0.008187968       -138.1397                0               0                0               0
1.75                   0.9394602       -27.99844      0.008383695       -141.6729                0               0                0               0
1.75658                0.9375026       -28.30545       0.00858446       -145.2017                0               0                0               0
1.76316                0.9354679       -28.61717      0.008790657       -148.7266                0               0                0               0
1.76974                0.9333538       -28.93362      0.009002701       -152.2482                0               0                0               0
1.77632                0.9311582       -29.25484      0.009221032       -155.7674                0               0                0               0
1.78289                0.9288786        -29.5809        0.0094461       -159.2852                0               0                0               0
1.78947                0.9265127       -29.91184      0.009678371        -162.803                0               0                0               0
1.79605                0.9240582       -30.24772      0.009918327       -166.3221                0               0                0               0
1.80263                0.9215124       -30.58862       0.01016645       -169.8442                0               0                0               0
1.80921                0.9188729        -30.9346       0.01042321       -173.3709                0               0                0               0
1.81579                0.9161369       -31.28575       0.01068911        -176.904                0               0                0               0
1.82237                0.9133014       -31.64216        0.0109646        179.5545                0               0                0               0
1.82895                0.9103633        -32.0039       0.01125016        176.0027                0               0                0               0
1.83553                0.9073194       -32.37107        0.0115462        172.4385                0               0                0               0
1.84211                0.9041663       -32.74377       0.01185317          168.86                0               0                0               0
1.84868                0.9009002       -33.12209       0.01217143         165.265                0               0                0               0
