! TOUCHSTONE file generated by CST MICROWAVE STUDIO
! Date and time: Tue Mar 11 13:57:51 2025
! Project name: transverse.cst
! Parameters = {Fracture=5; B=10; D=160; F=5; Feed=2.85625; L=100; M=20; R=0.384908; S=1; Theta=270; length=57.125; wave=114.25}
! Header version: 2024
! Port assignment regex: !\s*Touchstone port\s*([0-9]+)\s*=\s*(CST MWS port|CST DES external port|CST DES block port)\s*(.+)\s* \(\"(.*)\"\)(\s*mode\s*([0-9]+))?.*
! Touchstone port assignment:
! Touchstone port 1 = CST MWS port 1 ("")
! Touchstone port 2 = CST MWS port 2 ("")
# GHz S MA R 50
1                      0.9979072       -9.752049     0.0003266875       -117.9416                0               0                0               0
1.00658                0.9978081        -9.84122     0.0003513185       -123.2394                0               0                0               0
1.01316                0.9977007       -9.930689      0.000375253       -128.5322                0               0                0               0
1.01974                0.9975857       -10.02041     0.0003983772       -133.8105                0               0                0               0
1.02632                0.9974642       -10.11034     0.0004205797       -139.0659                0               0                0               0
1.03289                0.9973374       -10.20045     0.0004417525       -144.2912                0               0                0               0
1.03947                0.9972064       -10.29071     0.0004617916       -149.4795                0               0                0               0
1.04605                0.9970724       -10.38113     0.0004805979       -154.6245                0               0                0               0
1.05263                0.9969369       -10.47171     0.0004980783       -159.7197                0               0                0               0
1.05921                0.9968011       -10.56247     0.0005141464       -164.7586                0               0                0               0
1.06579                0.9966662       -10.65345     0.0005287238       -169.7343                0               0                0               0
1.07237                0.9965335       -10.74468     0.0005417416       -174.6395                0               0                0               0
1.07895                 0.996404       -10.83624     0.0005531415       -179.4665                0               0                0               0
1.08553                0.9962787       -10.92818      0.000562877        175.7934                0               0                0               0
1.09211                0.9961583       -11.02059     0.0005709158        171.1495                0               0                0               0
1.09868                0.9960431       -11.11354     0.0005772413        166.6122                0               0                0               0
1.10526                0.9959338       -11.20714     0.0005818546        162.1929                0               0                0               0
1.11184                  0.99583       -11.30146     0.0005847775        157.9046                0               0                0               0
1.11842                0.9957321       -11.39662     0.0005860551        153.7615                0               0                0               0
1.125                  0.9956393       -11.49269     0.0005857584        149.7792                0               0                0               0
1.13158                0.9955511       -11.58977     0.0005839891        145.9752                0               0                0               0
1.13816                0.9954665       -11.68793     0.0005808829        142.3684                0               0                0               0
1.14474                0.9953847       -11.78727     0.0005766141         138.979                0               0                0               0
1.15132                0.9953044       -11.88783      0.000571401        135.8285                0               0                0               0
1.15789                0.9952243       -11.98968       0.00056551        132.9386                0               0                0               0
1.16447                0.9951428       -12.09286     0.0005592607        130.3302                0               0                0               0
1.17105                0.9950584       -12.19739     0.0005530284        128.0219                0               0                0               0
1.17763                0.9949696        -12.3033      0.000547246        126.0279                0               0                0               0
1.18421                0.9948748       -12.41059        0.0005424        124.3544                0               0                0               0
1.19079                0.9947726       -12.51923     0.0005390224        122.9971                0               0                0               0
1.19737                0.9946616       -12.62922     0.0005376746        121.9374                0               0                0               0
1.20395                0.9945404       -12.74051     0.0005389234        121.1398                0               0                0               0
1.21053                 0.994408       -12.85306     0.0005433096        120.5514                0               0                0               0
1.21711                0.9942633       -12.96682      0.000551313        120.1034                0               0                0               0
1.22368                0.9941058       -13.08172     0.0005633179        119.7162                0               0                0               0
1.23026                0.9939348        -13.1977      0.000579587        119.3062                0               0                0               0
1.23684                0.9937502       -13.31469     0.0006002476         118.794                0               0                0               0
1.24342                 0.993552       -13.43263     0.0006252929        118.1115                0               0                0               0
1.25                   0.9933403       -13.55144     0.0006545962        117.2064                0               0                0               0
1.25658                0.9931156       -13.67108     0.0006879338        116.0441                0               0                0               0
1.26316                0.9928787       -13.79148      0.000725011        114.6069                0               0                0               0
1.26974                0.9926303       -13.91262     0.0007654869        112.8912                0               0                0               0
1.27632                0.9923716       -14.03444     0.0008089951        110.9042                0               0                0               0
1.28289                0.9921037       -14.15694     0.0008551599        108.6609                0               0                0               0
1.28947                0.9918279       -14.28011      0.000903607        106.1808                0               0                0               0
1.29605                0.9915453       -14.40395     0.0009539704        103.4857                0               0                0               0
1.30263                0.9912576        -14.5285      0.001005897        100.5985                0               0                0               0
1.30921                0.9909657        -14.6538      0.001059049        97.54161                0               0                0               0
1.31579                0.9906712        -14.7799      0.001113103        94.33647                0               0                0               0
1.32237                0.9903749       -14.90686      0.001167753        91.00331                0               0                0               0
1.32895                 0.990078       -15.03478       0.00122271        87.56085                0               0                0               0
1.33553                 0.989781       -15.16374      0.001277699        84.02636                0               0                0               0
1.34211                0.9894846       -15.29386      0.001332462        80.41565                0               0                0               0
1.34868                 0.989189       -15.42523      0.001386758        76.74326                0               0                0               0
1.35526                0.9888942       -15.55799      0.001440362        73.02252                0               0                0               0
1.36184                   0.9886       -15.69224      0.001493067        69.26572                0               0                0               0
1.36842                0.9883058       -15.82811      0.001544684        65.48425                0               0                0               0
1.375                  0.9880108        -15.9657      0.001595044         61.6887                0               0                0               0
1.38158                 0.987714       -16.10515      0.001643999        57.88898                0               0                0               0
1.38816                0.9874139       -16.24655      0.001691423        54.09441                0               0                0               0
1.39474                 0.987109       -16.38998      0.001737215        50.31384                0               0                0               0
1.40132                0.9867978       -16.53555      0.001781302        46.55568                0               0                0               0
1.40789                0.9864779        -16.6833      0.001823637        42.82794                0               0                0               0
1.41447                0.9861478       -16.83331      0.001864205        39.13833                0               0                0               0
1.42105                 0.985805       -16.98561      0.001903026         35.4942                0               0                0               0
1.42763                0.9854478       -17.14021      0.001940155         31.9026                0               0                0               0
1.43421                0.9850738       -17.29714      0.001975683        28.37021                0               0                0               0
1.44079                0.9846812       -17.45638      0.002009745        24.90336                0               0                0               0
1.44737                0.9842679       -17.61791      0.002042517        21.50788                0               0                0               0
1.45395                0.9838323        -17.7817      0.002074221         18.1891                0               0                0               0
1.46053                 0.983373       -17.94769      0.002105125        14.95167                0               0                0               0
1.46711                0.9828884       -18.11584      0.002135544        11.79947                0               0                0               0
1.47368                0.9823776       -18.28609      0.002165838        8.735432                0               0                0               0
1.48026                0.9818398       -18.45835      0.002196416        5.761367                0               0                0               0
1.48684                0.9812745       -18.63258      0.002227729        2.877808                0               0                0               0
1.49342                0.9806815        -18.8087      0.002260269      0.08382276                0               0                0               0
1.5                    0.9800607       -18.98666      0.002294562       -2.623138                0               0                0               0
1.50658                0.9794126       -19.16639      0.002331161       -5.247356                0               0                0               0
1.51316                0.9787376       -19.34787      0.002370639       -7.794913                0               0                0               0
1.51974                0.9780365       -19.53104      0.002413577       -10.27368                0               0                0               0
1.52632                0.9773103       -19.71591      0.002460553       -12.69323                0               0                0               0
1.53289                0.9765599       -19.90248       0.00251213       -15.06466                0               0                0               0
1.53947                0.9757866       -20.09075      0.002568843       -17.40029                0               0                0               0
1.54605                0.9749914       -20.28077      0.002631188       -19.71332                0               0                0               0
1.55263                0.9741755        -20.4726      0.002699609       -22.01743                0               0                0               0
1.55921                  0.97334       -20.66632      0.002774492       -24.32628                0               0                0               0
1.56579                0.9724859       -20.86202      0.002856155       -26.65309                0               0                0               0
1.57237                0.9716137       -21.05982      0.002944847       -29.01024                0               0                0               0
1.57895                0.9707241       -21.25984      0.003040742       -31.40887                0               0                0               0
1.58553                0.9698173       -21.46225      0.003143945       -33.85867                0               0                0               0
1.59211                0.9688932       -21.66719      0.003254492       -36.36765                0               0                0               0
1.59868                0.9679514       -21.87482      0.003372357       -38.94208                0               0                0               0
1.60526                0.9669911       -22.08535      0.003497456       -41.58653                0               0                0               0
1.61184                0.9660111       -22.29892      0.003629658       -44.30388                0               0                0               0
1.61842                0.9650098       -22.51573       0.00376879       -47.09551                0               0                0               0
1.625                  0.9639853       -22.73595      0.003914645       -49.96145                0               0                0               0
1.63158                0.9629352       -22.95975      0.004066992       -52.90053                0               0                0               0
1.63816                0.9618568       -23.18727      0.004225581       -55.91064                0               0                0               0
1.64474                0.9607473       -23.41868      0.004390153       -58.98887                0               0                0               0
1.65132                0.9596032       -23.65409      0.004560443        -62.1317                0               0                0               0
1.65789                0.9584211       -23.89361       0.00473619       -65.33515                0               0                0               0
1.66447                0.9571975       -24.13734      0.004917139       -68.59494                0               0                0               0
1.67105                0.9559283       -24.38534      0.005103046       -71.90659                0               0                0               0
1.67763                0.9546099       -24.63766      0.005293688       -75.26554                0               0                0               0
1.68421                0.9532384       -24.89432      0.005488859        -78.6672                0               0                0               0
1.69079                0.9518099       -25.15534      0.005688383       -82.10707                0               0                0               0
1.69737                 0.950321       -25.42068      0.005892109       -85.58075                0               0                0               0
1.70395                0.9487679       -25.69032      0.006099922         -89.084                0               0                0               0
1.71053                0.9471476       -25.96419      0.006311741       -92.61279                0               0                0               0
1.71711                0.9454569       -26.24223      0.006527524       -96.16332                0               0                0               0
1.72368                0.9436934       -26.52436      0.006747272       -99.73204                0               0                0               0
1.73026                0.9418546       -26.81049      0.006971028       -103.3157                0               0                0               0
1.73684                0.9399386       -27.10052      0.007198883       -106.9112                0               0                0               0
1.74342                0.9379436       -27.39437      0.007430976        -110.516                0               0                0               0
1.75                   0.9358686       -27.69194      0.007667493       -114.1276                0               0                0               0
1.75658                0.9337126       -27.99315      0.007908672        -117.744                0               0                0               0
1.76316                0.9314749       -28.29793      0.008154803       -121.3635                0               0                0               0
1.76974                0.9291553       -28.60621      0.008406223       -124.9846                0               0                0               0
1.77632                0.9267539       -28.91797      0.008663322       -128.6063                0               0                0               0
1.78289                0.9242706       -29.23319      0.008926537       -132.2278                0               0                0               0
1.78947                0.9217057       -29.55186      0.009196351       -135.8489                0               0                0               0
1.79605                0.9190596       -29.87404      0.009473291       -139.4693                0               0                0               0
1.80263                0.9163324       -30.19978      0.009757921       -143.0894                0               0                0               0
1.80921                0.9135245       -30.52916       0.01005085       -146.7097                0               0                0               0
1.81579                0.9106359       -30.86231        0.0103527       -150.3311                0               0                0               0
1.82237                0.9076664       -31.19938       0.01066414       -153.9547                0               0                0               0
1.82895                0.9046154       -31.54054       0.01098585       -157.5819                0               0                0               0
1.83553                0.9014821       -31.88599       0.01131851       -161.2144                0               0                0               0
1.84211                 0.898265       -32.23595       0.01166281       -164.8539                0               0                0               0
1.84868                0.8949624       -32.59067       0.01201945       -168.5023                0               0                0               0
