! TOUCHSTONE file generated by CST MICROWAVE STUDIO
! Date and time: Tue Mar 11 13:57:57 2025
! Project name: transverse.cst
! Parameters = {Fracture=5; B=10; D=160; F=15; Feed=2.85625; L=100; M=30; R=0.384908; S=1; Theta=270; length=57.125; wave=114.25}
! Header version: 2024
! Port assignment regex: !\s*Touchstone port\s*([0-9]+)\s*=\s*(CST MWS port|CST DES external port|CST DES block port)\s*(.+)\s* \(\"(.*)\"\)(\s*mode\s*([0-9]+))?.*
! Touchstone port assignment:
! Touchstone port 1 = CST MWS port 1 ("")
! Touchstone port 2 = CST MWS port 2 ("")
# GHz S MA R 50
1                      0.9975039       -9.754991     0.0005023769        178.2467                0               0                0               0
1.00658                0.9974219       -9.840764     0.0005002262        172.3301                0               0                0               0
1.01316                0.9973418       -9.927058      0.000495936        166.5044                0               0                0               0
1.01974                0.9972636       -10.01393     0.0004894581        160.7769                0               0                0               0
1.02632                0.9971872       -10.10141      0.000480755        155.1572                0               0                0               0
1.03289                0.9971127       -10.18956     0.0004698009        149.6582                0               0                0               0
1.03947                0.9970397       -10.27843     0.0004565837        144.2969                0               0                0               0
1.04605                0.9969677       -10.36806     0.0004411076        139.0956                0               0                0               0
1.05263                0.9968964       -10.45849     0.0004233961        134.0842                0               0                0               0
1.05921                0.9968251       -10.54977      0.000403497        129.3027                0               0                0               0
1.06579                0.9967533       -10.64192       0.00038149        124.8056                0               0                0               0
1.07237                  0.99668       -10.73497     0.0003574975        120.6684                0               0                0               0
1.07895                0.9966048       -10.82895      0.000331703        116.9978                0               0                0               0
1.08553                0.9965264       -10.92386      0.000304381        113.9476                0               0                0               0
1.09211                0.9964442       -11.01973      0.000275949        111.7431                0               0                0               0
1.09868                0.9963576       -11.11654     0.0002470573        110.7186                0               0                0               0
1.10526                0.9962656        -11.2143     0.0002187485        111.3646                0               0                0               0
1.11184                0.9961675       -11.31298     0.0001927217        114.3531                0               0                0               0
1.11842                0.9960626       -11.41258     0.0001716794        120.4085                0               0                0               0
1.125                  0.9959504       -11.51306     0.0001594237        129.7223                0               0                0               0
1.13158                0.9958304       -11.61441     0.0001597894        140.9497                0               0                0               0
1.13816                0.9957023       -11.71659     0.0001742888        151.3489                0               0                0               0
1.14474                0.9955657       -11.81956      0.000201196        158.8523                0               0                0               0
1.15132                0.9954208        -11.9233      0.000237371        163.1371                0               0                0               0
1.15789                0.9952672       -12.02777     0.0002800655        164.8184                0               0                0               0
1.16447                0.9951055       -12.13293      0.000327372        164.6233                0               0                0               0
1.17105                0.9949357       -12.23876     0.0003780403        163.1177                0               0                0               0
1.17763                0.9947582       -12.34523     0.0004312326        160.6942                0               0                0               0
1.18421                0.9945737       -12.45233     0.0004863547        157.6185                0               0                0               0
1.19079                0.9943827       -12.56003     0.0005429566        154.0708                0               0                0               0
1.19737                0.9941858       -12.66834      0.000600674        150.1762                0               0                0               0
1.20395                0.9939839       -12.77725      0.000659195        146.0227                0               0                0               0
1.21053                0.9937777       -12.88677     0.0007182408        141.6744                0               0                0               0
1.21711                0.9935678       -12.99693     0.0007775536        137.1786                0               0                0               0
1.22368                0.9933552       -13.10775     0.0008368894        132.5711                0               0                0               0
1.23026                0.9931404       -13.21927     0.0008960141        127.8795                0               0                0               0
1.23684                0.9929241       -13.33153     0.0009547009        123.1259                0               0                0               0
1.24342                0.9927069       -13.44458      0.001012729        118.3276                0               0                0               0
1.25                   0.9924892       -13.55848      0.001069883        113.4994                0               0                0               0
1.25658                0.9922713        -13.6733      0.001125953        108.6533                0               0                0               0
1.26316                0.9920535        -13.7891      0.001180737        103.7999                0               0                0               0
1.26974                0.9918356       -13.90596      0.001234037        98.94834                0               0                0               0
1.27632                0.9916175       -14.02395      0.001285664        94.10685                0               0                0               0
1.28289                 0.991399       -14.14316      0.001335441        89.28297                0               0                0               0
1.28947                0.9911797       -14.26363      0.001383197        84.48377                0               0                0               0
1.29605                0.9909587       -14.38546      0.001428779        79.71598                0               0                0               0
1.30263                0.9907354        -14.5087      0.001472043        74.98613                0               0                0               0
1.30921                0.9905089       -14.63342      0.001512865        70.30066                0               0                0               0
1.31579                 0.990278       -14.75967       0.00155114        65.66604                0               0                0               0
1.32237                0.9900418       -14.88749      0.001586784        61.08878                0               0                0               0
1.32895                 0.989799       -15.01693      0.001619734        56.57558                0               0                0               0
1.33553                0.9895484       -15.14801      0.001649961        52.13328                0               0                0               0
1.34211                0.9892886       -15.28075       0.00167746        47.76898                0               0                0               0
1.34868                0.9890187       -15.41516      0.001702263        43.49001                0               0                0               0
1.35526                0.9887371       -15.55124      0.001724442        39.30392                0               0                0               0
1.36184                0.9884428       -15.68899      0.001744107        35.21851                0               0                0               0
1.36842                0.9881349       -15.82838      0.001761416        31.24171                0               0                0               0
1.375                  0.9878124        -15.9694       0.00177658        27.38153                0               0                0               0
1.38158                0.9874745       -16.11201      0.001789862        23.64591                0               0                0               0
1.38816                0.9871205       -16.25618      0.001801585         20.0425                0               0                0               0
1.39474                  0.98675       -16.40188      0.001812135        16.57842                0               0                0               0
1.40132                0.9863627       -16.54907      0.001821964        13.25994                0               0                0               0
1.40789                0.9859586       -16.69772      0.001831591        10.09204                0               0                0               0
1.41447                0.9855375       -16.84779      0.001841602        7.077917                0               0                0               0
1.42105                   0.9851       -16.99926      0.001852645        4.218488                0               0                0               0
1.42763                0.9846461        -17.1521      0.001865429        1.511791                0               0                0               0
1.43421                0.9841767       -17.30629      0.001880709       -1.047547                0               0                0               0
1.44079                0.9836922       -17.46185      0.001899276       -3.468757                0               0                0               0
1.44737                0.9831932       -17.61877      0.001921936       -5.765205                0               0                0               0
1.45395                0.9826809       -17.77707       0.00194949       -7.954425                0               0                0               0
1.46053                0.9821558       -17.93679      0.001982708       -10.05781                0               0                0               0
1.46711                0.9816188       -18.09796      0.002022308           -12.1                0               0                0               0
1.47368                0.9810706       -18.26065      0.002068924       -14.10787                0               0                0               0
1.48026                0.9805121       -18.42492      0.002123095       -16.10936                0               0                0               0
1.48684                0.9799435       -18.59086       0.00218524       -18.13209                0               0                0               0
1.49342                0.9793656       -18.75855      0.002255651        -20.2021                0               0                0               0
1.5                    0.9787784       -18.92812      0.002334495        -22.3427                0               0                0               0
1.50658                0.9781821       -19.09965      0.002421813       -24.57363                0               0                0               0
1.51316                0.9775763       -19.27328      0.002517529       -26.91057                0               0                0               0
1.51974                0.9769609       -19.44913      0.002621465       -29.36499                0               0                0               0
1.52632                0.9763349       -19.62733      0.002733356       -31.94428                0               0                0               0
1.53289                0.9756976       -19.80799      0.002852865       -34.65213                0               0                0               0
1.53947                0.9750476       -19.99125      0.002979596       -37.48898                0               0                0               0
1.54605                0.9743837       -20.17723      0.003113114       -40.45266                0               0                0               0
1.55263                0.9737041       -20.36605      0.003252951       -43.53888                0               0                0               0
1.55921                0.9730067        -20.5578      0.003398617       -46.74178                0               0                0               0
1.56579                0.9722899       -20.75259      0.003549614        -50.0544                0               0                0               0
1.57237                 0.971551        -20.9505      0.003705438       -53.46903                0               0                0               0
1.57895                0.9707877        -21.1516      0.003865583       -56.97758                0               0                0               0
1.58553                0.9699978       -21.35596      0.004029554       -60.57175                0               0                0               0
1.59211                0.9691787       -21.56362      0.004196861       -64.24324                0               0                0               0
1.59868                0.9683277        -21.7746       0.00436703       -67.98392                0               0                0               0
1.60526                0.9674425       -21.98892      0.004539603       -71.78585                0               0                0               0
1.61184                0.9665207       -22.20658      0.004714138       -75.64141                0               0                0               0
1.61842                0.9655601       -22.42757      0.004890219       -79.54325                0               0                0               0
1.625                  0.9645583       -22.65187       0.00506745        -83.4844                0               0                0               0
1.63158                0.9635137       -22.87944      0.005245467        -87.4582                0               0                0               0
1.63816                0.9624245       -23.11024      0.005423933       -91.45834                0               0                0               0
1.64474                0.9612891       -23.34423      0.005602544       -95.47883                0               0                0               0
1.65132                0.9601063       -23.58136      0.005781035       -99.51401                0               0                0               0
1.65789                0.9588754       -23.82159       0.00595918       -103.5585                0               0                0               0
1.66447                0.9575954       -24.06485      0.006136797       -107.6072                0               0                0               0
1.67105                 0.956266       -24.31113      0.006313749       -111.6554                0               0                0               0
1.67763                 0.954887       -24.56037      0.006489954       -115.6985                0               0                0               0
1.68421                0.9534583       -24.81258      0.006665383       -119.7324                0               0                0               0
1.69079                0.9519803       -25.06774      0.006840064        -123.753                0               0                0               0
1.69737                0.9504531       -25.32586      0.007014092       -127.7567                0               0                0               0
1.70395                0.9488773       -25.58697      0.007187625         -131.74                0               0                0               0
1.71053                0.9472534       -25.85113      0.007360892       -135.7001                0               0                0               0
1.71711                0.9455819        -26.1184      0.007534198        -139.634                0               0                0               0
1.72368                0.9438632       -26.38887      0.007707917       -143.5395                0               0                0               0
1.73026                0.9420976       -26.66267      0.007882506       -147.4146                0               0                0               0
1.73684                0.9402855       -26.93992      0.008058499       -151.2575                0               0                0               0
1.74342                0.9384268       -27.22078      0.008236512       -155.0673                0               0                0               0
1.75                   0.9365211       -27.50544      0.008417235       -158.8432                0               0                0               0
1.75658                0.9345681       -27.79408      0.008601438       -162.5852                0               0                0               0
1.76316                0.9325666       -28.08694      0.008789964       -166.2935                0               0                0               0
1.76974                0.9305155       -28.38421      0.008983724       -169.9692                0               0                0               0
1.77632                0.9284127       -28.68615      0.009183688       -173.6139                0               0                0               0
1.78289                0.9262565         -28.993      0.009390887       -177.2295                0               0                0               0
1.78947                0.9240437         -29.305      0.009606389         179.181                0               0                0               0
1.79605                0.9217716       -29.62242        0.0098313        175.6146                0               0                0               0
1.80263                0.9194364        -29.9455       0.01006674        172.0672                0               0                0               0
1.80921                0.9170342       -30.27447       0.01031385        168.5346                0               0                0               0
1.81579                0.9145606       -30.60957       0.01057375        165.0122                0               0                0               0
1.82237                0.9120106       -30.95103       0.01084753        161.4947                0               0                0               0
1.82895                0.9093791       -31.29905       0.01113628        157.9769                0               0                0               0
1.83553                0.9066606       -31.65381       0.01144099        154.4532                0               0                0               0
1.84211                0.9038494       -32.01549       0.01176262        150.9182                0               0                0               0
1.84868                0.9009394       -32.38423       0.01210205        147.3663                0               0                0               0
