! TOUCHSTONE file generated by CST MICROWAVE STUDIO
! Date and time: Tue Mar 11 13:56:38 2025
! Project name: transverse.cst
! Parameters = {Fracture=5; B=10; D=160; F=15; Feed=2.85625; L=100; M=20; R=0.384908; S=2; Theta=90; length=57.125; wave=114.25}
! Header version: 2024
! Port assignment regex: !\s*Touchstone port\s*([0-9]+)\s*=\s*(CST MWS port|CST DES external port|CST DES block port)\s*(.+)\s* \(\"(.*)\"\)(\s*mode\s*([0-9]+))?.*
! Touchstone port assignment:
! Touchstone port 1 = CST MWS port 1 ("")
! Touchstone port 2 = CST MWS port 2 ("")
# GHz S MA R 50
1                      0.9977299       -9.741511     0.0004057863       -166.8717                0               0                0               0
1.00658                0.9976448       -9.828737     0.0004073979       -171.1637                0               0                0               0
1.01316                0.9975568       -9.916434     0.0004079218       -175.3088                0               0                0               0
1.01974                0.9974662       -10.00461     0.0004074035       -179.2916                0               0                0               0
1.02632                0.9973736       -10.09327     0.0004059085        176.9047                0               0                0               0
1.03289                0.9972788       -10.18241     0.0004035251        173.2987                0               0                0               0
1.03947                0.9971824       -10.27207     0.0004003679        169.9105                0               0                0               0
1.04605                0.9970843       -10.36225      0.000396581        166.7615                0               0                0               0
1.05263                 0.996985       -10.45297      0.000392342        163.8735                0               0                0               0
1.05921                0.9968846       -10.54425     0.0003878653        161.2682                0               0                0               0
1.06579                0.9967832       -10.63613     0.0003834048        158.9648                0               0                0               0
1.07237                 0.996681       -10.72862     0.0003792552        156.9787                0               0                0               0
1.07895                0.9965778       -10.82176     0.0003757513        155.3179                0               0                0               0
1.08553                0.9964737       -10.91557     0.0003732623        153.9799                0               0                0               0
1.09211                0.9963687       -11.01008     0.0003721822        152.9479                0               0                0               0
1.09868                0.9962624       -11.10533     0.0003729137        152.1883                0               0                0               0
1.10526                0.9961549       -11.20134     0.0003758468        151.6493                0               0                0               0
1.11184                0.9960458       -11.29814      0.000381334        151.2622                0               0                0               0
1.11842                0.9959347       -11.39576     0.0003896651        150.9462                0               0                0               0
1.125                  0.9958214       -11.49422     0.0004010474        150.6155                0               0                0               0
1.13158                0.9957054       -11.59355     0.0004155945        150.1874                0               0                0               0
1.13816                0.9955864       -11.69375     0.0004333248        149.5903                0               0                0               0
1.14474                0.9954638       -11.79485     0.0004541712        148.7685                0               0                0               0
1.15132                0.9953374       -11.89687     0.0004779962        147.6845                0               0                0               0
1.15789                0.9952063        -11.9998       0.00050461        146.3185                0               0                0               0
1.16447                0.9950706       -12.10365     0.0005337889        144.6654                0               0                0               0
1.17105                0.9949293       -12.20843     0.0005652893         142.732                0               0                0               0
1.17763                0.9947825       -12.31414     0.0005988602        140.5326                0               0                0               0
1.18421                0.9946296       -12.42078     0.0006342498        138.0869                0               0                0               0
1.19079                0.9944704       -12.52834     0.0006712117         135.417                0               0                0               0
1.19737                0.9943046       -12.63681     0.0007095072        132.5456                0               0                0               0
1.20395                0.9941317       -12.74619     0.0007489065        129.4956                0               0                0               0
1.21053                 0.993952       -12.85647       0.00078919        126.2887                0               0                0               0
1.21711                0.9937651       -12.96764     0.0008301479         122.945                0               0                0               0
1.22368                0.9935713        -13.0797     0.0008715796        119.4833                0               0                0               0
1.23026                0.9933702       -13.19264     0.0009132941        115.9209                0               0                0               0
1.23684                0.9931622       -13.30646     0.0009551097        112.2734                0               0                0               0
1.24342                0.9929472       -13.42115     0.0009968532        108.5551                0               0                0               0
1.25                   0.9927255       -13.53673      0.001038361        104.7791                0               0                0               0
1.25658                0.9924973       -13.65319       0.00107948        100.9574                0               0                0               0
1.26316                0.9922628       -13.77054      0.001120064        97.10088                0               0                0               0
1.26974                0.9920222        -13.8888      0.001159981        93.21972                0               0                0               0
1.27632                0.9917757       -14.00798      0.001199107        89.32332                0               0                0               0
1.28289                0.9915238        -14.1281      0.001237333        85.42046                0               0                0               0
1.28947                0.9912663       -14.24919       0.00127456        81.51942                0               0                0               0
1.29605                0.9910037       -14.37128      0.001310706        77.62801                0               0                0               0
1.30263                0.9907359        -14.4944      0.001345705        73.75368                0               0                0               0
1.30921                0.9904632       -14.61858      0.001379505        69.90353                0               0                0               0
1.31579                0.9901855       -14.74386      0.001412077        66.08439                0               0                0               0
1.32237                0.9899029       -14.87028      0.001443409        62.30282                0               0                0               0
1.32895                0.9896152       -14.99788      0.001473512        58.56514                0               0                0               0
1.33553                0.9893223       -15.12671      0.001502422        54.87741                0               0                0               0
1.34211                0.9890239       -15.25681      0.001530198         51.2454                0               0                0               0
1.34868                0.9887199       -15.38821      0.001556929        47.67461                0               0                0               0
1.35526                0.9884097       -15.52097      0.001582731        44.17013                0               0                0               0
1.36184                0.9880932       -15.65511      0.001607751        40.73665                0               0                0               0
1.36842                0.9877697       -15.79068      0.001632166         37.3783                0               0                0               0
1.375                  0.9874388       -15.92771      0.001656187        34.09859                0               0                0               0
1.38158                0.9871001       -16.06624      0.001680056        30.90023                0               0                0               0
1.38816                0.9867528        -16.2063      0.001704048        27.78507                0               0                0               0
1.39474                0.9863965       -16.34791      0.001728467        24.75382                0               0                0               0
1.40132                0.9860306        -16.4911      0.001753649        21.80605                0               0                0               0
1.40789                0.9856545        -16.6359      0.001779952        18.93993                0               0                0               0
1.41447                0.9852679       -16.78232      0.001807758        16.15219                0               0                0               0
1.42105                  0.98487       -16.93037      0.001837465        13.43798                0               0                0               0
1.42763                0.9844605       -17.08008      0.001869482        10.79091                0               0                0               0
1.43421                0.9840391       -17.23146      0.001904218        8.203032                0               0                0               0
1.44079                0.9836052       -17.38452      0.001942078         5.66498                0               0                0               0
1.44737                0.9831587       -17.53929      0.001983453         3.16615                0               0                0               0
1.45395                0.9826992       -17.69577      0.002028712       0.6949696                0               0                0               0
1.46053                0.9822267       -17.85398      0.002078193       -1.760789                0               0                0               0
1.46711                0.9817408       -18.01395      0.002132197       -4.213633                0               0                0               0
1.47368                0.9812417       -18.17569       0.00219098       -6.675963                0               0                0               0
1.48026                0.9807291       -18.33923      0.002254751       -9.159696                0               0                0               0
1.48684                0.9802032       -18.50462      0.002323668       -11.67593                0               0                0               0
1.49342                0.9796638       -18.67187      0.002397835       -14.23464                0               0                0               0
1.5                    0.9791111       -18.84105      0.002477307       -16.84448                0               0                0               0
1.50658                0.9785449        -19.0122      0.002562087       -19.51262                0               0                0               0
1.51316                0.9779654       -19.18536      0.002652132        -22.2447                0               0                0               0
1.51974                0.9773724       -19.36062      0.002747357       -25.04484                0               0                0               0
1.52632                0.9767658       -19.53802      0.002847638        -27.9157                0               0                0               0
1.53289                0.9761454       -19.71765      0.002952818       -30.85856                0               0                0               0
1.53947                 0.975511        -19.8996      0.003062713       -33.87351                0               0                0               0
1.54605                0.9748621       -20.08393      0.003177114       -36.95957                0               0                0               0
1.55263                0.9741984       -20.27075      0.003295795       -40.11487                0               0                0               0
1.55921                0.9735191       -20.46015      0.003418515        -43.3368                0               0                0               0
1.56579                0.9728237       -20.65222      0.003545026       -46.62213                0               0                0               0
1.57237                0.9721111       -20.84707      0.003675072       -49.96723                0               0                0               0
1.57895                0.9713804       -21.04479      0.003808395       -53.36808                0               0                0               0
1.58553                0.9706305       -21.24548       0.00394474       -56.82045                0               0                0               0
1.59211                0.9698599       -21.44925      0.004083856       -60.31996                0               0                0               0
1.59868                0.9690674       -21.65619        0.0042255       -63.86216                0               0                0               0
1.60526                0.9682512        -21.8664       0.00436944       -67.44258                0               0                0               0
1.61184                  0.96741       -22.07997      0.004515455       -71.05677                0               0                0               0
1.61842                0.9665415       -22.29699      0.004663344       -74.70038                0               0                0               0
1.625                  0.9656442       -22.51754      0.004812921       -78.36915                0               0                0               0
1.63158                0.9647158        -22.7417      0.004964024       -82.05893                0               0                0               0
1.63816                0.9637545       -22.96954      0.005116516       -85.76574                0               0                0               0
1.64474                0.9627581       -23.20113      0.005270283       -89.48576                0               0                0               0
1.65132                0.9617247       -23.43653      0.005425243       -93.21534                0               0                0               0
1.65789                 0.960652       -23.67579      0.005581344       -96.95103                0               0                0               0
1.66447                0.9595378       -23.91897      0.005738571       -100.6896                0               0                0               0
1.67105                  0.95838       -24.16611      0.005896939       -104.4279                0               0                0               0
1.67763                0.9571766       -24.41725      0.006056508       -108.1633                0               0                0               0
1.68421                0.9559256       -24.67244      0.006217377       -111.8931                0               0                0               0
1.69079                0.9546249        -24.9317      0.006379684        -115.615                0               0                0               0
1.69737                0.9532725       -25.19507      0.006543614       -119.3269                0               0                0               0
1.70395                0.9518667       -25.46259      0.006709395       -123.0271                0               0                0               0
1.71053                0.9504055        -25.7343      0.006877304       -126.7141                0               0                0               0
1.71711                0.9488873       -26.01022       0.00704766       -130.3867                0               0                0               0
1.72368                0.9473102       -26.29041       0.00722083        -134.044                0               0                0               0
1.73026                0.9456726       -26.57491      0.007397227       -137.6855                0               0                0               0
1.73684                0.9439728       -26.86378      0.007577306       -141.3111                0               0                0               0
1.74342                0.9422093       -27.15706      0.007761564       -144.9209                0               0                0               0
1.75                   0.9403803       -27.45484      0.007950539       -148.5155                0               0                0               0
1.75658                0.9384841       -27.75718      0.008144803       -152.0958                0               0                0               0
1.76316                 0.936519       -28.06417      0.008344957       -155.6629                0               0                0               0
1.76974                0.9344831       -28.37589      0.008551632       -159.2186                0               0                0               0
1.77632                0.9323745       -28.69246      0.008765477       -162.7648                0               0                0               0
1.78289                0.9301912       -29.01398      0.008987158       -166.3036                0               0                0               0
1.78947                0.9279308       -29.34057      0.009217345       -169.8377                0               0                0               0
1.79605                0.9255911       -29.67236      0.009456711       -173.3698                0               0                0               0
1.80263                0.9231695       -30.00948      0.009705921       -176.9028                0               0                0               0
1.80921                 0.920663       -30.35208      0.009965627          179.56                0               0                0               0
1.81579                0.9180686        -30.7003       0.01023646        176.0156                0               0                0               0
1.82237                 0.915383        -31.0543       0.01051901        172.4605                0               0                0               0
1.82895                0.9126026       -31.41421       0.01081385        168.8914                0               0                0               0
1.83553                0.9097235       -31.78021        0.0111215        165.3052                0               0                0               0
1.84211                0.9067416       -32.15245       0.01144242        161.6985                0               0                0               0
1.84868                0.9036523       -32.53106       0.01177705        158.0685                0               0                0               0
