! TOUCHSTONE file generated by CST MICROWAVE STUDIO
! Date and time: Tue Mar 11 13:57:10 2025
! Project name: transverse.cst
! Parameters = {Fracture=1; B=10; D=160; F=5; Feed=2.85625; L=100; M=10; R=0.384908; S=2; Theta=180; length=57.125; wave=114.25}
! Header version: 2024
! Port assignment regex: !\s*Touchstone port\s*([0-9]+)\s*=\s*(CST MWS port|CST DES external port|CST DES block port)\s*(.+)\s* \(\"(.*)\"\)(\s*mode\s*([0-9]+))?.*
! Touchstone port assignment:
! Touchstone port 1 = CST MWS port 1 ("")
! Touchstone port 2 = CST MWS port 2 ("")
# GHz S MA R 50
1                      0.9978644       -10.02066      0.000274714       -128.1188                0               0                0               0
1.0066                 0.9977806       -10.11135     0.0002934804       -132.0349                0               0                0               0
1.0132                 0.9976899       -10.20247     0.0003117308       -136.0941                0               0                0               0
1.0198                 0.9975932       -10.29398      0.000329338         -140.26                0               0                0               0
1.0264                 0.9974908       -10.38585     0.0003461834       -144.5029                0               0                0               0
1.033                  0.9973835       -10.47806     0.0003621561       -148.7981                0               0                0               0
1.0396                 0.9972721        -10.5706     0.0003771527       -153.1246                0               0                0               0
1.0462                 0.9971575       -10.66344     0.0003910776        -157.464                0               0                0               0
1.05281                0.9970407        -10.7566     0.0004038424       -161.7997                0               0                0               0
1.05941                0.9969224       -10.85009     0.0004153677       -166.1162                0               0                0               0
1.06601                0.9968038       -10.94392     0.0004255831       -170.3989                0               0                0               0
1.07261                0.9966856       -11.03814     0.0004344285       -174.6333                0               0                0               0
1.07921                0.9965687       -11.13278     0.0004418553       -178.8049                0               0                0               0
1.08581                0.9964537       -11.22788     0.0004478283        177.1014                0               0                0               0
1.09241                0.9963414       -11.32352     0.0004523271        173.1015                0               0                0               0
1.09901                0.9962321       -11.41974     0.0004553483        169.2122                0               0                0               0
1.10561                0.9961261       -11.51663     0.0004569085        165.4519                0               0                0               0
1.11221                0.9960236       -11.61425     0.0004570469        161.8409                0               0                0               0
1.11881                0.9959246       -11.71267     0.0004558293        158.4012                0               0                0               0
1.12541                0.9958287       -11.81197     0.0004533519        155.1569                0               0                0               0
1.13201                0.9957357       -11.91223     0.0004497469        152.1348                0               0                0               0
1.13861                0.9956449       -12.01351     0.0004451876        149.3631                0               0                0               0
1.14521                0.9955555       -12.11587     0.0004398947        146.8721                0               0                0               0
1.15182                0.9954667       -12.21938     0.0004341432        144.6922                0               0                0               0
1.15842                0.9953775       -12.32409     0.0004282678        142.8526                0               0                0               0
1.16502                0.9952867       -12.43004     0.0004226678        141.3781                0               0                0               0
1.17162                0.9951932       -12.53727     0.0004178074        140.2855                0               0                0               0
1.17822                0.9950957       -12.64579      0.000414211        139.5777                0               0                0               0
1.18482                0.9949929       -12.75562      0.000412449        139.2389                0               0                0               0
1.19142                0.9948837       -12.86677     0.0004131133         139.229                0               0                0               0
1.19802                0.9947667       -12.97922     0.0004167811        139.4813                0               0                0               0
1.20462                0.9946409       -13.09295     0.0004239727        139.9046                0               0                0               0
1.21122                0.9945053       -13.20795     0.0004351078        140.3906                0               0                0               0
1.21782                0.9943588       -13.32417     0.0004504727         140.826                0               0                0               0
1.22442                0.9942008       -13.44158     0.0004702047        141.1051                0               0                0               0
1.23102                0.9940307       -13.56014      0.000494297        141.1416                0               0                0               0
1.23762                 0.993848       -13.67978     0.0005226197        140.8744                0               0                0               0
1.24422                0.9936525       -13.80047     0.0005549507         140.269                0               0                0               0
1.25083                0.9934442       -13.92216     0.0005910076        139.3139                0               0                0               0
1.25743                0.9932231       -14.04479     0.0006304755        138.0156                0               0                0               0
1.26403                0.9929897       -14.16832     0.0006730279        136.3928                0               0                0               0
1.27063                0.9927442       -14.29272     0.0007183415        134.4717                0               0                0               0
1.27723                0.9924876       -14.41796     0.0007661044        132.2818                0               0                0               0
1.28383                0.9922204       -14.54401      0.000816021        129.8535                0               0                0               0
1.29043                0.9919435       -14.67086     0.0008678141        127.2165                0               0                0               0
1.29703                0.9916578       -14.79852     0.0009212249        124.3987                0               0                0               0
1.30363                0.9913643       -14.92699     0.0009760132        121.4256                0               0                0               0
1.31023                 0.991064       -15.05629      0.001031956        118.3204                0               0                0               0
1.31683                0.9907578       -15.18647      0.001088848         115.104                0               0                0               0
1.32343                0.9904466       -15.31756      0.001146501        111.7951                0               0                0               0
1.33003                0.9901312       -15.44963      0.001204741        108.4104                0               0                0               0
1.33663                0.9898121       -15.58274      0.001263412        104.9647                0               0                0               0
1.34323                0.9894901       -15.71697      0.001322376        101.4714                0               0                0               0
1.34984                0.9891653        -15.8524      0.001381509        97.94237                0               0                0               0
1.35644                0.9888379       -15.98912      0.001440708        94.38832                0               0                0               0
1.36304                 0.988508       -16.12723      0.001499887        90.81884                0               0                0               0
1.36964                0.9881752       -16.26682      0.001558981         87.2426                0               0                0               0
1.37624                0.9878389       -16.40799      0.001617946        83.66739                0               0                0               0
1.38284                0.9874986       -16.55083       0.00167676         80.1002                0               0                0               0
1.38944                0.9871534       -16.69543      0.001735425        76.54733                0               0                0               0
1.39604                0.9868019       -16.84189      0.001793967        73.01438                0               0                0               0
1.40264                0.9864431       -16.99026      0.001852439         69.5063                0               0                0               0
1.40924                0.9860756       -17.14062       0.00191092        66.02739                0               0                0               0
1.41584                0.9856977       -17.29304      0.001969517        62.58133                0               0                0               0
1.42244                0.9853078       -17.44756      0.002028364        59.17115                0               0                0               0
1.42904                0.9849043       -17.60421      0.002087626        55.79922                0               0                0               0
1.43564                0.9844855       -17.76301      0.002147493        52.46722                0               0                0               0
1.44224                0.9840496       -17.92398      0.002208184        49.17614                0               0                0               0
1.44884                0.9835951       -18.08712      0.002269943        45.92626                0               0                0               0
1.45545                0.9831204       -18.25241      0.002333041        42.71712                0               0                0               0
1.46205                0.9826241       -18.41983      0.002397769        39.54751                0               0                0               0
1.46865                 0.982105       -18.58935      0.002464439         36.4155                0               0                0               0
1.47525                0.9815619       -18.76094      0.002533375        33.31843                0               0                0               0
1.48185                 0.980994       -18.93456      0.002604918        30.25296                0               0                0               0
1.48845                0.9804006       -19.11015      0.002679413        27.21511                0               0                0               0
1.49505                0.9797812       -19.28767      0.002757209        24.20037                0               0                0               0
1.50165                0.9791356       -19.46709       0.00283865        21.20372                0               0                0               0
1.50825                0.9784637       -19.64835      0.002924076        18.21981                0               0                0               0
1.51485                0.9777658       -19.83143       0.00301381        15.24303                0               0                0               0
1.52145                0.9770421        -20.0163       0.00310816        12.26765                0               0                0               0
1.52805                0.9762932       -20.20295      0.003207412        9.287957                0               0                0               0
1.53465                0.9755197       -20.39137      0.003311825         6.29835                0               0                0               0
1.54125                0.9747224       -20.58157      0.003421628        3.293503                0               0                0               0
1.54785                0.9739023       -20.77358      0.003537022       0.2684329                0               0                0               0
1.55446                0.9730598       -20.96744      0.003658169        -2.78139                0               0                0               0
1.56106                0.9721959       -21.16321      0.003785201       -5.859987                0               0                0               0
1.56766                0.9713114       -21.36096      0.003918214       -8.970811                0               0                0               0
1.57426                 0.970407       -21.56078      0.004057269       -12.11672                0               0                0               0
1.58086                0.9694831       -21.76278      0.004202398       -15.29998                0               0                0               0
1.58746                  0.96854       -21.96707      0.004353596       -18.52224                0               0                0               0
1.59406                0.9675776       -22.17378      0.004510833       -21.78459                0               0                0               0
1.60066                0.9665961       -22.38306      0.004674052       -25.08758                0               0                0               0
1.60726                0.9655945       -22.59506       0.00484317       -28.43124                0               0                0               0
1.61386                0.9645723       -22.80992      0.005018085       -31.81518                0               0                0               0
1.62046                0.9635285       -23.02783       0.00519868       -35.23857                0               0                0               0
1.62706                0.9624615       -23.24892      0.005384817       -38.70028                0               0                0               0
1.63366                0.9613694       -23.47335      0.005576351       -42.19883                0               0                0               0
1.64026                0.9602506       -23.70129      0.005773131       -45.73255                0               0                0               0
1.64686                0.9591023       -23.93288      0.005974996       -49.29953                0               0                0               0
1.65347                0.9579221       -24.16825      0.006181788       -52.89773                0               0                0               0
1.66007                0.9567069       -24.40753      0.006393349       -56.52499                0               0                0               0
1.66667                 0.955454       -24.65082      0.006609527       -60.17908                0               0                0               0
1.67327                0.9541598       -24.89823      0.006830175       -63.85771                0               0                0               0
1.67987                0.9528211       -25.14982       0.00705516       -67.55859                0               0                0               0
1.68647                0.9514344       -25.40567      0.007284361       -71.27945                0               0                0               0
1.69307                0.9499964        -25.6658      0.007517674       -75.01803                0               0                0               0
1.69967                0.9485035       -25.93026      0.007755017       -78.77215                0               0                0               0
1.70627                0.9469524       -26.19905      0.007996323       -82.53968                0               0                0               0
1.71287                0.9453399       -26.47215      0.008241556        -86.3186                0               0                0               0
1.71947                0.9436629       -26.74955      0.008490706       -90.10698                0               0                0               0
1.72607                0.9419184       -27.03121      0.008743784       -93.90301                0               0                0               0
1.73267                0.9401038        -27.3171      0.009000842       -97.70501                0               0                0               0
1.73927                0.9382167       -27.60715      0.009261957       -101.5114                0               0                0               0
1.74587                0.9362549       -27.90133      0.009527242       -105.3209                0               0                0               0
1.75248                0.9342165       -28.19957      0.009796845       -109.1321                0               0                0               0
1.75908                0.9321001       -28.50181       0.01007095        -112.944                0               0                0               0
1.76568                0.9299041       -28.80801       0.01034977       -116.7557                0               0                0               0
1.77228                0.9276276       -29.11814       0.01063357       -120.5664                0               0                0               0
1.77888                0.9252696       -29.43215       0.01092264       -124.3757                0               0                0               0
1.78548                0.9228293       -29.75005       0.01121729        -128.183                0               0                0               0
1.79208                0.9203063       -30.07183       0.01151789       -131.9883                0               0                0               0
1.79868                0.9177003       -30.39751       0.01182484       -135.7914                0               0                0               0
1.80528                0.9150106       -30.72714       0.01213854       -139.5927                0               0                0               0
1.81188                0.9122366       -31.06079       0.01245944       -143.3923                0               0                0               0
1.81848                0.9093782       -31.39854       0.01278802       -147.1909                0               0                0               0
1.82508                0.9064346       -31.74051       0.01312476       -150.9891                0               0                0               0
1.83168                0.9034047       -32.08683       0.01347016       -154.7878                0               0                0               0
1.83828                0.9002875       -32.43767       0.01382475        -158.588                0               0                0               0
1.84488                0.8970816        -32.7932       0.01418904       -162.3907                0               0                0               0
1.85149                0.8937849       -33.15362       0.01456356       -166.1973                0               0                0               0
