! TOUCHSTONE file generated by CST MICROWAVE STUDIO
! Date and time: Tue Mar 11 13:57:53 2025
! Project name: transverse.cst
! Parameters = {Fracture=5; B=10; D=160; F=5; Feed=2.85625; L=100; M=30; R=0.384908; S=1; Theta=270; length=57.125; wave=114.25}
! Header version: 2024
! Port assignment regex: !\s*Touchstone port\s*([0-9]+)\s*=\s*(CST MWS port|CST DES external port|CST DES block port)\s*(.+)\s* \(\"(.*)\"\)(\s*mode\s*([0-9]+))?.*
! Touchstone port assignment:
! Touchstone port 1 = CST MWS port 1 ("")
! Touchstone port 2 = CST MWS port 2 ("")
# GHz S MA R 50
1                      0.9977297       -9.761707     0.0003394334       -154.2235                0               0                0               0
1.00658                0.9976302       -9.849804     0.0003519906       -158.3795                0               0                0               0
1.01316                0.9975256       -9.938236     0.0003638655       -162.5462                0               0                0               0
1.01974                0.9974164       -10.02699     0.0003749951       -166.7104                0               0                0               0
1.02632                0.9973034       -10.11604     0.0003853227       -170.8598                0               0                0               0
1.03289                0.9971873       -10.20539     0.0003947984       -174.9824                0               0                0               0
1.03947                 0.997069       -10.29504     0.0004033806       -179.0665                0               0                0               0
1.04605                0.9969493         -10.385     0.0004110362        176.8998                0               0                0               0
1.05263                0.9968292       -10.47531     0.0004177423        172.9282                0               0                0               0
1.05921                0.9967091       -10.56598     0.0004234869        169.0309                0               0                0               0
1.06579                0.9965902       -10.65705     0.0004282709        165.2205                0               0                0               0
1.07237                0.9964725       -10.74857      0.000432109        161.5101                0               0                0               0
1.07895                 0.996357       -10.84059     0.0004350322        157.9132                0               0                0               0
1.08553                0.9962437       -10.93317     0.0004370891        154.4441                0               0                0               0
1.09211                 0.996133       -11.02637     0.0004383485        151.1175                0               0                0               0
1.09868                0.9960251       -11.12025     0.0004389011        147.9484                0               0                0               0
1.10526                0.9959194       -11.21487     0.0004388619         144.952                0               0                0               0
1.11184                0.9958163       -11.31031     0.0004383728        142.1431                0               0                0               0
1.11842                0.9957149        -11.4066     0.0004376036        139.5354                0               0                0               0
1.125                   0.995615       -11.50383     0.0004367542        137.1407                0               0                0               0
1.13158                0.9955156       -11.60204     0.0004360539        134.9677                0               0                0               0
1.13816                0.9954161       -11.70127     0.0004357612        133.0208                0               0                0               0
1.14474                0.9953157       -11.80157     0.0004361597        131.2984                0               0                0               0
1.15132                0.9952133       -11.90296     0.0004375525        129.7911                0               0                0               0
1.15789                0.9951077       -12.00547     0.0004402538        128.4809                0               0                0               0
1.16447                0.9949982       -12.10912     0.0004445771        127.3405                0               0                0               0
1.17105                0.9948836       -12.21391     0.0004508213        126.3332                0               0                0               0
1.17763                 0.994763       -12.31983     0.0004592565        125.4146                0               0                0               0
1.18421                0.9946352       -12.42688     0.0004701091        124.5348                0               0                0               0
1.19079                0.9944998       -12.53503     0.0004835516        123.6423                0               0                0               0
1.19737                0.9943556       -12.64425     0.0004996948        122.6874                0               0                0               0
1.20395                0.9942022       -12.75452     0.0005185861        121.6254                0               0                0               0
1.21053                0.9940389        -12.8658      0.000540212        120.4195                0               0                0               0
1.21711                0.9938657       -12.97804     0.0005645054        119.0422                0               0                0               0
1.22368                0.9936824       -13.09121      0.000591354        117.4751                0               0                0               0
1.23026                0.9934888       -13.20527     0.0006206102        115.7091                0               0                0               0
1.23684                0.9932851       -13.32016     0.0006521014        113.7422                0               0                0               0
1.24342                0.9930716       -13.43587     0.0006856379        111.5787                0               0                0               0
1.25                    0.992849       -13.55236     0.0007210199        109.2273                0               0                0               0
1.25658                0.9926178       -13.66961     0.0007580433        106.6997                0               0                0               0
1.26316                0.9923786        -13.7876     0.0007965032        104.0096                0               0                0               0
1.26974                0.9921323       -13.90632     0.0008361975        101.1716                0               0                0               0
1.27632                0.9918796       -14.02577     0.0008769283        98.20064                0               0                0               0
1.28289                0.9916218       -14.14598     0.0009185047        95.11162                0               0                0               0
1.28947                0.9913594       -14.26696     0.0009607422        91.91887                0               0                0               0
1.29605                0.9910934       -14.38874      0.001003464        88.63608                0               0                0               0
1.30263                0.9908248       -14.51138      0.001046504        85.27623                0               0                0               0
1.30921                0.9905544       -14.63493      0.001089705        81.85152                0               0                0               0
1.31579                0.9902825       -14.75945      0.001132918        78.37334                0               0                0               0
1.32237                0.9900099       -14.88501      0.001176007        74.85238                0               0                0               0
1.32895                0.9897368        -15.0117      0.001218849         71.2986                0               0                0               0
1.33553                0.9894634        -15.1396      0.001261331        67.72133                0               0                0               0
1.34211                0.9891899       -15.26879      0.001303358        64.12928                0               0                0               0
1.34868                0.9889159       -15.39938      0.001344846        60.53063                0               0                0               0
1.35526                0.9886413       -15.53144       0.00138573        56.93303                0               0                0               0
1.36184                0.9883652       -15.66507      0.001425961        53.34369                0               0                0               0
1.36842                 0.988087       -15.80036      0.001465509        49.76932                0               0                0               0
1.375                  0.9878057        -15.9374      0.001504366        46.21625                0               0                0               0
1.38158                0.9875202       -16.07624      0.001542544        42.69035                0               0                0               0
1.38816                0.9872295       -16.21697      0.001580078        39.19707                0               0                0               0
1.39474                0.9869321       -16.35964      0.001617026        35.74139                0               0                0               0
1.40132                0.9866266        -16.5043      0.001653473        32.32782                0               0                0               0
1.40789                0.9863116       -16.65099      0.001689528        28.96036                0               0                0               0
1.41447                0.9859857       -16.79975      0.001725328        25.64242                0               0                0               0
1.42105                0.9856474       -16.95059      0.001761035         22.3768                0               0                0               0
1.42763                0.9852952       -17.10352      0.001796838        19.16559                0               0                0               0
1.43421                0.9849278       -17.25854      0.001832953        16.01012                0               0                0               0
1.44079                0.9845441       -17.41565      0.001869619        12.91093                0               0                0               0
1.44737                0.9841429       -17.57483      0.001907098        9.867607                0               0                0               0
1.45395                0.9837232       -17.73607      0.001945674        6.878849                0               0                0               0
1.46053                0.9832842       -17.89934      0.001985647        3.942358                0               0                0               0
1.46711                0.9828254       -18.06461      0.002027328        1.054844                0               0                0               0
1.47368                0.9823461       -18.23186      0.002071041       -1.787946                0               0                0               0
1.48026                0.9818463       -18.40108      0.002117109       -4.591197                0               0                0               0
1.48684                0.9813257       -18.57223      0.002165857       -7.360932                0               0                0               0
1.49342                0.9807843       -18.74531        0.0022176        -10.1039                0               0                0               0
1.5                    0.9802224       -18.92032      0.002272639       -12.82741                0               0                0               0
1.50658                0.9796403       -19.09725      0.002331259       -15.53919                0               0                0               0
1.51316                0.9790384       -19.27613      0.002393717       -18.24714                0               0                0               0
1.51974                 0.978417       -19.45698      0.002460243       -20.95918                0               0                0               0
1.52632                0.9777767       -19.63984      0.002531035       -23.68299                0               0                0               0
1.53289                0.9771179       -19.82476      0.002606256       -26.42588                0               0                0               0
1.53947                 0.976441       -20.01181      0.002686028       -29.19457                0               0                0               0
1.54605                0.9757464       -20.20106      0.002770439       -31.99506                0               0                0               0
1.55263                0.9750342       -20.39262      0.002859539       -34.83257                0               0                0               0
1.55921                0.9743046       -20.58658      0.002953338       -37.71142                0               0                0               0
1.56579                0.9735572       -20.78306      0.003051815       -40.63501                0               0                0               0
1.57237                 0.972792       -20.98218      0.003154913       -43.60583                0               0                0               0
1.57895                 0.972008       -21.18406       0.00326255       -46.62549                0               0                0               0
1.58553                0.9712046       -21.38885      0.003374614       -49.69476                0               0                0               0
1.59211                0.9703806       -21.59668      0.003490973       -52.81364                0               0                0               0
1.59868                0.9695346       -21.80769      0.003611476       -55.98142                0               0                0               0
1.60526                0.9686649       -22.02202      0.003735958       -59.19683                0               0                0               0
1.61184                0.9677696       -22.23979      0.003864243       -62.45803                0               0                0               0
1.61842                0.9668464       -22.46114      0.003996149       -65.76278                0               0                0               0
1.625                   0.965893       -22.68618      0.004131492       -69.10846                0               0                0               0
1.63158                0.9649066       -22.91502      0.004270087       -72.49219                0               0                0               0
1.63816                0.9638844       -23.14776      0.004411754       -75.91085                0               0                0               0
1.64474                0.9628235       -23.38447      0.004556323        -79.3612                0               0                0               0
1.65132                0.9617208       -23.62522      0.004703635       -82.83989                0               0                0               0
1.65789                 0.960573       -23.87007      0.004853546       -86.34353                0               0                0               0
1.66447                0.9593773       -24.11905      0.005005934       -89.86871                0               0                0               0
1.67105                  0.95813       -24.37218      0.005160694       -93.41207                0               0                0               0
1.67763                0.9568285       -24.62947       0.00531775       -96.97033                0               0                0               0
1.68421                0.9554696       -24.89092      0.005477054       -100.5403                0               0                0               0
1.69079                0.9540507       -25.15649      0.005638589       -104.1189                0               0                0               0
1.69737                0.9525686       -25.42617      0.005802374       -107.7032                0               0                0               0
1.70395                0.9510213       -25.69992      0.005968465       -111.2905                0               0                0               0
1.71053                0.9494064       -25.97769      0.006136955       -114.8782                0               0                0               0
1.71711                0.9477218       -26.25942      0.006307985       -118.4641                0               0                0               0
1.72368                0.9459658       -26.54508      0.006481736        -122.046                0               0                0               0
1.73026                0.9441368       -26.83462      0.006658437       -125.6222                0               0                0               0
1.73684                0.9422335       -27.12799      0.006838363       -129.1912                0               0                0               0
1.74342                0.9402549       -27.42515      0.007021838       -132.7517                0               0                0               0
1.75                   0.9381999       -27.72609      0.007209234       -136.3028                0               0                0               0
1.75658                0.9360681       -28.03078       0.00740097        -139.844                0               0                0               0
1.76316                0.9338585       -28.33923      0.007597512        -143.375                0               0                0               0
1.76974                0.9315707       -28.65145      0.007799372        -146.896                0               0                0               0
1.77632                0.9292043       -28.96749      0.008007101       -150.4075                0               0                0               0
1.78289                0.9267588        -29.2874      0.008221292       -153.9103                0               0                0               0
1.78947                0.9242336       -29.61124      0.008442573       -157.4057                0               0                0               0
1.79605                0.9216279       -29.93913      0.008671595       -160.8952                0               0                0               0
1.80263                0.9189409       -30.27117      0.008909041       -164.3806                0               0                0               0
1.80921                0.9161716       -30.60749      0.009155609       -167.8641                0               0                0               0
1.81579                0.9133184       -30.94825      0.009412004       -171.3483                0               0                0               0
1.82237                0.9103797       -31.29362      0.009678936       -174.8357                0               0                0               0
1.82895                0.9073534       -31.64378      0.009957113       -178.3291                0               0                0               0
1.83553                 0.904237       -31.99891       0.01024723        178.1683                0               0                0               0
1.84211                0.9010276       -32.35921       0.01054996        174.6535                0               0                0               0
1.84868                0.8977218        -32.7249       0.01086594        171.1233                0               0                0               0
