! TOUCHSTONE file generated by CST MICROWAVE STUDIO
! Date and time: Tue Mar 11 13:58:00 2025
! Project name: transverse.cst
! Parameters = {Fracture=5; B=10; D=160; F=25; Feed=2.85625; L=100; M=10; R=0.384908; S=2; Theta=270; length=57.125; wave=114.25}
! Header version: 2024
! Port assignment regex: !\s*Touchstone port\s*([0-9]+)\s*=\s*(CST MWS port|CST DES external port|CST DES block port)\s*(.+)\s* \(\"(.*)\"\)(\s*mode\s*([0-9]+))?.*
! Touchstone port assignment:
! Touchstone port 1 = CST MWS port 1 ("")
! Touchstone port 2 = CST MWS port 2 ("")
# GHz S MA R 50
1                      0.9977966       -9.743502     0.0003658203       -162.3744                0               0                0               0
1.00658                0.9977112       -9.831182     0.0003709696       -165.9672                0               0                0               0
1.01316                0.9976219       -9.919342     0.0003755937       -169.4374                0               0                0               0
1.01974                0.9975294       -10.00798     0.0003797553       -172.7759                0               0                0               0
1.02632                0.9974335       -10.09708     0.0003835328       -175.9735                0               0                0               0
1.03289                0.9973349       -10.18667     0.0003870215       -179.0223                0               0                0               0
1.03947                0.9972338       -10.27674     0.0003903342        178.0848                0               0                0               0
1.04605                0.9971302        -10.3673     0.0003936017        175.3529                0               0                0               0
1.05263                0.9970246       -10.45838     0.0003969726        172.7851                0               0                0               0
1.05921                0.9969174       -10.54998     0.0004006122        170.3815                0               0                0               0
1.06579                0.9968086       -10.64213     0.0004047007        168.1383                0               0                0               0
1.07237                0.9966986       -10.73486     0.0004094303        166.0477                0               0                0               0
1.07895                0.9965874       -10.82819     0.0004150009        164.0974                0               0                0               0
1.08553                 0.996475       -10.92215     0.0004216146        162.2697                0               0                0               0
1.09211                0.9963616       -11.01677     0.0004294699        160.5428                0               0                0               0
1.09868                0.9962472       -11.11208     0.0004387544        158.8903                0               0                0               0
1.10526                0.9961314       -11.20812     0.0004496385        157.2831                0               0                0               0
1.11184                0.9960142       -11.30491     0.0004622689        155.6902                0               0                0               0
1.11842                0.9958953       -11.40249     0.0004767637        154.0805                0               0                0               0
1.125                  0.9957744       -11.50088     0.0004932093        152.4245                0               0                0               0
1.13158                0.9956512       -11.60012     0.0005116587        150.6954                0               0                0               0
1.13816                0.9955251       -11.70021      0.000532132        148.8706                0               0                0               0
1.14474                0.9953959       -11.80119     0.0005546188        146.9319                0               0                0               0
1.15132                0.9952629       -11.90307     0.0005790808        144.8663                0               0                0               0
1.15789                0.9951258       -12.00586     0.0006054557        142.6651                0               0                0               0
1.16447                 0.994984       -12.10958     0.0006336615        140.3243                0               0                0               0
1.17105                0.9948371       -12.21422     0.0006636006        137.8433                0               0                0               0
1.17763                0.9946844        -12.3198     0.0006951625        135.2248                0               0                0               0
1.18421                0.9945257        -12.4263     0.0007282284        132.4736                0               0                0               0
1.19079                0.9943605       -12.53372      0.000762673        129.5965                0               0                0               0
1.19737                0.9941885       -12.64207     0.0007983663        126.6012                0               0                0               0
1.20395                0.9940093       -12.75131     0.0008351763        123.4965                0               0                0               0
1.21053                0.9938229       -12.86146     0.0008729705        120.2913                0               0                0               0
1.21711                0.9936288       -12.97248      0.000911616        116.9948                0               0                0               0
1.22368                0.9934273       -13.08438     0.0009509814        113.6161                0               0                0               0
1.23026                 0.993218       -13.19714      0.000990937        110.1641                0               0                0               0
1.23684                0.9930013       -13.31074      0.001031356        106.6474                0               0                0               0
1.24342                0.9927773       -13.42518      0.001072116        103.0742                0               0                0               0
1.25                   0.9925461       -13.54046      0.001113096        99.45249                0               0                0               0
1.25658                 0.992308       -13.65658      0.001154182        95.78969                0               0                0               0
1.26316                0.9920631       -13.77352      0.001195265        92.09294                0               0                0               0
1.26974                0.9918121       -13.89131       0.00123624        88.36897                0               0                0               0
1.27632                0.9915549       -14.00995       0.00127701        84.62419                0               0                0               0
1.28289                0.9912925       -14.12945      0.001317487        80.86467                0               0                0               0
1.28947                0.9910247       -14.24984      0.001357588        77.09617                0               0                0               0
1.29605                0.9907522       -14.37114      0.001397239        73.32417                0               0                0               0
1.30263                0.9904749       -14.49339      0.001436379        69.55387                0               0                0               0
1.30921                0.9901938       -14.61662      0.001474954        65.79024                0               0                0               0
1.31579                0.9899085       -14.74086      0.001512923        62.03801                0               0                0               0
1.32237                0.9896196       -14.86617      0.001550258        58.30166                0               0                0               0
1.32895                0.9893269       -14.99259      0.001586941        54.58547                0               0                0               0
1.33553                0.9890305       -15.12016      0.001622972        50.89349                0               0                0               0
1.34211                0.9887304       -15.24894      0.001658363        47.22953                0               0                0               0
1.34868                0.9884267       -15.37899      0.001693144        43.59717                0               0                0               0
1.35526                0.9881187       -15.51034      0.001727359        39.99972                0               0                0               0
1.36184                0.9878064       -15.64307      0.001761071        36.44024                0               0                0               0
1.36842                0.9874894       -15.77721       0.00179436        32.92145                0               0                0               0
1.375                  0.9871672       -15.91282      0.001827324        29.44577                0               0                0               0
1.38158                0.9868391       -16.04994      0.001860078        26.01523                0               0                0               0
1.38816                0.9865049       -16.18863      0.001892758        22.63144                0               0                0               0
1.39474                0.9861636       -16.32891      0.001925514        19.29558                0               0                0               0
1.40132                0.9858148       -16.47083      0.001958516        16.00833                0               0                0               0
1.40789                0.9854575       -16.61442      0.001991949        12.76983                0               0                0               0
1.41447                0.9850915       -16.75971      0.002026014        9.579661                0               0                0               0
1.42105                0.9847157       -16.90673      0.002060924        6.436786                0               0                0               0
1.42763                0.9843298       -17.05549      0.002096905        3.339562                0               0                0               0
1.43421                0.9839328       -17.20603      0.002134188       0.2857012                0               0                0               0
1.44079                0.9835246       -17.35836      0.002173016       -2.727706                0               0                0               0
1.44737                0.9831042       -17.51248      0.002213628       -5.704177                0               0                0               0
1.45395                0.9826716       -17.66844      0.002256269       -8.647797                0               0                0               0
1.46053                0.9822262       -17.82622      0.002301177       -11.56316                0               0                0               0
1.46711                0.9817675       -17.98586      0.002348581       -14.45528                0               0                0               0
1.47368                0.9812957       -18.14736      0.002398702       -17.32954                0               0                0               0
1.48026                0.9808102       -18.31076      0.002451744       -20.19152                0               0                0               0
1.48684                0.9803111       -18.47607      0.002507897       -23.04695                0               0                0               0
1.49342                0.9797984       -18.64332      0.002567328       -25.90153                0               0                0               0
1.5                     0.979272       -18.81256      0.002630183       -28.76087                0               0                0               0
1.50658                0.9787317       -18.98381      0.002696582       -31.63031                0               0                0               0
1.51316                0.9781779       -19.15712      0.002766624       -34.51489                0               0                0               0
1.51974                0.9776104       -19.33256       0.00284038       -37.41919                0               0                0               0
1.52632                0.9770293       -19.51018      0.002917895       -40.34732                0               0                0               0
1.53289                0.9764345       -19.69006      0.002999191       -43.30282                0               0                0               0
1.53947                0.9758258       -19.87226      0.003084264       -46.28868                0               0                0               0
1.54605                 0.975203       -20.05689       0.00317309       -49.30726                0               0                0               0
1.55263                0.9745661       -20.24402      0.003265624       -52.36034                0               0                0               0
1.55921                0.9739144       -20.43376      0.003361802       -55.44913                0               0                0               0
1.56579                0.9732474       -20.62621      0.003461546       -58.57427                0               0                0               0
1.57237                0.9725644       -20.82148      0.003564764       -61.73593                0               0                0               0
1.57895                0.9718648       -21.01968      0.003671354       -64.93377                0               0                0               0
1.58553                0.9711471       -21.22095      0.003781203       -68.16708                0               0                0               0
1.59211                0.9704103       -21.42538      0.003894198       -71.43477                0               0                0               0
1.59868                0.9696531       -21.63309      0.004010221       -74.73543                0               0                0               0
1.60526                0.9688737       -21.84422      0.004129154       -78.06741                0               0                0               0
1.61184                0.9680705       -22.05886       0.00425088       -81.42884                0               0                0               0
1.61842                0.9672414       -22.27713      0.004375291       -84.81769                0               0                0               0
1.625                  0.9663844       -22.49915      0.004502284       -88.23181                0               0                0               0
1.63158                0.9654973         -22.725      0.004631767       -91.66898                0               0                0               0
1.63816                0.9645776       -22.95479      0.004763661       -95.12692                0               0                0               0
1.64474                0.9636229       -23.18859      0.004897897       -98.60333                0               0                0               0
1.65132                0.9626305        -23.4265      0.005034429        -102.096                0               0                0               0
1.65789                0.9615977       -23.66857      0.005173224       -105.6026                0               0                0               0
1.66447                0.9605219       -23.91487      0.005314272        -109.121                0               0                0               0
1.67105                0.9594003       -24.16545      0.005457583       -112.6492                0               0                0               0
1.67763                0.9582301       -24.42036      0.005603192       -116.1852                0               0                0               0
1.68421                0.9570087       -24.67962      0.005751157       -119.7272                0               0                0               0
1.69079                0.9557333       -24.94327      0.005901564       -123.2734                0               0                0               0
1.69737                0.9544013       -25.21132      0.006054525       -126.8225                0               0                0               0
1.70395                0.9530102        -25.4838      0.006210177        -130.373                0               0                0               0
1.71053                0.9515575        -25.7607      0.006368688       -133.9239                0               0                0               0
1.71711                0.9500409       -26.04205      0.006530255        -137.474                0               0                0               0
1.72368                0.9484581       -26.32784      0.006695099       -141.0228                0               0                0               0
1.73026                0.9468069       -26.61807      0.006863471       -144.5697                0               0                0               0
1.73684                0.9450855       -26.91277       0.00703565       -148.1144                0               0                0               0
1.74342                0.9432918       -27.21192      0.007211936       -151.6568                0               0                0               0
1.75                   0.9414241       -27.51556      0.007392658       -155.1971                0               0                0               0
1.75658                0.9394803        -27.8237      0.007578162       -158.7357                0               0                0               0
1.76316                0.9374591       -28.13637      0.007768816       -162.2732                0               0                0               0
1.76974                0.9353587       -28.45359      0.007965004       -165.8104                0               0                0               0
1.77632                0.9331775       -28.77543      0.008167124       -169.3483                0               0                0               0
1.78289                0.9309136       -29.10194      0.008375584       -172.8882                0               0                0               0
1.78947                0.9285656       -29.43318      0.008590797       -176.4314                0               0                0               0
1.79605                0.9261316       -29.76925      0.008813178       -179.9796                0               0                0               0
1.80263                0.9236097       -30.11021      0.009043143        176.4656                0               0                0               0
1.80921                 0.920998       -30.45619      0.009281103        172.9024                0               0                0               0
1.81579                 0.918294        -30.8073      0.009527451         169.329                0               0                0               0
1.82237                0.9154955       -31.16365      0.009782576        165.7433                0               0                0               0
1.82895                0.9125998       -31.52539       0.01004684        162.1434                0               0                0               0
1.83553                 0.909604       -31.89266       0.01032059        158.5274                0               0                0               0
1.84211                0.9065048        -32.2656       0.01060414        154.8933                0               0                0               0
1.84868                0.9032989       -32.64438       0.01089778        151.2392                0               0                0               0
