! TOUCHSTONE file generated by CST MICROWAVE STUDIO
! Date and time: Tue Mar 11 13:56:44 2025
! Project name: transverse.cst
! Parameters = {Fracture=1; B=10; D=160; F=25; Feed=2.85625; L=100; M=30; R=0.384908; S=2; Theta=90; length=57.125; wave=114.25}
! Header version: 2024
! Port assignment regex: !\s*Touchstone port\s*([0-9]+)\s*=\s*(CST MWS port|CST DES external port|CST DES block port)\s*(.+)\s* \(\"(.*)\"\)(\s*mode\s*([0-9]+))?.*
! Touchstone port assignment:
! Touchstone port 1 = CST MWS port 1 ("")
! Touchstone port 2 = CST MWS port 2 ("")
# GHz S MA R 50
1                      0.9975692       -9.998405     0.0004540897        167.2675                0               0                0               0
1.00658                0.9975075       -10.08569     0.0004547154        161.9004                0               0                0               0
1.01316                0.9974489       -10.17372     0.0004537642        156.6487                0               0                0               0
1.01974                0.9973928       -10.26256     0.0004512277        151.5235                0               0                0               0
1.02632                0.9973384       -10.35225     0.0004471109        146.5382                0               0                0               0
1.03289                0.9972849       -10.44284     0.0004414349        141.7094                0               0                0               0
1.03947                0.9972316       -10.53439     0.0004342386        137.0568                0               0                0               0
1.04605                 0.997177       -10.62691     0.0004255827        132.6043                0               0                0               0
1.05263                0.9971204       -10.72044     0.0004155543        128.3808                0               0                0               0
1.05921                0.9970604       -10.81499     0.0004042721         124.421                0               0                0               0
1.06579                 0.996996       -10.91057     0.0003918935        120.7664                0               0                0               0
1.07237                0.9969261       -11.00716      0.000378624         117.466                0               0                0               0
1.07895                0.9968494       -11.10475     0.0003647281        114.5772                0               0                0               0
1.08553                0.9967652       -11.20333     0.0003505435        112.1649                0               0                0               0
1.09211                0.9966723       -11.30285     0.0003364959        110.2992                0               0                0               0
1.09868                0.9965702       -11.40328     0.0003231145        109.0498                0               0                0               0
1.10526                 0.996458       -11.50457     0.0003110412        108.4745                0               0                0               0
1.11184                0.9963356       -11.60667     0.0003010278        108.6013                0               0                0               0
1.11842                0.9962022       -11.70953     0.0002939054        109.4049                0               0                0               0
1.125                  0.9960582        -11.8131      0.000290519        110.7829                0               0                0               0
1.13158                0.9959033       -11.91732     0.0002916235        112.5467                0               0                0               0
1.13816                0.9957378       -12.02215     0.0002977672        114.4387                0               0                0               0
1.14474                0.9955623       -12.12752     0.0003092041        116.1793                0               0                0               0
1.15132                0.9953771       -12.23341     0.0003258735        117.5237                0               0                0               0
1.15789                0.9951829       -12.33978     0.0003474528        118.3027                0               0                0               0
1.16447                0.9949809        -12.4466     0.0003734518        118.4335                0               0                0               0
1.17105                0.9947716       -12.55385      0.000403306        117.9056                0               0                0               0
1.17763                0.9945562       -12.66154     0.0004364463        116.7564                0               0                0               0
1.18421                0.9943358       -12.76965     0.0004723382        115.0484                0               0                0               0
1.19079                 0.994111       -12.87821     0.0005104978        112.8529                0               0                0               0
1.19737                0.9938833       -12.98725     0.0005504948        110.2404                0               0                0               0
1.20395                0.9936534       -13.09679      0.000591947         107.275                0               0                0               0
1.21053                0.9934222       -13.20689     0.0006345133        104.0136                0               0                0               0
1.21711                0.9931905        -13.3176     0.0006778863        100.5048                0               0                0               0
1.22368                0.9929588       -13.42898      0.000721786        96.79014                0               0                0               0
1.23026                0.9927277       -13.54112     0.0007659544        92.90457                0               0                0               0
1.23684                0.9924973       -13.65407     0.0008101512         88.8778                0               0                0               0
1.24342                0.9922679       -13.76793      0.000854151        84.73498                0               0                0               0
1.25                   0.9920392       -13.88277     0.0008977406         80.4976                0               0                0               0
1.25658                 0.991811       -13.99867      0.000940718        76.18413                0               0                0               0
1.26316                0.9915827       -14.11572     0.0009828911        71.81056                0               0                0               0
1.26974                0.9913537       -14.23398      0.001024077        67.39096                0               0                0               0
1.27632                0.9911232       -14.35353      0.001064104        62.93773                0               0                0               0
1.28289                0.9908902       -14.47443      0.001102807        58.46207                0               0                0               0
1.28947                0.9906536       -14.59673      0.001140032        53.97411                0               0                0               0
1.29605                0.9904119       -14.72048      0.001175638        49.48321                0               0                0               0
1.30263                0.9901642       -14.84571      0.001209493        44.99815                0               0                0               0
1.30921                0.9899086       -14.97244      0.001241477        40.52722                0               0                0               0
1.31579                0.9896445       -15.10068      0.001271488        36.07842                0               0                0               0
1.32237                  0.98937       -15.23044      0.001299435        31.65955                0               0                0               0
1.32895                 0.989084        -15.3617      0.001325247         27.2783                0               0                0               0
1.33553                0.9887855       -15.49444       0.00134887        22.94234                0               0                0               0
1.34211                0.9884734       -15.62863      0.001370272         18.6594                0               0                0               0
1.34868                0.9881466       -15.76424      0.001389443         14.4373                0               0                0               0
1.35526                0.9878047       -15.90122        0.0014064        10.28403                0               0                0               0
1.36184                0.9874471       -16.03953      0.001421188         6.20776                0               0                0               0
1.36842                0.9870732       -16.17911      0.001433881        2.216812                0               0                0               0
1.375                  0.9866833       -16.31992      0.001444589       -1.680314                0               0                0               0
1.38158                0.9862772       -16.46191      0.001453458       -5.475016                0               0                0               0
1.38816                0.9858553       -16.60503      0.001460675       -9.158686                0               0                0               0
1.39474                0.9854181       -16.74924      0.001466469       -12.72284                0               0                0               0
1.40132                0.9849662       -16.89452      0.001471116       -16.15932                0               0                0               0
1.40789                0.9845005       -17.04085      0.001474941       -19.46057                0               0                0               0
1.41447                 0.984022       -17.18821      0.001478318       -22.61998                0               0                0               0
1.42105                0.9835314        -17.3366      0.001481674       -25.63231                0               0                0               0
1.42763                0.9830301       -17.48606      0.001485486       -28.49415                0               0                0               0
1.43421                0.9825191       -17.63659      0.001490275       -31.20454                0               0                0               0
1.44079                0.9819992       -17.78826      0.001496607       -33.76546                0               0                0               0
1.44737                 0.981472       -17.94112      0.001505081       -36.18248                0               0                0               0
1.45395                 0.980938       -18.09524      0.001516316       -38.46507                0               0                0               0
1.46053                0.9803981       -18.25071      0.001530937       -40.62699                0               0                0               0
1.46711                0.9798527       -18.40762       0.00154956       -42.68621                0               0                0               0
1.47368                0.9793026       -18.56609      0.001572769       -44.66457                0               0                0               0
1.48026                0.9787477       -18.72622      0.001601099       -46.58715                0               0                0               0
1.48684                 0.978188       -18.88814      0.001635015       -48.48117                0               0                0               0
1.49342                0.9776233       -19.05198      0.001674898       -50.37478                0               0                0               0
1.5                    0.9770528       -19.21787      0.001721036       -52.29569                0               0                0               0
1.50658                0.9764757       -19.38592      0.001773614       -54.26983                0               0                0               0
1.51316                 0.975891       -19.55627      0.001832716       -56.32025                0               0                0               0
1.51974                0.9752972       -19.72902      0.001898329       -58.46632                0               0                0               0
1.52632                0.9746927        -19.9043      0.001970353       -60.72323                0               0                0               0
1.53289                0.9740758       -20.08219      0.002048613       -63.10193                0               0                0               0
1.53947                0.9734443       -20.26279      0.002132867       -65.60927                0               0                0               0
1.54605                0.9727963       -20.44617      0.002222823       -68.24842                0               0                0               0
1.55263                0.9721294       -20.63239      0.002318152       -71.01937                0               0                0               0
1.55921                0.9714416        -20.8215      0.002418495       -73.91953                0               0                0               0
1.56579                0.9707303       -21.01351      0.002523475       -76.94425                0               0                0               0
1.57237                0.9699935       -21.20846      0.002632707       -80.08743                0               0                0               0
1.57895                 0.969229       -21.40633      0.002745797       -83.34186                0               0                0               0
1.58553                0.9684348       -21.60712      0.002862357       -86.69972                0               0                0               0
1.59211                 0.967609       -21.81079         0.002982       -90.15279                0               0                0               0
1.59868                0.9667499       -22.01731       0.00310435       -93.69273                0               0                0               0
1.60526                0.9658563       -22.22664      0.003229041       -97.31126                0               0                0               0
1.61184                0.9649268       -22.43873      0.003355722       -101.0003                0               0                0               0
1.61842                0.9639607       -22.65353      0.003484054       -104.7518                0               0                0               0
1.625                  0.9629572       -22.87097      0.003613719       -108.5585                0               0                0               0
1.63158                0.9619162       -23.09102      0.003744416        -112.413                0               0                0               0
1.63816                0.9608375       -23.31364      0.003875863       -116.3084                0               0                0               0
1.64474                0.9597213       -23.53878      0.004007802       -120.2384                0               0                0               0
1.65132                0.9585681       -23.76643          0.00414       -124.1968                0               0                0               0
1.65789                0.9573787       -23.99657      0.004272248       -128.1777                0               0                0               0
1.66447                0.9561536       -24.22924      0.004404365       -132.1758                0               0                0               0
1.67105                0.9548941       -24.46444      0.004536199        -136.186                0               0                0               0
1.67763                0.9536007       -24.70224      0.004667631       -140.2034                0               0                0               0
1.68421                0.9522751       -24.94271      0.004798576       -144.2235                0               0                0               0
1.69079                 0.950918       -25.18594      0.004928984       -148.2421                0               0                0               0
1.69737                  0.94953       -25.43206      0.005058841       -152.2553                0               0                0               0
1.70395                0.9481123        -25.6812      0.005188177       -156.2596                0               0                0               0
1.71053                0.9466651       -25.93354       0.00531706       -160.2514                0               0                0               0
1.71711                0.9451889       -26.18926      0.005445605       -164.2279                0               0                0               0
1.72368                0.9436836       -26.44857      0.005573969       -168.1863                0               0                0               0
1.73026                0.9421488       -26.71169      0.005702358       -172.1242                0               0                0               0
1.73684                0.9405838       -26.97885      0.005831025       -176.0395                0               0                0               0
1.74342                0.9389871       -27.25031      0.005960269       -179.9306                0               0                0               0
1.75                   0.9373573       -27.52632      0.006090439        176.2039                0               0                0               0
1.75658                0.9356921       -27.80714       0.00622193         172.365                0               0                0               0
1.76316                0.9339892       -28.09303      0.006355184        168.5531                0               0                0               0
1.76974                0.9322454       -28.38426      0.006490689        164.7684                0               0                0               0
1.77632                0.9304574       -28.68107      0.006628973        161.0103                0               0                0               0
1.78289                0.9286211        -28.9837      0.006770601        157.2782                0               0                0               0
1.78947                0.9267325        -29.2924      0.006916172        153.5706                0               0                0               0
1.79605                0.9247869       -29.60737      0.007066315        149.8858                0               0                0               0
1.80263                0.9227795       -29.92883       0.00722168        146.2215                0               0                0               0
1.80921                0.9207053       -30.25694      0.007382933         142.575                0               0                0               0
1.81579                 0.918559       -30.59188      0.007550749        138.9432                0               0                0               0
1.82237                0.9163352       -30.93379        0.0077258        135.3225                0               0                0               0
1.82895                0.9140284       -31.28279       0.00790875        131.7093                0               0                0               0
1.83553                0.9116331       -31.63899      0.008100249        128.0993                0               0                0               0
1.84211                0.9091441       -32.00247      0.008300919        124.4882                0               0                0               0
1.84868                0.9065558        -32.3733       0.00851135        120.8717                0               0                0               0
