! TOUCHSTONE file generated by CST MICROWAVE STUDIO
! Date and time: Tue Mar 11 13:57:57 2025
! Project name: transverse.cst
! Parameters = {Fracture=1; B=10; D=160; F=15; Feed=2.85625; L=100; M=30; R=0.384908; S=1; Theta=270; length=57.125; wave=114.25}
! Header version: 2024
! Port assignment regex: !\s*Touchstone port\s*([0-9]+)\s*=\s*(CST MWS port|CST DES external port|CST DES block port)\s*(.+)\s* \(\"(.*)\"\)(\s*mode\s*([0-9]+))?.*
! Touchstone port assignment:
! Touchstone port 1 = CST MWS port 1 ("")
! Touchstone port 2 = CST MWS port 2 ("")
# GHz S MA R 50
1                      0.9975197       -9.999818     0.0004905911        179.2509                0               0                0               0
1.00658                 0.997436       -10.08726     0.0004892201        173.4233                0               0                0               0
1.01316                0.9973539       -10.17521     0.0004857833        167.6887                0               0                0               0
1.01974                0.9972733        -10.2637     0.0004802335        162.0549                0               0                0               0
1.02632                0.9971947       -10.35279     0.0004725347        156.5324                0               0                0               0
1.03289                0.9971177       -10.44251     0.0004626624        151.1347                0               0                0               0
1.03947                0.9970422       -10.53293     0.0004506068        145.8794                0               0                0               0
1.04605                0.9969678       -10.62408      0.000436374        140.7898                0               0                0               0
1.05263                0.9968942       -10.71601     0.0004199914        135.8961                0               0                0               0
1.05921                0.9968208       -10.80875     0.0004015109        131.2389                0               0                0               0
1.06579                0.9967472       -10.90235     0.0003810182        126.8722                0               0                0               0
1.07237                0.9966724       -10.99683     0.0003586435        122.8701                0               0                0               0
1.07895                0.9965959       -11.09221     0.0003345799         119.335                0               0                0               0
1.08553                 0.996517       -11.18853     0.0003091122        116.4106                0               0                0               0
1.09211                0.9964346       -11.28578     0.0002826657        114.3013                0               0                0               0
1.09868                0.9963482       -11.38398     0.0002558857        113.2978                0               0                0               0
1.10526                0.9962569       -11.48312     0.0002297685        113.8038                0               0                0               0
1.11184                0.9961599       -11.58319       0.00020586        116.3346                0               0                0               0
1.11842                0.9960567       -11.68419     0.0001864818         121.396                0               0                0               0
1.125                  0.9959465       -11.78609     0.0001747426        129.0829                0               0                0               0
1.13158                0.9958289       -11.88887     0.0001737987        138.4635                0               0                0               0
1.13816                0.9957033       -11.99249     0.0001852803        147.5901                0               0                0               0
1.14474                0.9955697       -12.09693      0.000208391        154.7022                0               0                0               0
1.15132                0.9954276       -12.20216     0.0002408275        159.1829                0               0                0               0
1.15789                0.9952773       -12.30815     0.0002801895         161.293                0               0                0               0
1.16447                0.9951184       -12.41485     0.0003246127        161.5657                0               0                0               0
1.17105                0.9949517       -12.52225     0.0003727876        160.4921                0               0                0               0
1.17763                 0.994777       -12.63031     0.0004238043        158.4454                0               0                0               0
1.18421                0.9945952       -12.73901     0.0004770094        155.6918                0               0                0               0
1.19079                0.9944064       -12.84834     0.0005319089        152.4188                0               0                0               0
1.19737                0.9942116       -12.95829     0.0005881078        148.7591                0               0                0               0
1.20395                0.9940112       -13.06886      0.000645273         144.808                0               0                0               0
1.21053                0.9938061       -13.18004     0.0007031116        140.6355                0               0                0               0
1.21711                0.9935969       -13.29187      0.000761356        136.2935                0               0                0               0
1.22368                0.9933845       -13.40435     0.0008197568        131.8216                0               0                0               0
1.23026                0.9931694       -13.51752     0.0008780759        127.2506                0               0                0               0
1.23684                0.9929525       -13.63142     0.0009360851        122.6046                0               0                0               0
1.24342                0.9927343        -13.7461     0.0009935629        117.9033                0               0                0               0
1.25                   0.9925152       -13.86161      0.001050294        113.1626                0               0                0               0
1.25658                0.9922955       -13.97801       0.00110607        108.3961                0               0                0               0
1.26316                0.9920757       -14.09538      0.001160688        103.6151                0               0                0               0
1.26974                0.9918556       -14.21377      0.001213953        98.82978                0               0                0               0
1.27632                0.9916353       -14.33326      0.001265677        94.04894                0               0                0               0
1.28289                0.9914146       -14.45393      0.001315682        89.28068                0               0                0               0
1.28947                 0.991193       -14.57585      0.001363801        84.53249                0               0                0               0
1.29605                  0.99097       -14.69908      0.001409878        79.81143                0               0                0               0
1.30263                0.9907448        -14.8237      0.001453771        75.12429                0               0                0               0
1.30921                0.9905168       -14.94977      0.001495357         70.4777                0               0                0               0
1.31579                0.9902848       -15.07735      0.001534526        65.87824                0               0                0               0
1.32237                0.9900479       -15.20648      0.001571194        61.33249                0               0                0               0
1.32895                0.9898048       -15.33721      0.001605297        56.84714                0               0                0               0
1.33553                0.9895544       -15.46957      0.001636799        52.42897                0               0                0               0
1.34211                0.9892955       -15.60358      0.001665693        48.08498                0               0                0               0
1.34868                0.9890268       -15.73926      0.001692004        43.82229                0               0                0               0
1.35526                0.9887469       -15.87661      0.001715795        39.64829                0               0                0               0
1.36184                0.9884551       -16.01564      0.001737169        35.57045                0               0                0               0
1.36842                0.9881498       -16.15632      0.001756272        31.59641                0               0                0               0
1.375                  0.9878305       -16.29864      0.001773301        27.73379                0               0                0               0
1.38158                 0.987496       -16.44257      0.001788502        23.99013                0               0                0               0
1.38816                0.9871459       -16.58809      0.001802181        20.37267                0               0                0               0
1.39474                0.9867794       -16.73516        0.0018147         16.8881                0               0                0               0
1.40132                0.9863961       -16.88374      0.001826487        13.54231                0               0                0               0
1.40789                0.9859961        -17.0338       0.00183803        10.33996                0               0                0               0
1.41447                0.9855793       -17.18531      0.001849885        7.284074                0               0                0               0
1.42105                0.9851456       -17.33823      0.001862664        4.375554                0               0                0               0
1.42763                0.9846956       -17.49255      0.001877037        1.612672                0               0                0               0
1.43421                0.9842296       -17.64825       0.00189372       -1.009411                0               0                0               0
1.44079                0.9837481       -17.80532      0.001913464       -3.499049                0               0                0               0
1.44737                 0.983252       -17.96377      0.001937037       -5.868371                0               0                0               0
1.45395                 0.982742        -18.1236      0.001965206        -8.13332                0               0                0               0
1.46053                0.9822186       -18.28485      0.001998714       -10.31343                0               0                0               0
1.46711                 0.981683       -18.44755      0.002038257       -12.43126                0               0                0               0
1.47368                0.9811357       -18.61175      0.002084462       -14.51162                0               0                0               0
1.48026                0.9805777       -18.77753      0.002137866       -16.58044                0               0                0               0
1.48684                0.9800092       -18.94495        0.0021989       -18.66368                0               0                0               0
1.49342                0.9794309       -19.11411       0.00226788       -20.78602                0               0                0               0
1.5                    0.9788429        -19.2851      0.002345002       -22.96994                0               0                0               0
1.50658                0.9782457       -19.45804      0.002430342       -25.23479                0               0                0               0
1.51316                0.9776389       -19.63303      0.002523866       -27.59633                0               0                0               0
1.51974                0.9770221        -19.8102      0.002625437       -30.06647                0               0                0               0
1.52632                0.9763951       -19.98968      0.002734835       -32.65331                0               0                0               0
1.53289                0.9757567       -20.17159       0.00285176       -35.36145                0               0                0               0
1.53947                0.9751057       -20.35606      0.002975856       -38.19234                0               0                0               0
1.54605                0.9744411       -20.54321      0.003106722       -41.14482                0               0                0               0
1.55263                0.9737613       -20.73315      0.003243919       -44.21558                0               0                0               0
1.55921                0.9730641       -20.92601      0.003386985       -47.39968                0               0                0               0
1.56579                0.9723478       -21.12186      0.003535446       -50.69097                0               0                0               0
1.57237                0.9716101       -21.32082      0.003688815       -54.08248                0               0                0               0
1.57895                0.9708487       -21.52294      0.003846607       -57.56669                0               0                0               0
1.58553                0.9700611        -21.7283      0.004008338       -61.13585                0               0                0               0
1.59211                 0.969245       -21.93695      0.004173531       -64.78209                0               0                0               0
1.59868                0.9683978       -22.14891      0.004341721        -68.4976                0               0                0               0
1.60526                0.9675168       -22.36421      0.004512457       -72.27476                0               0                0               0
1.61184                0.9665998       -22.58286      0.004685306       -76.10613                0               0                0               0
1.61842                0.9656445       -22.80484      0.004859854       -79.98457                0               0                0               0
1.625                  0.9646488       -23.03014       0.00503571       -83.90324                0               0                0               0
1.63158                0.9636104       -23.25872      0.005212509       -87.85558                0               0                0               0
1.63816                0.9625278       -23.49055      0.005389918       -91.83536                0               0                0               0
1.64474                0.9613993       -23.72558      0.005567631       -95.83665                0               0                0               0
1.65132                0.9602237       -23.96377      0.005745382       -99.85384                0               0                0               0
1.65789                0.9589999       -24.20507      0.005922941       -103.8816                0               0                0               0
1.66447                 0.957727       -24.44942      0.006100121       -107.9148                0               0                0               0
1.67105                0.9564048        -24.6968      0.006276784       -111.9488                0               0                0               0
1.67763                0.9550327       -24.94716      0.006452837        -115.979                0               0                0               0
1.68421                0.9536109       -25.20048      0.006628244       -120.0011                0               0                0               0
1.69079                0.9521393       -25.45675      0.006803028       -124.0113                0               0                0               0
1.69737                0.9506184       -25.71598       0.00697727       -128.0059                0               0                0               0
1.70395                0.9490484        -25.9782      0.007151118       -131.9814                0               0                0               0
1.71053                0.9474301       -26.24343      0.007324788       -135.9348                0               0                0               0
1.71711                0.9457639       -26.51176      0.007498569       -139.8633                0               0                0               0
1.72368                0.9440501       -26.78326      0.007672824       -143.7646                0               0                0               0
1.73026                0.9422893       -27.05804      0.007847993       -147.6365                0               0                0               0
1.73684                0.9404819       -27.33624      0.008024592       -151.4775                0               0                0               0
1.74342                0.9386277       -27.61801      0.008203217       -155.2863                0               0                0               0
1.75                   0.9367265       -27.90351      0.008384541       -159.0624                0               0                0               0
1.75658                 0.934778       -28.19294      0.008569314       -162.8053                0               0                0               0
1.76316                0.9327814       -28.48652      0.008758359       -166.5155                0               0                0               0
1.76974                0.9307354       -28.78445      0.008952566       -170.1939                0               0                0               0
1.77632                0.9286382       -29.08699      0.009152886       -173.8418                0               0                0               0
1.78289                0.9264881       -29.39437      0.009360332       -177.4614                0               0                0               0
1.78947                0.9242822       -29.70685      0.009575953        178.9448                0               0                0               0
1.79605                0.9220176       -30.02467      0.009800835        175.3737                0               0                0               0
1.80263                0.9196911        -30.3481       0.01003609        171.8214                0               0                0               0
1.80921                0.9172985       -30.67736       0.01028283        168.2839                0               0                0               0
1.81579                0.9148355       -31.01271       0.01054218        164.7565                0               0                0               0
1.82237                0.9122975       -31.35436       0.01081523        161.2343                0               0                0               0
1.82895                0.9096791       -31.70254       0.01110303         157.712                0               0                0               0
1.83553                0.9069751       -32.05742       0.01140661        154.1843                0               0                0               0
1.84211                0.9041796       -32.41918        0.0117269        150.6457                0               0                0               0
1.84868                0.9012867       -32.78799       0.01206478        147.0908                0               0                0               0
