! TOUCHSTONE file generated by CST MICROWAVE STUDIO
! Date and time: Tue Mar 11 13:57:12 2025
! Project name: transverse.cst
! Parameters = {Fracture=1; B=10; D=160; F=5; Feed=2.85625; L=100; M=20; R=0.384908; S=2; Theta=180; length=57.125; wave=114.25}
! Header version: 2024
! Port assignment regex: !\s*Touchstone port\s*([0-9]+)\s*=\s*(CST MWS port|CST DES external port|CST DES block port)\s*(.+)\s* \(\"(.*)\"\)(\s*mode\s*([0-9]+))?.*
! Touchstone port assignment:
! Touchstone port 1 = CST MWS port 1 ("")
! Touchstone port 2 = CST MWS port 2 ("")
# GHz S MA R 50
1                      0.9978477       -10.03244     0.0003423152       -133.7565                0               0                0               0
1.00658                0.9977467       -10.12316     0.0003605854       -138.1966                0               0                0               0
1.01316                0.9976386       -10.21417     0.0003781928        -142.664                0               0                0               0
1.01974                0.9975241       -10.30545      0.000395051       -147.1429                0               0                0               0
1.02632                0.9974042       -10.39696       0.00041108       -151.6194                0               0                0               0
1.03289                0.9972799       -10.48868     0.0004262059       -156.0811                0               0                0               0
1.03947                0.9971523        -10.5806     0.0004403623       -160.5163                0               0                0               0
1.04605                0.9970226       -10.67273     0.0004534905        -164.914                0               0                0               0
1.05263                 0.996892       -10.76508     0.0004655412       -169.2636                0               0                0               0
1.05921                0.9967615       -10.85767     0.0004764749       -173.5544                0               0                0               0
1.06579                0.9966323       -10.95055     0.0004862639        -177.776                0               0                0               0
1.07237                0.9965054       -11.04376     0.0004948928        178.0826                0               0                0               0
1.07895                0.9963815       -11.13736      0.000502361        174.0324                0               0                0               0
1.08553                0.9962614       -11.23143     0.0005086839        170.0849                0               0                0               0
1.09211                0.9961456       -11.32602     0.0005138946        166.2521                0               0                0               0
1.09868                0.9960345       -11.42123     0.0005180462        162.5463                0               0                0               0
1.10526                0.9959281       -11.51714     0.0005212139        158.9803                0               0                0               0
1.11184                0.9958263       -11.61382     0.0005234974        155.5671                0               0                0               0
1.11842                 0.995729       -11.71138     0.0005250224        152.3197                0               0                0               0
1.125                  0.9956357       -11.80987     0.0005259436        149.2505                0               0                0               0
1.13158                0.9955454       -11.90939     0.0005264457        146.3713                0               0                0               0
1.13816                0.9954575          -12.01     0.0005267449         143.692                0               0                0               0
1.14474                0.9953709       -12.11176     0.0005270886        141.2198                0               0                0               0
1.15132                0.9952843       -12.21474     0.0005277545        138.9586                0               0                0               0
1.15789                0.9951966       -12.31896     0.0005290471        136.9071                0               0                0               0
1.16447                0.9951063       -12.42446     0.0005312919        135.0578                0               0                0               0
1.17105                0.9950122       -12.53126     0.0005348268        133.3962                0               0                0               0
1.17763                0.9949127       -12.63937     0.0005399913        131.9001                0               0                0               0
1.18421                0.9948065       -12.74878      0.000547113        130.5396                0               0                0               0
1.19079                0.9946926       -12.85947     0.0005564927        129.2776                0               0                0               0
1.19737                0.9945694       -12.97142     0.0005683901        128.0723                0               0                0               0
1.20395                0.9944361       -13.08458     0.0005830115        126.8793                0               0                0               0
1.21053                0.9942916       -13.19892      0.000600501        125.6543                0               0                0               0
1.21711                0.9941356       -13.31439     0.0006209355        124.3562                0               0                0               0
1.22368                0.9939672       -13.43093     0.0006443262        122.9495                0               0                0               0
1.23026                0.9937862       -13.54847     0.0006706225        121.4058                0               0                0               0
1.23684                0.9935928       -13.66697     0.0006997203        119.7045                0               0                0               0
1.24342                0.9933868       -13.78636      0.000731471        117.8328                0               0                0               0
1.25                   0.9931688       -13.90659     0.0007656917        115.7848                0               0                0               0
1.25658                0.9929391       -14.02763     0.0008021742        113.5606                0               0                0               0
1.26316                0.9926987       -14.14942     0.0008406941        111.1651                0               0                0               0
1.26974                0.9924483       -14.27193     0.0008810165        108.6064                0               0                0               0
1.27632                0.9921889       -14.39517     0.0009229018        105.8954                0               0                0               0
1.28289                0.9919217        -14.5191     0.0009661099        103.0442                0               0                0               0
1.28947                0.9916477       -14.64375      0.001010404        100.0659                0               0                0               0
1.29605                0.9913683       -14.76914      0.001055551        96.97393                0               0                0               0
1.30263                0.9910844       -14.89529      0.001101326        93.78151                0               0                0               0
1.30921                0.9907971       -15.02226      0.001147513        90.50167                0               0                0               0
1.31579                0.9905076       -15.15011      0.001193903        87.14692                0               0                0               0
1.32237                0.9902165       -15.27891      0.001240301        83.72921                0               0                0               0
1.32895                0.9899246       -15.40875      0.001286521        80.25994                0               0                0               0
1.33553                0.9896326       -15.53971      0.001332392        76.74989                0               0                0               0
1.34211                0.9893405        -15.6719      0.001377757        73.20929                0               0                0               0
1.34868                0.9890483       -15.80542      0.001422474        69.64782                0               0                0               0
1.35526                 0.988756       -15.94038      0.001466419        66.07468                0               0                0               0
1.36184                0.9884631       -16.07689      0.001509484         62.4986                0               0                0               0
1.36842                0.9881688       -16.21505      0.001551584        58.92791                0               0                0               0
1.375                  0.9878722       -16.35497      0.001592656        55.37052                0               0                0               0
1.38158                0.9875723       -16.49673      0.001632659          51.834                0               0                0               0
1.38816                0.9872676       -16.64044      0.001671578        48.32552                0               0                0               0
1.39474                0.9869565       -16.78616      0.001709427        44.85194                0               0                0               0
1.40132                0.9866374       -16.93395      0.001746248        41.41971                0               0                0               0
1.40789                0.9863087       -17.08388      0.001782117         38.0349                0               0                0               0
1.41447                0.9859683       -17.23599      0.001817139        34.70312                0               0                0               0
1.42105                0.9856144       -17.39029      0.001851459        31.42948                0               0                0               0
1.42763                0.9852452        -17.5468      0.001885255        28.21852                0               0                0               0
1.43421                0.9848591       -17.70552      0.001918744        25.07407                0               0                0               0
1.44079                0.9844542       -17.86643      0.001952177        21.99923                0               0                0               0
1.44737                0.9840288       -18.02951      0.001985847        18.99615                0               0                0               0
1.45395                0.9835818       -18.19472       0.00202008          16.066                0               0                0               0
1.46053                0.9831121       -18.36202      0.002055237         13.2088                0               0                0               0
1.46711                0.9826184       -18.53135       0.00209171        10.42329                0               0                0               0
1.47368                0.9821002       -18.70267      0.002129919        7.706922                0               0                0               0
1.48026                 0.981557       -18.87592      0.002170302        5.055703                0               0                0               0
1.48684                0.9809886       -19.05106      0.002213317        2.464247                0               0                0               0
1.49342                0.9803949       -19.22802      0.002259425     -0.07421212                0               0                0               0
1.5                    0.9797763       -19.40677      0.002309088       -2.567715                0               0                0               0
1.50658                0.9791332       -19.58728      0.002362758       -5.025419                0               0                0               0
1.51316                0.9784663       -19.76953       0.00242087        -7.45737                0               0                0               0
1.51974                0.9777762       -19.95351      0.002483828       -9.874235                0               0                0               0
1.52632                0.9770641       -20.13922      0.002552005       -12.28698                0               0                0               0
1.53289                0.9763308        -20.3267      0.002625731       -14.70657                0               0                0               0
1.53947                0.9755773       -20.51599      0.002705289       -17.14359                0               0                0               0
1.54605                0.9748046       -20.70714       0.00279091       -19.60801                0               0                0               0
1.55263                0.9740136       -20.90024      0.002882775       -22.10889                0               0                0               0
1.55921                0.9732051       -21.09538      0.002981012        -24.6542                0               0                0               0
1.56579                0.9723797       -21.29266      0.003085697       -27.25065                0               0                0               0
1.57237                0.9715378       -21.49223      0.003196857       -29.90364                0               0                0               0
1.57895                0.9706795       -21.69421      0.003314476       -32.61725                0               0                0               0
1.58553                0.9698046       -21.89877      0.003438499       -35.39426                0               0                0               0
1.59211                0.9689127       -22.10605      0.003568833       -38.23626                0               0                0               0
1.59868                 0.968003       -22.31624      0.003705358       -41.14371                0               0                0               0
1.60526                0.9670743       -22.52949      0.003847932       -44.11612                0               0                0               0
1.61184                 0.966125       -22.74597      0.003996391       -47.15216                0               0                0               0
1.61842                0.9651534       -22.96586      0.004150561        -50.2498                0               0                0               0
1.625                  0.9641573       -23.18931       0.00431026       -53.40644                0               0                0               0
1.63158                0.9631339       -23.41647      0.004475302       -56.61906                0               0                0               0
1.63816                0.9620808       -23.64748      0.004645504       -59.88431                0               0                0               0
1.64474                0.9609946       -23.88248      0.004820687       -63.19861                0               0                0               0
1.65132                0.9598723       -24.12155      0.005000684       -66.55825                0               0                0               0
1.65789                0.9587102       -24.36481      0.005185341       -69.95945                0               0                0               0
1.66447                0.9575049       -24.61231       0.00537452       -73.39846                0               0                0               0
1.67105                0.9562527       -24.86412      0.005568102       -76.87154                0               0                0               0
1.67763                0.9549502       -25.12027      0.005765997       -80.37509                0               0                0               0
1.68421                0.9535934       -25.38077      0.005968133       -83.90561                0               0                0               0
1.69079                0.9521792       -25.64563      0.006174474        -87.4598                0               0                0               0
1.69737                0.9507044       -25.91481      0.006385012       -91.03453                0               0                0               0
1.70395                0.9491656       -26.18828      0.006599772       -94.62687                0               0                0               0
1.71053                0.9475598         -26.466      0.006818815       -98.23414                0               0                0               0
1.71711                0.9458848       -26.74791      0.007042241       -101.8539                0               0                0               0
1.72368                 0.944138       -27.03395      0.007270184       -105.4839                0               0                0               0
1.73026                0.9423174       -27.32404      0.007502821       -109.1222                0               0                0               0
1.73684                0.9404213       -27.61812      0.007740368       -112.7672                0               0                0               0
1.74342                0.9384483       -27.91613      0.007983081       -116.4175                0               0                0               0
1.75                   0.9363974       -28.21801      0.008231258       -120.0719                0               0                0               0
1.75658                0.9342673       -28.52372      0.008485231       -123.7295                0               0                0               0
1.76316                0.9320579       -28.83322      0.008745375       -127.3899                0               0                0               0
1.76974                0.9297686        -29.1465      0.009012101       -131.0526                0               0                0               0
1.77632                0.9273989       -29.46356      0.009285851       -134.7178                0               0                0               0
1.78289                0.9249487       -29.78443      0.009567099       -138.3855                0               0                0               0
1.78947                0.9224178       -30.10916      0.009856348       -142.0563                0               0                0               0
1.79605                0.9198059       -30.43782       0.01015412       -145.7309                0               0                0               0
1.80263                0.9171128       -30.77051       0.01046096       -149.4102                0               0                0               0
1.80921                0.9143378       -31.10737       0.01077744       -153.0954                0               0                0               0
1.81579                0.9114801       -31.44853        0.0111041       -156.7877                0               0                0               0
1.82237                0.9085386       -31.79417       0.01144153       -160.4886                0               0                0               0
1.82895                0.9055118       -32.14447        0.0117903       -164.1997                0               0                0               0
1.83553                0.9023979       -32.49966       0.01215095       -167.9227                0               0                0               0
1.84211                0.8991942       -32.85995       0.01252404       -171.6594                0               0                0               0
1.84868                 0.895898       -33.22558       0.01291009       -175.4115                0               0                0               0
