! TOUCHSTONE file generated by CST MICROWAVE STUDIO
! Date and time: Tue Mar 11 13:57:05 2025
! Project name: transverse.cst
! Parameters = {Fracture=5; B=12.5; D=160; F=25; Feed=2.85625; L=100; M=10; R=0.384908; S=1; Theta=90; length=57.125; wave=114.25}
! Header version: 2024
! Port assignment regex: !\s*Touchstone port\s*([0-9]+)\s*=\s*(CST MWS port|CST DES external port|CST DES block port)\s*(.+)\s* \(\"(.*)\"\)(\s*mode\s*([0-9]+))?.*
! Touchstone port assignment:
! Touchstone port 1 = CST MWS port 1 ("")
! Touchstone port 2 = CST MWS port 2 ("")
# GHz S MA R 50
1                      0.9976288       -9.800586     0.0004090904        -168.003                0               0                0               0
1.00658                0.9975692       -9.887694     0.0004059502        -172.309                0               0                0               0
1.01316                0.9975102       -9.975546     0.0004014034       -176.3967                0               0                0               0
1.01974                0.9974511       -10.06418     0.0003955368        179.7634                0               0                0               0
1.02632                0.9973914       -10.15362     0.0003884739        176.2057                0               0                0               0
1.03289                0.9973306       -10.24389     0.0003803834        172.9703                0               0                0               0
1.03947                0.9972678       -10.33501     0.0003714889        170.1027                0               0                0               0
1.04605                0.9972024       -10.42701     0.0003620804        167.6535                0               0                0               0
1.05263                0.9971336       -10.51988     0.0003525274        165.6758                0               0                0               0
1.05921                0.9970607       -10.61363     0.0003432906        164.2209                0               0                0               0
1.06579                0.9969831       -10.70825     0.0003349312        163.3306                0               0                0               0
1.07237                0.9969001       -10.80374     0.0003281104        163.0259                0               0                0               0
1.07895                0.9968111       -10.90008     0.0003235717        163.2912                0               0                0               0
1.08553                0.9967155       -10.99724     0.0003220996        164.0601                0               0                0               0
1.09211                0.9966131       -11.09522     0.0003244512        165.2067                0               0                0               0
1.09868                0.9965034       -11.19398     0.0003312705        166.5517                0               0                0               0
1.10526                0.9963863        -11.2935     0.0003430076        167.8862                0               0                0               0
1.11184                0.9962616       -11.39374     0.0003598725        169.0067                0               0                0               0
1.11842                0.9961292        -11.4947     0.0003818376        169.7482                0               0                0               0
1.125                  0.9959895       -11.59632     0.0004086823         170.003                0               0                0               0
1.13158                0.9958423        -11.6986     0.0004400582        169.7215                0               0                0               0
1.13816                0.9956881       -11.80151     0.0004755534        168.9013                0               0                0               0
1.14474                0.9955274       -11.90504     0.0005147385        167.5714                0               0                0               0
1.15132                0.9953604       -12.00918     0.0005571973        165.7783                0               0                0               0
1.15789                0.9951878       -12.11393     0.0006025412        163.5754                0               0                0               0
1.16447                  0.99501       -12.21927     0.0006504133        161.0162                0               0                0               0
1.17105                0.9948275       -12.32523     0.0007004889        158.1511                0               0                0               0
1.17763                0.9946411       -12.43181     0.0007524713        155.0253                0               0                0               0
1.18421                0.9944512       -12.53904     0.0008060882        151.6786                0               0                0               0
1.19079                0.9942582       -12.64695     0.0008610873        148.1455                0               0                0               0
1.19737                0.9940628       -12.75556     0.0009172333        144.4557                0               0                0               0
1.20395                0.9938652       -12.86493     0.0009743046        140.6348                0               0                0               0
1.21053                0.9936657       -12.97508      0.001032091        136.7047                0               0                0               0
1.21711                0.9934645       -13.08607      0.001090394        132.6843                0               0                0               0
1.22368                0.9932619       -13.19795      0.001149022        128.5899                0               0                0               0
1.23026                0.9930576       -13.31078      0.001207793        124.4359                0               0                0               0
1.23684                0.9928516        -13.4246      0.001266534        120.2346                0               0                0               0
1.24342                0.9926438       -13.53947      0.001325077         115.997                0               0                0               0
1.25                   0.9924335       -13.65543      0.001383267         111.733                0               0                0               0
1.25658                0.9922205       -13.77255      0.001440954        107.4511                0               0                0               0
1.26316                0.9920042       -13.89087         0.001498        103.1595                0               0                0               0
1.26974                 0.991784       -14.01042      0.001554276        98.86512                0               0                0               0
1.27632                 0.991559       -14.13124      0.001609665         94.5747                0               0                0               0
1.28289                0.9913286       -14.25337      0.001664063        90.29432                0               0                0               0
1.28947                0.9910919       -14.37684       0.00171738        86.02964                0               0                0               0
1.29605                0.9908483       -14.50166       0.00176954          81.786                0               0                0               0
1.30263                0.9905966       -14.62783      0.001820484        77.56841                0               0                0               0
1.30921                0.9903362       -14.75538      0.001870169         73.3816                0               0                0               0
1.31579                0.9900664        -14.8843      0.001918575        69.23006                0               0                0               0
1.32237                0.9897865       -15.01459      0.001965699        65.11804                0               0                0               0
1.32895                0.9894957       -15.14624      0.002011562        61.04956                0               0                0               0
1.33553                0.9891938       -15.27924      0.002056207        57.02838                0               0                0               0
1.34211                0.9888802       -15.41356      0.002099705        53.05805                0               0                0               0
1.34868                0.9885545        -15.5492      0.002142148        49.14179                0               0                0               0
1.35526                0.9882166       -15.68614       0.00218366        45.28253                0               0                0               0
1.36184                0.9878664       -15.82436      0.002224389        41.48284                0               0                0               0
1.36842                0.9875039       -15.96384      0.002264512        37.74488                0               0                0               0
1.375                  0.9871294       -16.10458      0.002304238        34.07035                0               0                0               0
1.38158                 0.986743       -16.24656      0.002343798        30.46041                0               0                0               0
1.38816                 0.986345        -16.3898      0.002383454        26.91563                0               0                0               0
1.39474                0.9859361       -16.53428      0.002423494        23.43591                0               0                0               0
1.40132                0.9855164       -16.68003      0.002464228        20.02044                0               0                0               0
1.40789                0.9850867       -16.82706      0.002505986        16.66761                0               0                0               0
1.41447                0.9846474       -16.97541       0.00254912          13.375                0               0                0               0
1.42105                 0.984199        -17.1251      0.002593989        10.13936                0               0                0               0
1.42763                0.9837421       -17.27619      0.002640964        6.956562                0               0                0               0
1.43421                0.9832771       -17.42873      0.002690419        3.821681                0               0                0               0
1.44079                0.9828045       -17.58278      0.002742722       0.7290159                0               0                0               0
1.44737                0.9823243       -17.73842      0.002798234       -2.327814                0               0                0               0
1.45395                0.9818369       -17.89571      0.002857301       -5.355754                0               0                0               0
1.46053                0.9813423       -18.05474      0.002920243       -8.362175                0               0                0               0
1.46711                0.9808405        -18.2156      0.002987356       -11.35471                0               0                0               0
1.47368                0.9803312       -18.37838        0.0030589       -14.34108                0               0                0               0
1.48026                 0.979814       -18.54317      0.003135102       -17.32891                0               0                0               0
1.48684                0.9792884       -18.71007      0.003216144       -20.32557                0               0                0               0
1.49342                0.9787536       -18.87917      0.003302166       -23.33799                0               0                0               0
1.5                    0.9782089       -19.05056      0.003393264       -26.37252                0               0                0               0
1.50658                0.9776532       -19.22433      0.003489491       -29.43487                0               0                0               0
1.51316                0.9770854       -19.40058      0.003590853       -32.52995                0               0                0               0
1.51974                0.9765043       -19.57938      0.003697315       -35.66186                0               0                0               0
1.52632                0.9759085        -19.7608      0.003808806       -38.83385                0               0                0               0
1.53289                0.9752967       -19.94492      0.003925213       -42.04836                0               0                0               0
1.53947                0.9746672        -20.1318      0.004046393         -45.307                0               0                0               0
1.54605                0.9740189        -20.3215      0.004172175       -48.61063                0               0                0               0
1.55263                0.9733499       -20.51407      0.004302362       -51.95941                0               0                0               0
1.55921                 0.972659       -20.70954      0.004436736       -55.35286                0               0                0               0
1.56579                0.9719444       -20.90796      0.004575063       -58.78995                0               0                0               0
1.57237                 0.971205       -21.10937      0.004717097       -62.26915                0               0                0               0
1.57895                0.9704394       -21.31378      0.004862585       -65.78856                0               0                0               0
1.58553                0.9696461       -21.52123      0.005011265        -69.3459                0               0                0               0
1.59211                0.9688241       -21.73174      0.005162881       -72.93864                0               0                0               0
1.59868                0.9679723       -21.94533      0.005317176       -76.56402                0               0                0               0
1.60526                0.9670898       -22.16204      0.005473902       -80.21913                0               0                0               0
1.61184                0.9661755       -22.38188      0.005632821       -83.90095                0               0                0               0
1.61842                0.9652288        -22.6049      0.005793707       -87.60638                0               0                0               0
1.625                  0.9642488       -22.83113      0.005956354        -91.3323                0               0                0               0
1.63158                0.9632348       -23.06061      0.006120572       -95.07557                0               0                0               0
1.63816                0.9621864       -23.29339      0.006286202       -98.83309                0               0                0               0
1.64474                0.9611028       -23.52955      0.006453102       -102.6018                0               0                0               0
1.65132                0.9599834       -23.76915      0.006621166       -106.3787                0               0                0               0
1.65789                0.9588278       -24.01228      0.006790321        -110.161                0               0                0               0
1.66447                0.9576349       -24.25903      0.006960523       -113.9459                0               0                0               0
1.67105                0.9564041       -24.50951      0.007131772       -117.7307                0               0                0               0
1.67763                0.9551345       -24.76383      0.007304106       -121.5129                0               0                0               0
1.68421                0.9538249       -25.02211      0.007477605       -125.2903                0               0                0               0
1.69079                0.9524742        -25.2845      0.007652394       -129.0608                0               0                0               0
1.69737                0.9510807       -25.55114      0.007828644       -132.8223                0               0                0               0
1.70395                0.9496429       -25.82218      0.008006575       -136.5732                0               0                0               0
1.71053                0.9481588       -26.09778      0.008186456       -140.3121                0               0                0               0
1.71711                 0.946626        -26.3781      0.008368601       -144.0376                0               0                0               0
1.72368                0.9450423        -26.6633      0.008553378        -147.749                0               0                0               0
1.73026                0.9434048       -26.95354      0.008741202       -151.4455                0               0                0               0
1.73684                0.9417103         -27.249      0.008932536       -155.1268                0               0                0               0
1.74342                0.9399558       -27.54982      0.009127887       -158.7929                0               0                0               0
1.75                   0.9381373       -27.85616      0.009327802        -162.444                0               0                0               0
1.75658                0.9362512       -28.16816      0.009532873       -166.0809                0               0                0               0
1.76316                0.9342934       -28.48596      0.009743723       -169.7044                0               0                0               0
1.76974                0.9322597       -28.80969      0.009961008       -173.3158                0               0                0               0
1.77632                0.9301455       -29.13945        0.0101854       -176.9168                0               0                0               0
1.78289                0.9279462       -29.47535        0.0104176        179.4907                0               0                0               0
1.78947                0.9256573       -29.81748       0.01065832        175.9046                0               0                0               0
1.79605                0.9232737        -30.1659       0.01090825        172.3224                0               0                0               0
1.80263                0.9207907       -30.52068       0.01116811        168.7414                0               0                0               0
1.80921                0.9182034       -30.88185       0.01143859        165.1588                0               0                0               0
1.81579                0.9155071       -31.24946       0.01172035        161.5715                0               0                0               0
1.82237                0.9126968       -31.62351       0.01201403        157.9765                0               0                0               0
1.82895                0.9097679       -32.00401       0.01232025        154.3706                0               0                0               0
1.83553                0.9067157       -32.39097       0.01263955        150.7505                0               0                0               0
1.84211                0.9035356       -32.78436       0.01297246        147.1133                0               0                0               0
1.84868                0.9002234       -33.18417       0.01331941        143.4559                0               0                0               0
