! TOUCHSTONE file generated by CST MICROWAVE STUDIO
! Date and time: Tue Mar 11 13:57:47 2025
! Project name: transverse.cst
! Parameters = {Fracture=1; B=12.5; D=160; F=25; Feed=2.85625; L=100; M=20; R=0.384908; S=2; Theta=180; length=57.125; wave=114.25}
! Header version: 2024
! Port assignment regex: !\s*Touchstone port\s*([0-9]+)\s*=\s*(CST MWS port|CST DES external port|CST DES block port)\s*(.+)\s* \(\"(.*)\"\)(\s*mode\s*([0-9]+))?.*
! Touchstone port assignment:
! Touchstone port 1 = CST MWS port 1 ("")
! Touchstone port 2 = CST MWS port 2 ("")
# GHz S MA R 50
1                      0.9976036       -9.991348     0.0004517861        176.2429                0               0                0               0
1.00658                0.9975355         -10.079     0.0004532526        171.3941                0               0                0               0
1.01316                0.9974685       -10.16733     0.0004533986        166.6721                0               0                0               0
1.01974                0.9974027       -10.25637     0.0004522435        162.0893                0               0                0               0
1.02632                0.9973374       -10.34617     0.0004498232          157.66                0               0                0               0
1.03289                 0.997272       -10.43676      0.000446192        153.4005                0               0                0               0
1.03947                0.9972059       -10.52818     0.0004414256        149.3295                0               0                0               0
1.04605                0.9971385       -10.62045     0.0004356246        145.4681                0               0                0               0
1.05263                 0.997069        -10.7136     0.0004289182        141.8401                0               0                0               0
1.05921                0.9969966       -10.80764     0.0004214687        138.4715                0               0                0               0
1.06579                0.9969204       -10.90257      0.000413476        135.3901                0               0                0               0
1.07237                  0.99684        -10.9984     0.0004051832         132.625                0               0                0               0
1.07895                0.9967542       -11.09512     0.0003968807        130.2043                0               0                0               0
1.08553                0.9966626       -11.19273     0.0003889096        128.1532                0               0                0               0
1.09211                0.9965644        -11.2912     0.0003816625        126.4894                0               0                0               0
1.09868                0.9964591       -11.39052     0.0003755788        125.2191                0               0                0               0
1.10526                0.9963462       -11.49066     0.0003711332        124.3307                0               0                0               0
1.11184                0.9962253       -11.59158     0.0003688159        123.7894                0               0                0               0
1.11842                0.9960961       -11.69327     0.0003691025        123.5346                0               0                0               0
1.125                  0.9959584       -11.79569     0.0003724178        123.4799                0               0                0               0
1.13158                0.9958124       -11.89881     0.0003790985        123.5194                0               0                0               0
1.13816                 0.995658       -12.00259     0.0003893642        123.5387                0               0                0               0
1.14474                0.9954953       -12.10701      0.000403302        123.4284                0               0                0               0
1.15132                0.9953248       -12.21205       0.00042087        123.0954                0               0                0               0
1.15789                0.9951468       -12.31767     0.0004419153        122.4714                0               0                0               0
1.16447                0.9949616       -12.42388     0.0004662016        121.5145                0               0                0               0
1.17105                  0.99477       -12.53065     0.0004934384        120.2073                0               0                0               0
1.17763                0.9945724       -12.63798     0.0005233065        118.5517                0               0                0               0
1.18421                0.9943695       -12.74588     0.0005554776        116.5635                0               0                0               0
1.19079                0.9941619       -12.85436     0.0005896273        114.2668                0               0                0               0
1.19737                0.9939502       -12.96344     0.0006254433        111.6902                0               0                0               0
1.20395                 0.993735       -13.07313     0.0006626287        108.8637                0               0                0               0
1.21053                0.9935168       -13.18347     0.0007009039        105.8171                0               0                0               0
1.21711                0.9932961       -13.29449     0.0007400059        102.5784                0               0                0               0
1.22368                0.9930733       -13.40625     0.0007796876        99.17346                0               0                0               0
1.23026                0.9928487       -13.51878     0.0008197168        95.62605                0               0                0               0
1.23684                0.9926225       -13.63214     0.0008598747        91.95748                0               0                0               0
1.24342                0.9923946       -13.74638     0.0008999548        88.18695                0               0                0               0
1.25                   0.9921652       -13.86155     0.0009397628        84.33169                0               0                0               0
1.25658                0.9919341       -13.97771     0.0009791155        80.40722                0               0                0               0
1.26316                0.9917009       -14.09491      0.001017841        76.42754                0               0                0               0
1.26974                0.9914652       -14.21321      0.001055777        72.40538                0               0                0               0
1.27632                0.9912265       -14.33265      0.001092775        68.35235                0               0                0               0
1.28289                0.9909843       -14.45329      0.001128697        64.27918                0               0                0               0
1.28947                0.9907378       -14.57515      0.001163417        60.19582                0               0                0               0
1.29605                0.9904863       -14.69828      0.001196824        56.11162                0               0                0               0
1.30263                0.9902291        -14.8227       0.00122882        52.03538                0               0                0               0
1.30921                0.9899652       -14.94844      0.001259322        47.97558                0               0                0               0
1.31579                0.9896938       -15.07551      0.001288268         43.9403                0               0                0               0
1.32237                0.9894142       -15.20393       0.00131561        39.93743                0               0                0               0
1.32895                0.9891255       -15.33368      0.001341322        35.97464                0               0                0               0
1.33553                0.9888271       -15.46478      0.001365402        32.05946                0               0                0               0
1.34211                0.9885183       -15.59721       0.00138787        28.19926                0               0                0               0
1.34868                0.9881985       -15.73096      0.001408771        24.40132                0               0                0               0
1.35526                0.9878674       -15.86602      0.001428183        20.67272                0               0                0               0
1.36184                0.9875244       -16.00236      0.001446208        17.02037                0               0                0               0
1.36842                0.9871695       -16.13997      0.001462986        13.45091                0               0                0               0
1.375                  0.9868026       -16.27883      0.001478687        9.970623                0               0                0               0
1.38158                0.9864236       -16.41892      0.001493521        6.585264                0               0                0               0
1.38816                0.9860327       -16.56023      0.001507731         3.29994                0               0                0               0
1.39474                0.9856303       -16.70274        0.0015216       0.1188803                0               0                0               0
1.40132                0.9852166       -16.84646      0.001535451       -2.954796                0               0                0               0
1.40789                0.9847923       -16.99139       0.00154964        -5.91934                0               0                0               0
1.41447                0.9843576       -17.13753      0.001564559       -8.774652                0               0                0               0
1.42105                0.9839134       -17.28491      0.001580632       -11.52255                0               0                0               0
1.42763                0.9834603       -17.43354      0.001598306       -14.16701                0               0                0               0
1.43421                0.9829986       -17.58348      0.001618048       -16.71438                0               0                0               0
1.44079                0.9825293       -17.73475      0.001640334       -19.17342                0               0                0               0
1.44737                0.9820527       -17.88743      0.001665638       -21.55537                0               0                0               0
1.45395                0.9815694       -18.04157      0.001694424       -23.87369                0               0                0               0
1.46053                0.9810798       -18.19726       0.00172713       -26.14381                0               0                0               0
1.46711                0.9805841       -18.35456      0.001764159       -28.38264                0               0                0               0
1.47368                0.9800825       -18.51357      0.001805869         -30.608                0               0                0               0
1.48026                0.9795749       -18.67439       0.00185256       -32.83792                0               0                0               0
1.48684                0.9790613       -18.83711      0.001904473       -35.09003                0               0                0               0
1.49342                0.9785411       -19.00184      0.001961781       -37.38085                0               0                0               0
1.5                    0.9780138       -19.16869      0.002024591       -39.72529                0               0                0               0
1.50658                0.9774789       -19.33774      0.002092942        -42.1362                0               0                0               0
1.51316                0.9769352       -19.50912      0.002166814       -44.62412                0               0                0               0
1.51974                0.9763816       -19.68292      0.002246127       -47.19719                0               0                0               0
1.52632                0.9758172       -19.85924       0.00233075       -49.86112                0               0                0               0
1.53289                0.9752402       -20.03816       0.00242051       -52.61939                0               0                0               0
1.53947                0.9746492       -20.21977      0.002515197        -55.4734                0               0                0               0
1.54605                0.9740426       -20.40414      0.002614573        -58.4228                0               0                0               0
1.55263                0.9734186       -20.59135      0.002718373        -61.4657                0               0                0               0
1.55921                0.9727755       -20.78144       0.00282632       -64.59904                0               0                0               0
1.56579                0.9721114       -20.97448      0.002938122       -67.81877                0               0                0               0
1.57237                0.9714243       -21.17049      0.003053483       -71.12014                0               0                0               0
1.57895                0.9707128        -21.3695      0.003172103       -74.49789                0               0                0               0
1.58553                0.9699748       -21.57155      0.003293682       -77.94645                0               0                0               0
1.59211                0.9692089       -21.77664      0.003417927       -81.46005                0               0                0               0
1.59868                0.9684133       -21.98478       0.00354455       -85.03283                0               0                0               0
1.60526                0.9675865       -22.19597      0.003673274       -88.65898                0               0                0               0
1.61184                0.9667276        -22.4102      0.003803833       -92.33275                0               0                0               0
1.61842                 0.965835       -22.62749      0.003935975       -96.04853                0               0                0               0
1.625                  0.9649079       -22.84781      0.004069468       -99.80089                0               0                0               0
1.63158                0.9639454       -23.07116      0.004204095       -103.5846                0               0                0               0
1.63816                0.9629468       -23.29756      0.004339661       -107.3946                0               0                0               0
1.64474                0.9619116       -23.52699      0.004475993       -111.2261                0               0                0               0
1.65132                0.9608392       -23.75948      0.004612946       -115.0746                0               0                0               0
1.65789                0.9597296       -23.99504        0.0047504       -118.9357                0               0                0               0
1.66447                0.9585824        -24.2337      0.004888263       -122.8053                0               0                0               0
1.67105                0.9573974        -24.4755      0.005026476       -126.6797                0               0                0               0
1.67763                0.9561747       -24.72051      0.005165013       -130.5551                0               0                0               0
1.68421                0.9549141       -24.96878      0.005303882       -134.4283                0               0                0               0
1.69079                0.9536157       -25.22041      0.005443131       -138.2962                0               0                0               0
1.69737                0.9522791       -25.47548      0.005582842       -142.1559                0               0                0               0
1.70395                 0.950904       -25.73411      0.005723142        -146.005                0               0                0               0
1.71053                0.9494902       -25.99642      0.005864195       -149.8412                0               0                0               0
1.71711                 0.948037       -26.26256      0.006006209       -153.6625                0               0                0               0
1.72368                0.9465439       -26.53267      0.006149438       -157.4673                0               0                0               0
1.73026                0.9450097       -26.80692      0.006294175       -161.2543                0               0                0               0
1.73684                0.9434333        -27.0855      0.006440756       -165.0226                0               0                0               0
1.74342                0.9418133       -27.36857      0.006589562       -168.7715                0               0                0               0
1.75                   0.9401478       -27.65634      0.006741012       -172.5008                0               0                0               0
1.75658                0.9384348         -27.949      0.006895564       -176.2107                0               0                0               0
1.76316                0.9366722       -28.24675      0.007053713       -179.9016                0               0                0               0
1.76974                0.9348569       -28.54979      0.007215982        176.4255                0               0                0               0
1.77632                0.9329861       -28.85833      0.007382926        172.7692                0               0                0               0
1.78289                0.9310568       -29.17256      0.007555123         169.128                0               0                0               0
1.78947                 0.929065        -29.4927      0.007733168        165.4997                0               0                0               0
1.79605                0.9270072       -29.81892      0.007917665         161.882                0               0                0               0
1.80263                0.9248792       -30.15141      0.008109227        158.2721                0               0                0               0
1.80921                0.9226767       -30.49035      0.008308463         154.667                0               0                0               0
1.81579                0.9203953       -30.83592      0.008515975        151.0636                0               0                0               0
1.82237                0.9180301       -31.18826      0.008732346        147.4585                0               0                0               0
1.82895                0.9155764       -31.54755      0.008958138        143.8481                0               0                0               0
1.83553                0.9130292        -31.9139      0.009193883        140.2288                0               0                0               0
1.84211                0.9103834       -32.28747      0.009440073         136.597                0               0                0               0
1.84868                0.9076336       -32.66837      0.009697163        132.9492                0               0                0               0
