! TOUCHSTONE file generated by CST MICROWAVE STUDIO
! Date and time: Tue Mar 11 13:56:43 2025
! Project name: transverse.cst
! Parameters = {Fracture=5; B=10; D=160; F=25; Feed=2.85625; L=100; M=30; R=0.384908; S=1; Theta=90; length=57.125; wave=114.25}
! Header version: 2024
! Port assignment regex: !\s*Touchstone port\s*([0-9]+)\s*=\s*(CST MWS port|CST DES external port|CST DES block port)\s*(.+)\s* \(\"(.*)\"\)(\s*mode\s*([0-9]+))?.*
! Touchstone port assignment:
! Touchstone port 1 = CST MWS port 1 ("")
! Touchstone port 2 = CST MWS port 2 ("")
# GHz S MA R 50
1                      0.9975473       -9.743515     0.0005218645        167.4706                0               0                0               0
1.00658                0.9974846        -9.82903     0.0005177167         161.597                0               0                0               0
1.01316                0.9974246       -9.915255     0.0005114122        155.8409                0               0                0               0
1.01974                0.9973667       -10.00224     0.0005029235        150.2137                0               0                0               0
1.02632                0.9973105       -10.09003     0.0004922382        144.7305                0               0                0               0
1.03289                0.9972551       -10.17869     0.0004793605        139.4108                0               0                0               0
1.03947                0.9971997       -10.26824      0.000464315        134.2801                0               0                0               0
1.04605                0.9971434       -10.35871     0.0004471515        129.3716                0               0                0               0
1.05263                0.9970855       -10.45013     0.0004279512         124.729                0               0                0               0
1.05921                0.9970246       -10.54252     0.0004068364        120.4099                0               0                0               0
1.06579                0.9969602       -10.63588     0.0003839853        116.4919                0               0                0               0
1.07237                0.9968909       -10.73021     0.0003596529        113.0792                0               0                0               0
1.07895                 0.996816        -10.8255     0.0003342059        110.3135                0               0                0               0
1.08553                0.9967346       -10.92173     0.0003081736        108.3864                0               0                0               0
1.09211                0.9966458       -11.01887     0.0002823281        107.5521                0               0                0               0
1.09868                0.9965492       -11.11691     0.0002577989        108.1286                0               0                0               0
1.10526                 0.996444       -11.21579       0.00023621        110.4582                0               0                0               0
1.11184                0.9963298       -11.31549     0.0002197661        114.7685                0               0                0               0
1.11842                0.9962063       -11.41595     0.0002110793         120.895                0               0                0               0
1.125                  0.9960735       -11.51714     0.0002124915        128.0202                0               0                0               0
1.13158                0.9959315       -11.61902     0.0002250917         134.842                0               0                0               0
1.13816                0.9957804       -11.72154     0.0002482952        140.2309                0               0                0               0
1.14474                0.9956204       -11.82466      0.000280415        143.7006                0               0                0               0
1.15132                0.9954521       -11.92836     0.0003195357        145.3177                0               0                0               0
1.15789                0.9952761        -12.0326     0.0003640155        145.3916                0               0                0               0
1.16447                 0.995093       -12.13738     0.0004125976        144.2633                0               0                0               0
1.17105                0.9949036       -12.24267     0.0004643508        142.2221                0               0                0               0
1.17763                0.9947087       -12.34848     0.0005185771        139.4918                0               0                0               0
1.18421                0.9945091       -12.45481     0.0005747371        136.2393                0               0                0               0
1.19079                0.9943058       -12.56169     0.0006323963        132.5881                0               0                0               0
1.19737                0.9940995       -12.66913     0.0006911892        128.6299                0               0                0               0
1.20395                0.9938909       -12.77718     0.0007507974        124.4336                0               0                0               0
1.21053                0.9936808       -12.88588     0.0008109336        120.0516                0               0                0               0
1.21711                0.9934696       -12.99527     0.0008713328        115.5243                0               0                0               0
1.22368                 0.993258       -13.10543     0.0009317453        110.8833                0               0                0               0
1.23026                0.9930462       -13.21641     0.0009919334        106.1538                0               0                0               0
1.23684                0.9928344       -13.32828      0.001051668        101.3561                0               0                0               0
1.24342                0.9926224       -13.44112      0.001110729        96.50691                0               0                0               0
1.25                   0.9924104       -13.55499      0.001168902        91.62022                0               0                0               0
1.25658                0.9921977       -13.66998       0.00122598        86.70779                0               0                0               0
1.26316                0.9919839       -13.78614      0.001281763        81.77983                0               0                0               0
1.26974                0.9917683       -13.90355      0.001336059        76.84528                0               0                0               0
1.27632                  0.99155       -14.02226      0.001388683        71.91211                0               0                0               0
1.28289                0.9913283       -14.14234      0.001439462         66.9876                0               0                0               0
1.28947                0.9911019       -14.26382      0.001488231        62.07846                0               0                0               0
1.29605                0.9908696       -14.38675      0.001534838        57.19101                0               0                0               0
1.30263                0.9906305       -14.51115      0.001579144        52.33131                0               0                0               0
1.30921                0.9903832       -14.63704      0.001621025        47.50522                0               0                0               0
1.31579                0.9901263       -14.76444      0.001660374        42.71854                0               0                0               0
1.32237                0.9898589       -14.89334      0.001697103        37.97703                0               0                0               0
1.32895                0.9895797       -15.02373      0.001731144        33.28648                0               0                0               0
1.33553                0.9892876       -15.15559      0.001762452        28.65277                0               0                0               0
1.34211                0.9889818       -15.28889      0.001791008        24.08192                0               0                0               0
1.34868                0.9886614       -15.42361      0.001816821        19.58008                0               0                0               0
1.35526                0.9883259       -15.55969       0.00183993        15.15354                0               0                0               0
1.36184                0.9879748       -15.69712      0.001860407        10.80878                0               0                0               0
1.36842                0.9876078       -15.83583      0.001878364        6.552377                0               0                0               0
1.375                  0.9872247       -15.97578      0.001893948         2.39103                0               0                0               0
1.38158                0.9868258       -16.11694      0.001907353       -1.668557                0               0                0               0
1.38816                0.9864111       -16.25927      0.001918815       -5.619758                0               0                0               0
1.39474                0.9859813       -16.40274      0.001928622       -9.456169                0               0                0               0
1.40132                0.9855368       -16.54733      0.001937111        -13.1718                0               0                0               0
1.40789                0.9850783       -16.69302      0.001944671       -16.76129                0               0                0               0
1.41447                0.9846068       -16.83981      0.001951746       -20.22024                0               0                0               0
1.42105                 0.984123        -16.9877      0.001958831       -23.54548                0               0                0               0
1.42763                 0.983628       -17.13672      0.001966472       -26.73552                0               0                0               0
1.43421                0.9831226        -17.2869      0.001975262        -29.7909                0               0                0               0
1.44079                0.9826077        -17.4383      0.001985831       -32.71462                0               0                0               0
1.44737                0.9820841       -17.59095      0.001998837       -35.51246                0               0                0               0
1.45395                0.9815527       -17.74494      0.002014957       -38.19333                0               0                0               0
1.46053                 0.981014       -17.90035      0.002034865       -40.76931                0               0                0               0
1.46711                0.9804684       -18.05727       0.00205922       -43.25566                0               0                0               0
1.47368                0.9799162        -18.2158      0.002088641        -45.6705                0               0                0               0
1.48026                0.9793574       -18.37606      0.002123693       -48.03431                0               0                0               0
1.48684                0.9787917       -18.53815      0.002164866        -50.3692                0               0                0               0
1.49342                0.9782188       -18.70219      0.002212562       -52.69801                0               0                0               0
1.5                    0.9776379        -18.8683       0.00226708       -55.04336                0               0                0               0
1.50658                0.9770481        -19.0366      0.002328611       -57.42668                0               0                0               0
1.51316                0.9764482       -19.20718      0.002397239       -59.86743                0               0                0               0
1.51974                0.9758368       -19.38017      0.002472941        -62.3824                0               0                0               0
1.52632                0.9752123       -19.55565      0.002555595       -64.98534                0               0                0               0
1.53289                0.9745727       -19.73372      0.002644991       -67.68675                0               0                0               0
1.53947                0.9739165       -19.91444      0.002740841       -70.49394                0               0                0               0
1.54605                0.9732412       -20.09789      0.002842795       -73.41122                0               0                0               0
1.55263                0.9725448        -20.2841      0.002950448       -76.44019                0               0                0               0
1.55921                0.9718252       -20.47312      0.003063358       -79.58018                0               0                0               0
1.56579                0.9710801       -20.66497       0.00318105       -82.82859                0               0                0               0
1.57237                0.9703076       -20.85963      0.003303032       -86.18134                0               0                0               0
1.57895                0.9695055       -21.05712      0.003428797       -89.63322                0               0                0               0
1.58553                 0.968672       -21.25741      0.003557833       -93.17818                0               0                0               0
1.59211                0.9678054       -21.46047      0.003689628       -96.80964                0               0                0               0
1.59868                0.9669043       -21.66626      0.003823672       -100.5207                0               0                0               0
1.60526                0.9659673       -21.87473      0.003959465       -104.3042                0               0                0               0
1.61184                0.9649933       -22.08582      0.004096516        -108.153                0               0                0               0
1.61842                0.9639819       -22.29949      0.004234349       -112.0602                0               0                0               0
1.625                  0.9629324       -22.51568      0.004372505       -116.0187                0               0                0               0
1.63158                0.9618445       -22.73435      0.004510545       -120.0217                0               0                0               0
1.63816                0.9607186       -22.95544      0.004648049       -124.0628                0               0                0               0
1.64474                0.9595549       -23.17893      0.004784623       -128.1355                0               0                0               0
1.65132                0.9583538       -23.40481      0.004919899       -132.2337                0               0                0               0
1.65789                0.9571161       -23.63306       0.00505354       -136.3515                0               0                0               0
1.66447                0.9558429        -23.8637      0.005185239       -140.4832                0               0                0               0
1.67105                 0.954535       -24.09677      0.005314726       -144.6232                0               0                0               0
1.67763                0.9531935       -24.33231      0.005441767       -148.7661                0               0                0               0
1.68421                0.9518195       -24.57041       0.00556617       -152.9069                0               0                0               0
1.69079                0.9504141       -24.81117      0.005687792       -157.0405                0               0                0               0
1.69737                0.9489781        -25.0547      0.005806533       -161.1621                0               0                0               0
1.70395                0.9475122       -25.30117      0.005922349       -165.2672                0               0                0               0
1.71053                0.9460171       -25.55072       0.00603525        -169.351                0               0                0               0
1.71711                 0.944493       -25.80356      0.006145307       -173.4095                0               0                0               0
1.72368                0.9429397        -26.0599      0.006252655       -177.4385                0               0                0               0
1.73026                 0.941357       -26.31994      0.006357498        178.5659                0               0                0               0
1.73684                0.9397439       -26.58394      0.006460109        174.6073                0               0                0               0
1.74342                0.9380991       -26.85214      0.006560834        170.6891                0               0                0               0
1.75                   0.9364209        -27.1248      0.006660099        166.8143                0               0                0               0
1.75658                0.9347072       -27.40218      0.006758409        162.9855                0               0                0               0
1.76316                0.9329551       -27.68453      0.006856349        159.2049                0               0                0               0
1.76974                0.9311618       -27.97212      0.006954583        155.4742                0               0                0               0
1.77632                0.9293235       -28.26519      0.007053859        151.7945                0               0                0               0
1.78289                0.9274366       -28.56398      0.007154998        148.1662                0               0                0               0
1.78947                0.9254962       -28.86872      0.007258896        144.5891                0               0                0               0
1.79605                0.9234981       -29.17962      0.007366516         141.062                0               0                0               0
1.80263                 0.921437       -29.49686      0.007478881        137.5832                0               0                0               0
1.80921                 0.919308       -29.82063      0.007597062        134.1498                0               0                0               0
1.81579                0.9171055       -30.15107      0.007722168        130.7581                0               0                0               0
1.82237                 0.914824        -30.4883      0.007855326        127.4035                0               0                0               0
1.82895                0.9124581       -30.83244      0.007997676        124.0806                0               0                0               0
1.83553                0.9100021       -31.18357      0.008150342        120.7832                0               0                0               0
1.84211                0.9074506       -31.54175      0.008314424        117.5043                0               0                0               0
1.84868                0.9047981       -31.90703      0.008490972        114.2363                0               0                0               0
