! TOUCHSTONE file generated by CST MICROWAVE STUDIO
! Date and time: Tue Mar 11 13:57:26 2025
! Project name: transverse.cst
! Parameters = {Fracture=5; B=12.5; D=160; F=5; Feed=2.85625; L=100; M=20; R=0.384908; S=1; Theta=180; length=57.125; wave=114.25}
! Header version: 2024
! Port assignment regex: !\s*Touchstone port\s*([0-9]+)\s*=\s*(CST MWS port|CST DES external port|CST DES block port)\s*(.+)\s* \(\"(.*)\"\)(\s*mode\s*([0-9]+))?.*
! Touchstone port assignment:
! Touchstone port 1 = CST MWS port 1 ("")
! Touchstone port 2 = CST MWS port 2 ("")
# GHz S MA R 50
1                      0.9978545       -9.760356     0.0003266907        -131.584                0               0                0               0
1.00658                0.9977533       -9.849307     0.0003462671       -136.1245                0               0                0               0
1.01316                0.9976446       -9.938547     0.0003652226       -140.7033                0               0                0               0
1.01974                0.9975294       -10.02804     0.0003834635       -145.3031                0               0                0               0
1.02632                0.9974086       -10.11775      0.000400901       -149.9091                0               0                0               0
1.03289                0.9972833       -10.20766     0.0004174522       -154.5081                0               0                0               0
1.03947                0.9971545       -10.29776     0.0004330403       -159.0883                0               0                0               0
1.04605                0.9970236       -10.38805     0.0004475956       -163.6387                0               0                0               0
1.05263                0.9968916       -10.47854      0.000461056        -168.149                0               0                0               0
1.05921                0.9967599       -10.56926     0.0004733687       -172.6088                0               0                0               0
1.06579                0.9966295       -10.66025     0.0004844905        -177.008                0               0                0               0
1.07237                0.9965013       -10.75156     0.0004943896        178.6636                0               0                0               0
1.07895                0.9963763       -10.84324      0.000503047        174.4166                0               0                0               0
1.08553                0.9962553       -10.93537      0.000510458         170.262                0               0                0               0
1.09211                0.9961388       -11.02803      0.000516634        166.2111                0               0                0               0
1.09868                0.9960272       -11.12128     0.0005216039        162.2762                0               0                0               0
1.10526                0.9959206       -11.21522      0.000525417        158.4698                0               0                0               0
1.11184                0.9958189       -11.30993     0.0005281451        154.8051                0               0                0               0
1.11842                0.9957219        -11.4055     0.0005298844        151.2959                0               0                0               0
1.125                   0.995629       -11.50201     0.0005307585        147.9559                0               0                0               0
1.13158                0.9955396       -11.59955     0.0005309206        144.7991                0               0                0               0
1.13816                0.9954529       -11.69818     0.0005305556        141.8388                0               0                0               0
1.14474                0.9953675       -11.79797     0.0005298819        139.0868                0               0                0               0
1.15132                0.9952826       -11.89897     0.0005291524        136.5528                0               0                0               0
1.15789                0.9951966       -12.00122     0.0005286532        134.2431                0               0                0               0
1.16447                0.9951083       -12.10477     0.0005287018        132.1592                0               0                0               0
1.17105                0.9950161       -12.20962     0.0005296414        130.2962                0               0                0               0
1.17763                0.9949189       -12.31579     0.0005318328        128.6417                0               0                0               0
1.18421                0.9948151       -12.42327     0.0005356427        127.1748                0               0                0               0
1.19079                0.9947032       -12.53204     0.0005414298        125.8656                0               0                0               0
1.19737                0.9945824       -12.64208     0.0005495278        124.6758                0               0                0               0
1.20395                0.9944513       -12.75334     0.0005602292        123.5608                0               0                0               0
1.21053                 0.994309       -12.86579     0.0005737695        122.4719                0               0                0               0
1.21711                0.9941549       -12.97936     0.0005903168        121.3598                0               0                0               0
1.22368                0.9939885       -13.09401     0.0006099653        120.1779                0               0                0               0
1.23026                0.9938095       -13.20966     0.0006327348        118.8856                0               0                0               0
1.23684                0.9936177       -13.32627     0.0006585759          117.45                0               0                0               0
1.24342                0.9934133       -13.44377     0.0006873785        115.8469                0               0                0               0
1.25                   0.9931967        -13.5621      0.000718983        114.0611                0               0                0               0
1.25658                0.9929684       -13.68122     0.0007531913        112.0855                0               0                0               0
1.26316                0.9927292       -13.80109     0.0007897777        109.9196                0               0                0               0
1.26974                0.9924801       -13.92167     0.0008284994        107.5686                0               0                0               0
1.27632                 0.992222       -14.04295     0.0008691021        105.0414                0               0                0               0
1.28289                0.9919561       -14.16492     0.0009113279        102.3498                0               0                0               0
1.28947                0.9916836       -14.28758      0.000954919        99.50698                0               0                0               0
1.29605                0.9914057       -14.41096     0.0009996211         96.5273                0               0                0               0
1.30263                0.9911236        -14.5351      0.001045185         93.4252                0               0                0               0
1.30921                0.9908385       -14.66003      0.001091372        90.21503                0               0                0               0
1.31579                0.9905514       -14.78582      0.001137948        86.91071                0               0                0               0
1.32237                0.9902632       -14.91255      0.001184692         83.5256                0               0                0               0
1.32895                0.9899746        -15.0403      0.001231393         80.0724                0               0                0               0
1.33553                0.9896864       -15.16917      0.001277854        76.56313                0               0                0               0
1.34211                0.9893987       -15.29926      0.001323887        73.00914                0               0                0               0
1.34868                0.9891115       -15.43068      0.001369323        69.42116                0               0                0               0
1.35526                0.9888249       -15.56354      0.001414006         65.8093                0               0                0               0
1.36184                0.9885383       -15.69795      0.001457795        62.18315                0               0                0               0
1.36842                 0.988251       -15.83402      0.001500571        58.55183                0               0                0               0
1.375                  0.9879622       -15.97186      0.001542231          54.924                0               0                0               0
1.38158                0.9876706       -16.11158      0.001582697        51.30793                0               0                0               0
1.38816                 0.987375       -16.25325      0.001621912        47.71154                0               0                0               0
1.39474                0.9870736       -16.39698      0.001659845        44.14241                0               0                0               0
1.40132                0.9867649       -16.54281      0.001696491        40.60778                0               0                0               0
1.40789                 0.986447       -16.69082      0.001731878        37.11458                0               0                0               0
1.41447                 0.986118       -16.84105      0.001766062        33.66937                0               0                0               0
1.42105                 0.985776       -16.99352      0.001799133        30.27836                0               0                0               0
1.42763                 0.985419       -17.14826      0.001831218         26.9473                0               0                0               0
1.43421                0.9850453       -17.30526      0.001862479        23.68143                0               0                0               0
1.44079                0.9846529       -17.46451      0.001893118        20.48543                0               0                0               0
1.44737                0.9842404       -17.62599      0.001923375        17.36325                0               0                0               0
1.45395                0.9838061       -17.78966      0.001953531          14.318                0               0                0               0
1.46053                0.9833489       -17.95548      0.001983903        11.35184                0               0                0               0
1.46711                0.9828675       -18.12341      0.002014849        8.465808                0               0                0               0
1.47368                0.9823615       -18.29338      0.002046761        5.659701                0               0                0               0
1.48026                0.9818299       -18.46534      0.002080062         2.93191                0               0                0               0
1.48684                0.9812726       -18.63925      0.002115201       0.2793467                0               0                0               0
1.49342                0.9806895       -18.81505       0.00215265       -2.302647                0               0                0               0
1.5                    0.9800807        -18.9927      0.002192891       -4.820299                0               0                0               0
1.50658                0.9794467       -19.17215      0.002236412       -7.281362                0               0                0               0
1.51316                0.9787879        -19.3534      0.002283695       -9.694991                0               0                0               0
1.51974                0.9781052       -19.53643      0.002335208       -12.07154                0               0                0               0
1.52632                0.9773992       -19.72124      0.002391392       -14.42229                0               0                0               0
1.53289                 0.976671       -19.90786      0.002452656       -16.75914                0               0                0               0
1.53947                0.9759216       -20.09632      0.002519368       -19.09421                0               0                0               0
1.54605                0.9751517       -20.28668      0.002591845       -21.43948                0               0                0               0
1.55263                0.9743623       -20.47901       0.00267035       -23.80642                0               0                0               0
1.55921                0.9735542       -20.67341      0.002755092       -26.20565                0               0                0               0
1.56579                0.9727278       -20.86998      0.002846221       -28.64669                0               0                0               0
1.57237                0.9718835       -21.06885      0.002943828       -31.13771                0               0                0               0
1.57895                0.9710216       -21.27014      0.003047954       -33.68546                0               0                0               0
1.58553                0.9701416       -21.47402      0.003158588       -36.29517                0               0                0               0
1.59211                0.9692432       -21.68062      0.003275673        -38.9706                0               0                0               0
1.59868                0.9683255       -21.89013      0.003399116       -41.71408                0               0                0               0
1.60526                0.9673873       -22.10269      0.003528788       -44.52666                0               0                0               0
1.61184                0.9664272       -22.31849      0.003664535       -47.40822                0               0                0               0
1.61842                0.9654431       -22.53766      0.003806181       -50.35764                0               0                0               0
1.625                  0.9644329       -22.76038      0.003953538       -53.37297                0               0                0               0
1.63158                0.9633941       -22.98679      0.004106407       -56.45154                0               0                0               0
1.63816                0.9623237       -23.21702      0.004264585       -59.59021                0               0                0               0
1.64474                0.9612187       -23.45119      0.004427873       -62.78539                0               0                0               0
1.65132                0.9600759       -23.68941      0.004596079       -66.03324                0               0                0               0
1.65789                0.9588918       -23.93176      0.004769017       -69.32971                0               0                0               0
1.66447                0.9576627        -24.1783      0.004946519       -72.67071                0               0                0               0
1.67105                0.9563851       -24.42909      0.005128437        -76.0521                0               0                0               0
1.67763                0.9550554       -24.68415       0.00531464       -79.46981                0               0                0               0
1.68421                0.9536699       -24.94348      0.005505029       -82.91988                0               0                0               0
1.69079                0.9522254       -25.20708      0.005699527       -86.39847                0               0                0               0
1.69737                0.9507183       -25.47491      0.005898091       -89.90195                0               0                0               0
1.70395                0.9491457       -25.74693      0.006100712       -93.42689                0               0                0               0
1.71053                0.9475047       -26.02308      0.006307415       -96.97007                0               0                0               0
1.71711                0.9457927       -26.30329      0.006518268       -100.5285                0               0                0               0
1.72368                0.9440076       -26.58749      0.006733374       -104.0996                0               0                0               0
1.73026                0.9421472        -26.8756      0.006952877       -107.6809                0               0                0               0
1.73684                0.9402101       -27.16753       0.00717697       -111.2703                0               0                0               0
1.74342                0.9381948       -27.46322      0.007405883       -114.8659                0               0                0               0
1.75                   0.9361005       -27.76259      0.007639891       -118.4662                0               0                0               0
1.75658                0.9339264       -28.06559      0.007879315       -122.0701                0               0                0               0
1.76316                0.9316722       -28.37217      0.008124515       -125.6767                0               0                0               0
1.76974                0.9293374        -28.6823      0.008375894       -129.2852                0               0                0               0
1.77632                0.9269221       -28.99597      0.008633895       -132.8956                0               0                0               0
1.78289                0.9244263       -29.31321      0.008898995       -136.5077                0               0                0               0
1.78947                  0.92185       -29.63404      0.009171707       -140.1219                0               0                0               0
1.79605                0.9191932       -29.95855      0.009452572       -143.7388                0               0                0               0
1.80263                0.9164561        -30.2868      0.009742158       -147.3593                0               0                0               0
1.80921                0.9136382       -30.61892       0.01004105       -150.9843                0               0                0               0
1.81579                0.9107391       -30.95505       0.01034986       -154.6153                0               0                0               0
1.82237                0.9077581       -31.29537       0.01066918       -158.2538                0               0                0               0
1.82895                0.9046939       -31.64005       0.01099964       -161.9014                0               0                0               0
1.83553                0.9015452        -31.9893       0.01134185       -165.5599                0               0                0               0
1.84211                0.8983098       -32.34335       0.01169641       -169.2313                0               0                0               0
1.84868                0.8949852       -32.70243        0.0120639       -172.9175                0               0                0               0
