! TOUCHSTONE file generated by CST MICROWAVE STUDIO
! Date and time: Tue Mar 11 13:58:25 2025
! Project name: transverse.cst
! Parameters = {Fracture=5; B=12.5; D=160; F=25; Feed=2.85625; L=100; M=20; R=0.384908; S=1; Theta=270; length=57.125; wave=114.25}
! Header version: 2024
! Port assignment regex: !\s*Touchstone port\s*([0-9]+)\s*=\s*(CST MWS port|CST DES external port|CST DES block port)\s*(.+)\s* \(\"(.*)\"\)(\s*mode\s*([0-9]+))?.*
! Touchstone port assignment:
! Touchstone port 1 = CST MWS port 1 ("")
! Touchstone port 2 = CST MWS port 2 ("")
# GHz S MA R 50
1                      0.9976192       -9.766059     0.0005121902        174.4881                0               0                0               0
1.0066                 0.9975528       -9.852863     0.0005060733        169.1504                0               0                0               0
1.0132                 0.9974868       -9.940348     0.0004979583        163.9768                0               0                0               0
1.0198                  0.997421       -10.02855     0.0004878726        158.9881                0               0                0               0
1.0264                 0.9973549        -10.1175     0.0004758687        154.2102                0               0                0               0
1.033                  0.9972879       -10.20722     0.0004620295         149.676                0               0                0               0
1.0396                 0.9972195       -10.29774     0.0004464759        145.4262                0               0                0               0
1.0462                 0.9971492       -10.38908     0.0004293768        141.5122                0               0                0               0
1.05281                0.9970763       -10.48124     0.0004109627        137.9982                0               0                0               0
1.05941                0.9970002       -10.57425     0.0003915447        134.9638                0               0                0               0
1.06601                0.9969203        -10.6681     0.0003715391        132.5063                0               0                0               0
1.07261                 0.996836       -10.76278     0.0003514999        130.7406                0               0                0               0
1.07921                0.9967467       -10.85831      0.000332158        129.7946                0               0                0               0
1.08581                 0.996652       -10.95466     0.0003144582        129.7931                0               0                0               0
1.09241                0.9965515       -11.05182     0.0002995785        130.8246                0               0                0               0
1.09901                0.9964446       -11.14977     0.0002888948        132.8853                0               0                0               0
1.10561                0.9963313       -11.24851     0.0002838444        135.8141                0               0                0               0
1.11221                0.9962112       -11.34799      0.000285676        139.2598                0               0                0               0
1.11881                0.9960843       -11.44822     0.0002951597        142.7343                0               0                0               0
1.12541                0.9959505       -11.54916      0.000312414        145.7481                0               0                0               0
1.13201                0.9958099       -11.65079     0.0003369595        147.9478                0               0                0               0
1.13861                0.9956628       -11.75311     0.0003679419        149.1696                0               0                0               0
1.14521                0.9955092       -11.85609     0.0004043768        149.4084                0               0                0               0
1.15182                0.9953494       -11.95973     0.0004453155        148.7523                0               0                0               0
1.15842                 0.995184       -12.06402     0.0004899211        147.3268                0               0                0               0
1.16502                0.9950132       -12.16896     0.0005374834        145.2609                0               0                0               0
1.17162                0.9948375       -12.27456     0.0005874066         142.671                0               0                0               0
1.17822                0.9946573       -12.38083     0.0006391871        139.6561                0               0                0               0
1.18482                 0.994473       -12.48777      0.000692393        136.2977                0               0                0               0
1.19142                0.9942852       -12.59543      0.000746646         132.662                0               0                0               0
1.19802                0.9940941       -12.70381     0.0008016086        128.8025                0               0                0               0
1.20462                   0.9939       -12.81296     0.0008569741        124.7629                0               0                0               0
1.21122                0.9937033       -12.92291     0.0009124589        120.5783                0               0                0               0
1.21782                0.9935041       -13.03371     0.0009677979         116.278                0               0                0               0
1.22442                0.9933024       -13.14539      0.001022742        111.8861                0               0                0               0
1.23102                0.9930985       -13.25801      0.001077053        107.4228                0               0                0               0
1.23762                0.9928919       -13.37161      0.001130507        102.9053                0               0                0               0
1.24422                0.9926827       -13.48623       0.00118289        98.34836                0               0                0               0
1.25083                0.9924705       -13.60193      0.001233999        93.76498                0               0                0               0
1.25743                0.9922549       -13.71876      0.001283642        89.16655                0               0                0               0
1.26403                0.9920354       -13.83675      0.001331641        84.56338                0               0                0               0
1.27063                0.9918113       -13.95595      0.001377829        79.96485                0               0                0               0
1.27723                0.9915821       -14.07639      0.001422055        75.37971                0               0                0               0
1.28383                 0.991347        -14.1981      0.001464183        70.81617                0               0                0               0
1.29043                0.9911052       -14.32111      0.001504096         66.2821                0               0                0               0
1.29703                 0.990856       -14.44544      0.001541697        61.78512                0               0                0               0
1.30363                0.9905986        -14.5711       0.00157691        57.33271                0               0                0               0
1.31023                0.9903322        -14.6981      0.001609683        52.93227                0               0                0               0
1.31683                0.9900561       -14.82645      0.001639993        48.59117                0               0                0               0
1.32343                0.9897694       -14.95613      0.001667846        44.31684                0               0                0               0
1.33003                0.9894716       -15.08715      0.001693281        40.11674                0               0                0               0
1.33663                0.9891621       -15.21948      0.001716373        35.99834                0               0                0               0
1.34323                0.9888405       -15.35312      0.001737237        31.96919                0               0                0               0
1.34984                0.9885063       -15.48805      0.001756032        28.03675                0               0                0               0
1.35644                0.9881593       -15.62424      0.001772962        24.20837                0               0                0               0
1.36304                0.9877994       -15.76168      0.001788281        20.49111                0               0                0               0
1.36964                0.9874265       -15.90035      0.001802296        16.89162                0               0                0               0
1.37624                0.9870408       -16.04024      0.001815371        13.41583                0               0                0               0
1.38284                0.9866424       -16.18132      0.001827923        10.06871                0               0                0               0
1.38944                0.9862315        -16.3236      0.001840429        6.853933                0               0                0               0
1.39604                0.9858088       -16.46706      0.001853419        3.773443                0               0                0               0
1.40264                0.9853744       -16.61173      0.001867476        0.827074                0               0                0               0
1.40924                0.9849291        -16.7576      0.001883228       -1.987876                0               0                0               0
1.41584                0.9844733       -16.90469       0.00190134       -4.677028                0               0                0               0
1.42244                0.9840078       -17.05304      0.001922499       -7.249207                0               0                0               0
1.42904                0.9835328       -17.20268      0.001947403       -9.716584                0               0                0               0
1.43564                0.9830492       -17.35365      0.001976738       -12.09462                0               0                0               0
1.44224                0.9825573       -17.50602      0.002011164        -14.4018                0               0                0               0
1.44884                0.9820576       -17.65984      0.002051291       -16.65903                0               0                0               0
1.45545                0.9815504       -17.81519      0.002097661       -18.88897                0               0                0               0
1.46205                0.9810359       -17.97215      0.002150732         -21.115                0               0                0               0
1.46865                0.9805143       -18.13078      0.002210865        -23.3603                0               0                0               0
1.47525                0.9799854       -18.29121      0.002278316        -25.6468                0               0                0               0
1.48185                 0.979449        -18.4535      0.002353235       -27.99435                0               0                0               0
1.48845                0.9789047       -18.61776      0.002435664       -30.42005                0               0                0               0
1.49505                 0.978352       -18.78408      0.002525546       -32.93783                0               0                0               0
1.50165                0.9777902       -18.95257      0.002622737       -35.55826                0               0                0               0
1.50825                0.9772183       -19.12332      0.002727009       -38.28863                0               0                0               0
1.51485                0.9766354       -19.29641      0.002838071       -41.13314                0               0                0               0
1.52145                0.9760401       -19.47195      0.002955576       -44.09327                0               0                0               0
1.52805                0.9754313          -19.65      0.003079134       -47.16814                0               0                0               0
1.53465                0.9748074       -19.83066       0.00320832       -50.35497                0               0                0               0
1.54125                0.9741668       -20.01398      0.003342689       -53.64952                0               0                0               0
1.54785                0.9735082       -20.20003      0.003481776       -57.04639                0               0                0               0
1.55446                0.9728295       -20.38887      0.003625108       -60.53941                0               0                0               0
1.56106                0.9721295       -20.58054      0.003772207       -64.12188                0               0                0               0
1.56766                0.9714062       -20.77508      0.003922596       -67.78682                0               0                0               0
1.57426                 0.970658       -20.97251      0.004075801       -71.52711                0               0                0               0
1.58086                0.9698834       -21.17286      0.004231357       -75.33564                0               0                0               0
1.58746                0.9690808       -21.37614      0.004388808       -79.20541                0               0                0               0
1.59406                0.9682488       -21.58237      0.004547709       -83.12956                0               0                0               0
1.60066                 0.967386       -21.79155      0.004707635       -87.10147                0               0                0               0
1.60726                0.9664914       -22.00368      0.004868175       -91.11475                0               0                0               0
1.61386                0.9655636       -22.21877      0.005028938       -95.16325                0               0                0               0
1.62046                 0.964602       -22.43681      0.005189556        -99.2411                0               0                0               0
1.62706                0.9636055       -22.65781       0.00534969       -103.3427                0               0                0               0
1.63366                0.9625736       -22.88178      0.005509024       -107.4625                0               0                0               0
1.64026                0.9615058       -23.10874      0.005667273       -111.5956                0               0                0               0
1.64686                0.9604013       -23.33869      0.005824187       -115.7369                0               0                0               0
1.65347                0.9592603       -23.57166      0.005979552       -119.8818                0               0                0               0
1.66007                0.9580821       -23.80769      0.006133192       -124.0257                0               0                0               0
1.66667                0.9568666       -24.04684      0.006284976       -128.1645                0               0                0               0
1.67327                0.9556136       -24.28915      0.006434818       -132.2939                0               0                0               0
1.67987                0.9543228        -24.5347       0.00658268       -136.4102                0               0                0               0
1.68647                0.9529941       -24.78357      0.006728576       -140.5095                0               0                0               0
1.69307                0.9516271       -25.03586      0.006872582       -144.5886                0               0                0               0
1.69967                0.9502213       -25.29167      0.007014823        -148.644                0               0                0               0
1.70627                0.9487764       -25.55113      0.007155497       -152.6729                0               0                0               0
1.71287                0.9472916       -25.81436      0.007294858       -156.6724                0               0                0               0
1.71947                 0.945766       -26.08152      0.007433231       -160.6401                0               0                0               0
1.72607                0.9441985       -26.35276      0.007571008       -164.5738                0               0                0               0
1.73267                0.9425878       -26.62823      0.007708655       -168.4719                0               0                0               0
1.73927                0.9409324       -26.90812      0.007846703       -172.3327                0               0                0               0
1.74587                0.9392304        -27.1926      0.007985757       -176.1554                0               0                0               0
1.75248                0.9374799       -27.48184      0.008126489       -179.9393                0               0                0               0
1.75908                0.9356785       -27.77603      0.008269638        176.3155                0               0                0               0
1.76568                0.9338235       -28.07537      0.008416004        172.6085                0               0                0               0
1.77228                0.9319121       -28.38001      0.008566443        168.9387                0               0                0               0
1.77888                0.9299411       -28.69016      0.008721863        165.3044                0               0                0               0
1.78548                0.9279071       -29.00599       0.00888321        161.7033                0               0                0               0
1.79208                0.9258067       -29.32766      0.009051468        158.1327                0               0                0               0
1.79868                0.9236359       -29.65536      0.009227631        154.5891                0               0                0               0
1.80528                0.9213906       -29.98924      0.009412712        151.0684                0               0                0               0
1.81188                0.9190668       -30.32945      0.009607714        147.5662                0               0                0               0
1.81848                0.9166601       -30.67614      0.009813621        144.0774                0               0                0               0
1.82508                 0.914166       -31.02945       0.01003139        140.5969                0               0                0               0
1.83168                0.9115799       -31.38951       0.01026192         137.119                0               0                0               0
1.83828                0.9088971       -31.75645       0.01050607        133.6379                0               0                0               0
1.84488                0.9061129       -32.13038        0.0107646        130.1477                0               0                0               0
1.85149                0.9032225        -32.5114       0.01103823        126.6428                0               0                0               0
