! TOUCHSTONE file generated by CST MICROWAVE STUDIO
! Date and time: Tue Mar 11 13:56:37 2025
! Project name: transverse.cst
! Parameters = {Fracture=1; B=10; D=160; F=15; Feed=2.85625; L=100; M=20; R=0.384908; S=1; Theta=90; length=57.125; wave=114.25}
! Header version: 2024
! Port assignment regex: !\s*Touchstone port\s*([0-9]+)\s*=\s*(CST MWS port|CST DES external port|CST DES block port)\s*(.+)\s* \(\"(.*)\"\)(\s*mode\s*([0-9]+))?.*
! Touchstone port assignment:
! Touchstone port 1 = CST MWS port 1 ("")
! Touchstone port 2 = CST MWS port 2 ("")
# GHz S MA R 50
1                      0.9977604        -9.99571     0.0004050931       -157.7511                0               0                0               0
1.00658                0.9976592        -10.0847     0.0004094352        -162.351                0               0                0               0
1.01316                 0.997555       -10.17398     0.0004125315       -166.8328                0               0                0               0
1.01974                0.9974482       -10.26355     0.0004143821       -171.1836                0               0                0               0
1.02632                0.9973398       -10.35342     0.0004150031       -175.3887                0               0                0               0
1.03289                0.9972307       -10.44361     0.0004144291       -179.4315                0               0                0               0
1.03947                0.9971216       -10.53415      0.000412716        176.7069                0               0                0               0
1.04605                0.9970131       -10.62506      0.000409945        173.0478                0               0                0               0
1.05263                0.9969059       -10.71639     0.0004062264        169.6145                0               0                0               0
1.05921                0.9968006       -10.80818     0.0004017046         166.433                0               0                0               0
1.06579                0.9966977        -10.9005     0.0003965632        163.5304                0               0                0               0
1.07237                0.9965972        -10.9934     0.0003910302        160.9351                0               0                0               0
1.07895                0.9964995       -11.08694     0.0003853835        158.6743                0               0                0               0
1.08553                0.9964043       -11.18118     0.0003799544        156.7717                0               0                0               0
1.09211                0.9963115       -11.27619     0.0003751292        155.2442                0               0                0               0
1.09868                 0.996221       -11.37203     0.0003713455        154.0966                0               0                0               0
1.10526                0.9961318       -11.46876     0.0003690818        153.3167                0               0                0               0
1.11184                0.9960437       -11.56643     0.0003688386        152.8701                0               0                0               0
1.11842                0.9959557       -11.66509     0.0003711099        152.6976                0               0                0               0
1.125                   0.995867       -11.76478      0.000376348        152.7155                0               0                0               0
1.13158                0.9957767       -11.86554     0.0003849267         152.822                0               0                0               0
1.13816                0.9956836       -11.96739     0.0003971108        152.9071                0               0                0               0
1.14474                0.9955869       -12.07036     0.0004130388        152.8654                0               0                0               0
1.15132                0.9954853       -12.17443     0.0004327231        152.6069                0               0                0               0
1.15789                 0.995378       -12.27962     0.0004560639        152.0652                0               0                0               0
1.16447                0.9952638       -12.38592     0.0004828739        151.1987                0               0                0               0
1.17105                0.9951419       -12.49329     0.0005129052        149.9897                0               0                0               0
1.17763                0.9950116       -12.60173     0.0005458735        148.4387                0               0                0               0
1.18421                 0.994872       -12.71119     0.0005814779        146.5603                0               0                0               0
1.19079                0.9947228       -12.82164     0.0006194142        144.3773                0               0                0               0
1.19737                0.9945633       -12.93303     0.0006593832        141.9169                0               0                0               0
1.20395                0.9943937       -13.04533     0.0007010963        139.2083                0               0                0               0
1.21053                0.9942135       -13.15849      0.000744276        136.2803                0               0                0               0
1.21711                0.9940231       -13.27247     0.0007886582        133.1602                0               0                0               0
1.22368                0.9938227       -13.38722     0.0008339903        129.8736                0               0                0               0
1.23026                0.9936129       -13.50273     0.0008800319        126.4439                0               0                0               0
1.23684                0.9933939       -13.61896     0.0009265523        122.8922                0               0                0               0
1.24342                0.9931667       -13.73589     0.0009733316        119.2374                0               0                0               0
1.25                   0.9929318        -13.8535      0.001020159        115.4968                0               0                0               0
1.25658                0.9926904       -13.97181      0.001066835        111.6859                0               0                0               0
1.26316                0.9924431       -14.09081      0.001113165        107.8186                0               0                0               0
1.26974                 0.992191       -14.21053       0.00115897        103.9076                0               0                0               0
1.27632                0.9919349       -14.33101      0.001204078        99.96465                0               0                0               0
1.28289                0.9916755       -14.45227      0.001248329        96.00044                0               0                0               0
1.28947                0.9914139       -14.57438      0.001291574        92.02496                0               0                0               0
1.29605                0.9911503       -14.69739      0.001333681        88.04756                0               0                0               0
1.30263                0.9908854       -14.82138      0.001374529        84.07707                0               0                0               0
1.30921                0.9906194       -14.94641      0.001414016        80.12192                0               0                0               0
1.31579                0.9903527       -15.07258      0.001452059        76.19019                0               0                0               0
1.32237                 0.990085       -15.19995      0.001488594        72.28971                0               0                0               0
1.32895                0.9898163       -15.32864      0.001523582        68.42804                0               0                0               0
1.33553                 0.989546       -15.45871      0.001557007         64.6126                0               0                0               0
1.34211                0.9892734       -15.59025      0.001588883        60.85058                0               0                0               0
1.34868                0.9889979       -15.72335      0.001619253        57.14901                0               0                0               0
1.35526                0.9887185       -15.85807      0.001648194        53.51472                0               0                0               0
1.36184                0.9884339       -15.99448      0.001675821        49.95424                0               0                0               0
1.36842                0.9881428       -16.13265      0.001702284         46.4738                0               0                0               0
1.375                   0.987844       -16.27261      0.001727777        43.07915                0               0                0               0
1.38158                0.9875359       -16.41442      0.001752536        39.77549                0               0                0               0
1.38816                0.9872172       -16.55808      0.001776844        36.56725                0               0                0               0
1.39474                0.9868861       -16.70362      0.001801029        33.45793                0               0                0               0
1.40132                0.9865415       -16.85105      0.001825465        30.44987                0               0                0               0
1.40789                0.9861819       -17.00035      0.001850571          27.544                0               0                0               0
1.41447                0.9858057        -17.1515      0.001876809        24.73962                0               0                0               0
1.42105                0.9854124       -17.30449      0.001904678        22.03414                0               0                0               0
1.42763                0.9850006       -17.45927       0.00193471        19.42295                0               0                0               0
1.43421                0.9845695        -17.6158      0.001967459        16.89921                0               0                0               0
1.44079                0.9841186       -17.77405      0.002003493        14.45389                0               0                0               0
1.44737                0.9836474       -17.93397      0.002043383         12.0758                0               0                0               0
1.45395                0.9831559       -18.09552      0.002087687        9.751785                0               0                0               0
1.46053                0.9826439       -18.25865      0.002136939        7.467107                0               0                0               0
1.46711                0.9821119       -18.42332      0.002191637        5.205854                0               0                0               0
1.47368                0.9815603       -18.58952      0.002252227        2.951493                0               0                0               0
1.48026                0.9809894       -18.75721      0.002319098       0.6874798                0               0                0               0
1.48684                0.9804004        -18.9264       0.00239257       -1.602169                0               0                0               0
1.49342                0.9797936       -19.09708      0.002472889        -3.93232                0               0                0               0
1.5                    0.9791705       -19.26928      0.002560231       -6.316266                0               0                0               0
1.50658                0.9785318       -19.44303      0.002654694       -8.765397                0               0                0               0
1.51316                0.9778785       -19.61837      0.002756308       -11.28899                0               0                0               0
1.51974                0.9772116       -19.79538      0.002865038       -13.89413                0               0                0               0
1.52632                0.9765318       -19.97413      0.002980787       -16.58575                0               0                0               0
1.53289                0.9758397       -20.15472       0.00310341       -19.36679                0               0                0               0
1.53947                0.9751362       -20.33726      0.003232716       -22.23832                0               0                0               0
1.54605                0.9744215       -20.52187      0.003368477       -25.19987                0               0                0               0
1.55263                0.9736955       -20.70869      0.003510439       -28.24959                0               0                0               0
1.55921                0.9729581       -20.89785      0.003658318       -31.38457                0               0                0               0
1.56579                 0.972209        -21.0895      0.003811823       -34.60101                0               0                0               0
1.57237                0.9714472        -21.2838      0.003970643       -37.89449                0               0                0               0
1.57895                0.9706715       -21.48089      0.004134466       -41.26013                0               0                0               0
1.58553                0.9698809       -21.68094      0.004302977       -44.69273                0               0                0               0
1.59211                0.9690735       -21.88407      0.004475866       -48.18694                0               0                0               0
1.59868                0.9682471       -22.09044      0.004652823        -51.7373                0               0                0               0
1.60526                0.9673999       -22.30017      0.004833556       -55.33841                0               0                0               0
1.61184                0.9665291       -22.51338       0.00501778       -58.98493                0               0                0               0
1.61842                0.9656321       -22.73017      0.005205227       -62.67161                0               0                0               0
1.625                  0.9647062       -22.95064      0.005395652       -66.39344                0               0                0               0
1.63158                0.9637483       -23.17486      0.005588829       -70.14551                0               0                0               0
1.63816                0.9627556       -23.40289      0.005784559        -73.9232                0               0                0               0
1.64474                0.9617251       -23.63476      0.005982671       -77.72206                0               0                0               0
1.65132                0.9606537       -23.87051      0.006183025       -81.53788                0               0                0               0
1.65789                0.9595387       -24.11013      0.006385519       -85.36671                0               0                0               0
1.66447                0.9583773       -24.35363      0.006590082       -89.20482                0               0                0               0
1.67105                0.9571669       -24.60099      0.006796689       -93.04876                0               0                0               0
1.67763                0.9559052       -24.85217      0.007005355       -96.89531                0               0                0               0
1.68421                0.9545901       -25.10714      0.007216142       -100.7415                0               0                0               0
1.69079                0.9532197       -25.36585      0.007429159       -104.5847                0               0                0               0
1.69737                0.9517924       -25.62827      0.007644568       -108.4225                0               0                0               0
1.70395                0.9503069       -25.89435      0.007862579       -112.2528                0               0                0               0
1.71053                0.9487622       -26.16404      0.008083459       -116.0738                0               0                0               0
1.71711                0.9471575       -26.43732       0.00830753       -119.8839                0               0                0               0
1.72368                0.9454923       -26.71416      0.008535166        -123.682                0               0                0               0
1.73026                0.9437661       -26.99456      0.008766799       -127.4671                0               0                0               0
1.73684                0.9419791       -27.27853      0.009002914       -131.2388                0               0                0               0
1.74342                 0.940131       -27.56609      0.009244051       -134.9968                0               0                0               0
1.75                   0.9382219       -27.85729      0.009490799       -138.7414                0               0                0               0
1.75658                0.9362519       -28.15221      0.009743795       -142.4728                0               0                0               0
1.76316                0.9342211       -28.45095       0.01000372       -146.1921                0               0                0               0
1.76974                0.9321292       -28.75361        0.0102713       -149.9004                0               0                0               0
1.77632                 0.929976       -29.06034       0.01054727       -153.5991                0               0                0               0
1.78289                0.9277611       -29.37133       0.01083242       -157.2901                0               0                0               0
1.78947                0.9254836       -29.68676       0.01112756       -160.9755                0               0                0               0
1.79605                0.9231424       -30.00682       0.01143348       -164.6575                0               0                0               0
1.80263                0.9207359       -30.33177         0.011751       -168.3388                0               0                0               0
1.80921                 0.918262       -30.66184       0.01208093        -172.022                0               0                0               0
1.81579                0.9157182        -30.9973       0.01242407       -175.7102                0               0                0               0
1.82237                0.9131015        -31.3384       0.01278118       -179.4063                0               0                0               0
1.82895                0.9104081       -31.68542         0.013153        176.8867                0               0                0               0
1.83553                 0.907634       -32.03863       0.01354023        173.1657                0               0                0               0
1.84211                0.9047745       -32.39829       0.01394353        169.4277                0               0                0               0
1.84868                0.9018241       -32.76468       0.01436348        165.6697                0               0                0               0
