! TOUCHSTONE file generated by CST MICROWAVE STUDIO
! Date and time: Tue Mar 11 13:57:55 2025
! Project name: transverse.cst
! Parameters = {Fracture=1; B=10; D=160; F=15; Feed=2.85625; L=100; M=10; R=0.384908; S=2; Theta=270; length=57.125; wave=114.25}
! Header version: 2024
! Port assignment regex: !\s*Touchstone port\s*([0-9]+)\s*=\s*(CST MWS port|CST DES external port|CST DES block port)\s*(.+)\s* \(\"(.*)\"\)(\s*mode\s*([0-9]+))?.*
! Touchstone port assignment:
! Touchstone port 1 = CST MWS port 1 ("")
! Touchstone port 2 = CST MWS port 2 ("")
# GHz S MA R 50
1                       0.997692        -10.0049     0.0007448395       -133.0201                0               0                0               0
1.00758                0.9975791       -10.10671     0.0007619744       -139.9797                0               0                0               0
1.01515                0.9974649       -10.20904     0.0007774362       -146.8328                0               0                0               0
1.02273                  0.99735       -10.31191      0.000791075       -153.5842                0               0                0               0
1.0303                 0.9972351       -10.41536     0.0008027467        -160.238                0               0                0               0
1.03788                0.9971205       -10.51943     0.0008123133       -166.7968                0               0                0               0
1.04545                0.9970067       -10.62416     0.0008196426       -173.2623                0               0                0               0
1.05303                 0.996894       -10.72962     0.0008246093       -179.6351                0               0                0               0
1.06061                0.9967826       -10.83585     0.0008270953        174.0854                0               0                0               0
1.06818                0.9966727       -10.94291     0.0008269904        167.9011                0               0                0               0
1.07576                 0.996564       -11.05086     0.0008241933        161.8151                0               0                0               0
1.08333                0.9964565       -11.15977     0.0008186125        155.8322                0               0                0               0
1.09091                0.9963499       -11.26969     0.0008101681        149.9593                0               0                0               0
1.09848                0.9962438       -11.38067      0.000798793        144.2051                0               0                0               0
1.10606                0.9961377       -11.49279     0.0007844353        138.5814                0               0                0               0
1.11364                0.9960308       -11.60608     0.0007670616        133.1033                0               0                0               0
1.12121                0.9959227        -11.7206     0.0007466601        127.7904                0               0                0               0
1.12879                0.9958122        -11.8364     0.0007232467         122.668                0               0                0               0
1.13636                0.9956987       -11.95349     0.0006968718         117.769                0               0                0               0
1.14394                0.9955812       -12.07193      0.000667631        113.1364                0               0                0               0
1.15152                0.9954587       -12.19172     0.0006356802        108.8269                0               0                0               0
1.15909                0.9953303        -12.3129     0.0006012584         104.916                0               0                0               0
1.16667                 0.995195       -12.43546     0.0005647217        101.5047                0               0                0               0
1.17424                0.9950519       -12.55942     0.0005265954        98.72904                0               0                0               0
1.18182                   0.9949       -12.68477     0.0004876538        96.77098                0               0                0               0
1.18939                0.9947385        -12.8115     0.0004490402        95.86877                0               0                0               0
1.19697                0.9945667       -12.93959     0.0004124366        96.31586                0               0                0               0
1.20455                 0.994384       -13.06903     0.0003802654        98.42209                0               0                0               0
1.21212                0.9941896        -13.1998     0.0003558144        102.3891                0               0                0               0
1.2197                 0.9939833       -13.33187     0.0003430059        108.0694                0               0                0               0
1.22727                0.9937647       -13.46521     0.0003454726        114.7388                0               0                0               0
1.23485                0.9935335        -13.5998     0.0003651683        121.2224                0               0                0               0
1.24242                0.9932899       -13.73561     0.0004016553        126.4493                0               0                0               0
1.25                   0.9930338       -13.87262     0.0004527621        129.9001                0               0                0               0
1.25758                0.9927653       -14.01081     0.0005158084        131.5764                0               0                0               0
1.26515                0.9924848       -14.15016     0.0005884066        131.7379                0               0                0               0
1.27273                0.9921926       -14.29066     0.0006687004        130.6978                0               0                0               0
1.2803                 0.9918894        -14.4323     0.0007553163        128.7335                0               0                0               0
1.28788                0.9915757       -14.57509      0.000847242        126.0643                0               0                0               0
1.29545                0.9912519       -14.71904     0.0009437156        122.8563                0               0                0               0
1.30303                 0.990919       -14.86416      0.001044143        119.2336                0               0                0               0
1.31061                0.9905773       -15.01049      0.001148043         115.289                0               0                0               0
1.31818                0.9902278       -15.15806      0.001255009        111.0924                0               0                0               0
1.32576                 0.989871       -15.30691      0.001364682        106.6967                0               0                0               0
1.33333                0.9895074        -15.4571       0.00147674         102.143                0               0                0               0
1.34091                0.9891378       -15.60869      0.001590881        97.46329                0               0                0               0
1.34848                0.9887624       -15.76175      0.001706816        92.68278                0               0                0               0
1.35606                0.9883816       -15.91636      0.001824269        87.82175                0               0                0               0
1.36364                0.9879957        -16.0726      0.001942969        82.89667                0               0                0               0
1.37121                0.9876047       -16.23057      0.002062648        77.92102                0               0                0               0
1.37879                0.9872085       -16.39035      0.002183041        72.90608                0               0                0               0
1.38636                 0.986807       -16.55205      0.002303889        67.86132                0               0                0               0
1.39394                0.9863997       -16.71577       0.00242493        62.79483                0               0                0               0
1.40152                0.9859862       -16.88161      0.002545907        57.71361                0               0                0               0
1.40909                0.9855657       -17.04966      0.002666566         52.6238                0               0                0               0
1.41667                0.9851374       -17.22003      0.002786654        47.53082                0               0                0               0
1.42424                0.9847003       -17.39282      0.002905923        42.43958                0               0                0               0
1.43182                0.9842533       -17.56812      0.003024134        37.35452                0               0                0               0
1.43939                0.9837951       -17.74602      0.003141051        32.27976                0               0                0               0
1.44697                0.9833243       -17.92661      0.003256446        27.21912                0               0                0               0
1.45455                0.9828395       -18.10997      0.003370104        22.17625                0               0                0               0
1.46212                0.9823392       -18.29616       0.00348182        17.15462                0               0                0               0
1.4697                 0.9818218       -18.48526      0.003591402        12.15758                0               0                0               0
1.47727                0.9812856       -18.67733      0.003698677         7.18841                0               0                0               0
1.48485                0.9807291       -18.87243      0.003803486        2.250328                0               0                0               0
1.49242                0.9801506       -19.07059      0.003905697       -2.653473                0               0                0               0
1.5                    0.9795484       -19.27187      0.004005195       -7.519817                0               0                0               0
1.50758                0.9789211        -19.4763      0.004101898       -12.34552                0               0                0               0
1.51515                0.9782671       -19.68391       0.00419575       -17.12741                0               0                0               0
1.52273                0.9775848       -19.89475      0.004286731       -21.86228                0               0                0               0
1.5303                 0.9768732       -20.10883      0.004374856       -26.54693                0               0                0               0
1.53788                0.9761306       -20.32618      0.004460182       -31.17815                0               0                0               0
1.54545                0.9753561       -20.54684      0.004542811       -35.75276                0               0                0               0
1.55303                0.9745484       -20.77082      0.004622892        -40.2676                0               0                0               0
1.56061                0.9737065       -20.99817       0.00470063       -44.71959                0               0                0               0
1.56818                0.9728295       -21.22892      0.004776284       -49.10577                0               0                0               0
1.57576                0.9719163       -21.46312      0.004850175        -53.4233                0               0                0               0
1.58333                0.9709664        -21.7008      0.004922692        -57.6696                0               0                0               0
1.59091                0.9699787       -21.94203      0.004994287       -61.84236                0               0                0               0
1.59848                0.9689524       -22.18687      0.005065488       -65.93966                0               0                0               0
1.60606                 0.967887        -22.4354      0.005136895       -69.96004                0               0                0               0
1.61364                0.9667815       -22.68769      0.005209184       -73.90261                0               0                0               0
1.62121                 0.965635       -22.94385      0.005283102       -77.76717                0               0                0               0
1.62879                0.9644467       -23.20397      0.005359474       -81.55432                0               0                0               0
1.63636                0.9632153       -23.46818      0.005439192       -85.26555                0               0                0               0
1.64394                0.9619398       -23.73659      0.005523214       -88.90339                0               0                0               0
1.65152                0.9606191       -24.00936      0.005612556       -92.47142                0               0                0               0
1.65909                0.9592513       -24.28661      0.005708276       -95.97439                0               0                0               0
1.66667                 0.957835       -24.56851      0.005811474       -99.41819                0               0                0               0
1.67424                 0.956368       -24.85523      0.005923267       -102.8099                0               0                0               0
1.68182                0.9548484       -25.14692      0.006044778       -106.1576                0               0                0               0
1.68939                0.9532736       -25.44377      0.006177118       -109.4704                0               0                0               0
1.69697                0.9516408       -25.74597      0.006321369       -112.7581                0               0                0               0
1.70455                0.9499473       -26.05368      0.006478566       -116.0312                0               0                0               0
1.71212                0.9481896       -26.36711      0.006649681       -119.3003                0               0                0               0
1.7197                 0.9463641       -26.68643      0.006835607       -122.5764                0               0                0               0
1.72727                 0.944467       -27.01183       0.00703715       -125.8699                0               0                0               0
1.73485                0.9424941        -27.3435      0.007255012       -129.1909                0               0                0               0
1.74242                0.9404409       -27.68159      0.007489793       -132.5489                0               0                0               0
1.75                   0.9383026        -28.0263      0.007741979       -135.9524                0               0                0               0
1.75758                0.9360742       -28.37777      0.008011953       -139.4088                0               0                0               0
1.76515                0.9337504       -28.73616      0.008299984       -142.9246                0               0                0               0
1.77273                0.9313257       -29.10162      0.008606241       -146.5048                0               0                0               0
1.7803                 0.9287946       -29.47428      0.008930799       -150.1537                0               0                0               0
1.78788                0.9261507       -29.85425      0.009273633       -153.8742                0               0                0               0
1.79545                0.9233881       -30.24164      0.009634647       -157.6682                0               0                0               0
1.80303                0.9205006       -30.63655       0.01001367       -161.5368                0               0                0               0
1.81061                0.9174817       -31.03904       0.01041044       -165.4801                0               0                0               0
1.81818                 0.914325       -31.44918       0.01082468       -169.4977                0               0                0               0
1.82576                0.9110239       -31.86702       0.01125603       -173.5884                0               0                0               0
1.83333                0.9075716       -32.29259       0.01170409       -177.7506                0               0                0               0
1.84091                0.9039615       -32.72591       0.01216842        178.0175                0               0                0               0
1.84848                0.9001869       -33.16697       0.01264855        173.7184                0               0                0               0
1.85606                 0.896241       -33.61575       0.01314396        169.3544                0               0                0               0
1.86364                0.8921173       -34.07223       0.01365413        164.9283                0               0                0               0
1.87121                0.8878087       -34.53636        0.0141785        160.4427                0               0                0               0
1.87879                0.8833092       -35.00806       0.01471649        155.9004                0               0                0               0
1.88636                0.8786116       -35.48727       0.01526748        151.3042                0               0                0               0
1.89394                0.8737099       -35.97388       0.01583088        146.6569                0               0                0               0
1.90152                0.8685974       -36.46777       0.01640603         141.961                0               0                0               0
1.90909                 0.863268       -36.96882       0.01699229        137.2194                0               0                0               0
1.91667                0.8577152       -37.47687       0.01758899        132.4344                0               0                0               0
1.92424                0.8519333       -37.99177       0.01819545        127.6086                0               0                0               0
1.93182                0.8459159       -38.51331       0.01881097        122.7443                0               0                0               0
1.93939                0.8396574       -39.04131       0.01943486        117.8438                0               0                0               0
1.94697                0.8331521       -39.57552        0.0200664        112.9091                0               0                0               0
1.95455                0.8263943        -40.1157       0.02070486        107.9424                0               0                0               0
1.96212                0.8193788       -40.66156        0.0213495        102.9456                0               0                0               0
1.9697                 0.8121003        -41.2128       0.02199958        97.92051                0               0                0               0
1.97727                0.8045538        -41.7691       0.02265436         92.8689                0               0                0               0
