! TOUCHSTONE file generated by CST MICROWAVE STUDIO
! Date and time: Tue Mar 11 13:57:11 2025
! Project name: transverse.cst
! Parameters = {Fracture=5; B=10; D=160; F=5; Feed=2.85625; L=100; M=20; R=0.384908; S=1; Theta=180; length=57.125; wave=114.25}
! Header version: 2024
! Port assignment regex: !\s*Touchstone port\s*([0-9]+)\s*=\s*(CST MWS port|CST DES external port|CST DES block port)\s*(.+)\s* \(\"(.*)\"\)(\s*mode\s*([0-9]+))?.*
! Touchstone port assignment:
! Touchstone port 1 = CST MWS port 1 ("")
! Touchstone port 2 = CST MWS port 2 ("")
# GHz S MA R 50
1                      0.9979033        -9.75579     0.0003267822       -118.3059                0               0                0               0
1.00658                0.9978039       -9.845011     0.0003512695       -123.5769                0               0                0               0
1.01316                0.9976962        -9.93453     0.0003750608       -128.8451                0               0                0               0
1.01974                0.9975809        -10.0243     0.0003980426       -134.1005                0               0                0               0
1.02632                0.9974593       -10.11427     0.0004201044       -139.3345                0               0                0               0
1.03289                 0.997332       -10.20442     0.0004411387       -144.5394                0               0                0               0
1.03947                0.9972007       -10.29473     0.0004610423       -149.7083                0               0                0               0
1.04605                0.9970664       -10.38519     0.0004797169       -154.8345                0               0                0               0
1.05263                0.9969306       -10.47581     0.0004970703       -159.9114                0               0                0               0
1.05921                0.9967945       -10.56661      0.000513017       -164.9322                0               0                0               0
1.06579                0.9966594       -10.65762     0.0005274798         -169.89                0               0                0               0
1.07237                0.9965265        -10.7489     0.0005403906       -174.7774                0               0                0               0
1.07895                0.9963969       -10.84049     0.0005516923       -179.5865                0               0                0               0
1.08553                0.9962714       -10.93247     0.0005613398        175.6915                0               0                0               0
1.09211                0.9961508       -11.02491     0.0005693021        171.0659                0               0                0               0
1.09868                0.9960356        -11.1179      0.000575564        166.5474                0               0                0               0
1.10526                0.9959262       -11.21153     0.0005801283        162.1475                0               0                0               0
1.11184                0.9958225        -11.3059     0.0005830184        157.8791                0               0                0               0
1.11842                0.9957245        -11.4011      0.000584281        153.7564                0               0                0               0
1.125                  0.9956318       -11.49721     0.0005839896        149.7954                0               0                0               0
1.13158                0.9955436       -11.59433     0.0005822476        146.0134                0               0                0               0
1.13816                0.9954592       -11.69255     0.0005791931        142.4291                0               0                0               0
1.14474                0.9953775       -11.79194     0.0005750029         139.063                0               0                0               0
1.15132                0.9952973       -11.89256     0.0005698973        135.9361                0               0                0               0
1.15789                0.9952173       -11.99447     0.0005641452        133.0697                0               0                0               0
1.16447                0.9951358       -12.09771     0.0005580682        130.4846                0               0                0               0
1.17105                0.9950515       -12.20231     0.0005520431        128.1985                0               0                0               0
1.17763                0.9949628       -12.30828     0.0005465033        126.2247                0               0                0               0
1.18421                0.9948681       -12.41563     0.0005419345        124.5684                0               0                0               0
1.19079                 0.994766       -12.52436     0.0005388661         123.224                0               0                0               0
1.19737                0.9946548       -12.63442     0.0005378544        122.1717                0               0                0               0
1.20395                0.9945335       -12.74579     0.0005394588        121.3748                0               0                0               0
1.21053                0.9944009       -12.85842     0.0005442103        120.7797                0               0                0               0
1.21711                0.9942561       -12.97225     0.0005525769        120.3177                0               0                0               0
1.22368                0.9940983       -13.08724     0.0005649305        119.9094                0               0                0               0
1.23026                 0.993927        -13.2033     0.0005815221        119.4728                0               0                0               0
1.23684                0.9937423       -13.32037     0.0006024691        118.9302                0               0                0               0
1.24342                0.9935435       -13.43839     0.0006277573        118.2153                0               0                0               0
1.25                   0.9933314       -13.55728     0.0006572564        117.2776                0               0                0               0
1.25658                0.9931064         -13.677     0.0006907413        116.0842                0               0                0               0
1.26316                0.9928689       -13.79748     0.0007279186        114.6183                0               0                0               0
1.26974                  0.99262       -13.91869       0.00076845        112.8769                0               0                0               0
1.27632                0.9923608       -14.04059      0.000811973        110.8677                0               0                0               0
1.28289                0.9920925       -14.16316     0.0008581157        108.6056                0               0                0               0
1.28947                0.9918162        -14.2864     0.0009065083        106.1098                0               0                0               0
1.29605                0.9915331       -14.41032     0.0009567884        103.4021                0               0                0               0
1.30263                0.9912449       -14.53494      0.001008607        100.5049                0               0                0               0
1.30921                0.9909527       -14.66031      0.001061629        97.44042                0               0                0               0
1.31579                0.9906577       -14.78648      0.001115535        94.22975                0               0                0               0
1.32237                0.9903611       -14.91352      0.001170023        90.89286                0               0                0               0
1.32895                0.9900638       -15.04151      0.001224803        87.44824                0               0                0               0
1.33553                0.9897665       -15.17054      0.001279606        83.91293                0               0                0               0
1.34211                0.9894698       -15.30073      0.001334174        80.30259                0               0                0               0
1.34868                 0.989174       -15.43219       0.00138827        76.63159                0               0                0               0
1.35526                0.9888789       -15.56502       0.00144167        72.91313                0               0                0               0
1.36184                0.9885845       -15.69936      0.001494169        69.15941                0               0                0               0
1.36842                0.9882902       -15.83531      0.001545581        65.38171                0               0                0               0
1.375                  0.9879949         -15.973      0.001595738        61.59055                0               0                0               0
1.38158                 0.987698       -16.11254      0.001644495        57.79578                0               0                0               0
1.38816                0.9873979       -16.25404      0.001691728        54.00667                0               0                0               0
1.39474                0.9870928       -16.39758      0.001737339        50.23201                0               0                0               0
1.40132                0.9867812       -16.54326      0.001781255        46.48016                0               0                0               0
1.40789                0.9864613       -16.69113      0.001823434        42.75912                0               0                0               0
1.41447                0.9861309       -16.84125      0.001863863        39.07652                0               0                0               0
1.42105                0.9857878       -16.99367      0.001902562         35.4397                0               0                0               0
1.42763                0.9854303       -17.14841      0.001939591        31.85566                0               0                0               0
1.43421                0.9850558       -17.30547      0.001975042        28.33103                0               0                0               0
1.44079                0.9846627       -17.46485      0.002009054        24.87208                0               0                0               0
1.44737                 0.984249       -17.62652      0.002041806         21.4846                0               0                0               0
1.45395                0.9838128       -17.79044       0.00207352        18.17383                0               0                0               0
1.46053                0.9833528       -17.95658      0.002104466        14.94435                0               0                0               0
1.46711                0.9828675       -18.12488      0.002134963        11.79996                0               0                0               0
1.47368                0.9823559       -18.29527      0.002165372        8.743472                0               0                0               0
1.48026                0.9818173       -18.46768      0.002196102        5.776606                0               0                0               0
1.48684                0.9812509       -18.64206      0.002227607        2.899765                0               0                0               0
1.49342                 0.980657       -18.81834      0.002260378       0.1118969                0               0                0               0
1.5                    0.9800351       -18.99644      0.002294938       -2.589675                0               0                0               0
1.50658                0.9793859       -19.17633      0.002331843       -5.209353                0               0                0               0
1.51316                0.9787098       -19.35796      0.002371662       -7.753332                0               0                0               0
1.51974                0.9780074       -19.54129      0.002414971       -10.22958                0               0                0               0
1.52632                  0.97728       -19.72631      0.002462347       -12.64774                0               0                0               0
1.53289                0.9765284       -19.91302      0.002514347       -15.01895                0               0                0               0
1.53947                0.9757538       -20.10145        0.0025715       -17.35553                0               0                0               0
1.54605                0.9749574       -20.29163      0.002634296       -19.67066                0               0                0               0
1.55263                0.9741403       -20.48362      0.002703174       -21.97795                0               0                0               0
1.55921                0.9733035       -20.67749      0.002778512       -24.29095                0               0                0               0
1.56579                 0.972448       -20.87335      0.002860623       -26.62277                0               0                0               0
1.57237                0.9715746       -21.07131       0.00294975       -28.98561                0               0                0               0
1.57895                0.9706839       -21.27151      0.003046062       -31.39048                0               0                0               0
1.58553                0.9697759       -21.47409      0.003149658       -33.84687                0               0                0               0
1.59211                0.9688505        -21.6792      0.003260572       -36.36265                0               0                0               0
1.59868                0.9679074       -21.88703      0.003378774       -38.94393                0               0                0               0
1.60526                0.9669459       -22.09774      0.003504178       -41.59514                0               0                0               0
1.61184                0.9659647       -22.31151      0.003636651       -44.31905                0               0                0               0
1.61842                 0.964962       -22.52853      0.003776019       -47.11694                0               0                0               0
1.625                  0.9639361       -22.74896      0.003922076       -49.98874                0               0                0               0
1.63158                0.9628846       -22.97297      0.004074591       -52.93327                0               0                0               0
1.63816                0.9618048       -23.20073      0.004233316       -55.94834                0               0                0               0
1.64474                0.9606937       -23.43237      0.004397993       -59.03103                0               0                0               0
1.65132                0.9595479       -23.66802      0.004568358        -62.1778                0               0                0               0
1.65789                0.9583642        -23.9078      0.004744155       -65.38467                0               0                0               0
1.66447                0.9571385       -24.15179      0.004925129       -68.64739                0               0                0               0
1.67105                0.9558675       -24.40006      0.005111041       -71.96146                0               0                0               0
1.67763                0.9545469       -24.65266      0.005301669       -75.32235                0               0                0               0
1.68421                0.9531731       -24.90961      0.005496813       -78.72551                0               0                0               0
1.69079                0.9517423       -25.17092      0.005696299       -82.16644                0               0                0               0
1.69737                0.9502505       -25.43656       0.00589998       -85.64079                0               0                0               0
1.70395                0.9486948        -25.7065      0.006107744       -89.14434                0               0                0               0
1.71053                0.9470715       -25.98069      0.006319516       -92.67309                0               0                0               0
1.71711                0.9453777       -26.25905      0.006535256       -96.22327                0               0                0               0
1.72368                0.9436109        -26.5415      0.006754972       -99.79137                0               0                0               0
1.73026                0.9417686       -26.82795      0.006978708       -103.3741                0               0                0               0
1.73684                 0.939849       -27.11832      0.007206563       -106.9686                0               0                0               0
1.74342                0.9378502        -27.4125      0.007438676       -110.5721                0               0                0               0
1.75                   0.9357711       -27.71041      0.007675241       -114.1823                0               0                0               0
1.75658                 0.933611       -28.01196        0.0079165       -117.7971                0               0                0               0
1.76316                0.9313691       -28.31708      0.008162746       -121.4149                0               0                0               0
1.76974                0.9290451       -28.62571       0.00841432       -125.0343                0               0                0               0
1.77632                 0.926639       -28.93782      0.008671617       -128.6543                0               0                0               0
1.78289                0.9241509       -29.25339      0.008935078       -132.2741                0               0                0               0
1.78947                0.9215811       -29.57242      0.009205188       -135.8934                0               0                0               0
1.79605                0.9189299       -29.89496      0.009482479       -139.5122                0               0                0               0
1.80263                0.9161977       -30.22106      0.009767519       -143.1308                0               0                0               0
1.80921                0.9133844       -30.55082       0.01006091       -146.7496                0               0                0               0
1.81579                0.9104904       -30.88435        0.0103633       -150.3697                0               0                0               0
1.82237                0.9075153       -31.22181       0.01067533       -153.9922                0               0                0               0
1.82895                0.9044586       -31.56336       0.01099769       -157.6185                0               0                0               0
1.83553                0.9013194       -31.90921       0.01133107       -161.2502                0               0                0               0
1.84211                0.8980963       -32.25959       0.01167616       -164.8891                0               0                0               0
1.84868                0.8947874       -32.61472       0.01203365       -168.5373                0               0                0               0
