! TOUCHSTONE file generated by CST MICROWAVE STUDIO
! Date and time: Tue Mar 11 13:57:06 2025
! Project name: transverse.cst
! Parameters = {Fracture=5; B=12.5; D=160; F=25; Feed=2.85625; L=100; M=10; R=0.384908; S=2; Theta=90; length=57.125; wave=114.25}
! Header version: 2024
! Port assignment regex: !\s*Touchstone port\s*([0-9]+)\s*=\s*(CST MWS port|CST DES external port|CST DES block port)\s*(.+)\s* \(\"(.*)\"\)(\s*mode\s*([0-9]+))?.*
! Touchstone port assignment:
! Touchstone port 1 = CST MWS port 1 ("")
! Touchstone port 2 = CST MWS port 2 ("")
# GHz S MA R 50
1                      0.9977756        -9.76507     0.0003904544        -168.544                0               0                0               0
1.0066                 0.9976909       -9.853192     0.0003927463       -172.4973                0               0                0               0
1.0132                  0.997603       -9.941817     0.0003942034       -176.2889                0               0                0               0
1.0198                 0.9975118       -10.03095     0.0003949031       -179.9044                0               0                0               0
1.0264                 0.9974179       -10.12058     0.0003949455        176.6713                0               0                0               0
1.033                  0.9973211       -10.21073      0.000394455        173.4536                0               0                0               0
1.0396                 0.9972219        -10.3014     0.0003935837        170.4574                0               0                0               0
1.0462                 0.9971205       -10.39261     0.0003925128        167.6964                0               0                0               0
1.05281                0.9970171       -10.48436      0.000391454        165.1819                0               0                0               0
1.05941                0.9969116       -10.57669     0.0003906494        162.9215                0               0                0               0
1.06601                0.9968044       -10.66961     0.0003903705        160.9169                0               0                0               0
1.07261                0.9966956       -10.76313     0.0003909132        159.1623                0               0                0               0
1.07921                0.9965853        -10.8573     0.0003925906        157.6423                0               0                0               0
1.08581                0.9964732       -10.95213     0.0003957232         156.331                0               0                0               0
1.09241                0.9963594       -11.04764     0.0004006245        155.1911                0               0                0               0
1.09901                 0.996244       -11.14388     0.0004075862        154.1754                0               0                0               0
1.10561                0.9961266       -11.24086      0.000416862        153.2288                0               0                0               0
1.11221                0.9960071        -11.3386     0.0004286542        152.2924                0               0                0               0
1.11881                0.9958853       -11.43714     0.0004431042        151.3075                0               0                0               0
1.12541                0.9957607        -11.5365     0.0004602879        150.2208                0               0                0               0
1.13201                0.9956329        -11.6367     0.0004802176         148.987                0               0                0               0
1.13861                0.9955019       -11.73775      0.000502848        147.5717                0               0                0               0
1.14521                0.9953671       -11.83968     0.0005280856        145.9515                0               0                0               0
1.15182                 0.995228       -11.94249     0.0005557988        144.1136                0               0                0               0
1.15842                 0.995084       -12.04619     0.0005858288        142.0545                0               0                0               0
1.16502                0.9949351       -12.15079     0.0006179983        139.7776                0               0                0               0
1.17162                0.9947809        -12.2563     0.0006521191         137.292                0               0                0               0
1.17822                0.9946206       -12.36272     0.0006879974        134.6101                0               0                0               0
1.18482                0.9944542       -12.47003     0.0007254384        131.7468                0               0                0               0
1.19142                0.9942813       -12.57825     0.0007642487        128.7177                0               0                0               0
1.19802                0.9941016       -12.68736     0.0008042378        125.5389                0               0                0               0
1.20462                 0.993915       -12.79736     0.0008452199        122.2261                0               0                0               0
1.21122                0.9937211       -12.90823     0.0008870139        118.7945                0               0                0               0
1.21782                0.9935202       -13.01997     0.0009294445        115.2583                0               0                0               0
1.22442                0.9933119       -13.13258     0.0009723415         111.631                0               0                0               0
1.23102                0.9930965       -13.24604      0.001015541         107.925                0               0                0               0
1.23762                 0.992874       -13.36036      0.001058886        104.1517                0               0                0               0
1.24422                0.9926445       -13.47552      0.001102223        100.3219                0               0                0               0
1.25083                0.9924083       -13.59153      0.001145409        96.44531                0               0                0               0
1.25743                0.9921654        -13.7084      0.001188305         92.5311                0               0                0               0
1.26403                0.9919162       -13.82612      0.001230781        88.58771                0               0                0               0
1.27063                0.9916612       -13.94472      0.001272716        84.62299                0               0                0               0
1.27723                0.9914004        -14.0642      0.001313997        80.64431                0               0                0               0
1.28383                0.9911342       -14.18458      0.001354519        76.65857                0               0                0               0
1.29043                0.9908628       -14.30589       0.00139419        72.67229                0               0                0               0
1.29703                0.9905864       -14.42816      0.001432929        68.69164                0               0                0               0
1.30363                0.9903055       -14.55142      0.001470666        64.72248                0               0                0               0
1.31023                0.9900199        -14.6757      0.001507346        60.77043                0               0                0               0
1.31683                0.9897303       -14.80103      0.001542928        56.84083                0               0                0               0
1.32343                0.9894361       -14.92747      0.001577386        52.93884                0               0                0               0
1.33003                0.9891378       -15.05506      0.001610712        49.06939                0               0                0               0
1.33663                0.9888352       -15.18383      0.001642914        45.23719                0               0                0               0
1.34323                0.9885281       -15.31384      0.001674021        41.44677                0               0                0               0
1.34984                0.9882165       -15.44513      0.001704082        37.70241                0               0                0               0
1.35644                0.9878999       -15.57776      0.001733167        34.00814                0               0                0               0
1.36304                0.9875781       -15.71175      0.001761368        30.36772                0               0                0               0
1.36964                0.9872506       -15.84717        0.0017888        26.78457                0               0                0               0
1.37624                0.9869174       -15.98404      0.001815602        23.26173                0               0                0               0
1.38284                0.9865773       -16.12242      0.001841935        19.80179                0               0                0               0
1.38944                0.9862304       -16.26234      0.001867988        16.40682                0               0                0               0
1.39604                0.9858759       -16.40383      0.001893969        13.07833                0               0                0               0
1.40264                0.9855134       -16.54693      0.001920111        9.817103                0               0                0               0
1.40924                 0.985142       -16.69167      0.001946668        6.623211                0               0                0               0
1.41584                0.9847617       -16.83807      0.001973914         3.49587                0               0                0               0
1.42244                0.9843714       -16.98616      0.002002136       0.4334046                0               0                0               0
1.42904                 0.983971       -17.13597      0.002031639       -2.566813                0               0                0               0
1.43564                0.9835598        -17.2875      0.002062734       -5.508387                0               0                0               0
1.44224                0.9831376       -17.44079      0.002095739       -8.395905                0               0                0               0
1.44884                 0.982704       -17.59585      0.002130971       -11.23489                0               0                0               0
1.45545                0.9822586       -17.75271      0.002168743       -14.03176                0               0                0               0
1.46205                 0.981801       -17.91138      0.002209353       -16.79368                0               0                0               0
1.46865                0.9813315        -18.0719       0.00225309       -19.52844                0               0                0               0
1.47525                0.9808495       -18.23429      0.002300214       -22.24429                0               0                0               0
1.48185                0.9803551       -18.39857      0.002350963       -24.94971                0               0                0               0
1.48845                0.9798482        -18.5648      0.002405544       -27.65325                0               0                0               0
1.49505                0.9793287         -18.733      0.002464129       -30.36324                0               0                0               0
1.50165                0.9787965       -18.90323      0.002526855       -33.08765                0               0                0               0
1.50825                0.9782519       -19.07554      0.002593823       -35.83391                0               0                0               0
1.51485                0.9776945       -19.24998      0.002665094        -38.6087                0               0                0               0
1.52145                0.9771243       -19.42663      0.002740693       -41.41788                0               0                0               0
1.52805                0.9765414       -19.60556      0.002820612        -44.2664                0               0                0               0
1.53465                0.9759451       -19.78685      0.002904806       -47.15826                0               0                0               0
1.54125                0.9753357       -19.97058      0.002993204       -50.09649                0               0                0               0
1.54785                0.9747124       -20.15685      0.003085706        -53.0832                0               0                0               0
1.55446                0.9740748       -20.34575      0.003182189        -56.1196                0               0                0               0
1.56106                0.9734223        -20.5374      0.003282511       -59.20611                0               0                0               0
1.56766                0.9727539       -20.73189      0.003386514       -62.34239                0               0                0               0
1.57426                 0.972069       -20.92934      0.003494029       -65.52747                0               0                0               0
1.58086                 0.971366       -21.12985      0.003604876       -68.75982                0               0                0               0
1.58746                0.9706442       -21.33355      0.003718874       -72.03744                0               0                0               0
1.59406                0.9699017       -21.54054      0.003835839       -75.35797                0               0                0               0
1.60066                 0.969137       -21.75093      0.003955588       -78.71873                0               0                0               0
1.60726                0.9683483       -21.96482      0.004077943       -82.11682                0               0                0               0
1.61386                0.9675338       -22.18234      0.004202737       -85.54918                0               0                0               0
1.62046                0.9666913       -22.40356      0.004329809       -89.01264                0               0                0               0
1.62706                0.9658187       -22.62859      0.004459016       -92.50397                0               0                0               0
1.63366                0.9649135        -22.8575      0.004590227       -96.01995                0               0                0               0
1.64026                0.9639735       -23.09039       0.00472333       -99.55736                0               0                0               0
1.64686                 0.962996       -23.32732      0.004858235       -103.1131                0               0                0               0
1.65347                0.9619787       -23.56834      0.004994875        -106.684                0               0                0               0
1.66007                0.9609189       -23.81353      0.005133203       -110.2672                0               0                0               0
1.66667                0.9598142       -24.06291      0.005273205         -113.86                0               0                0               0
1.67327                0.9586619       -24.31654      0.005414893       -117.4595                0               0                0               0
1.67987                0.9574595       -24.57444      0.005558306       -121.0635                0               0                0               0
1.68647                0.9562046       -24.83664      0.005703518       -124.6695                0               0                0               0
1.69307                0.9548948       -25.10316      0.005850633       -128.2756                0               0                0               0
1.69967                0.9535277       -25.37401      0.005999791       -131.8799                0               0                0               0
1.70627                0.9521012       -25.64922      0.006151165       -135.4808                0               0                0               0
1.71287                0.9506134       -25.92878      0.006304961       -139.0769                0               0                0               0
1.71947                0.9490619       -26.21271      0.006461422       -142.6672                0               0                0               0
1.72607                0.9474452       -26.50103      0.006620824       -146.2508                0               0                0               0
1.73267                0.9457612       -26.79376      0.006783475       -149.8273                0               0                0               0
1.73927                0.9440086        -27.0909      0.006949717       -153.3963                0               0                0               0
1.74587                0.9421854        -27.3925      0.007119919        -156.958                0               0                0               0
1.75248                0.9402902       -27.69859      0.007294481       -160.5127                0               0                0               0
1.75908                0.9383217       -28.00921      0.007473826        -164.061                0               0                0               0
1.76568                0.9362783       -28.32442        0.0076584       -167.6039                0               0                0               0
1.77228                0.9341584       -28.64428      0.007848666       -171.1425                0               0                0               0
1.77888                0.9319608       -28.96888      0.008045102       -174.6783                0               0                0               0
1.78548                0.9296836       -29.29831      0.008248193       -178.2131                0               0                0               0
1.79208                0.9273252       -29.63267      0.008458432        178.2514                0               0                0               0
1.79868                0.9248838       -29.97208      0.008676308        174.7129                0               0                0               0
1.80528                0.9223574       -30.31669      0.008902308        171.1693                0               0                0               0
1.81188                0.9197437       -30.66662      0.009136903        167.6181                0               0                0               0
1.81848                0.9170402       -31.02203      0.009380553        164.0568                0               0                0               0
1.82508                0.9142442       -31.38311      0.009633694        160.4831                0               0                0               0
1.83168                0.9113527       -31.75002      0.009896734        156.8943                0               0                0               0
1.83828                0.9083623       -32.12294       0.01017005         153.288                0               0                0               0
1.84488                0.9052692       -32.50207       0.01045399        149.6617                0               0                0               0
1.85149                0.9020692        -32.8876       0.01074886         146.013                0               0                0               0
