! TOUCHSTONE file generated by CST MICROWAVE STUDIO
! Date and time: Tue Mar 11 13:55:54 2025
! Project name: transverse.cst
! Parameters = {Fracture=5; B=10; D=160; F=15; Feed=2.85625; L=100; M=30; R=0.384908; S=2; Theta=0; length=57.125; wave=114.25}
! Header version: 2024
! Port assignment regex: !\s*Touchstone port\s*([0-9]+)\s*=\s*(CST MWS port|CST DES external port|CST DES block port)\s*(.+)\s* \(\"(.*)\"\)(\s*mode\s*([0-9]+))?.*
! Touchstone port assignment:
! Touchstone port 1 = CST MWS port 1 ("")
! Touchstone port 2 = CST MWS port 2 ("")
# GHz S MA R 50
1                      0.9975152        -9.75612     0.0005287506        169.5921                0               0                0               0
1.0066                 0.9974472       -9.842389     0.0005224899        163.5887                0               0                0               0
1.0132                 0.9973814       -9.929346      0.000513911        157.6898                0               0                0               0
1.0198                 0.9973169       -10.01704     0.0005029842        151.9056                0               0                0               0
1.0264                 0.9972537       -10.10552     0.0004896929        146.2497                0               0                0               0
1.033                  0.9971909       -10.19483     0.0004740359        140.7401                0               0                0               0
1.0396                 0.9971279         -10.285     0.0004560299        135.4011                0               0                0               0
1.0462                 0.9970639       -10.37605     0.0004357129         130.265                0               0                0               0
1.05281                0.9969981       -10.46802     0.0004131506        125.3762                0               0                0               0
1.05941                0.9969296       -10.56092     0.0003884442        120.7954                0               0                0               0
1.06601                0.9968575       -10.65476      0.000361744        116.6084                0               0                0               0
1.07261                0.9967811       -10.74953     0.0003332718        112.9379                0               0                0               0
1.07921                0.9966994       -10.84524     0.0003033583        109.9639                0               0                0               0
1.08581                0.9966115       -10.94186     0.0002725094        107.9556                0               0                0               0
1.09241                 0.996517       -11.03939     0.0002415254         107.319                0               0                0               0
1.09901                0.9964151       -11.13778     0.0002117148        108.6547                0               0                0               0
1.10561                0.9963054       -11.23702     0.0001852446        112.7671                0               0                0               0
1.11221                0.9961873       -11.33708     0.0001655388        120.3934                0               0                0               0
1.11881                0.9960607        -11.4379     0.0001570726        131.2643                0               0                0               0
1.12541                0.9959255       -11.53947     0.0001633814        143.0857                0               0                0               0
1.13201                0.9957815       -11.64175     0.0001844365        152.7825                0               0                0               0
1.13861                0.9956291       -11.74469     0.0002171588        158.9562                0               0                0               0
1.14521                0.9954684       -11.84826     0.0002580532        161.9295                0               0                0               0
1.15182                0.9952998       -11.95245     0.0003045344        162.5372                0               0                0               0
1.15842                0.9951238       -12.05722     0.0003549245        161.5056                0               0                0               0
1.16502                 0.994941       -12.16257       0.00040814        159.3466                0               0                0               0
1.17162                0.9947519       -12.26847     0.0004634462        156.4017                0               0                0               0
1.17822                0.9945573       -12.37494      0.000520309        152.8981                0               0                0               0
1.18482                0.9943581       -12.48197     0.0005783111        148.9897                0               0                0               0
1.19142                0.9941548       -12.58958     0.0006371056        144.7831                0               0                0               0
1.19802                0.9939482       -12.69779     0.0006963885        140.3538                0               0                0               0
1.20462                 0.993739       -12.80663     0.0007558826        135.7569                0               0                0               0
1.21122                0.9935278       -12.91615     0.0008153285        131.0331                0               0                0               0
1.21782                0.9933151       -13.02638     0.0008744791        126.2138                0               0                0               0
1.22442                0.9931015       -13.13739     0.0009330955         121.323                0               0                0               0
1.23102                0.9928871       -13.24922     0.0009909461        116.3801                0               0                0               0
1.23762                0.9926722       -13.36194      0.001047805        111.4006                0               0                0               0
1.24422                0.9924568       -13.47561      0.001103452        106.3975                0               0                0               0
1.25083                0.9922409        -13.5903      0.001157673        101.3816                0               0                0               0
1.25743                0.9920241       -13.70607      0.001210261         96.3625                0               0                0               0
1.26403                0.9918062       -13.82299      0.001261015        91.34852                0               0                0               0
1.27063                0.9915865       -13.94112      0.001309744        86.34724                0               0                0               0
1.27723                0.9913644       -14.06052      0.001356265        81.36567                0               0                0               0
1.28383                0.9911391       -14.18124      0.001400409        76.41042                0               0                0               0
1.29043                0.9909098       -14.30333      0.001442015        71.48787                0               0                0               0
1.29703                0.9906755       -14.42682      0.001480942         66.6043                0               0                0               0
1.30363                0.9904351       -14.55175      0.001517061        61.76598                0               0                0               0
1.31023                0.9901877       -14.67815      0.001550265        56.97926                0               0                0               0
1.31683                0.9899322       -14.80602      0.001580466        52.25066                0               0                0               0
1.32343                0.9896676       -14.93538      0.001607601        47.58696                0               0                0               0
1.33003                0.9893928       -15.06623      0.001631632        42.99522                0               0                0               0
1.33663                 0.989107       -15.19855      0.001652551        38.48286                0               0                0               0
1.34323                0.9888093       -15.33235      0.001670385        34.05771                0               0                0               0
1.34984                 0.988499       -15.46758      0.001685194        29.72802                0               0                0               0
1.35644                0.9881755       -15.60424      0.001697083        25.50247                0               0                0               0
1.36304                0.9878384       -15.74229      0.001706199        21.39014                0               0                0               0
1.36964                0.9874873        -15.8817      0.001712739         17.4005                0               0                0               0
1.37624                 0.987122       -16.02245      0.001716956        13.54325                0               0                0               0
1.38284                0.9867427       -16.16451      0.001719162        9.828195                0               0                0               0
1.38944                0.9863494       -16.30785      0.001719732        6.265002                0               0                0               0
1.39604                0.9859424       -16.45246      0.001719109         2.86285                0               0                0               0
1.40264                0.9855221       -16.59832      0.001717807      -0.3700011                0               0                0               0
1.40924                0.9850892       -16.74542      0.001716414       -3.426782                0               0                0               0
1.41584                0.9846441       -16.89377      0.001715589       -6.302896                0               0                0               0
1.42244                0.9841877       -17.04337      0.001716058       -8.996703                0               0                0               0
1.42904                0.9837206       -17.19427      0.001718606       -11.51036                0               0                0               0
1.43564                0.9832436       -17.34647      0.001724067       -13.85064                0               0                0               0
1.44224                0.9827574       -17.50004      0.001733298       -16.02959                0               0                0               0
1.44884                0.9822627       -17.65502      0.001747161       -18.06497                0               0                0               0
1.45545                0.9817603       -17.81148      0.001766493       -19.98019                0               0                0               0
1.46205                0.9812505       -17.96951      0.001792074       -21.80382                0               0                0               0
1.46865                0.9807338       -18.12918      0.001824593       -23.56846                0               0                0               0
1.47525                0.9802104       -18.29059      0.001864627       -25.30914                0               0                0               0
1.48185                0.9796805       -18.45385      0.001912611       -27.06147                0               0                0               0
1.48845                0.9791438       -18.61906      0.001968832       -28.85959                0               0                0               0
1.49505                   0.9786       -18.78634      0.002033421       -30.73439                0               0                0               0
1.50165                0.9780486        -18.9558      0.002106361       -32.71214                0               0                0               0
1.50825                0.9774888       -19.12755      0.002187499       -34.81363                0               0                0               0
1.51485                0.9769199       -19.30171      0.002276564       -37.05386                0               0                0               0
1.52145                0.9763403        -19.4784      0.002373192       -39.44223                0               0                0               0
1.52805                 0.975749        -19.6577      0.002476941        -41.9831                0               0                0               0
1.53465                0.9751442       -19.83974      0.002587316        -44.6765                0               0                0               0
1.54125                0.9745243        -20.0246      0.002703784       -47.51903                0               0                0               0
1.54785                0.9738876       -20.21236      0.002825788        -50.5046                0               0                0               0
1.55446                 0.973232        -20.4031      0.002952762       -53.62527                0               0                0               0
1.56106                0.9725555       -20.59687      0.003084137       -56.87183                0               0                0               0
1.56766                0.9718562       -20.79374      0.003219349       -60.23432                0               0                0               0
1.57426                0.9711318       -20.99374      0.003357846       -63.70242                0               0                0               0
1.58086                0.9703806        -21.1969       0.00349909       -67.26577                0               0                0               0
1.58746                0.9696004       -21.40325      0.003642562       -70.91418                0               0                0               0
1.59406                0.9687893       -21.61279      0.003787762       -74.63772                0               0                0               0
1.60066                0.9679455       -21.82554      0.003934215       -78.42689                0               0                0               0
1.60726                0.9670675       -22.04148       0.00408147       -82.27259                0               0                0               0
1.61386                0.9661537        -22.2606      0.004229103       -86.16619                0               0                0               0
1.62046                0.9652027        -22.4829      0.004376723       -90.09952                0               0                0               0
1.62706                0.9642134       -22.70837      0.004523967       -94.06485                0               0                0               0
1.63366                0.9631849       -22.93699      0.004670509       -98.05485                0               0                0               0
1.64026                0.9621162       -23.16874      0.004816059       -102.0626                0               0                0               0
1.64686                0.9610069       -23.40364      0.004960368       -106.0817                0               0                0               0
1.65347                0.9598563       -23.64167      0.005103232       -110.1058                0               0                0               0
1.66007                0.9586642       -23.88286      0.005244492       -114.1291                0               0                0               0
1.66667                0.9574304       -24.12721      0.005384041       -118.1462                0               0                0               0
1.67327                0.9561546       -24.37478      0.005521826       -122.1518                0               0                0               0
1.67987                0.9548369        -24.6256      0.005657854        -126.141                0               0                0               0
1.68647                0.9534771       -24.87974      0.005792189       -130.1091                0               0                0               0
1.69307                0.9520753       -25.13727      0.005924969       -134.0521                0               0                0               0
1.69967                0.9506314        -25.3983      0.006056396       -137.9658                0               0                0               0
1.70627                0.9491449       -25.66292      0.006186745       -141.8467                0               0                0               0
1.71287                0.9476156       -25.93127      0.006316371       -145.6917                0               0                0               0
1.71947                0.9460433       -26.20349      0.006445706       -149.4979                0               0                0               0
1.72607                0.9444267       -26.47972      0.006575261       -153.2632                0               0                0               0
1.73267                0.9427653       -26.76014      0.006705629       -156.9856                0               0                0               0
1.73927                0.9410577       -27.04494      0.006837486       -160.6642                0               0                0               0
1.74587                0.9393024       -27.33428      0.006971584       -164.2982                0               0                0               0
1.75248                0.9374977       -27.62838      0.007108755        -167.888                0               0                0               0
1.75908                0.9356413       -27.92744      0.007249896       -171.4343                0               0                0               0
1.76568                0.9337309       -28.23166      0.007395976       -174.9388                0               0                0               0
1.77228                0.9317638       -28.54125      0.007548016       -178.4039                0               0                0               0
1.77888                0.9297366       -28.85641      0.007707082         178.167                0               0                0               0
1.78548                 0.927646       -29.17737      0.007874273        174.7699                0               0                0               0
1.79208                0.9254884       -29.50431      0.008050708           171.4                0               0                0               0
1.79868                0.9232595       -29.83743      0.008237509        168.0519                0               0                0               0
1.80528                0.9209553       -30.17692      0.008435786        164.7193                0               0                0               0
1.81188                0.9185711       -30.52295       0.00864662        161.3957                0               0                0               0
1.81848                0.9161022        -30.8757      0.008871043        158.0741                0               0                0               0
1.82508                0.9135437       -31.23531      0.009110032        154.7473                0               0                0               0
1.83168                0.9108905       -31.60195      0.009364481        151.4081                0               0                0               0
1.83828                0.9081373       -31.97574      0.009635199        148.0493                0               0                0               0
1.84488                0.9052789       -32.35681      0.009922897         144.664                0               0                0               0
1.85149                0.9023099       -32.74527       0.01022817        141.2458                0               0                0               0
