! TOUCHSTONE file generated by CST MICROWAVE STUDIO
! Date and time: Tue Mar 11 13:56:05 2025
! Project name: transverse.cst
! Parameters = {Fracture=5; B=12.5; D=160; F=5; Feed=2.85625; L=100; M=30; R=0.384908; S=1; Theta=0; length=57.125; wave=114.25}
! Header version: 2024
! Port assignment regex: !\s*Touchstone port\s*([0-9]+)\s*=\s*(CST MWS port|CST DES external port|CST DES block port)\s*(.+)\s* \(\"(.*)\"\)(\s*mode\s*([0-9]+))?.*
! Touchstone port assignment:
! Touchstone port 1 = CST MWS port 1 ("")
! Touchstone port 2 = CST MWS port 2 ("")
# GHz S MA R 50
1                      0.9976439       -9.803543     0.0003927672       -171.5315                0               0                0               0
1.0066                 0.9975469       -9.892099     0.0003962238       -176.1173                0               0                0               0
1.0132                 0.9974461       -9.981052     0.0003984825        179.3933                0               0                0               0
1.0198                 0.9973418        -10.0704     0.0003995374        175.0123                0               0                0               0
1.0264                 0.9972345       -10.16013     0.0003993942        170.7532                0               0                0               0
1.033                  0.9971252       -10.25026     0.0003980732        166.6317                0               0                0               0
1.0396                 0.9970139        -10.3408     0.0003956106         162.665                0               0                0               0
1.0462                 0.9969018       -10.43176     0.0003920621        158.8731                0               0                0               0
1.05281                0.9967888       -10.52317     0.0003875051        155.2784                0               0                0               0
1.05941                0.9966758       -10.61506     0.0003820435        151.9061                0               0                0               0
1.06601                 0.996563       -10.70746     0.0003758111         148.784                0               0                0               0
1.07261                0.9964508       -10.80041     0.0003689775        145.9427                0               0                0               0
1.07921                0.9963394       -10.89396     0.0003617523        143.4141                0               0                0               0
1.08581                 0.996229       -10.98815     0.0003543918        141.2308                0               0                0               0
1.09241                0.9961196       -11.08304     0.0003472024         139.423                0               0                0               0
1.09901                 0.996011       -11.17866     0.0003405441        138.0151                0               0                0               0
1.10561                0.9959032       -11.27507     0.0003348283        137.0204                0               0                0               0
1.11221                0.9957958       -11.37231     0.0003305099        136.4347                0               0                0               0
1.11881                0.9956883       -11.47044     0.0003280705        136.2295                0               0                0               0
1.12541                0.9955803       -11.56948     0.0003279906        136.3474                0               0                0               0
1.13201                 0.995471       -11.66948     0.0003307137        136.7008                0               0                0               0
1.13861                0.9953599       -11.77046      0.000336607        137.1777                0               0                0               0
1.14521                0.9952463       -11.87245     0.0003459272         137.653                0               0                0               0
1.15182                0.9951295       -11.97548     0.0003588004        138.0039                0               0                0               0
1.15842                0.9950084       -12.07955     0.0003752216        138.1248                0               0                0               0
1.16502                0.9948826       -12.18467     0.0003950708        137.9368                0               0                0               0
1.17162                0.9947512       -12.29084     0.0004181404        137.3917                0               0                0               0
1.17822                0.9946135       -12.39805     0.0004441651         136.469                0               0                0               0
1.18482                 0.994469       -12.50629     0.0004728494        135.1708                0               0                0               0
1.19142                 0.994317       -12.61555     0.0005038875        133.5147                0               0                0               0
1.19802                0.9941571        -12.7258     0.0005369775        131.5279                0               0                0               0
1.20462                0.9939891       -12.83703     0.0005718291        129.2423                0               0                0               0
1.21122                0.9938124        -12.9492     0.0006081674        126.6912                0               0                0               0
1.21782                0.9936273       -13.06228     0.0006457344         123.907                0               0                0               0
1.22442                0.9934338       -13.17627     0.0006842883        120.9206                0               0                0               0
1.23102                0.9932317       -13.29112     0.0007236028        117.7598                0               0                0               0
1.23762                0.9930215       -13.40682     0.0007634656        114.4502                0               0                0               0
1.24422                0.9928035       -13.52336     0.0008036774        111.0146                0               0                0               0
1.25083                0.9925782       -13.64072      0.000844051        107.4733                0               0                0               0
1.25743                 0.992346        -13.7589     0.0008844104        103.8446                0               0                0               0
1.26403                0.9921076        -13.8779     0.0009245901        100.1445                0               0                0               0
1.27063                0.9918636       -13.99774     0.0009644357        96.38785                0               0                0               0
1.27723                0.9916148       -14.11842      0.001003803        92.58767                0               0                0               0
1.28383                0.9913615       -14.23997       0.00104256        88.75593                0               0                0               0
1.29043                0.9911047       -14.36244      0.001080585        84.90354                0               0                0               0
1.29703                0.9908447       -14.48586       0.00111777        81.04054                0               0                0               0
1.30363                0.9905823       -14.61027      0.001154019        77.17626                0               0                0               0
1.31023                0.9903178       -14.73575      0.001189253        73.31938                0               0                0               0
1.31683                0.9900513       -14.86235      0.001223405        69.47811                0               0                0               0
1.32343                0.9897834       -14.99013      0.001256428        65.66018                0               0                0               0
1.33003                0.9895138       -15.11918      0.001288293        61.87296                0               0                0               0
1.33663                0.9892426       -15.24957      0.001318991        58.12345                0               0                0               0
1.34323                0.9889697       -15.38137      0.001348535        54.41836                0               0                0               0
1.34984                0.9886944       -15.51465      0.001376962        50.76402                0               0                0               0
1.35644                0.9884164        -15.6495      0.001404331        47.16646                0               0                0               0
1.36304                0.9881351       -15.78599      0.001430733        43.63134                0               0                0               0
1.36964                0.9878495       -15.92418      0.001456283        40.16384                0               0                0               0
1.37624                0.9875588       -16.06414      0.001481128        36.76867                0               0                0               0
1.38284                 0.987262       -16.20593      0.001505443         33.4499                0               0                0               0
1.38944                0.9869581       -16.34961      0.001529437        30.21087                0               0                0               0
1.39604                0.9866459        -16.4952      0.001553348        27.05409                0               0                0               0
1.40264                0.9863242       -16.64276      0.001577445        23.98102                0               0                0               0
1.40924                 0.985992       -16.79232      0.001602026        20.99197                0               0                0               0
1.41584                0.9856478       -16.94388      0.001627415        18.08595                0               0                0               0
1.42244                0.9852907       -17.09748      0.001653961        15.26053                0               0                0               0
1.42904                0.9849198       -17.25313       0.00168203        12.51174                0               0                0               0
1.43564                0.9845339       -17.41082      0.001712002        9.834002                0               0                0               0
1.44224                 0.984132       -17.57055      0.001744262         7.22018                0               0                0               0
1.44884                0.9837135       -17.73233      0.001779197          4.6616                0               0                0               0
1.45545                0.9832778       -17.89614      0.001817183        2.148238                0               0                0               0
1.46205                0.9828242       -18.06199       0.00185858      -0.3310573                0               0                0               0
1.46865                0.9823524       -18.22986      0.001903722       -2.788267                0               0                0               0
1.47525                0.9818621       -18.39975      0.001952912        -5.23584                0               0                0               0
1.48185                0.9813531       -18.57168      0.002006412       -7.686314                0               0                0               0
1.48845                0.9808254       -18.74564      0.002064441       -10.15192                0               0                0               0
1.49505                0.9802789       -18.92165      0.002127172       -12.64419                0               0                0               0
1.50165                0.9797138       -19.09973      0.002194724        -15.1737                0               0                0               0
1.50825                0.9791303       -19.27992      0.002267171       -17.74971                0               0                0               0
1.51485                0.9785284       -19.46225      0.002344533        -20.3801                0               0                0               0
1.52145                0.9779084       -19.64677      0.002426787       -23.07117                0               0                0               0
1.52805                0.9772705       -19.83356      0.002513866       -25.82766                0               0                0               0
1.53465                0.9766146       -20.02267      0.002605664        -28.6528                0               0                0               0
1.54125                0.9759408        -20.2142      0.002702041       -31.54838                0               0                0               0
1.54785                0.9752488       -20.40823      0.002802828       -34.51489                0               0                0               0
1.55446                0.9745382       -20.60487      0.002907829       -37.55163                0               0                0               0
1.56106                0.9738091       -20.80423      0.003016833       -40.65697                0               0                0               0
1.56766                0.9730602       -21.00641       0.00312961       -43.82839                0               0                0               0
1.57426                 0.972291       -21.21155      0.003245922       -47.06274                0               0                0               0
1.58086                0.9715002       -21.41976      0.003365523       -50.35634                0               0                0               0
1.58746                0.9706866       -21.63116      0.003488166       -53.70507                0               0                0               0
1.59406                0.9698488       -21.84588      0.003613605       -57.10456                0               0                0               0
1.60066                0.9689848       -22.06405      0.003741597       -60.55023                0               0                0               0
1.60726                0.9680926       -22.28577      0.003871911        -64.0374                0               0                0               0
1.61386                0.9671701       -22.51116      0.004004323       -67.56134                0               0                0               0
1.62046                0.9662149       -22.74031      0.004138627       -71.11731                0               0                0               0
1.62706                0.9652245       -22.97334      0.004274634       -74.70065                0               0                0               0
1.63366                0.9641961       -23.21031      0.004412175       -78.30679                0               0                0               0
1.64026                 0.963127       -23.45131      0.004551106       -81.93126                0               0                0               0
1.64686                0.9620143       -23.69638       0.00469131       -85.56975                0               0                0               0
1.65347                 0.960855       -23.94559        0.0048327       -89.21813                0               0                0               0
1.66007                0.9596464       -24.19895      0.004975221       -92.87243                0               0                0               0
1.66667                0.9583854       -24.45651      0.005118857        -96.5289                0               0                0               0
1.67327                0.9570693       -24.71827      0.005263629        -100.184                0               0                0               0
1.67987                0.9556954       -24.98424      0.005409601       -103.8345                0               0                0               0
1.68647                0.9542609        -25.2544      0.005556882       -107.4773                0               0                0               0
1.69307                0.9527635       -25.52875      0.005705627       -111.1097                0               0                0               0
1.69967                0.9512009       -25.80726      0.005856042       -114.7293                0               0                0               0
1.70627                0.9495708       -26.08991      0.006008384       -118.3339                0               0                0               0
1.71287                0.9478713       -26.37668       0.00616296       -121.9218                0               0                0               0
1.71947                0.9461005       -26.66754      0.006320134       -125.4916                0               0                0               0
1.72607                0.9442571       -26.96247      0.006480324       -129.0423                0               0                0               0
1.73267                0.9423396       -27.26146      0.006643999       -132.5733                0               0                0               0
1.73927                0.9403465       -27.56449      0.006811681       -136.0845                0               0                0               0
1.74587                 0.938277       -27.87157      0.006983943       -139.5761                0               0                0               0
1.75248                0.9361298       -28.18272      0.007161404        -143.049                0               0                0               0
1.75908                 0.933904       -28.49795      0.007344728       -146.5044                0               0                0               0
1.76568                0.9315987       -28.81731      0.007534614        -149.944                0               0                0               0
1.77228                0.9292131       -29.14086      0.007731797       -153.3698                0               0                0               0
1.77888                0.9267459       -29.46868      0.007937034       -156.7846                0               0                0               0
1.78548                0.9241961       -29.80085      0.008151102       -160.1912                0               0                0               0
1.79208                0.9215625       -30.13748      0.008374788        -163.593                0               0                0               0
1.79868                0.9188436       -30.47869      0.008608877       -166.9937                0               0                0               0
1.80528                0.9160379       -30.82463      0.008854153        -170.397                0               0                0               0
1.81188                0.9131431       -31.17546      0.009111374        -173.807                0               0                0               0
1.81848                0.9101571       -31.53132      0.009381276        -177.228                0               0                0               0
1.82508                0.9070772       -31.89241      0.009664564         179.336                0               0                0               0
1.83168                0.9039005        -32.2589      0.009961891        175.8808                0               0                0               0
1.83828                0.9006234       -32.63098       0.01027387        172.4024                0               0                0               0
1.84488                0.8972422       -33.00884       0.01060105        168.8968                0               0                0               0
1.85149                0.8937526       -33.39267       0.01094392        165.3605                0               0                0               0
