! TOUCHSTONE file generated by CST MICROWAVE STUDIO
! Date and time: Tue Mar 11 13:56:34 2025
! Project name: transverse.cst
! Parameters = {Fracture=5; B=10; D=160; F=5; Feed=2.85625; L=100; M=30; R=0.384908; S=1; Theta=90; length=57.125; wave=114.25}
! Header version: 2024
! Port assignment regex: !\s*Touchstone port\s*([0-9]+)\s*=\s*(CST MWS port|CST DES external port|CST DES block port)\s*(.+)\s* \(\"(.*)\"\)(\s*mode\s*([0-9]+))?.*
! Touchstone port assignment:
! Touchstone port 1 = CST MWS port 1 ("")
! Touchstone port 2 = CST MWS port 2 ("")
# GHz S MA R 50
1                      0.9977296       -9.761697     0.0003394292        -154.225                0               0                0               0
1.00658                0.9976302       -9.849795     0.0003519865        -158.381                0               0                0               0
1.01316                0.9975256       -9.938229     0.0003638613       -162.5478                0               0                0               0
1.01974                0.9974164       -10.02698     0.0003749908       -166.7121                0               0                0               0
1.02632                0.9973034       -10.11603     0.0003853181       -170.8615                0               0                0               0
1.03289                0.9971873       -10.20538     0.0003947938       -174.9841                0               0                0               0
1.03947                 0.997069       -10.29503     0.0004033758       -179.0681                0               0                0               0
1.04605                0.9969495         -10.385     0.0004110312        176.8982                0               0                0               0
1.05263                0.9968293        -10.4753     0.0004177371        172.9266                0               0                0               0
1.05921                0.9967093       -10.56597     0.0004234815        169.0294                0               0                0               0
1.06579                0.9965902       -10.65705     0.0004282652         165.219                0               0                0               0
1.07237                0.9964726       -10.74857     0.0004321032        161.5086                0               0                0               0
1.07895                 0.996357       -10.84059     0.0004350263        157.9118                0               0                0               0
1.08553                0.9962438       -10.93318     0.0004370831        154.4428                0               0                0               0
1.09211                0.9961331       -11.02637     0.0004383425        151.1163                0               0                0               0
1.09868                0.9960251       -11.12025      0.000438895        147.9473                0               0                0               0
1.10526                0.9959195       -11.21488     0.0004388559         144.951                0               0                0               0
1.11184                0.9958163       -11.31031     0.0004383669        142.1422                0               0                0               0
1.11842                 0.995715       -11.40661     0.0004375979        139.5346                0               0                0               0
1.125                   0.995615       -11.50384     0.0004367487          137.14                0               0                0               0
1.13158                0.9955157       -11.60204     0.0004360489        134.9671                0               0                0               0
1.13816                0.9954162       -11.70127     0.0004357567        133.0204                0               0                0               0
1.14474                0.9953157       -11.80157     0.0004361558         131.298                0               0                0               0
1.15132                0.9952132       -11.90296     0.0004375494        129.7908                0               0                0               0
1.15789                0.9951076       -12.00548     0.0004402515        128.4807                0               0                0               0
1.16447                0.9949981       -12.10913     0.0004445758        127.3404                0               0                0               0
1.17105                0.9948835       -12.21391     0.0004508211        126.3331                0               0                0               0
1.17763                0.9947629       -12.31984     0.0004592572        125.4145                0               0                0               0
1.18421                0.9946351       -12.42688      0.000470111        124.5347                0               0                0               0
1.19079                0.9944997       -12.53503     0.0004835545        123.6422                0               0                0               0
1.19737                0.9943555       -12.64425     0.0004996988        122.6872                0               0                0               0
1.20395                 0.994202       -12.75452      0.000518591        121.6252                0               0                0               0
1.21053                0.9940388        -12.8658     0.0005402179        120.4192                0               0                0               0
1.21711                0.9938657       -12.97804      0.000564512        119.0418                0               0                0               0
1.22368                0.9936823       -13.09121      0.000591361        117.4746                0               0                0               0
1.23026                0.9934887       -13.20526     0.0006206177        115.7085                0               0                0               0
1.23684                 0.993285       -13.32016     0.0006521092        113.7415                0               0                0               0
1.24342                0.9930716       -13.43587     0.0006856458         111.578                0               0                0               0
1.25                    0.992849       -13.55236     0.0007210279        109.2265                0               0                0               0
1.25658                0.9926177       -13.66961      0.000758051        106.6988                0               0                0               0
1.26316                0.9923785        -13.7876     0.0007965106        104.0086                0               0                0               0
1.26974                0.9921322       -13.90632     0.0008362044        101.1706                0               0                0               0
1.27632                0.9918796       -14.02577     0.0008769348        98.19963                0               0                0               0
1.28289                0.9916218       -14.14598     0.0009185103        95.11058                0               0                0               0
1.28947                0.9913593       -14.26696     0.0009607469        91.91781                0               0                0               0
1.29605                0.9910934       -14.38875      0.001003468          88.635                0               0                0               0
1.30263                0.9908248       -14.51138      0.001046507        85.27515                0               0                0               0
1.30921                0.9905544       -14.63493      0.001089706        81.85043                0               0                0               0
1.31579                0.9902825       -14.75945      0.001132918        78.37226                0               0                0               0
1.32237                0.9900099       -14.88502      0.001176006         74.8513                0               0                0               0
1.32895                0.9897368        -15.0117      0.001218846        71.29753                0               0                0               0
1.33553                0.9894635        -15.1396      0.001261327        67.72028                0               0                0               0
1.34211                  0.98919        -15.2688      0.001303352        64.12825                0               0                0               0
1.34868                 0.988916       -15.39938      0.001344838        60.52962                0               0                0               0
1.35526                0.9886412       -15.53145       0.00138572        56.93206                0               0                0               0
1.36184                0.9883651       -15.66508      0.001425949        53.34275                0               0                0               0
1.36842                0.9880869       -15.80037      0.001465496        49.76842                0               0                0               0
1.375                  0.9878056        -15.9374      0.001504352        46.21538                0               0                0               0
1.38158                0.9875201       -16.07625      0.001542528        42.68953                0               0                0               0
1.38816                0.9872294       -16.21697       0.00158006        39.19629                0               0                0               0
1.39474                0.9869319       -16.35965      0.001617006        35.74066                0               0                0               0
1.40132                0.9866265        -16.5043      0.001653451        32.32714                0               0                0               0
1.40789                0.9863114         -16.651      0.001689505        28.95974                0               0                0               0
1.41447                0.9859855       -16.79975      0.001725303        25.64185                0               0                0               0
1.42105                0.9856472       -16.95059      0.001761008        22.37629                0               0                0               0
1.42763                0.9852949       -17.10352       0.00179681        19.16513                0               0                0               0
1.43421                0.9849276       -17.25854      0.001832924        16.00973                0               0                0               0
1.44079                0.9845439       -17.41565      0.001869588        12.91059                0               0                0               0
1.44737                0.9841426       -17.57483      0.001907067        9.867339                0               0                0               0
1.45395                0.9837229       -17.73607      0.001945642        6.878643                0               0                0               0
1.46053                0.9832839       -17.89933      0.001985614        3.942211                0               0                0               0
1.46711                0.9828251        -18.0646      0.002027295        1.054758                0               0                0               0
1.47368                0.9823459       -18.23186      0.002071007       -1.787977                0               0                0               0
1.48026                 0.981846       -18.40107      0.002117076       -4.591175                0               0                0               0
1.48684                0.9813255       -18.57222      0.002165823        -7.36086                0               0                0               0
1.49342                0.9807842        -18.7453      0.002217567       -10.10378                0               0                0               0
1.5                    0.9802223       -18.92031      0.002272606       -12.82725                0               0                0               0
1.50658                0.9796402       -19.09724      0.002331226       -15.53899                0               0                0               0
1.51316                0.9790384       -19.27612      0.002393685       -18.24692                0               0                0               0
1.51974                 0.978417       -19.45697      0.002460212       -20.95893                0               0                0               0
1.52632                0.9777768       -19.63983      0.002531005       -23.68273                0               0                0               0
1.53289                 0.977118       -19.82475      0.002606226       -26.42561                0               0                0               0
1.53947                0.9764411        -20.0118      0.002685999       -29.19429                0               0                0               0
1.54605                0.9757465       -20.20106      0.002770412       -31.99478                0               0                0               0
1.55263                0.9750343       -20.39262      0.002859511        -34.8323                0               0                0               0
1.55921                0.9743047       -20.58658      0.002953312       -37.71115                0               0                0               0
1.56579                0.9735574       -20.78306      0.003051789       -40.63476                0               0                0               0
1.57237                0.9727921       -20.98218      0.003154888        -43.6056                0               0                0               0
1.57895                0.9720082       -21.18406      0.003262525       -46.62528                0               0                0               0
1.58553                0.9712048       -21.38885      0.003374589       -49.69457                0               0                0               0
1.59211                0.9703808       -21.59669      0.003490948       -52.81346                0               0                0               0
1.59868                0.9695348        -21.8077      0.003611451       -55.98128                0               0                0               0
1.60526                0.9686651       -22.02203      0.003735933       -59.19671                0               0                0               0
1.61184                0.9677697        -22.2398      0.003864217       -62.45794                0               0                0               0
1.61842                0.9668466       -22.46115      0.003996123       -65.76271                0               0                0               0
1.625                   0.965893        -22.6862      0.004131464       -69.10842                0               0                0               0
1.63158                0.9649066       -22.91504      0.004270057       -72.49217                0               0                0               0
1.63816                0.9638844       -23.14778      0.004411722       -75.91086                0               0                0               0
1.64474                0.9628235       -23.38449      0.004556289       -79.36123                0               0                0               0
1.65132                0.9617207       -23.62524      0.004703599       -82.83994                0               0                0               0
1.65789                0.9605731       -23.87009      0.004853509       -86.34359                0               0                0               0
1.66447                0.9593771       -24.11907      0.005005892       -89.86879                0               0                0               0
1.67105                0.9581301        -24.3722       0.00516065       -93.41218                0               0                0               0
1.67763                0.9568284       -24.62949      0.005317702       -96.97044                0               0                0               0
1.68421                0.9554696       -24.89093      0.005477002       -100.5404                0               0                0               0
1.69079                0.9540503       -25.15651      0.005638533        -104.119                0               0                0               0
1.69737                0.9525684       -25.42619      0.005802314       -107.7033                0               0                0               0
1.70395                0.9510211       -25.69993      0.005968399       -111.2906                0               0                0               0
1.71053                0.9494062        -25.9777      0.006136885       -114.8784                0               0                0               0
1.71711                0.9477215       -26.25944      0.006307911       -118.4642                0               0                0               0
1.72368                0.9459655       -26.54509      0.006481656       -122.0462                0               0                0               0
1.73026                0.9441366       -26.83463      0.006658351       -125.6224                0               0                0               0
1.73684                0.9422333       -27.12799      0.006838271       -129.1913                0               0                0               0
1.74342                0.9402546       -27.42516       0.00702174       -132.7518                0               0                0               0
1.75                   0.9381998       -27.72609      0.007209131       -136.3029                0               0                0               0
1.75658                0.9360678       -28.03078      0.007400861       -139.8441                0               0                0               0
1.76316                0.9338583       -28.33923      0.007597397       -143.3751                0               0                0               0
1.76974                0.9315705       -28.65146      0.007799249       -146.8961                0               0                0               0
1.77632                0.9292042       -28.96749      0.008006973       -150.4075                0               0                0               0
1.78289                0.9267588        -29.2874      0.008221158       -153.9103                0               0                0               0
1.78947                0.9242335       -29.61124      0.008442431       -157.4057                0               0                0               0
1.79605                0.9216279       -29.93913      0.008671448       -160.8951                0               0                0               0
1.80263                0.9189409       -30.27116      0.008908888       -164.3805                0               0                0               0
1.80921                0.9161716       -30.60749       0.00915545        -167.864                0               0                0               0
1.81579                0.9133184       -30.94825      0.009411838       -171.3481                0               0                0               0
1.82237                0.9103798       -31.29362      0.009678764       -174.8355                0               0                0               0
1.82895                0.9073535       -31.64378      0.009956937       -178.3289                0               0                0               0
1.83553                0.9042371       -31.99891       0.01024705        178.1685                0               0                0               0
1.84211                0.9010278       -32.35922       0.01054977        174.6537                0               0                0               0
1.84868                 0.897722       -32.72491       0.01086575        171.1236                0               0                0               0
