! TOUCHSTONE file generated by CST MICROWAVE STUDIO
! Date and time: Tue Mar 11 13:58:08 2025
! Project name: transverse.cst
! Parameters = {Fracture=5; B=12.5; D=160; F=5; Feed=2.85625; L=100; M=30; R=0.384908; S=2; Theta=270; length=57.125; wave=114.25}
! Header version: 2024
! Port assignment regex: !\s*Touchstone port\s*([0-9]+)\s*=\s*(CST MWS port|CST DES external port|CST DES block port)\s*(.+)\s* \(\"(.*)\"\)(\s*mode\s*([0-9]+))?.*
! Touchstone port assignment:
! Touchstone port 1 = CST MWS port 1 ("")
! Touchstone port 2 = CST MWS port 2 ("")
# GHz S MA R 50
1                      0.9976368       -9.766296     0.0004021408       -173.6904                0               0                0               0
1.0066                 0.9975406       -9.853979     0.0004042245       -178.3865                0               0                0               0
1.0132                 0.9974415       -9.942054     0.0004049962        177.0269                0               0                0               0
1.0198                   0.99734       -10.03053     0.0004044546        172.5634                0               0                0               0
1.0264                 0.9972365       -10.11941     0.0004026126        168.2382                0               0                0               0
1.033                  0.9971314        -10.2087     0.0003994988        164.0693                0               0                0               0
1.0396                 0.9970253       -10.29844     0.0003951608        160.0772                0               0                0               0
1.0462                 0.9969186       -10.38863     0.0003896686        156.2859                0               0                0               0
1.05281                0.9968118       -10.47931     0.0003831189        152.7229                0               0                0               0
1.05941                0.9967051       -10.57052     0.0003756395        149.4195                0               0                0               0
1.06601                0.9965987       -10.66229     0.0003673959        146.4113                0               0                0               0
1.07261                 0.996493       -10.75466     0.0003585982        143.7374                0               0                0               0
1.07921                0.9963877       -10.84767     0.0003495084        141.4396                0               0                0               0
1.08581                0.9962831       -10.94137     0.0003404485        139.5601                0               0                0               0
1.09241                0.9961788        -11.0358     0.0003318065        138.1376                0               0                0               0
1.09901                0.9960747       -11.13101     0.0003240398        137.2009                0               0                0               0
1.10561                0.9959704       -11.22703     0.0003176699        136.7605                0               0                0               0
1.11221                0.9958655        -11.3239     0.0003132664        136.7975                0               0                0               0
1.11881                0.9957595       -11.42166     0.0003114151        137.2547                0               0                0               0
1.12541                0.9956518       -11.52033     0.0003126711        138.0315                0               0                0               0
1.13201                0.9955418       -11.61995     0.0003175016        138.9882                0               0                0               0
1.13861                0.9954287       -11.72053     0.0003262343         139.962                0               0                0               0
1.14521                 0.995312       -11.82208     0.0003390252        140.7902                0               0                0               0
1.15182                0.9951909       -11.92463     0.0003558561        141.3336                0               0                0               0
1.15842                0.9950648       -12.02815     0.0003765597         141.492                0               0                0               0
1.16502                0.9949329       -12.13267     0.0004008613        141.2089                0               0                0               0
1.17162                0.9947948       -12.23816     0.0004284234         140.466                0               0                0               0
1.17822                0.9946497       -12.34461     0.0004588817        139.2745                0               0                0               0
1.18482                0.9944973       -12.45201     0.0004918716        137.6638                0               0                0               0
1.19142                0.9943373       -12.56033     0.0005270432        135.6732                0               0                0               0
1.19802                0.9941694       -12.66955     0.0005640688        133.3457                0               0                0               0
1.20462                0.9939934       -12.77966     0.0006026442        130.7239                0               0                0               0
1.21122                0.9938093       -12.89062     0.0006424892        127.8478                0               0                0               0
1.21782                0.9936172       -13.00242     0.0006833446        124.7539                0               0                0               0
1.22442                0.9934172       -13.11503     0.0007249699        121.4746                0               0                0               0
1.23102                0.9932098       -13.22843     0.0007671413        118.0385                0               0                0               0
1.23762                0.9929951       -13.34262     0.0008096489         114.471                0               0                0               0
1.24422                0.9927736       -13.45759     0.0008522957         110.794                0               0                0               0
1.25083                0.9925459       -13.57334     0.0008948967         107.027                0               0                0               0
1.25743                0.9923127       -13.68986     0.0009372771        103.1869                0               0                0               0
1.26403                0.9920745       -13.80719      0.000979273        99.28899                0               0                0               0
1.27063                0.9918315       -13.92533       0.00102073        95.34664                0               0                0               0
1.27723                 0.991585       -14.04431      0.001061504        91.37201                0               0                0               0
1.28383                 0.991335       -14.16417      0.001101464        87.37605                0               0                0               0
1.29043                0.9910822       -14.28495      0.001140488        83.36881                0               0                0               0
1.29703                0.9908271        -14.4067      0.001178468        79.35955                0               0                0               0
1.30363                0.9905699       -14.52948      0.001215308         75.3569                0               0                0               0
1.31023                0.9903109       -14.65334      0.001250929        71.36895                0               0                0               0
1.31683                0.9900503       -14.77835      0.001285267        67.40337                0               0                0               0
1.32343                0.9897879       -14.90458      0.001318273        63.46746                0               0                0               0
1.33003                0.9895236       -15.03209      0.001349921        59.56823                0               0                0               0
1.33663                0.9892573       -15.16095      0.001380204         55.7124                0               0                0               0
1.34323                0.9889885       -15.29124      0.001409137        51.90645                0               0                0               0
1.34984                0.9887165       -15.42302       0.00143676         48.1566                0               0                0               0
1.35644                0.9884408       -15.55634      0.001463139        44.46882                0               0                0               0
1.36304                0.9881605       -15.69129      0.001488367        40.84874                0               0                0               0
1.36964                0.9878749        -15.8279      0.001512567        37.30166                0               0                0               0
1.37624                0.9875829       -15.96622      0.001535893        33.83238                0               0                0               0
1.38284                0.9872837        -16.1063      0.001558531         30.4452                0               0                0               0
1.38944                 0.986976       -16.24818      0.001580697        27.14372                0               0                0               0
1.39604                 0.986659       -16.39189      0.001602644        23.93071                0               0                0               0
1.40264                0.9863313       -16.53743      0.001624655        20.80797                0               0                0               0
1.40924                0.9859924       -16.68484      0.001647043        17.77616                0               0                0               0
1.41584                 0.985641       -16.83412      0.001670152        14.83459                0               0                0               0
1.42244                0.9852762       -16.98527      0.001694349        11.98111                0               0                0               0
1.42904                0.9848973        -17.1383      0.001720023        9.211975                0               0                0               0
1.43564                0.9845037        -17.2932      0.001747579        6.521729                0               0                0               0
1.44224                0.9840945       -17.44996      0.001777425        3.903217                0               0                0               0
1.44884                0.9836695       -17.60859      0.001809974         1.34761                0               0                0               0
1.45545                0.9832282       -17.76907      0.001845628       -1.155438                0               0                0               0
1.46205                0.9827705        -17.9314      0.001884771       -3.617568                0               0                0               0
1.46865                0.9822962       -18.09558      0.001927762       -6.051414                0               0                0               0
1.47525                0.9818051       -18.26161      0.001974924       -8.470216                0               0                0               0
1.48185                0.9812977       -18.42951      0.002026539        -10.8874                0               0                0               0
1.48845                0.9807738        -18.5993      0.002082839       -13.31617                0               0                0               0
1.49505                0.9802339         -18.771      0.002144007       -15.76903                0               0                0               0
1.50165                0.9796779       -18.94465      0.002210171        -18.2575                0               0                0               0
1.50825                0.9791063       -19.12029      0.002281405       -20.79176                0               0                0               0
1.51485                0.9785191       -19.29798       0.00235773       -23.38044                0               0                0               0
1.52145                0.9779168       -19.47778      0.002439117       -26.03054                0               0                0               0
1.52805                0.9772992       -19.65978      0.002525493       -28.74732                0               0                0               0
1.53465                0.9766664       -19.84405      0.002616741       -31.53441                0               0                0               0
1.54125                0.9760181       -20.03068      0.002712709       -34.39389                0               0                0               0
1.54785                0.9753543       -20.21978      0.002813217       -37.32639                0               0                0               0
1.55446                0.9746742       -20.41146      0.002918059        -40.3313                0               0                0               0
1.56106                0.9739774       -20.60582      0.003027009       -43.40693                0               0                0               0
1.56766                 0.973263       -20.80299      0.003139828        -46.5507                0               0                0               0
1.57426                0.9725297       -21.00307      0.003256266       -49.75932                0               0                0               0
1.58086                0.9717765        -21.2062       0.00337607       -53.02892                0               0                0               0
1.58746                0.9710016       -21.41247      0.003498986       -56.35521                0               0                0               0
1.59406                0.9702036       -21.62202      0.003624763       -59.73361                0               0                0               0
1.60066                0.9693803       -21.83493      0.003753158       -63.15936                0               0                0               0
1.60726                0.9685299       -22.05132      0.003883937       -66.62755                0               0                0               0
1.61386                0.9676497       -22.27127      0.004016882       -70.13328                0               0                0               0
1.62046                0.9667378       -22.49487      0.004151791       -73.67166                0               0                0               0
1.62706                0.9657916       -22.72219      0.004288482       -77.23787                0               0                0               0
1.63366                0.9648085       -22.95329      0.004426799       -80.82721                0               0                0               0
1.64026                0.9637858       -23.18822       0.00456661       -84.43512                0               0                0               0
1.64686                0.9627211       -23.42703      0.004707813       -88.05721                0               0                0               0
1.65347                0.9616116       -23.66973       0.00485034       -91.68928                0               0                0               0
1.66007                0.9604549       -23.91636      0.004994159       -95.32737                0               0                0               0
1.66667                0.9592485       -24.16691      0.005139275       -98.96773                0               0                0               0
1.67327                  0.95799       -24.42138      0.005285736       -102.6069                0               0                0               0
1.67987                0.9566774       -24.67977      0.005433634       -106.2416                0               0                0               0
1.68647                0.9553084       -24.94207      0.005583106       -109.8689                0               0                0               0
1.69307                0.9538813       -25.20826      0.005734339       -113.4862                0               0                0               0
1.69967                0.9523943       -25.47832      0.005887571       -117.0913                0               0                0               0
1.70627                0.9508458       -25.75224       0.00604309       -120.6822                0               0                0               0
1.71287                0.9492347       -26.03001       0.00620124       -124.2574                0               0                0               0
1.71947                0.9475593       -26.31161      0.006362412       -127.8158                0               0                0               0
1.72607                0.9458191       -26.59705       0.00652706       -131.3565                0               0                0               0
1.73267                0.9440128       -26.88634      0.006695679       -134.8793                0               0                0               0
1.73927                0.9421396       -27.17951      0.006868821       -138.3844                0               0                0               0
1.74587                0.9401988       -27.47658      0.007047081       -141.8723                0               0                0               0
1.75248                0.9381898        -27.7776      0.007231099       -145.3442                0               0                0               0
1.75908                0.9361116       -28.08265      0.007421552       -148.8017                0               0                0               0
1.76568                0.9339637       -28.39179      0.007619153       -152.2466                0               0                0               0
1.77228                0.9317449       -28.70515      0.007824639       -155.6814                0               0                0               0
1.77888                0.9294545       -29.02281      0.008038766       -159.1089                0               0                0               0
1.78548                 0.927091       -29.34493        0.0082623       -162.5322                0               0                0               0
1.79208                 0.924653       -29.67164      0.008496013       -165.9549                0               0                0               0
1.79868                0.9221389       -30.00311       0.00874067       -169.3806                0               0                0               0
1.80528                0.9195465       -30.33951      0.008997019       -172.8132                0               0                0               0
1.81188                0.9168736       -30.68103      0.009265785       -176.2568                0               0                0               0
1.81848                0.9141175       -31.02785      0.009547665       -179.7153                0               0                0               0
1.82508                0.9112748       -31.38018      0.009843311        176.8071                0               0                0               0
1.83168                0.9083422       -31.73822       0.01015333        173.3066                0               0                0               0
1.83828                0.9053156       -32.10217       0.01047827        169.7794                0               0                0               0
1.84488                0.9021909       -32.47223       0.01081863        166.2219                0               0                0               0
1.85149                 0.898963       -32.84858       0.01117483        162.6308                0               0                0               0
