! TOUCHSTONE file generated by CST MICROWAVE STUDIO
! Date and time: Tue Mar 11 13:57:58 2025
! Project name: transverse.cst
! Parameters = {Fracture=1; B=10; D=160; F=15; Feed=2.85625; L=100; M=30; R=0.384908; S=2; Theta=270; length=57.125; wave=114.25}
! Header version: 2024
! Port assignment regex: !\s*Touchstone port\s*([0-9]+)\s*=\s*(CST MWS port|CST DES external port|CST DES block port)\s*(.+)\s* \(\"(.*)\"\)(\s*mode\s*([0-9]+))?.*
! Touchstone port assignment:
! Touchstone port 1 = CST MWS port 1 ("")
! Touchstone port 2 = CST MWS port 2 ("")
# GHz S MA R 50
1                      0.9975576       -9.996862     0.0004819285          172.52                0               0                0               0
1.00658                 0.997486       -10.08467     0.0004777248        166.9232                0               0                0               0
1.01316                0.9974155       -10.17312     0.0004715006        161.4481                0               0                0               0
1.01974                0.9973459       -10.26225     0.0004632407        156.1089                0               0                0               0
1.02632                0.9972768       -10.35209     0.0004529452        150.9234                0               0                0               0
1.03289                0.9972078       -10.44269     0.0004406325        145.9147                0               0                0               0
1.03947                0.9971384       -10.53408     0.0004263431        141.1127                0               0                0               0
1.04605                 0.997068       -10.62628     0.0004101449        136.5556                0               0                0               0
1.05263                0.9969961       -10.71932     0.0003921412        132.2938                0               0                0               0
1.05921                0.9969219       -10.81322     0.0003724817        128.3932                0               0                0               0
1.06579                0.9968448       -10.90798      0.000351379        124.9409                0               0                0               0
1.07237                 0.996764       -11.00363     0.0003291334        122.0531                0               0                0               0
1.07895                0.9966789       -11.10015       0.00030617        119.8834                0               0                0               0
1.08553                0.9965888       -11.19755     0.0002830943        118.6323                0               0                0               0
1.09211                0.9964932       -11.29581     0.0002607696        118.5494                0               0                0               0
1.09868                0.9963914       -11.39492     0.0002404145        119.9136                0               0                0               0
1.10526                 0.996283       -11.49487     0.0002236835        122.9564                0               0                0               0
1.11184                0.9961675       -11.59563     0.0002126257        127.6941                0               0                0               0
1.11842                0.9960447       -11.69718     0.0002093529        133.7067                0               0                0               0
1.125                  0.9959144       -11.79949     0.0002153769        140.0837                0               0                0               0
1.13158                0.9957764       -11.90254     0.0002310123        145.7546                0               0                0               0
1.13816                0.9956308        -12.0063      0.000255394        149.9759                0               0                0               0
1.14474                0.9954777       -12.11075     0.0002870442        152.5133                0               0                0               0
1.15132                0.9953171       -12.21586      0.000324442        153.4897                0               0                0               0
1.15789                0.9951496       -12.32162     0.0003663012        153.1693                0               0                0               0
1.16447                0.9949753       -12.42801     0.0004116182        151.8255                0               0                0               0
1.17105                0.9947948       -12.53502     0.0004596248        149.6913                0               0                0               0
1.17763                0.9946085       -12.64265      0.000509726        146.9496                0               0                0               0
1.18421                0.9944171        -12.7509     0.0005614468        143.7401                0               0                0               0
1.19079                0.9942209       -12.85978     0.0006143938        140.1683                0               0                0               0
1.19737                0.9940206        -12.9693     0.0006682299        136.3144                0               0                0               0
1.20395                0.9938168       -13.07948      0.000722656        132.2395                0               0                0               0
1.21053                0.9936099       -13.19036     0.0007773996         127.991                0               0                0               0
1.21711                0.9934005       -13.30196     0.0008322076         123.606                0               0                0               0
1.22368                0.9931888       -13.41433     0.0008868407         119.114                0               0                0               0
1.23026                0.9929753       -13.52751     0.0009410706        114.5389                0               0                0               0
1.23684                0.9927601       -13.64155     0.0009946777        109.9001                0               0                0               0
1.24342                0.9925433       -13.75651      0.001047451        105.2138                0               0                0               0
1.25                    0.992325       -13.87242      0.001099185        100.4938                0               0                0               0
1.25658                 0.992105       -13.98936      0.001149685        95.75177                0               0                0               0
1.26316                0.9918831       -14.10738      0.001198761        90.99817                0               0                0               0
1.26974                 0.991659       -14.22653      0.001246233        86.24215                0               0                0               0
1.27632                0.9914321       -14.34686      0.001291929        81.49208                0               0                0               0
1.28289                 0.991202       -14.46843       0.00133569        76.75567                0               0                0               0
1.28947                0.9909679       -14.59127      0.001377368        72.04019                0               0                0               0
1.29605                0.9907292       -14.71543      0.001416826        67.35258                0               0                0               0
1.30263                0.9904851       -14.84095      0.001453946         62.6996                0               0                0               0
1.30921                0.9902346       -14.96785      0.001488623        58.08792                0               0                0               0
1.31579                0.9899769       -15.09616      0.001520775         53.5242                0               0                0               0
1.32237                0.9897113       -15.22588      0.001550337        49.01516                0               0                0               0
1.32895                0.9894367       -15.35705      0.001577271        44.56766                0               0                0               0
1.33553                0.9891524       -15.48964      0.001601564         40.1887                0               0                0               0
1.34211                0.9888576       -15.62367      0.001623231        35.88552                0               0                0               0
1.34868                0.9885517       -15.75912      0.001642321        31.66555                0               0                0               0
1.35526                 0.988234       -15.89599      0.001658918        27.53645                0               0                0               0
1.36184                0.9879039       -16.03425      0.001673144        23.50608                0               0                0               0
1.36842                0.9875612        -16.1739      0.001685165        19.58241                0               0                0               0
1.375                  0.9872056       -16.31491      0.001695191        15.77346                0               0                0               0
1.38158                0.9868368       -16.45726      0.001703483        12.08714                0               0                0               0
1.38816                0.9864549       -16.60094      0.001710355        8.531083                0               0                0               0
1.39474                0.9860601       -16.74593      0.001716175        5.112337                0               0                0               0
1.40132                0.9856523       -16.89223       0.00172137        1.837071                0               0                0               0
1.40789                0.9852321       -17.03981      0.001726426        -1.28984                0               0                0               0
1.41447                0.9847997       -17.18871      0.001731883       -4.265296                0               0                0               0
1.42105                0.9843558       -17.33891      0.001738338       -7.088488                0               0                0               0
1.42763                0.9839008       -17.49043      0.001746431       -9.761453                0               0                0               0
1.43421                0.9834353       -17.64331      0.001756844       -12.28959                0               0                0               0
1.44079                0.9829599       -17.79757      0.001770281       -14.68208                0               0                0               0
1.44737                 0.982475       -17.95327      0.001787454       -16.95216                0               0                0               0
1.45395                0.9819814       -18.11045      0.001809063       -19.11713                0               0                0               0
1.46053                0.9814793       -18.26918      0.001835775       -21.19802                0               0                0               0
1.46711                0.9809691       -18.42953      0.001868198       -23.21901                0               0                0               0
1.47368                0.9804513       -18.59158      0.001906865       -25.20641                0               0                0               0
1.48026                0.9799256       -18.75543      0.001952212       -27.18758                0               0                0               0
1.48684                0.9793922       -18.92116      0.002004568       -29.18949                0               0                0               0
1.49342                 0.978851       -19.08887      0.002064144        -31.2376                0               0                0               0
1.5                    0.9783014       -19.25867      0.002131035       -33.35467                0               0                0               0
1.50658                 0.977743       -19.43067      0.002205223       -35.55998                0               0                0               0
1.51316                0.9771749       -19.60496      0.002286589       -37.86885                0               0                0               0
1.51974                0.9765963       -19.78164       0.00237492       -40.29249                0               0                0               0
1.52632                0.9760062       -19.96083      0.002469929       -42.83812                0               0                0               0
1.53289                0.9754031       -20.14262      0.002571266       -45.50931                0               0                0               0
1.53947                0.9747856       -20.32711      0.002678532        -48.3065                0               0                0               0
1.54605                0.9741522       -20.51437      0.002791296       -51.22749                0               0                0               0
1.55263                0.9735012       -20.70448      0.002909098         -54.268                0               0                0               0
1.55921                0.9728307       -20.89753      0.003031468       -57.42221                0               0                0               0
1.56579                0.9721391       -21.09356      0.003157929       -60.68317                0               0                0               0
1.57237                0.9714243       -21.29264      0.003288001       -64.04319                0               0                0               0
1.57895                0.9706845       -21.49479       0.00342121       -67.49414                0               0                0               0
1.58553                0.9699177       -21.70006      0.003557094       -71.02769                0               0                0               0
1.59211                0.9691222       -21.90847        0.0036952       -74.63552                0               0                0               0
1.59868                0.9682963       -22.12004      0.003835094       -78.30938                0               0                0               0
1.60526                 0.967438       -22.33478       0.00397636       -82.04126                0               0                0               0
1.61184                 0.966546       -22.55269      0.004118603       -85.82338                0               0                0               0
1.61842                0.9656187       -22.77376      0.004261454       -89.64827                0               0                0               0
1.625                  0.9646549       -22.99801      0.004404569       -93.50878                0               0                0               0
1.63158                0.9636535       -23.22542      0.004547634       -97.39807                0               0                0               0
1.63816                0.9626133       -23.45599      0.004690368       -101.3096                0               0                0               0
1.64474                0.9615337       -23.68973      0.004832525       -105.2373                0               0                0               0
1.65132                0.9604139       -23.92662      0.004973896       -109.1751                0               0                0               0
1.65789                0.9592532       -24.16669      0.005114317       -113.1175                0               0                0               0
1.66447                0.9580514       -24.40995      0.005253666       -117.0592                0               0                0               0
1.67105                0.9568079       -24.65644      0.005391869       -120.9951                0               0                0               0
1.67763                0.9555227       -24.90618      0.005528905       -124.9206                0               0                0               0
1.68421                0.9541953       -25.15923      0.005664808       -128.8311                0               0                0               0
1.69079                0.9528257       -25.41565      0.005799673       -132.7226                0               0                0               0
1.69737                0.9514136       -25.67552      0.005933655       -136.5913                0               0                0               0
1.70395                0.9499588       -25.93894      0.006066975       -140.4336                0               0                0               0
1.71053                0.9484608       -26.20601      0.006199922       -144.2464                0               0                0               0
1.71711                0.9469192       -26.47685      0.006332857        -148.027                0               0                0               0
1.72368                0.9453334        -26.7516      0.006466213       -151.7731                0               0                0               0
1.73026                0.9437027       -27.03041      0.006600496       -155.4828                0               0                0               0
1.73684                0.9420258       -27.31343      0.006736285        -159.155                0               0                0               0
1.74342                0.9403015       -27.60084      0.006874233       -162.7888                0               0                0               0
1.75                   0.9385285       -27.89283      0.007015064        -166.384                0               0                0               0
1.75658                0.9367047       -28.18957      0.007159565       -169.9413                0               0                0               0
1.76316                 0.934828       -28.49126      0.007308588       -173.4617                0               0                0               0
1.76974                 0.932896       -28.79811       0.00746304       -176.9472                0               0                0               0
1.77632                 0.930906       -29.11031      0.007623872        179.5996                0               0                0               0
1.78289                0.9288551       -29.42807      0.007792074        176.1755                0               0                0               0
1.78947                0.9267397       -29.75158      0.007968656        172.7764                0               0                0               0
1.79605                0.9245561       -30.08104      0.008154644        169.3978                0               0                0               0
1.80263                0.9223006       -30.41664      0.008351063        166.0344                0               0                0               0
1.80921                 0.919969       -30.75856       0.00855892        162.6807                0               0                0               0
1.81579                0.9175567       -31.10699       0.00877919        159.3304                0               0                0               0
1.82237                0.9150591       -31.46209      0.009012808        155.9774                0               0                0               0
1.82895                0.9124715       -31.82402      0.009260648        152.6152                0               0                0               0
1.83553                0.9097888       -32.19292      0.009523512        149.2374                0               0                0               0
1.84211                 0.907006       -32.56894      0.009802125        145.8377                0               0                0               0
1.84868                0.9041176       -32.95221       0.01009712          142.41                0               0                0               0
