! TOUCHSTONE file generated by CST MICROWAVE STUDIO
! Date and time: Tue Mar 11 13:58:04 2025
! Project name: transverse.cst
! Parameters = {Fracture=5; B=12.5; D=160; F=5; Feed=2.85625; L=100; M=10; R=0.384908; S=2; Theta=270; length=57.125; wave=114.25}
! Header version: 2024
! Port assignment regex: !\s*Touchstone port\s*([0-9]+)\s*=\s*(CST MWS port|CST DES external port|CST DES block port)\s*(.+)\s* \(\"(.*)\"\)(\s*mode\s*([0-9]+))?.*
! Touchstone port assignment:
! Touchstone port 1 = CST MWS port 1 ("")
! Touchstone port 2 = CST MWS port 2 ("")
# GHz S MA R 50
1                      0.9978511       -9.751868     0.0002735309       -125.5954                0               0                0               0
1.0066                 0.9977664       -9.840818     0.0002937891       -129.8355                0               0                0               0
1.0132                 0.9976751       -9.930199     0.0003134548       -134.1969                0               0                0               0
1.0198                 0.9975778       -10.01997     0.0003324025       -138.6449                0               0                0               0
1.0264                 0.9974752       -10.11011      0.000350514       -143.1519                0               0                0               0
1.033                  0.9973678       -10.20059     0.0003676774       -147.6953                0               0                0               0
1.0396                 0.9972564        -10.2914     0.0003837877       -152.2559                0               0                0               0
1.0462                  0.997142       -10.38254     0.0003987462       -156.8169                0               0                0               0
1.05281                0.9970255       -10.47399     0.0004124618       -161.3634                0               0                0               0
1.05941                0.9969075       -10.56579     0.0004248512       -165.8813                0               0                0               0
1.06601                0.9967893       -10.65796     0.0004358401       -170.3571                0               0                0               0
1.07261                0.9966716       -10.75051     0.0004453643       -174.7774                0               0                0               0
1.07921                0.9965551       -10.84351     0.0004533711       -179.1287                0               0                0               0
1.08581                0.9964404       -10.93698     0.0004598206        176.6034                0               0                0               0
1.09241                0.9963283       -11.03101     0.0004646886         172.434                0               0                0               0
1.09901                0.9962191       -11.12564     0.0004679677        168.3795                0               0                0               0
1.10561                0.9961131       -11.22094     0.0004696708        164.4581                0               0                0               0
1.11221                0.9960102       -11.31698     0.0004698341        160.6897                0               0                0               0
1.11881                0.9959105       -11.41384     0.0004685209        157.0964                0               0                0               0
1.12541                0.9958137       -11.51159     0.0004658262        153.7029                0               0                0               0
1.13201                0.9957194        -11.6103     0.0004618823        150.5364                0               0                0               0
1.13861                 0.995627       -11.71003     0.0004568647        147.6266                0               0                0               0
1.14521                0.9955357       -11.81085     0.0004509991        145.0054                0               0                0               0
1.15182                0.9954446       -11.91281     0.0004445694        142.7057                0               0                0               0
1.15842                0.9953528       -12.01596     0.0004379245        140.7599                0               0                0               0
1.16502                0.9952591       -12.12033     0.0004314842        139.1967                0               0                0               0
1.17162                0.9951623       -12.22597     0.0004257423        138.0371                0               0                0               0
1.17822                0.9950613       -12.33289     0.0004212622        137.2886                0               0                0               0
1.18482                0.9949548        -12.4411     0.0004186635        136.9386                0               0                0               0
1.19142                0.9948418        -12.5506     0.0004185962        136.9483                0               0                0               0
1.19802                0.9947209       -12.66139     0.0004217009        137.2491                0               0                0               0
1.20462                0.9945912       -12.77343     0.0004285594        137.7442                0               0                0               0
1.21122                0.9944515       -12.88671     0.0004396443        138.3159                0               0                0               0
1.21782                0.9943014       -13.00119     0.0004552785        138.8397                0               0                0               0
1.22442                0.9941397       -13.11683     0.0004756159        139.1991                0               0                0               0
1.23102                0.9939664       -13.23359     0.0005006464         139.299                0               0                0               0
1.23762                0.9937807       -13.35142     0.0005302211        139.0729                0               0                0               0
1.24422                0.9935827       -13.47027     0.0005640884        138.4839                0               0                0               0
1.25083                0.9933723       -13.59009     0.0006019311        137.5213                0               0                0               0
1.25743                0.9931499       -13.71086     0.0006433989        136.1936                0               0                0               0
1.26403                0.9929156       -13.83251     0.0006881309        134.5227                0               0                0               0
1.27063                0.9926698       -13.95503     0.0007357726        132.5378                0               0                0               0
1.27723                0.9924137       -14.07838      0.000785984        130.2715                0               0                0               0
1.28383                0.9921475       -14.20255     0.0008384434        127.7569                0               0                0               0
1.29043                0.9918725       -14.32753     0.0008928506        125.0257                0               0                0               0
1.29703                0.9915893       -14.45332      0.000948925        122.1075                0               0                0               0
1.30363                0.9912992       -14.57995      0.001006406        119.0293                0               0                0               0
1.31023                0.9910026       -14.70744      0.001065051        115.8152                0               0                0               0
1.31683                0.9907009       -14.83583      0.001124635         112.487                0               0                0               0
1.32343                0.9903947       -14.96517      0.001184951        109.0639                0               0                0               0
1.33003                0.9900849       -15.09552      0.001245805        105.5632                0               0                0               0
1.33663                0.9897718       -15.22695      0.001307023             102                0               0                0               0
1.34323                0.9894562       -15.35955      0.001368446          98.388                0               0                0               0
1.34984                 0.989138       -15.49339       0.00142993        94.73927                0               0                0               0
1.35644                0.9888176       -15.62857      0.001491351        91.06476                0               0                0               0
1.36304                0.9884948       -15.76519      0.001552603        87.37427                0               0                0               0
1.36964                 0.988169       -15.90334      0.001613599        83.67665                0               0                0               0
1.37624                  0.98784       -16.04311      0.001674274         79.9799                0               0                0               0
1.38284                0.9875066        -16.1846      0.001734583        76.29129                0               0                0               0
1.38944                0.9871682       -16.32789      0.001794506        72.61735                0               0                0               0
1.39604                0.9868236       -16.47308      0.001854048        68.96401                0               0                0               0
1.40264                0.9864713       -16.62022      0.001913241        65.33657                0               0                0               0
1.40924                0.9861098        -16.7694      0.001972142        61.73975                0               0                0               0
1.41584                0.9857377       -16.92066       0.00203084        58.17769                0               0                0               0
1.42244                0.9853534       -17.07405       0.00208945        54.65393                0               0                0               0
1.42904                0.9849551        -17.2296       0.00214812        51.17141                0               0                0               0
1.43564                0.9845412       -17.38733      0.002207027        47.73242                0               0                0               0
1.44224                0.9841099       -17.54724      0.002266378        44.33861                0               0                0               0
1.44884                0.9836597       -17.70934       0.00232641        40.99094                0               0                0               0
1.45545                0.9831892       -17.87361       0.00238739        37.68965                0               0                0               0
1.46205                0.9826968       -18.04002      0.002449607         34.4342                0               0                0               0
1.46865                0.9821816       -18.20855      0.002513378        31.22333                0               0                0               0
1.47525                0.9816423       -18.37916      0.002579039          28.055                0               0                0               0
1.48185                0.9810783        -18.5518      0.002646945         24.9264                0               0                0               0
1.48845                 0.980489       -18.72644       0.00271746        21.83399                0               0                0               0
1.49505                0.9798737       -18.90303      0.002790959        18.77356                0               0                0               0
1.50165                0.9792324       -19.08153      0.002867816        15.74027                0               0                0               0
1.50825                0.9785652       -19.26191      0.002948405        12.72879                0               0                0               0
1.51485                0.9778724       -19.44413      0.003033089        9.733338                0               0                0               0
1.52145                 0.977154       -19.62817      0.003122214        6.747879                0               0                0               0
1.52805                0.9764109       -19.81403      0.003216111        3.766208                0               0                0               0
1.53465                0.9756437       -20.00171       0.00331508         0.78212                0               0                0               0
1.54125                0.9748532       -20.19123      0.003419396       -2.210468                0               0                0               0
1.54785                0.9740401       -20.38262      0.003529298       -5.217375                0               0                0               0
1.55446                0.9732051       -20.57593       0.00364499       -8.244047                0               0                0               0
1.56106                0.9723492       -20.77122      0.003766637       -11.29545                0               0                0               0
1.56766                0.9714727       -20.96858      0.003894369         -14.376                0               0                0               0
1.57426                0.9705766        -21.1681      0.004028274        -17.4895                0               0                0               0
1.58086                0.9696612       -21.36989      0.004168405       -20.63908                0               0                0               0
1.58746                0.9687263       -21.57408      0.004314773       -23.82727                0               0                0               0
1.59406                0.9677721       -21.78081      0.004467362       -27.05589                0               0                0               0
1.60066                0.9667984       -21.99021      0.004626117       -30.32617                0               0                0               0
1.60726                0.9658044       -22.20244      0.004790958       -33.63874                0               0                0               0
1.61386                0.9647892       -22.41767      0.004961779       -36.99367                0               0                0               0
1.62046                0.9637515       -22.63604      0.005138449       -40.39057                0               0                0               0
1.62706                0.9626897       -22.85773      0.005320819       -43.82859                0               0                0               0
1.63366                0.9616021       -23.08289      0.005508726       -47.30651                0               0                0               0
1.64026                0.9604862       -23.31166      0.005701994       -50.82282                0               0                0               0
1.64686                0.9593398       -23.54421      0.005900437        -54.3757                0               0                0               0
1.65347                0.9581599       -23.78065      0.006103866       -57.96315                0               0                0               0
1.66007                0.9569436       -24.02111      0.006312091         -61.583                0               0                0               0
1.66667                0.9556877       -24.26569      0.006524924       -65.23295                0               0                0               0
1.67327                 0.954389       -24.51448      0.006742179       -68.91064                0               0                0               0
1.67987                 0.953044       -24.76756      0.006963683       -72.61363                0               0                0               0
1.68647                0.9516492       -25.02499      0.007189273        -76.3395                0               0                0               0
1.69307                0.9502011       -25.28679      0.007418799       -80.08583                0               0                0               0
1.69967                0.9486962       -25.55299      0.007652131       -83.85023                0               0                0               0
1.70627                0.9471312        -25.8236      0.007889158       -87.63036                0               0                0               0
1.71287                0.9455028       -26.09861      0.008129795       -91.42397                0               0                0               0
1.71947                0.9438082       -26.37799      0.008373976        -95.2289                0               0                0               0
1.72607                0.9420442        -26.6617      0.008621672       -99.04308                0               0                0               0
1.73267                0.9402083       -26.94971      0.008872876       -102.8646                0               0                0               0
1.73927                 0.938298       -27.24197      0.009127621       -106.6916                0               0                0               0
1.74587                0.9363113       -27.53842      0.009385964       -110.5224                0               0                0               0
1.75248                0.9342464       -27.83901      0.009648009       -114.3556                0               0                0               0
1.75908                0.9321016       -28.14369       0.00991389       -118.1898                0               0                0               0
1.76568                0.9298756       -28.45243       0.01018378       -122.0237                0               0                0               0
1.77228                0.9275674       -28.76518       0.01045789       -125.8564                0               0                0               0
1.77888                 0.925176       -29.08193       0.01073646        -129.687                0               0                0               0
1.78548                0.9227005       -29.40268       0.01101979       -133.5149                0               0                0               0
1.79208                0.9201404       -29.72744        0.0113082       -137.3396                0               0                0               0
1.79868                0.9174952       -30.05624       0.01160205       -141.1609                0               0                0               0
1.80528                0.9147642       -30.38913       0.01190174       -144.9786                0               0                0               0
1.81188                0.9119469       -30.72619       0.01220767       -148.7929                0               0                0               0
1.81848                0.9090425       -31.06753       0.01252033       -152.6042                0               0                0               0
1.82508                0.9060501       -31.41326       0.01284017       -156.4129                0               0                0               0
1.83168                0.9029684       -31.76354        0.0131677       -160.2196                0               0                0               0
1.83828                0.8997963       -32.11852       0.01350345       -164.0252                0               0                0               0
1.84488                0.8965317       -32.47839       0.01384793       -167.8307                0               0                0               0
1.85149                0.8931724       -32.84335        0.0142017       -171.6373                0               0                0               0
