! TOUCHSTONE file generated by CST MICROWAVE STUDIO
! Date and time: Tue Mar 11 13:56:33 2025
! Project name: transverse.cst
! Parameters = {Fracture=5; B=10; D=160; F=5; Feed=2.85625; L=100; M=20; R=0.384908; S=2; Theta=90; length=57.125; wave=114.25}
! Header version: 2024
! Port assignment regex: !\s*Touchstone port\s*([0-9]+)\s*=\s*(CST MWS port|CST DES external port|CST DES block port)\s*(.+)\s* \(\"(.*)\"\)(\s*mode\s*([0-9]+))?.*
! Touchstone port assignment:
! Touchstone port 1 = CST MWS port 1 ("")
! Touchstone port 2 = CST MWS port 2 ("")
# GHz S MA R 50
1                      0.9978552       -9.765254      0.000338811       -134.1322                0               0                0               0
1.00658                0.9977547       -9.854153     0.0003567202       -138.4951                0               0                0               0
1.01316                0.9976471       -9.943353     0.0003739987       -142.8893                0               0                0               0
1.01974                 0.997533       -10.03281     0.0003905621       -147.2986                0               0                0               0
1.02632                0.9974135        -10.1225      0.000406332       -151.7088                0               0                0               0
1.03289                0.9972897       -10.21241     0.0004212362        -156.107                0               0                0               0
1.03947                0.9971626       -10.30251     0.0004352102       -160.4814                0               0                0               0
1.04605                0.9970333       -10.39282      0.000448197       -164.8206                0               0                0               0
1.05263                0.9969031       -10.48335     0.0004601488        -169.114                0               0                0               0
1.05921                0.9967729       -10.57412     0.0004710279       -173.3507                0               0                0               0
1.06579                0.9966442       -10.66518     0.0004808078       -177.5202                0               0                0               0
1.07237                0.9965174       -10.75657     0.0004894744        178.3883                0               0                0               0
1.07895                0.9963939       -10.84835     0.0004970279         174.386                0               0                0               0
1.08553                 0.996274       -10.94058     0.0005034843        170.4841                0               0                0               0
1.09211                0.9961585       -11.03335      0.000508877        166.6944                0               0                0               0
1.09868                0.9960475       -11.12673     0.0005132587         163.029                0               0                0               0
1.10526                0.9959413        -11.2208     0.0005167038        159.5003                0               0                0               0
1.11184                0.9958399       -11.31564       0.00051931        156.1208                0               0                0               0
1.11842                0.9957427       -11.41135     0.0005212007        152.9027                0               0                0               0
1.125                  0.9956495       -11.50799     0.0005225264        149.8581                0               0                0               0
1.13158                0.9955594       -11.60566     0.0005234668        146.9978                0               0                0               0
1.13816                0.9954718       -11.70441     0.0005242312        144.3308                0               0                0               0
1.14474                0.9953853       -11.80431     0.0005250585        141.8636                0               0                0               0
1.15132                0.9952991       -11.90542     0.0005262157        139.5992                0               0                0               0
1.15789                0.9952116       -12.00777     0.0005279948        137.5356                0               0                0               0
1.16447                0.9951218        -12.1114     0.0005307069        135.6651                0               0                0               0
1.17105                0.9950281       -12.21632      0.000534674        133.9734                0               0                0               0
1.17763                0.9949291       -12.32254     0.0005402191        132.4388                0               0                0               0
1.18421                0.9948234       -12.43006     0.0005476533        131.0324                0               0                0               0
1.19079                0.9947099       -12.53887     0.0005572621        129.7193                0               0                0               0
1.19737                0.9945874       -12.64892     0.0005692927        128.4598                0               0                0               0
1.20395                0.9944547        -12.7602     0.0005839423        127.2119                0               0                0               0
1.21053                0.9943111       -12.87265     0.0006013498         125.934                0               0                0               0
1.21711                0.9941558       -12.98622     0.0006215919        124.5873                0               0                0               0
1.22368                0.9939882       -13.10086      0.000644683         123.138                0               0                0               0
1.23026                0.9938082        -13.2165     0.0006705798        121.5592                0               0                0               0
1.23684                0.9936155        -13.3331      0.000699188        119.8307                0               0                0               0
1.24342                0.9934104        -13.4506     0.0007303703          117.94                0               0                0               0
1.25                   0.9931933       -13.56893     0.0007639562        115.8809                0               0                0               0
1.25658                0.9929646       -13.68806     0.0007997505        113.6529                0               0                0               0
1.26316                0.9927251       -13.80795     0.0008375408        111.2601                0               0                0               0
1.26974                0.9924756       -13.92857     0.0008771037        108.7099                0               0                0               0
1.27632                0.9922171        -14.0499     0.0009182109        106.0122                0               0                0               0
1.28289                0.9919508       -14.17193     0.0009606325        103.1784                0               0                0               0
1.28947                0.9916776       -14.29467      0.001004141        100.2209                0               0                0               0
1.29605                 0.991399       -14.41814      0.001048512        97.15237                0               0                0               0
1.30263                0.9911159       -14.54238      0.001093529        93.98555                0               0                0               0
1.30921                0.9908294       -14.66744      0.001138983        90.73294                0               0                0               0
1.31579                0.9905405       -14.79336      0.001184672        87.40665                0               0                0               0
1.32237                0.9902502       -14.92023      0.001230407        84.01832                0               0                0               0
1.32895                 0.989959       -15.04813       0.00127601        80.57902                0               0                0               0
1.33553                0.9896675       -15.17715      0.001321314        77.09931                0               0                0               0
1.34211                0.9893759       -15.30739      0.001366167        73.58919                0               0                0               0
1.34868                0.9890844       -15.43895      0.001410433        70.05819                0               0                0               0
1.35526                0.9887926       -15.57194      0.001453992        66.51532                0               0                0               0
1.36184                0.9885002       -15.70647      0.001496742        62.96919                0               0                0               0
1.36842                0.9882066       -15.84264      0.001538601        59.42796                0               0                0               0
1.375                  0.9879106       -15.98055      0.001579508        55.89944                0               0                0               0
1.38158                0.9876114       -16.12031      0.001619427        52.39104                0               0                0               0
1.38816                0.9873074       -16.26199      0.001658345        48.90982                0               0                0               0
1.39474                0.9869972       -16.40567      0.001696279        45.46248                0               0                0               0
1.40132                0.9866791       -16.55142      0.001733271        42.05532                0               0                0               0
1.40789                0.9863514        -16.6993      0.001769398        38.69425                0               0                0               0
1.41447                0.9860122       -16.84933      0.001804767        35.38472                0               0                0               0
1.42105                0.9856597       -17.00156      0.001839518        32.13164                0               0                0               0
1.42763                0.9852921       -17.15598       0.00187383        28.93936                0               0                0               0
1.43421                0.9849076       -17.31261      0.001907915        25.81154                0               0                0               0
1.44079                0.9845044       -17.47142      0.001942021        22.75106                0               0                0               0
1.44737                0.9840811       -17.63238      0.001976434        19.75988                0               0                0               0
1.45395                0.9836363       -17.79548      0.002011472        16.83899                0               0                0               0
1.46053                0.9831688       -17.96065      0.002047489        13.98824                0               0                0               0
1.46711                0.9826777       -18.12786      0.002084866        11.20627                0               0                0               0
1.47368                0.9821623       -18.29705       0.00212401        8.490415                0               0                0               0
1.48026                0.9816219       -18.46816      0.002165349        5.836671                0               0                0               0
1.48684                0.9810566       -18.64115      0.002209324        3.239676                0               0                0               0
1.49342                0.9804661       -18.81597      0.002256382        0.692767                0               0                0               0
1.5                    0.9798508       -18.99257      0.002306971       -1.811922                0               0                0               0
1.50658                0.9792111       -19.17094      0.002361527       -4.283296                0               0                0               0
1.51316                0.9785478       -19.35103       0.00242047       -6.731086                0               0                0               0
1.51974                0.9778616       -19.53285      0.002484192       -9.165581                0               0                0               0
1.52632                0.9771531       -19.71641      0.002553053       -11.59734                0               0                0               0
1.53289                0.9764237       -19.90173      0.002627372       -14.03686                0               0                0               0
1.53947                0.9756741       -20.08886      0.002707423       -16.49432                0               0                0               0
1.54605                0.9749054       -20.27784      0.002793433       -18.97925                0               0                0               0
1.55263                0.9741185       -20.46876      0.002885579        -21.5003                0               0                0               0
1.55921                 0.973314       -20.66172      0.002983986       -24.06508                0               0                0               0
1.56579                0.9724927       -20.85681      0.003088732       -26.68002                0               0                0               0
1.57237                 0.971655       -21.05418      0.003199847        -29.3503                0               0                0               0
1.57895                0.9708007       -21.25396       0.00331732       -32.07982                0               0                0               0
1.58553                0.9699301        -21.4563      0.003441102       -34.87125                0               0                0               0
1.59211                0.9690424       -21.66136      0.003571107       -37.72613                0               0                0               0
1.59868                0.9681371        -21.8693      0.003707225       -40.64491                0               0                0               0
1.60526                0.9672126       -22.08029      0.003849319       -43.62716                0               0                0               0
1.61184                0.9662679       -22.29449      0.003997238       -46.67159                0               0                0               0
1.61842                0.9653008       -22.51209      0.004150814       -49.77628                0               0                0               0
1.625                  0.9643092       -22.73322      0.004309874       -52.93875                0               0                0               0
1.63158                0.9632908       -22.95805      0.004474241        -56.1561                0               0                0               0
1.63816                0.9622425       -23.18671      0.004643739        -59.4251                0               0                0               0
1.64474                0.9611614       -23.41932      0.004818196       -62.74231                0               0                0               0
1.65132                0.9600444         -23.656      0.004997451       -66.10416                0               0                0               0
1.65789                0.9588877       -23.89683      0.005181353       -69.50699                0               0                0               0
1.66447                0.9576883       -24.14189       0.00536977       -72.94715                0               0                0               0
1.67105                0.9564421       -24.39123      0.005562587       -76.42104                0               0                0               0
1.67763                0.9551459       -24.64488      0.005759712       -79.92514                0               0                0               0
1.68421                0.9537961       -24.90287      0.005961077       -83.45606                0               0                0               0
1.69079                0.9523891       -25.16517      0.006166643       -87.01058                0               0                0               0
1.69737                0.9509217       -25.43178      0.006376399       -90.58562                0               0                0               0
1.70395                0.9493907       -25.70266      0.006590367       -94.17835                0               0                0               0
1.71053                0.9477935       -25.97777      0.006808605       -97.78611                0               0                0               0
1.71711                0.9461272       -26.25704      0.007031203       -101.4065                0               0                0               0
1.72368                0.9443897       -26.54042       0.00725829       -105.0373                0               0                0               0
1.73026                0.9425789       -26.82783      0.007490034       -108.6767                0               0                0               0
1.73684                0.9406932       -27.11921       0.00772664        -112.323                0               0                0               0
1.74342                0.9387312        -27.4145      0.007968354       -115.9747                0               0                0               0
1.75                   0.9366915       -27.71364      0.008215457       -119.6307                0               0                0               0
1.75658                0.9345735       -28.01658      0.008468273       -123.2902                0               0                0               0
1.76316                0.9323766        -28.3233       0.00872716       -126.9526                0               0                0               0
1.76974                0.9301003       -28.63378      0.008992512       -130.6175                0               0                0               0
1.77632                0.9277441       -28.94802      0.009264757       -134.2848                0               0                0               0
1.78289                0.9253082       -29.26606      0.009544355       -137.9548                0               0                0               0
1.78947                0.9227921       -29.58794      0.009831789       -141.6278                0               0                0               0
1.79605                0.9201956       -29.91373       0.01012757       -145.3045                0               0                0               0
1.80263                0.9175183       -30.24353       0.01043222       -148.9858                0               0                0               0
1.80921                0.9147598       -30.57747       0.01074629       -152.6727                0               0                0               0
1.81579                0.9119193        -30.9157       0.01107033       -156.3664                0               0                0               0
1.82237                0.9089955       -31.25839        0.0114049       -160.0684                0               0                0               0
1.82895                0.9059871       -31.60572       0.01175055       -163.7801                0               0                0               0
1.83553                0.9028921       -31.95791       0.01210783       -167.5032                0               0                0               0
1.84211                0.8997082       -32.31517       0.01247728       -171.2394                0               0                0               0
1.84868                0.8964324       -32.67775        0.0128594       -174.9905                0               0                0               0
