! TOUCHSTONE file generated by CST MICROWAVE STUDIO
! Date and time: Tue Mar 11 13:57:58 2025
! Project name: transverse.cst
! Parameters = {Fracture=5; B=10; D=160; F=15; Feed=2.85625; L=100; M=30; R=0.384908; S=2; Theta=270; length=57.125; wave=114.25}
! Header version: 2024
! Port assignment regex: !\s*Touchstone port\s*([0-9]+)\s*=\s*(CST MWS port|CST DES external port|CST DES block port)\s*(.+)\s* \(\"(.*)\"\)(\s*mode\s*([0-9]+))?.*
! Touchstone port assignment:
! Touchstone port 1 = CST MWS port 1 ("")
! Touchstone port 2 = CST MWS port 2 ("")
# GHz S MA R 50
1                      0.9975451        -9.75267     0.0004954383        171.6024                0               0                0               0
1.00658                0.9974747       -9.838842     0.0004904829        165.8884                0               0                0               0
1.01316                0.9974056       -9.925667     0.0004834149        160.2919                0               0                0               0
1.01974                0.9973375       -10.01319     0.0004742152        154.8258                0               0                0               0
1.02632                0.9972702       -10.10145     0.0004628793        149.5073                0               0                0               0
1.03289                0.9972029       -10.19048     0.0004494202        144.3584                0               0                0               0
1.03947                0.9971353       -10.28032     0.0004338719        139.4079                0               0                0               0
1.04605                0.9970666         -10.371     0.0004162946        134.6935                0               0                0               0
1.05263                0.9969963       -10.46253     0.0003967817        130.2651                0               0                0               0
1.05921                0.9969236       -10.55494     0.0003754709        126.1895                0               0                0               0
1.06579                0.9968477       -10.64824     0.0003525607        122.5568                0               0                0               0
1.07237                 0.996768       -10.74243     0.0003283354        119.4899                0               0                0               0
1.07895                0.9966837       -10.83751     0.0003032056        117.1574                0               0                0               0
1.08553                0.9965941       -10.93347       0.00027777        115.7891                0               0                0               0
1.09211                0.9964984       -11.03031      0.000252912        115.6892                0               0                0               0
1.09868                0.9963964         -11.128     0.0002299342        117.2279                0               0                0               0
1.10526                0.9962873       -11.22653     0.0002107011        120.7635                0               0                0               0
1.11184                 0.996171       -11.32586     0.0001976578         126.416                0               0                0               0
1.11842                 0.996047       -11.42598     0.0001934352        133.7055                0               0                0               0
1.125                  0.9959152       -11.52686     0.0001998939        141.4098                0               0                0               0
1.13158                0.9957755       -11.62845     0.0002172308        148.0876                0               0                0               0
1.13816                0.9956279       -11.73075     0.0002441027        152.8495                0               0                0               0
1.14474                0.9954725       -11.83372      0.000278547        155.5459                0               0                0               0
1.15132                0.9953098       -11.93733     0.0003187391        156.4505                0               0                0               0
1.15789                0.9951399       -12.04158     0.0003632541         155.945                0               0                0               0
1.16447                0.9949633       -12.14644     0.0004110432        154.3729                0               0                0               0
1.17105                0.9947806        -12.2519     0.0004613359        152.0028                0               0                0               0
1.17763                0.9945922       -12.35797     0.0005135488        149.0346                0               0                0               0
1.18421                0.9943986       -12.46464     0.0005672216        145.6144                0               0                0               0
1.19079                0.9942007       -12.57193     0.0006219746        141.8498                0               0                0               0
1.19737                 0.993999       -12.67984     0.0006774806        137.8203                0               0                0               0
1.20395                 0.993794       -12.78842     0.0007334479        133.5858                0               0                0               0
1.21053                0.9935863       -12.89769      0.000789609        129.1921                0               0                0               0
1.21711                0.9933762       -13.00768     0.0008457129        124.6745                0               0                0               0
1.22368                0.9931643       -13.11844      0.000901522        120.0612                0               0                0               0
1.23026                0.9929509       -13.23002     0.0009568074        115.3744                0               0                0               0
1.23684                0.9927359       -13.34246      0.001011348        110.6326                0               0                0               0
1.24342                0.9925198       -13.45583      0.001064932         105.851                0               0                0               0
1.25                   0.9923024       -13.57018      0.001117351        101.0423                0               0                0               0
1.25658                0.9920836       -13.68558      0.001168406        96.21777                0               0                0               0
1.26316                0.9918631       -13.80206      0.001217907        91.38701                0               0                0               0
1.26974                0.9916404       -13.91971      0.001265669        86.55874                0               0                0               0
1.27632                 0.991415       -14.03856      0.001311518        81.74089                0               0                0               0
1.28289                0.9911863       -14.15866      0.001355293        76.94082                0               0                0               0
1.28947                0.9909537       -14.28007      0.001396841        72.16553                0               0                0               0
1.29605                0.9907163       -14.40282      0.001436026        67.42174                0               0                0               0
1.30263                0.9904733       -14.52695      0.001472726        62.71606                0               0                0               0
1.30921                0.9902237       -14.65248      0.001506837        58.05506                0               0                0               0
1.31579                0.9899666       -14.77943      0.001538274        53.44534                0               0                0               0
1.32237                0.9897013       -14.90783      0.001566975        48.89366                0               0                0               0
1.32895                0.9894266       -15.03766        0.0015929        44.40694                0               0                0               0
1.33553                 0.989142       -15.16894       0.00161604        39.99231                0               0                0               0
1.34211                0.9888464       -15.30167      0.001636414        35.65718                0               0                0               0
1.34868                0.9885392       -15.43581      0.001654073        31.40926                0               0                0               0
1.35526                  0.98822       -15.57138       0.00166911        27.25651                0               0                0               0
1.36184                 0.987888       -15.70833      0.001681653        23.20716                0               0                0               0
1.36842                 0.987543       -15.84666      0.001691879        19.26966                0               0                0               0
1.375                  0.9871848       -15.98635      0.001700012        15.45253                0               0                0               0
1.38158                0.9868132       -16.12736      0.001706327        11.76426                0               0                0               0
1.38816                0.9864283       -16.26969      0.001711158        8.213083                0               0                0               0
1.39474                0.9860303       -16.41332      0.001714896        4.806681                0               0                0               0
1.40132                0.9856193       -16.55823      0.001717995        1.551836                0               0                0               0
1.40789                0.9851958       -16.70443       0.00172097        -1.54603                0               0                0               0
1.41447                0.9847603       -16.85191      0.001724399       -4.483387                0               0                0               0
1.42105                0.9843132       -17.00068      0.001728916       -7.259209                0               0                0               0
1.42763                0.9838551       -17.15077      0.001735206       -9.875588                0               0                0               0
1.43421                0.9833867        -17.3022      0.001743995       -12.33835                0               0                0               0
1.44079                0.9829088       -17.45501      0.001756034       -14.65753                0               0                0               0
1.44737                0.9824215       -17.60924      0.001772081       -16.84771                0               0                0               0
1.45395                0.9819259       -17.76495      0.001792876       -18.92799                0               0                0               0
1.46053                 0.981422       -17.92223      0.001819121       -20.92161                0               0                0               0
1.46711                0.9809105       -18.08113      0.001851452       -22.85525                0               0                0               0
1.47368                0.9803914       -18.24173      0.001890415       -24.75785                0               0                0               0
1.48026                0.9798651       -18.40415       0.00193645       -26.65924                0               0                0               0
1.48684                0.9793312       -18.56846      0.001989875       -28.58867                0               0                0               0
1.49342                0.9787897       -18.73479      0.002050881       -30.57332                0               0                0               0
1.5                    0.9782401       -18.90322      0.002119532       -32.63719                0               0                0               0
1.50658                0.9776818       -19.07387      0.002195772       -34.80018                0               0                0               0
1.51316                0.9771139       -19.24684      0.002279437        -37.0777                0               0                0               0
1.51974                0.9765355       -19.42224      0.002370269       -39.48057                0               0                0               0
1.52632                0.9759456       -19.60018      0.002467934       -42.01525                0               0                0               0
1.53289                0.9753425       -19.78075      0.002572038       -44.68435                0               0                0               0
1.53947                0.9747249       -19.96404       0.00268214       -47.48717                0               0                0               0
1.54605                0.9740911       -20.15015       0.00279777       -50.42036                0               0                0               0
1.55263                0.9734395       -20.33914      0.002918434       -53.47852                0               0                0               0
1.55921                0.9727681       -20.53108      0.003043631       -56.65474                0               0                0               0
1.56579                0.9720751       -20.72603      0.003172855       -59.94113                0               0                0               0
1.57237                0.9713585       -20.92405      0.003305604       -63.32915                0               0                0               0
1.57895                0.9706164       -21.12517      0.003441382       -66.80993                0               0                0               0
1.58553                0.9698469       -21.32942      0.003579708       -70.37454                0               0                0               0
1.59211                0.9690482       -21.53683      0.003720115       -74.01409                0               0                0               0
1.59868                0.9682184        -21.7474      0.003862154       -77.71993                0               0                0               0
1.60526                0.9673559       -21.96114      0.004005397       -81.48366                0               0                0               0
1.61184                0.9664592       -22.17806       0.00414944       -85.29721                0               0                0               0
1.61842                0.9655267       -22.39815      0.004293904       -89.15287                0               0                0               0
1.625                  0.9645574        -22.6214      0.004438439       -93.04329                0               0                0               0
1.63158                  0.96355       -22.84782      0.004582726       -96.96146                0               0                0               0
1.63816                0.9625037       -23.07739      0.004726478       -100.9007                0               0                0               0
1.64474                0.9614175       -23.31011      0.004869447       -104.8548                0               0                0               0
1.65132                 0.960291       -23.54599      0.005011424       -108.8177                0               0                0               0
1.65789                0.9591236       -23.78504      0.005152242       -112.7837                0               0                0               0
1.66447                0.9579148       -24.02728      0.005291781       -116.7474                0               0                0               0
1.67105                0.9566644       -24.27273      0.005429971       -120.7038                0               0                0               0
1.67763                0.9553721       -24.52144      0.005566797       -124.6481                0               0                0               0
1.68421                 0.954038       -24.77346      0.005702298       -128.5757                0               0                0               0
1.69079                0.9526615       -25.02887      0.005836576       -132.4825                0               0                0               0
1.69737                0.9512428       -25.28773      0.005969798       -136.3646                0               0                0               0
1.70395                0.9497814       -25.55014      0.006102195       -140.2185                0               0                0               0
1.71053                 0.948277       -25.81623      0.006234072        -144.041                0               0                0               0
1.71711                0.9467291       -26.08612      0.006365807       -147.8294                0               0                0               0
1.72368                 0.945137       -26.35994      0.006497849       -151.5813                0               0                0               0
1.73026                   0.9435       -26.63784      0.006630727       -155.2949                0               0                0               0
1.73684                0.9418169          -26.92      0.006765044       -158.9689                0               0                0               0
1.74342                0.9400864       -27.20659      0.006901476       -162.6026                0               0                0               0
1.75                   0.9383069       -27.49779      0.007040776       -166.1958                0               0                0               0
1.75658                0.9364766       -27.79379       0.00718376       -169.7492                0               0                0               0
1.76316                 0.934593        -28.0948       0.00733131        -173.264                0               0                0               0
1.76974                0.9326539       -28.40101      0.007484364       -176.7422                0               0                0               0
1.77632                0.9306564       -28.71263      0.007643907        179.8135                0               0                0               0
1.78289                0.9285972       -29.02985      0.007810956        176.3995                0               0                0               0
1.78947                0.9264731       -29.35288      0.007986559        173.0118                0               0                0               0
1.79605                0.9242803       -29.68191       0.00817177        169.6454                0               0                0               0
1.80263                0.9220147       -30.01713       0.00836764         166.295                0               0                0               0
1.80921                 0.919672       -30.35872      0.008575204        162.9547                0               0                0               0
1.81579                0.9172479       -30.70686      0.008795459        159.6181                0               0                0               0
1.82237                0.9147375       -31.06172      0.009029358        156.2787                0               0                0               0
1.82895                0.9121361       -31.42345      0.009277788        152.9297                0               0                0               0
1.83553                0.9094387       -31.79219      0.009541566        149.5647                0               0                0               0
1.84211                  0.90664       -32.16808      0.009821417        146.1769                0               0                0               0
1.84868                0.9037347       -32.55124       0.01011797        142.7603                0               0                0               0
