! TOUCHSTONE file generated by CST MICROWAVE STUDIO
! Date and time: Tue Mar 11 13:57:53 2025
! Project name: transverse.cst
! Parameters = {Fracture=1; B=10; D=160; F=5; Feed=2.85625; L=100; M=30; R=0.384908; S=2; Theta=270; length=57.125; wave=114.25}
! Header version: 2024
! Port assignment regex: !\s*Touchstone port\s*([0-9]+)\s*=\s*(CST MWS port|CST DES external port|CST DES block port)\s*(.+)\s* \(\"(.*)\"\)(\s*mode\s*([0-9]+))?.*
! Touchstone port assignment:
! Touchstone port 1 = CST MWS port 1 ("")
! Touchstone port 2 = CST MWS port 2 ("")
# GHz S MA R 50
1                      0.9977243       -9.996908     0.0003685468        -162.385                0               0                0               0
1.00658                0.9976229       -10.08625     0.0003765538       -166.7447                0               0                0               0
1.01316                0.9975169       -10.17591     0.0003836045       -171.0523                0               0                0               0
1.01974                0.9974071       -10.26587     0.0003896662       -175.2971                0               0                0               0
1.02632                0.9972939       -10.35612     0.0003947154       -179.4676                0               0                0               0
1.03289                0.9971786       -10.44667      0.000398739         176.448                0               0                0               0
1.03947                0.9970617       -10.53752     0.0004017353        172.4627                0               0                0               0
1.04605                0.9969441       -10.62871     0.0004037162        168.5904                0               0                0               0
1.05263                0.9968266       -10.72025     0.0004047091        164.8461                0               0                0               0
1.05921                0.9967098       -10.81218     0.0004047589         161.246                0               0                0               0
1.06579                0.9965944       -10.90455     0.0004039305        157.8077                0               0                0               0
1.07237                0.9964809        -10.9974     0.0004023121        154.5499                0               0                0               0
1.07895                0.9963696       -11.09079     0.0004000176        151.4923                0               0                0               0
1.08553                0.9962605       -11.18478     0.0003971903        148.6552                0               0                0               0
1.09211                0.9961542       -11.27943     0.0003940058        146.0588                0               0                0               0
1.09868                0.9960502       -11.37481      0.000390675         143.722                0               0                0               0
1.10526                0.9959485       -11.47097     0.0003874457        141.6611                0               0                0               0
1.11184                0.9958485       -11.56798     0.0003846033        139.8872                0               0                0               0
1.11842                0.9957499       -11.66589     0.0003824683        138.4041                0               0                0               0
1.125                  0.9956519       -11.76475     0.0003813903        137.2052                0               0                0               0
1.13158                0.9955537       -11.86461     0.0003817379        136.2709                0               0                0               0
1.13816                0.9954544       -11.96552     0.0003838833        135.5666                0               0                0               0
1.14474                0.9953533       -12.06749     0.0003881828        135.0423                0               0                0               0
1.15132                 0.995249       -12.17056     0.0003949554        134.6349                0               0                0               0
1.15789                0.9951409       -12.27473     0.0004044618        134.2723                0               0                0               0
1.16447                0.9950276       -12.38002     0.0004168884        133.8792                0               0                0               0
1.17105                0.9949084       -12.48641     0.0004323383        133.3845                0               0                0               0
1.17763                0.9947821        -12.5939     0.0004508316         132.727                0               0                0               0
1.18421                0.9946481       -12.70246     0.0004723125        131.8589                0               0                0               0
1.19079                0.9945055       -12.81207     0.0004966625        130.7481                0               0                0               0
1.19737                0.9943538        -12.9227     0.0005237154        129.3772                0               0                0               0
1.20395                0.9941924        -13.0343     0.0005532721        127.7415                0               0                0               0
1.21053                0.9940211       -13.14685     0.0005851133        125.8463                0               0                0               0
1.21711                0.9938397       -13.26028     0.0006190099        123.7038                0               0                0               0
1.22368                 0.993648       -13.37457     0.0006547302        121.3311                0               0                0               0
1.23026                0.9934465       -13.48968     0.0006920447        118.7476                0               0                0               0
1.23684                0.9932353       -13.60556     0.0007307292        115.9738                0               0                0               0
1.24342                 0.993015       -13.72219     0.0007705669        113.0303                0               0                0               0
1.25                   0.9927861       -13.83955     0.0008113486        109.9368                0               0                0               0
1.25658                0.9925495       -13.95761     0.0008528744        106.7122                0               0                0               0
1.26316                0.9923057       -14.07636     0.0008949525         103.374                0               0                0               0
1.26974                 0.992056       -14.19582     0.0009374005        99.93842                0               0                0               0
1.27632                0.9918007       -14.31599     0.0009800445        96.42037                0               0                0               0
1.28289                0.9915415        -14.4369       0.00102272        92.83358                0               0                0               0
1.28947                0.9912786       -14.55857      0.001065272        89.19064                0               0                0               0
1.29605                0.9910131       -14.68106      0.001107557        85.50312                0               0                0               0
1.30263                0.9907458       -14.80441      0.001149438        81.78172                0               0                0               0
1.30921                0.9904774        -14.9287      0.001190794         78.0363                0               0                0               0
1.31579                0.9902081       -15.05398      0.001231514        74.27608                0               0                0               0
1.32237                0.9899386       -15.18033        0.0012715        70.50961                0               0                0               0
1.32895                0.9896691       -15.30785       0.00131067        66.74495                0               0                0               0
1.33553                0.9893993       -15.43662      0.001348956        62.98966                0               0                0               0
1.34211                0.9891293       -15.56672      0.001386309         59.2509                0               0                0               0
1.34868                0.9888586       -15.69824      0.001422697        55.53542                0               0                0               0
1.35526                0.9885867       -15.83128      0.001458107        51.84964                0               0                0               0
1.36184                0.9883128       -15.96591      0.001492551        48.19959                0               0                0               0
1.36842                0.9880359       -16.10221      0.001526059        44.59097                0               0                0               0
1.375                  0.9877552       -16.24026      0.001558691         41.0291                0               0                0               0
1.38158                0.9874694       -16.38012      0.001590529         37.5189                0               0                0               0
1.38816                0.9871771       -16.52184      0.001621682        34.06483                0               0                0               0
1.39474                0.9868771       -16.66548      0.001652288        30.67086                0               0                0               0
1.40132                 0.986568       -16.81106      0.001682514        27.34035                0               0                0               0
1.40789                0.9862484       -16.95862      0.001712555        24.07599                0               0                0               0
1.41447                0.9859167       -17.10817      0.001742635        20.87971                0               0                0               0
1.42105                0.9855718       -17.25973      0.001773005         17.7526                0               0                0               0
1.42763                0.9852123       -17.41327      0.001803943        14.69473                0               0                0               0
1.43421                0.9848371        -17.5688       0.00183575        11.70516                0               0                0               0
1.44079                0.9844453        -17.7263       0.00186875        8.781776                0               0                0               0
1.44737                0.9840358       -17.88576       0.00190328        5.921305                0               0                0               0
1.45395                0.9836081       -18.04713      0.001939693        3.119241                0               0                0               0
1.46053                0.9831615        -18.2104      0.001978345       0.3698898                0               0                0               0
1.46711                0.9826957       -18.37555      0.002019594       -2.333567                0               0                0               0
1.47368                0.9822107       -18.54254      0.002063791        -4.99896                0               0                0               0
1.48026                0.9817062       -18.71137      0.002111272       -7.634963                0               0                0               0
1.48684                0.9811825       -18.88201      0.002162355       -10.25088                0               0                0               0
1.49342                0.9806399       -19.05447       0.00221733        -12.8564                0               0                0               0
1.5                    0.9800788       -19.22875      0.002276453       -15.46132                0               0                0               0
1.50658                0.9794996       -19.40486      0.002339947       -18.07529                0               0                0               0
1.51316                0.9789028       -19.58284      0.002407989       -20.70753                0               0                0               0
1.51974                0.9782891       -19.76272      0.002480717        -23.3666                0               0                0               0
1.52632                0.9776589       -19.94457      0.002558224       -26.06019                0               0                0               0
1.53289                0.9770127       -20.12845      0.002640558         -28.795                0               0                0               0
1.53947                0.9763511       -20.31444      0.002727726       -31.57658                0               0                0               0
1.54605                 0.975674       -20.50263      0.002819693       -34.40934                0               0                0               0
1.55263                0.9749818       -20.69313       0.00291639       -37.29654                0               0                0               0
1.55921                0.9742742       -20.88606      0.003017711       -40.24025                0               0                0               0
1.56579                0.9735511       -21.08154      0.003123524       -43.24155                0               0                0               0
1.57237                0.9728116       -21.27969      0.003233671       -46.30051                0               0                0               0
1.57895                0.9720553       -21.48066      0.003347973       -49.41633                0               0                0               0
1.58553                0.9712809       -21.68459      0.003466235       -52.58751                0               0                0               0
1.59211                 0.970487        -21.8916      0.003588251       -55.81185                0               0                0               0
1.59868                 0.969672       -22.10183      0.003713808       -59.08667                0               0                0               0
1.60526                 0.968834       -22.31542       0.00384269       -62.40887                0               0                0               0
1.61184                 0.967971        -22.5325      0.003974681       -65.77499                0               0                0               0
1.61842                0.9670804       -22.75316       0.00410957       -69.18138                0               0                0               0
1.625                  0.9661599       -22.97753      0.004247155       -72.62419                0               0                0               0
1.63158                0.9652065       -23.20569      0.004387245       -76.09947                0               0                0               0
1.63816                0.9642175       -23.43771      0.004529666       -79.60324                0               0                0               0
1.64474                  0.96319       -23.67368      0.004674263       -83.13152                0               0                0               0
1.65132                0.9621209       -23.91363      0.004820903       -86.68039                0               0                0               0
1.65789                0.9610072       -24.15759       0.00496948       -90.24599                0               0                0               0
1.66447                0.9598459        -24.4056      0.005119916       -93.82458                0               0                0               0
1.67105                0.9586343       -24.65765      0.005272167       -97.41258                0               0                0               0
1.67763                0.9573695       -24.91375      0.005426224       -101.0066                0               0                0               0
1.68421                0.9560488       -25.17386      0.005582116       -104.6033                0               0                0               0
1.69079                0.9546698       -25.43798      0.005739917       -108.1998                0               0                0               0
1.69737                0.9532302       -25.70605       0.00589974       -111.7933                0               0                0               0
1.70395                0.9517282       -25.97805      0.006061749       -115.3812                0               0                0               0
1.71053                0.9501617       -26.25394      0.006226155       -118.9615                0               0                0               0
1.71711                0.9485294       -26.53367      0.006393219        -122.532                0               0                0               0
1.72368                0.9468298       -26.81721      0.006563255       -126.0914                0               0                0               0
1.73026                0.9450619       -27.10453      0.006736627       -129.6383                0               0                0               0
1.73684                0.9432249        -27.3956      0.006913754       -133.1719                0               0                0               0
1.74342                0.9413178       -27.69043      0.007095104       -136.6917                0               0                0               0
1.75                   0.9393402       -27.98901      0.007281196       -140.1978                0               0                0               0
1.75658                0.9372917       -28.29136      0.007472598       -143.6903                0               0                0               0
1.76316                0.9351717       -28.59753      0.007669919       -147.1701                0               0                0               0
1.76974                0.9329797       -28.90757      0.007873811       -150.6384                0               0                0               0
1.77632                0.9307154       -29.22156       0.00808496       -154.0967                0               0                0               0
1.78289                0.9283781       -29.53959      0.008304084       -157.5471                0               0                0               0
1.78947                0.9259672       -29.86179       0.00853192       -160.9919                0               0                0               0
1.79605                0.9234816        -30.1883      0.008769224       -164.4337                0               0                0               0
1.80263                0.9209202       -30.51926      0.009016754       -167.8756                0               0                0               0
1.80921                0.9182813       -30.85486      0.009275274       -171.3208                0               0                0               0
1.81579                0.9155632       -31.19528      0.009545532       -174.7727                0               0                0               0
1.82237                0.9127635       -31.54072      0.009828264       -178.2349                0               0                0               0
1.82895                0.9098795       -31.89139       0.01012417        178.2891                0               0                0               0
1.83553                 0.906908       -32.24752       0.01043393        174.7955                0               0                0               0
1.84211                0.9038455       -32.60931       0.01075817        171.2808                0               0                0               0
1.84868                0.9006878       -32.97698       0.01109747        167.7414                0               0                0               0
