! TOUCHSTONE file generated by CST MICROWAVE STUDIO
! Date and time: Tue Mar 11 13:57:42 2025
! Project name: transverse.cst
! Parameters = {Fracture=1; B=12.5; D=160; F=15; Feed=2.85625; L=100; M=30; R=0.384908; S=1; Theta=180; length=57.125; wave=114.25}
! Header version: 2024
! Port assignment regex: !\s*Touchstone port\s*([0-9]+)\s*=\s*(CST MWS port|CST DES external port|CST DES block port)\s*(.+)\s* \(\"(.*)\"\)(\s*mode\s*([0-9]+))?.*
! Touchstone port assignment:
! Touchstone port 1 = CST MWS port 1 ("")
! Touchstone port 2 = CST MWS port 2 ("")
# GHz S MA R 50
1                         0.9975       -10.01188     0.0004648446         176.909                0               0                0               0
1.00658                 0.997421       -10.09929     0.0004636133        171.2402                0               0                0               0
1.01316                0.9973438       -10.18726     0.0004604538        165.6729                0               0                0               0
1.01974                0.9972684       -10.27584     0.0004553296         160.217                0               0                0               0
1.02632                0.9971946       -10.36506     0.0004482159        154.8851                0               0                0               0
1.03289                0.9971221       -10.45498     0.0004391007        149.6933                0               0                0               0
1.03947                0.9970506       -10.54564      0.000427988        144.6624                0               0                0               0
1.04605                0.9969796       -10.63708     0.0004149007        139.8193                0               0                0               0
1.05263                0.9969085       -10.72934      0.000399885        135.1984                0               0                0               0
1.05921                0.9968368       -10.82244     0.0003830166        130.8453                0               0                0               0
1.06579                0.9967637       -10.91642     0.0003644106        126.8196                0               0                0               0
1.07237                0.9966885       -11.01129     0.0003442343         123.201                0               0                0               0
1.07895                0.9966104       -11.10707     0.0003227282        120.0965                0               0                0               0
1.08553                0.9965286       -11.20377     0.0003002379        117.6502                0               0                0               0
1.09211                0.9964424       -11.30139     0.0002772625        116.0557                0               0                0               0
1.09868                0.9963511       -11.39991      0.000254528        115.5665                0               0                0               0
1.10526                0.9962539       -11.49934     0.0002330892        116.4926                0               0                0               0
1.11184                0.9961503       -11.59966     0.0002144472        119.1535                0               0                0               0
1.11842                0.9960395       -11.70083     0.0002006035        123.7311                0               0                0               0
1.125                  0.9959214       -11.80284     0.0001938668        130.0025                0               0                0               0
1.13158                0.9957955       -11.90566     0.0001962275        137.1252                0               0                0               0
1.13816                0.9956615       -12.00926     0.0002085332        143.8506                0               0                0               0
1.14474                0.9955194        -12.1136      0.000230202        149.1437                0               0                0               0
1.15132                0.9953692       -12.21866     0.0002597479        152.5794                0               0                0               0
1.15789                0.9952112       -12.32439     0.0002955115        154.2354                0               0                0               0
1.16447                0.9950454       -12.43079     0.0003360686        154.4074                0               0                0               0
1.17105                0.9948723       -12.53782     0.0003803211        153.4185                0               0                0               0
1.17763                0.9946924       -12.64546     0.0004274474        151.5441                0               0                0               0
1.18421                0.9945063        -12.7537     0.0004768258        148.9983                0               0                0               0
1.19079                0.9943145       -12.86255     0.0005279711        145.9419                0               0                0               0
1.19737                0.9941179       -12.97199     0.0005804895        142.4947                0               0                0               0
1.20395                 0.993917       -13.08204     0.0006340477        138.7461                0               0                0               0
1.21053                0.9937126       -13.19272     0.0006883535        134.7637                0               0                0               0
1.21711                0.9935054       -13.30405     0.0007431425        130.5992                0               0                0               0
1.22368                 0.993296       -13.41606     0.0007981697        126.2925                0               0                0               0
1.23026                 0.993085       -13.52881     0.0008532047        121.8753                0               0                0               0
1.23684                0.9928731       -13.64233     0.0009080274        117.3726                0               0                0               0
1.24342                0.9926605       -13.75669     0.0009624264        112.8052                0               0                0               0
1.25                   0.9924475       -13.87195      0.001016198          108.19                0               0                0               0
1.25658                0.9922345       -13.98816      0.001069145        103.5412                0               0                0               0
1.26316                0.9920211       -14.10539      0.001121079        98.87114                0               0                0               0
1.26974                0.9918075       -14.22373      0.001171816        94.19038                0               0                0               0
1.27632                0.9915934       -14.34323      0.001221184        89.50841                0               0                0               0
1.28289                0.9913782       -14.46397      0.001269018        84.83375                0               0                0               0
1.28947                0.9911613       -14.58601      0.001315163        80.17427                0               0                0               0
1.29605                0.9909422       -14.70941      0.001359479        75.53733                0               0                0               0
1.30263                0.9907198       -14.83424      0.001401837        70.92993                0               0                0               0
1.30921                0.9904934       -14.96054      0.001442123        66.35885                0               0                0               0
1.31579                0.9902618       -15.08836      0.001480242         61.8307                0               0                0               0
1.32237                0.9900239       -15.21772      0.001516118        57.35208                0               0                0               0
1.32895                0.9897786       -15.34867      0.001549697        52.92956                0               0                0               0
1.33553                0.9895246       -15.48122      0.001580948        48.56977                0               0                0               0
1.34211                0.9892609       -15.61538       0.00160987        44.27943                0               0                0               0
1.34868                0.9889863       -15.75115       0.00163649        40.06535                0               0                0               0
1.35526                0.9886999       -15.88853      0.001660869        35.93442                0               0                0               0
1.36184                0.9884005       -16.02749      0.001683104        31.89363                0               0                0               0
1.36842                0.9880873       -16.16804      0.001703334        27.94994                0               0                0               0
1.375                  0.9877597       -16.31013      0.001721738        24.11027                0               0                0               0
1.38158                 0.987417       -16.45374      0.001738544        20.38134                0               0                0               0
1.38816                0.9870588       -16.59884       0.00175403        16.76948                0               0                0               0
1.39474                0.9866848       -16.74539      0.001768524        13.28049                0               0                0               0
1.40132                0.9862948       -16.89337       0.00178241        9.919295                0               0                0               0
1.40789                 0.985889       -17.04275      0.001796125        6.689683                0               0                0               0
1.41447                0.9854676        -17.1935      0.001810161        3.593923                0               0                0               0
1.42105                0.9850307       -17.34561      0.001825061        0.632374                0               0                0               0
1.42763                 0.984579       -17.49906      0.001841416       -2.196914                0               0                0               0
1.43421                0.9841131       -17.65386      0.001859853        -4.89858                0               0                0               0
1.44079                0.9836335       -17.81002      0.001881031       -7.480253                0               0                0               0
1.44737                0.9831409       -17.96754      0.001905622        -9.95274                0               0                0               0
1.45395                0.9826362       -18.12646      0.001934297       -12.33004                0               0                0               0
1.46053                  0.98212       -18.28683      0.001967709       -14.62915                0               0                0               0
1.46711                0.9815929        -18.4487      0.002006474       -16.86963                0               0                0               0
1.47368                0.9810557       -18.61214      0.002051152       -19.07293                0               0                0               0
1.48026                0.9805087       -18.77722       0.00210223       -21.26159                0               0                0               0
1.48684                0.9799523       -18.94404      0.002160109       -23.45827                0               0                0               0
1.49342                0.9793868       -19.11268      0.002225097        -25.6848                0               0                0               0
1.5                    0.9788121       -19.28326      0.002297397        -27.9613                0               0                0               0
1.50658                0.9782281       -19.45588      0.002377116        -30.3055                0               0                0               0
1.51316                0.9776344       -19.63066      0.002464262       -32.73216                0               0                0               0
1.51974                0.9770301       -19.80772      0.002558757       -35.25292                0               0                0               0
1.52632                0.9764145       -19.98718       0.00266044       -37.87617                0               0                0               0
1.53289                0.9757864       -20.16916      0.002769086       -40.60726                0               0                0               0
1.53947                0.9751444       -20.35376      0.002884411        -43.4487                0               0                0               0
1.54605                0.9744869        -20.5411      0.003006084       -46.40061                0               0                0               0
1.55263                0.9738122       -20.73127      0.003133744       -49.46106                0               0                0               0
1.55921                0.9731183       -20.92437      0.003266999       -52.62651                0               0                0               0
1.56579                 0.972403       -21.12047      0.003405441       -55.89217                0               0                0               0
1.57237                0.9716642       -21.31964      0.003548654        -59.2523                0               0                0               0
1.57895                0.9708995       -21.52194      0.003696212       -62.70059                0               0                0               0
1.58553                0.9701066        -21.7274      0.003847693       -66.23031                0               0                0               0
1.59211                0.9692832       -21.93605      0.004002679       -69.83452                0               0                0               0
1.59868                0.9684269       -22.14791      0.004160758       -73.50625                0               0                0               0
1.60526                0.9675354       -22.36298      0.004321534       -77.23858                0               0                0               0
1.61184                0.9666067       -22.58125       0.00448462        -81.0247                0               0                0               0
1.61842                0.9656388       -22.80269      0.004649651       -84.85804                0               0                0               0
1.625                  0.9646299       -23.02727       0.00481628       -88.73222                0               0                0               0
1.63158                0.9635783       -23.25496      0.004984184       -92.64112                0               0                0               0
1.63816                0.9624829       -23.48571      0.005153065       -96.57891                0               0                0               0
1.64474                0.9613423       -23.71949      0.005322657         -100.54                0               0                0               0
1.65132                0.9601557       -23.95624       0.00549272       -104.5191                0               0                0               0
1.65789                0.9589225       -24.19592      0.005663054       -108.5112                0               0                0               0
1.66447                0.9576422        -24.4385      0.005833493       -112.5115                0               0                0               0
1.67105                0.9563147       -24.68395      0.006003915       -116.5155                0               0                0               0
1.67763                0.9549399       -24.93225      0.006174239        -120.519                0               0                0               0
1.68421                0.9535181       -25.18341      0.006344433       -124.5181                0               0                0               0
1.69079                0.9520497       -25.43742      0.006514516       -128.5089                0               0                0               0
1.69737                 0.950535       -25.69432      0.006684558       -132.4882                0               0                0               0
1.70395                0.9489745       -25.95417       0.00685469       -136.4528                0               0                0               0
1.71053                0.9473687       -26.21701      0.007025097       -140.3998                0               0                0               0
1.71711                0.9457181       -26.48295      0.007196028       -144.3267                0               0                0               0
1.72368                0.9440229       -26.75209      0.007367797       -148.2314                0               0                0               0
1.73026                0.9422836       -27.02457      0.007540781        -152.112                0               0                0               0
1.73684                0.9404999       -27.30052      0.007715422        -155.967                0               0                0               0
1.74342                0.9386717       -27.58013       0.00789223       -159.7953                0               0                0               0
1.75                   0.9367985       -27.86357       0.00807178       -163.5964                0               0                0               0
1.75658                0.9348794       -28.15105      0.008254708       -167.3701                0               0                0               0
1.76316                0.9329133       -28.44277      0.008441715       -171.1165                0               0                0               0
1.76974                0.9308983       -28.73897      0.008633551       -174.8366                0               0                0               0
1.77632                0.9288327       -29.03988      0.008831028       -178.5315                0               0                0               0
1.78289                0.9267136       -29.34573      0.009034995         177.797                0               0                0               0
1.78947                0.9245386       -29.65676      0.009246339        174.1467                0               0                0               0
1.79605                 0.922304        -29.9732       0.00946598        170.5149                0               0                0               0
1.80263                0.9200062       -30.29529      0.009694853        166.8983                0               0                0               0
1.80921                 0.917641       -30.62323      0.009933903        163.2936                0               0                0               0
1.81579                 0.915204       -30.95726       0.01018407        159.6966                0               0                0               0
1.82237                0.9126903       -31.29755       0.01044629        156.1032                0               0                0               0
1.82895                0.9100948       -31.64428       0.01072145         152.509                0               0                0               0
1.83553                 0.907412       -31.99762       0.01101042        148.9094                0               0                0               0
1.84211                0.9046366       -32.35771       0.01131402        145.2997                0               0                0               0
1.84868                0.9017626       -32.72466       0.01163299        141.6752                0               0                0               0
