! TOUCHSTONE file generated by CST MICROWAVE STUDIO
! Date and time: Tue Mar 11 13:56:31 2025
! Project name: transverse.cst
! Parameters = {Fracture=1; B=10; D=160; F=5; Feed=2.85625; L=100; M=10; R=0.384908; S=2; Theta=90; length=57.125; wave=114.25}
! Header version: 2024
! Port assignment regex: !\s*Touchstone port\s*([0-9]+)\s*=\s*(CST MWS port|CST DES external port|CST DES block port)\s*(.+)\s* \(\"(.*)\"\)(\s*mode\s*([0-9]+))?.*
! Touchstone port assignment:
! Touchstone port 1 = CST MWS port 1 ("")
! Touchstone port 2 = CST MWS port 2 ("")
# GHz S MA R 50
1                        0.99784       -9.995282     0.0002744497       -123.8528                0               0                0               0
1.00658                0.9977602        -10.0851     0.0002950702         -128.07                0               0                0               0
1.01316                0.9976749       -10.17537     0.0003151093       -132.4173                0               0                0               0
1.01974                 0.997584       -10.26608     0.0003344383       -136.8591                0               0                0               0
1.02632                0.9974881        -10.3572     0.0003529357       -141.3667                0               0                0               0
1.03289                0.9973877       -10.44871     0.0003704867        -145.917                0               0                0               0
1.03947                0.9972837        -10.5406     0.0003869828       -150.4906                0               0                0               0
1.04605                0.9971764       -10.63286     0.0004023219       -155.0707                0               0                0               0
1.05263                0.9970666       -10.72549     0.0004164087       -159.6423                0               0                0               0
1.05921                0.9969552        -10.8185     0.0004291557       -164.1917                0               0                0               0
1.06579                0.9968429        -10.9119     0.0004404832       -168.7058                0               0                0               0
1.07237                0.9967306       -11.00574     0.0004503213       -173.1716                0               0                0               0
1.07895                0.9966185       -11.10002     0.0004586103       -177.5761                0               0                0               0
1.08553                0.9965076       -11.19481     0.0004653027        178.0943                0               0                0               0
1.09211                0.9963982       -11.29014     0.0004703648        173.8539                0               0                0               0
1.09868                0.9962907       -11.38606     0.0004737783        169.7184                0               0                0               0
1.10526                0.9961856       -11.48264     0.0004755436        165.7048                0               0                0               0
1.11184                0.9960828       -11.57994     0.0004756816        161.8322                0               0                0               0
1.11842                0.9959823       -11.67801     0.0004742379        158.1216                0               0                0               0
1.125                  0.9958841       -11.77692     0.0004712871         154.597                0               0                0               0
1.13158                0.9957878       -11.87674     0.0004669373        151.2851                0               0                0               0
1.13816                 0.995693       -11.97752      0.000461336        148.2156                0               0                0               0
1.14474                0.9955989       -12.07932     0.0004546776        145.4215                0               0                0               0
1.15132                0.9955051       -12.18219     0.0004472111         142.938                0               0                0               0
1.15789                0.9954106       -12.28619     0.0004392482        140.8021                0               0                0               0
1.16447                0.9953144       -12.39135      0.000431172        139.0501                0               0                0               0
1.17105                0.9952156        -12.4977     0.0004234439         137.714                0               0                0               0
1.17763                0.9951132       -12.60527      0.000416605        136.8166                0               0                0               0
1.18421                0.9950062       -12.71408     0.0004112715        136.3639                0               0                0               0
1.19079                0.9948933       -12.82413     0.0004081161        136.3378                0               0                0               0
1.19737                0.9947736       -12.93542     0.0004078352        136.6884                0               0                0               0
1.20395                0.9946462       -13.04794     0.0004110998        137.3306                0               0                0               0
1.21053                  0.99451       -13.16168     0.0004184966        138.1479                0               0                0               0
1.21711                0.9943642       -13.27661     0.0004304716        139.0034                0               0                0               0
1.22368                0.9942082       -13.39271     0.0004472914        139.7581                0               0                0               0
1.23026                0.9940412       -13.50993     0.0004690317        140.2885                0               0                0               0
1.23684                 0.993863       -13.62825     0.0004955952        140.5004                0               0                0               0
1.24342                0.9936731       -13.74762     0.0005267487         140.335                0               0                0               0
1.25                   0.9934716         -13.868     0.0005621683         139.766                0               0                0               0
1.25658                0.9932584       -13.98936     0.0006014801        138.7943                0               0                0               0
1.26316                0.9930335       -14.11166     0.0006442928        137.4389                0               0                0               0
1.26974                0.9927974       -14.23487     0.0006902191        135.7302                0               0                0               0
1.27632                0.9925505       -14.35896      0.000738888         133.704                0               0                0               0
1.28289                0.9922936       -14.48392     0.0007899515        131.3974                0               0                0               0
1.28947                 0.992027       -14.60973     0.0008430858        128.8465                0               0                0               0
1.29605                0.9917514        -14.7364      0.000897992        126.0851                0               0                0               0
1.30263                0.9914678       -14.86392     0.0009543945        123.1439                0               0                0               0
1.30921                0.9911769       -14.99232      0.001012039        120.0504                0               0                0               0
1.31579                0.9908796       -15.12163      0.001070692         116.829                0               0                0               0
1.32237                0.9905762       -15.25188      0.001130137        113.5015                0               0                0               0
1.32895                 0.990268       -15.38312      0.001190178        110.0868                0               0                0               0
1.33553                0.9899551        -15.5154      0.001250634         106.602                0               0                0               0
1.34211                0.9896381       -15.64879      0.001311344         103.062                0               0                0               0
1.34868                0.9893174       -15.78336      0.001372161        99.48001                0               0                0               0
1.35526                0.9889931       -15.91919      0.001432961        95.86791                0               0                0               0
1.36184                0.9886652       -16.05636      0.001493634        92.23628                0               0                0               0
1.36842                0.9883334       -16.19495      0.001554094        88.59463                0               0                0               0
1.375                  0.9879976       -16.33505      0.001614272        84.95149                0               0                0               0
1.38158                 0.987657       -16.47674      0.001674126        81.31455                0               0                0               0
1.38816                0.9873111       -16.62011      0.001733634        77.69075                0               0                0               0
1.39474                0.9869587       -16.76522        0.0017928         74.0863                0               0                0               0
1.40132                 0.986599       -16.91217      0.001851655        70.50676                0               0                0               0
1.40789                0.9862308         -17.061      0.001910258        66.95706                0               0                0               0
1.41447                0.9858526       -17.21178      0.001968693         63.4415                0               0                0               0
1.42105                0.9854631       -17.36456      0.002027079        59.96375                0               0                0               0
1.42763                0.9850609       -17.51938       0.00208556        56.52683                0               0                0               0
1.43421                0.9846444       -17.67626      0.002144313        53.13312                0               0                0               0
1.44079                0.9842121       -17.83522      0.002203546        49.78431                0               0                0               0
1.44737                0.9837626       -17.99628      0.002263493        46.48135                0               0                0               0
1.45395                0.9832943       -18.15942      0.002324419        43.22448                0               0                0               0
1.46053                0.9828062       -18.32465      0.002386614        40.01316                0               0                0               0
1.46711                0.9822968       -18.49194      0.002450394        36.84608                0               0                0               0
1.47368                 0.981765       -18.66126      0.002516092         33.7211                0               0                0               0
1.48026                0.9812101       -18.83259      0.002584062        30.63538                0               0                0               0
1.48684                0.9806314       -19.00589      0.002654668         27.5853                0               0                0               0
1.49342                 0.980028       -19.18114      0.002728281        24.56655                0               0                0               0
1.5                    0.9793999       -19.35829      0.002805276        21.57424                0               0                0               0
1.50658                0.9787467       -19.53731      0.002886023        18.60293                0               0                0               0
1.51316                0.9780683       -19.71817      0.002970884        15.64679                0               0                0               0
1.51974                0.9773651       -19.90086      0.003060206        12.69972                0               0                0               0
1.52632                0.9766373       -20.08536      0.003154316        9.755484                0               0                0               0
1.53289                0.9758853       -20.27166      0.003253514         6.80785                0               0                0               0
1.53947                0.9751097       -20.45978      0.003358076        3.850727                0               0                0               0
1.54605                0.9743111       -20.64973      0.003468239       0.8783095                0               0                0               0
1.55263                0.9734901       -20.84155      0.003584209       -2.114821                0               0                0               0
1.55921                0.9726474       -21.03529      0.003706153       -5.133587                0               0                0               0
1.56579                0.9717835         -21.231      0.003834203       -8.182342                0               0                0               0
1.57237                 0.970899       -21.42877       0.00396845       -11.26482                0               0                0               0
1.57895                0.9699944       -21.62868      0.004108948       -14.38411                0               0                0               0
1.58553                0.9690698       -21.83084      0.004255718       -17.54261                0               0                0               0
1.59211                0.9681254       -22.03536      0.004408745       -20.74209                0               0                0               0
1.59868                 0.967161       -22.24236      0.004567984       -23.98371                0               0                0               0
1.60526                0.9661763       -22.45199      0.004733361         -27.268                0               0                0               0
1.61184                0.9651706       -22.66438      0.004904776       -30.59498                0               0                0               0
1.61842                0.9641428       -22.87968      0.005082109       -33.96418                0               0                0               0
1.625                  0.9630921       -23.09803      0.005265222       -37.37471                0               0                0               0
1.63158                0.9620167       -23.31958      0.005453959        -40.8253                0               0                0               0
1.63816                0.9609148       -23.54448      0.005648155       -44.31437                0               0                0               0
1.64474                0.9597844       -23.77286      0.005847636       -47.84012                0               0                0               0
1.65132                0.9586233       -24.00487      0.006052225       -51.40049                0               0                0               0
1.65789                0.9574288       -24.24061      0.006261743        -54.9933                0               0                0               0
1.66447                 0.956198       -24.48021      0.006476013       -58.61626                0               0                0               0
1.67105                0.9549283       -24.72375      0.006694862       -62.26699                0               0                0               0
1.67763                0.9536164       -24.97134       0.00691813       -65.94308                0               0                0               0
1.68421                0.9522592       -25.22303      0.007145665        -69.6421                0               0                0               0
1.69079                0.9508533       -25.47888       0.00737733       -73.36166                0               0                0               0
1.69737                0.9493957       -25.73892      0.007613006       -77.09939                0               0                0               0
1.70395                 0.947883       -26.00318      0.007852595       -80.85298                0               0                0               0
1.71053                0.9463123       -26.27168      0.008096022       -84.62023                0               0                0               0
1.71711                0.9446802       -26.54439      0.008343235       -88.39899                0               0                0               0
1.72368                 0.942984        -26.8213      0.008594211       -92.18725                0               0                0               0
1.73026                0.9412211       -27.10239      0.008848957       -95.98313                0               0                0               0
1.73684                0.9393889       -27.38762      0.009107513       -99.78484                0               0                0               0
1.74342                0.9374851       -27.67695      0.009369949       -103.5908                0               0                0               0
1.75                   0.9355078       -27.97032      0.009636371       -107.3995                0               0                0               0
1.75658                0.9334551        -28.2677      0.009906926       -111.2096                0               0                0               0
1.76316                0.9313256       -28.56905       0.01018179       -115.0201                0               0                0               0
1.76974                 0.929118       -28.87432       0.01046118       -118.8299                0               0                0               0
1.77632                0.9268309       -29.18349       0.01074535       -122.6382                0               0                0               0
1.78289                0.9244638       -29.49654       0.01103458       -126.4445                0               0                0               0
1.78947                0.9220155       -29.81348       0.01132921       -130.2483                0               0                0               0
1.79605                0.9194857       -30.13431        0.0116296       -134.0495                0               0                0               0
1.80263                0.9168737       -30.45906       0.01193613       -137.8479                0               0                0               0
1.80921                0.9141789       -30.78779       0.01224924       -141.6437                0               0                0               0
1.81579                0.9114007       -31.12056       0.01256937       -145.4372                0               0                0               0
1.82237                0.9085385       -31.45748         0.012897        -149.229                0               0                0               0
1.82895                0.9055913       -31.79866       0.01323262       -153.0196                0               0                0               0
1.83553                0.9025581       -32.14424       0.01357675       -156.8101                0               0                0               0
1.84211                0.8994375       -32.49436        0.0139299       -160.6012                0               0                0               0
1.84868                0.8962279       -32.84922       0.01429262       -164.3943                0               0                0               0
