! TOUCHSTONE file generated by CST MICROWAVE STUDIO
! Date and time: Tue Mar 11 13:57:42 2025
! Project name: transverse.cst
! Parameters = {Fracture=1; B=12.5; D=160; F=15; Feed=2.85625; L=100; M=20; R=0.384908; S=2; Theta=180; length=57.125; wave=114.25}
! Header version: 2024
! Port assignment regex: !\s*Touchstone port\s*([0-9]+)\s*=\s*(CST MWS port|CST DES external port|CST DES block port)\s*(.+)\s* \(\"(.*)\"\)(\s*mode\s*([0-9]+))?.*
! Touchstone port assignment:
! Touchstone port 1 = CST MWS port 1 ("")
! Touchstone port 2 = CST MWS port 2 ("")
# GHz S MA R 50
1                      0.9976942        -10.0014     0.0004166069       -170.4675                0               0                0               0
1.00658                0.9976096       -10.09019     0.0004178344       -174.9445                0               0                0               0
1.01316                0.9975228       -10.17946     0.0004178629       -179.2773                0               0                0               0
1.01974                0.9974339       -10.26923     0.0004167287        176.5493                0               0                0               0
1.02632                0.9973433       -10.35951     0.0004144882        172.5524                0               0                0               0
1.03289                 0.997251       -10.45031     0.0004112195        168.7517                0               0                0               0
1.03947                0.9971572       -10.54165     0.0004070273        165.1685                0               0                0               0
1.04605                0.9970622       -10.63354     0.0004020458        161.8268                0               0                0               0
1.05263                0.9969661       -10.72602     0.0003964436        158.7519                0               0                0               0
1.05921                0.9968686        -10.8191     0.0003904284        155.9703                0               0                0               0
1.06579                0.9967703       -10.91281     0.0003842511        153.5079                0               0                0               0
1.07237                0.9966707       -11.00717     0.0003782094        151.3883                0               0                0               0
1.07895                0.9965699       -11.10221     0.0003726493        149.6296                0               0                0               0
1.08553                0.9964678       -11.19796     0.0003679633        148.2403                0               0                0               0
1.09211                0.9963642       -11.29444      0.000364582        147.2144                0               0                0               0
1.09868                0.9962589       -11.39168     0.0003629607        146.5271                0               0                0               0
1.10526                0.9961517        -11.4897     0.0003635549        146.1308                0               0                0               0
1.11184                 0.996042       -11.58852     0.0003667917        145.9547                0               0                0               0
1.11842                0.9959298       -11.68816     0.0003730369        145.9084                0               0                0               0
1.125                  0.9958146       -11.78865     0.0003825645        145.8896                0               0                0               0
1.13158                 0.995696       -11.88999     0.0003955373         145.795                0               0                0               0
1.13816                0.9955737       -11.99219      0.000412001        145.5321                0               0                0               0
1.14474                0.9954472       -12.09528     0.0004318922        145.0267                0               0                0               0
1.15132                0.9953162       -12.19925     0.0004550582         144.228                0               0                0               0
1.15789                0.9951802        -12.3041     0.0004812805        143.1083                0               0                0               0
1.16447                0.9950389       -12.40985     0.0005102987        141.6595                0               0                0               0
1.17105                 0.994892       -12.51649     0.0005418307        139.8889                0               0                0               0
1.17763                0.9947392       -12.62402     0.0005755874         137.814                0               0                0               0
1.18421                0.9945803       -12.73243     0.0006112828        135.4586                0               0                0               0
1.19079                0.9944149       -12.84172     0.0006486398        132.8495                0               0                0               0
1.19737                0.9942432       -12.95189      0.000687393        130.0143                0               0                0               0
1.20395                0.9940648       -13.06292     0.0007272902        126.9797                0               0                0               0
1.21053                0.9938797       -13.17482      0.000768092        123.7712                0               0                0               0
1.21711                 0.993688       -13.28759     0.0008095719        120.4123                0               0                0               0
1.22368                0.9934897       -13.40121     0.0008515148        116.9244                0               0                0               0
1.23026                0.9932849        -13.5157     0.0008937173        113.3268                0               0                0               0
1.23684                0.9930737       -13.63104     0.0009359855        109.6371                0               0                0               0
1.24342                0.9928563       -13.74726     0.0009781371        105.8712                0               0                0               0
1.25                   0.9926328       -13.86435      0.001019999        102.0433                0               0                0               0
1.25658                0.9924033       -13.98233      0.001061407        98.16636                0               0                0               0
1.26316                0.9921682       -14.10122       0.00110221        94.25227                0               0                0               0
1.26974                0.9919277       -14.22103      0.001142267        90.31186                0               0                0               0
1.27632                0.9916818       -14.34178      0.001181447        86.35514                0               0                0               0
1.28289                0.9914308        -14.4635      0.001219633        82.39146                0               0                0               0
1.28947                0.9911746       -14.58623      0.001256722        78.42955                0               0                0               0
1.29605                0.9909135       -14.70998      0.001292624        74.47767                0               0                0               0
1.30263                0.9906474        -14.8348      0.001327268        70.54367                0               0                0               0
1.30921                0.9903763       -14.96072      0.001360597        66.63506                0               0                0               0
1.31579                0.9901004       -15.08777      0.001392578        62.75908                0               0                0               0
1.32237                0.9898191       -15.21601      0.001423194        58.92267                0               0                0               0
1.32895                0.9895325       -15.34545      0.001452455        55.13258                0               0                0               0
1.33553                0.9892402       -15.47615      0.001480394        51.39529                0               0                0               0
1.34211                0.9889421       -15.60814      0.001507072        47.71705                0               0                0               0
1.34868                0.9886377       -15.74146      0.001532576        44.10382                0               0                0               0
1.35526                0.9883268       -15.87614      0.001557026        40.56121                0               0                0               0
1.36184                0.9880086       -16.01222      0.001580574        37.09439                0               0                0               0
1.36842                0.9876829       -16.14973      0.001603405        33.70804                0               0                0               0
1.375                  0.9873491        -16.2887      0.001625737        30.40617                0               0                0               0
1.38158                0.9870068       -16.42915      0.001647826        27.19198                0               0                0               0
1.38816                0.9866553       -16.57111      0.001669962        24.06773                0               0                0               0
1.39474                0.9862943        -16.7146      0.001692467        21.03452                0               0                0               0
1.40132                0.9859234       -16.85964      0.001715697        18.09213                0               0                0               0
1.40789                0.9855418       -17.00625      0.001740037        15.23884                0               0                0               0
1.41447                0.9851493       -17.15445      0.001765896        12.47129                0               0                0               0
1.42105                0.9847456       -17.30424      0.001793699         9.78434                0               0                0               0
1.42763                  0.98433       -17.45565      0.001823885         7.17106                0               0                0               0
1.43421                0.9839026       -17.60868      0.001856898         4.62273                0               0                0               0
1.44079                 0.983463       -17.76337      0.001893171        2.128973                0               0                0               0
1.44737                0.9830109       -17.91971      0.001933125       -0.322038                0               0                0               0
1.45395                0.9825464       -18.07774      0.001977156       -2.743271                0               0                0               0
1.46053                0.9820692       -18.23746      0.002025624       -5.148453                0               0                0               0
1.46711                0.9815793       -18.39892      0.002078847        -7.55163                0               0                0               0
1.47368                0.9810766       -18.56213      0.002137095       -9.966706                0               0                0               0
1.48026                0.9805613       -18.72714      0.002200582         -12.407                0               0                0               0
1.48684                0.9800331       -18.89397      0.002269465       -14.88483                0               0                0               0
1.49342                0.9794922       -19.06268      0.002343844       -17.41118                0               0                0               0
1.5                    0.9789387       -19.23332      0.002423762       -19.99548                0               0                0               0
1.50658                0.9783722       -19.40594      0.002509207       -22.64543                0               0                0               0
1.51316                0.9777929        -19.5806      0.002600116       -25.36693                0               0                0               0
1.51974                0.9772006       -19.75736      0.002696381       -28.16419                0               0                0               0
1.52632                0.9765949       -19.93632      0.002797854       -31.03971                0               0                0               0
1.53289                0.9759758       -20.11753      0.002904351       -33.99452                0               0                0               0
1.53947                0.9753428       -20.30108       0.00301566       -37.02831                0               0                0               0
1.54605                0.9746953       -20.48706      0.003131545       -40.13963                0               0                0               0
1.55263                0.9740327       -20.67555       0.00325175       -43.32609                0               0                0               0
1.55921                0.9733544       -20.86666      0.003376008        -46.5845                0               0                0               0
1.56579                0.9726594       -21.06046      0.003504042       -49.91114                0               0                0               0
1.57237                0.9719469       -21.25706      0.003635568       -53.30178                0               0                0               0
1.57895                0.9712155       -21.45655      0.003770303       -56.75191                0               0                0               0
1.58553                0.9704643       -21.65902      0.003907962       -60.25679                0               0                0               0
1.59211                0.9696917       -21.86456       0.00404827        -63.8116                0               0                0               0
1.59868                0.9688963       -22.07326      0.004190956       -67.41145                0               0                0               0
1.60526                0.9680766       -22.28521      0.004335762       -71.05147                0               0                0               0
1.61184                0.9672308       -22.50048      0.004482442       -74.72685                0               0                0               0
1.61842                0.9663573       -22.71916      0.004630768       -78.43291                0               0                0               0
1.625                  0.9654542       -22.94132       0.00478053       -82.16506                0               0                0               0
1.63158                0.9645198       -23.16702       0.00493154       -85.91887                0               0                0               0
1.63816                0.9635519       -23.39633      0.005083633       -89.69009                0               0                0               0
1.64474                0.9625488       -23.62931      0.005236671       -93.47462                0               0                0               0
1.65132                0.9615085       -23.86601      0.005390548       -97.26857                0               0                0               0
1.65789                0.9604293       -24.10647      0.005545186       -101.0682                0               0                0               0
1.66447                0.9593088       -24.35076      0.005700542       -104.8701                0               0                0               0
1.67105                0.9581456        -24.5989      0.005856615        -108.671                0               0                0               0
1.67763                0.9569377       -24.85095      0.006013438       -112.4677                0               0                0               0
1.68421                0.9556832       -25.10694      0.006171085       -116.2575                0               0                0               0
1.69079                0.9543805       -25.36691      0.006329679       -120.0378                0               0                0               0
1.69737                0.9530278        -25.6309      0.006489383       -123.8063                0               0                0               0
1.70395                0.9516234       -25.89896       0.00665041        -127.561                0               0                0               0
1.71053                0.9501659       -26.17113      0.006813022       -131.3002                0               0                0               0
1.71711                0.9486535       -26.44746      0.006977526       -135.0223                0               0                0               0
1.72368                0.9470848         -26.728      0.007144282       -138.7264                0               0                0               0
1.73026                0.9454582       -27.01282      0.007313697       -142.4116                0               0                0               0
1.73684                0.9437721       -27.30197      0.007486226       -146.0776                0               0                0               0
1.74342                 0.942025       -27.59555       0.00766237       -149.7243                0               0                0               0
1.75                   0.9402154       -27.89362      0.007842676       -153.3521                0               0                0               0
1.75658                0.9383413       -28.19628      0.008027726       -156.9618                0               0                0               0
1.76316                0.9364011       -28.50363      0.008218141       -160.5544                0               0                0               0
1.76974                0.9343931       -28.81577      0.008414577       -164.1314                0               0                0               0
1.77632                0.9323152       -29.13283      0.008617709       -167.6948                0               0                0               0
1.78289                0.9301651       -29.45492      0.008828239       -171.2468                0               0                0               0
1.78947                0.9279407       -29.78218      0.009046873         -174.79                0               0                0               0
1.79605                0.9256394       -30.11474      0.009274327       -178.3272                0               0                0               0
1.80263                0.9232585       -30.45276      0.009511311        178.1385                0               0                0               0
1.80921                0.9207949       -30.79639      0.009758527        174.6036                0               0                0               0
1.81579                0.9182456       -31.14577       0.01001666        171.0648                0               0                0               0
1.82237                0.9156071       -31.50107       0.01028635        167.5185                0               0                0               0
1.82895                0.9128756       -31.86244       0.01056822        163.9609                0               0                0               0
1.83553                0.9100473       -32.23005       0.01086284        160.3885                0               0                0               0
1.84211                0.9071179       -32.60405       0.01117074        156.7977                0               0                0               0
1.84868                0.9040827        -32.9846       0.01149239         153.185                0               0                0               0
