! TOUCHSTONE file generated by CST MICROWAVE STUDIO
! Date and time: Tue Mar 11 13:57:02 2025
! Project name: transverse.cst
! Parameters = {Fracture=1; B=12.5; D=160; F=15; Feed=2.85625; L=100; M=20; R=0.384908; S=2; Theta=90; length=57.125; wave=114.25}
! Header version: 2024
! Port assignment regex: !\s*Touchstone port\s*([0-9]+)\s*=\s*(CST MWS port|CST DES external port|CST DES block port)\s*(.+)\s* \(\"(.*)\"\)(\s*mode\s*([0-9]+))?.*
! Touchstone port assignment:
! Touchstone port 1 = CST MWS port 1 ("")
! Touchstone port 2 = CST MWS port 2 ("")
# GHz S MA R 50
1                      0.9976943        -10.0014     0.0004166174       -170.4659                0               0                0               0
1.00658                0.9976097       -10.09019     0.0004178457       -174.9429                0               0                0               0
1.01316                0.9975229       -10.17947     0.0004178748       -179.2758                0               0                0               0
1.01974                0.9974341       -10.26924     0.0004167414        176.5507                0               0                0               0
1.02632                0.9973434       -10.35951     0.0004145013        172.5538                0               0                0               0
1.03289                0.9972511       -10.45031     0.0004112332        168.7529                0               0                0               0
1.03947                0.9971575       -10.54165     0.0004070414        165.1697                0               0                0               0
1.04605                0.9970624       -10.63355     0.0004020601        161.8278                0               0                0               0
1.05263                0.9969662       -10.72602     0.0003964582        158.7528                0               0                0               0
1.05921                0.9968688        -10.8191     0.0003904431         155.971                0               0                0               0
1.06579                0.9967704       -10.91281     0.0003842657        153.5084                0               0                0               0
1.07237                0.9966709       -11.00718     0.0003782239        151.3887                0               0                0               0
1.07895                0.9965701       -11.10222     0.0003726635        149.6298                0               0                0               0
1.08553                 0.996468       -11.19797     0.0003679769        148.2402                0               0                0               0
1.09211                0.9963644       -11.29445     0.0003645951        147.2141                0               0                0               0
1.09868                0.9962591       -11.39169     0.0003629726        146.5266                0               0                0               0
1.10526                0.9961517        -11.4897     0.0003635657        146.1301                0               0                0               0
1.11184                0.9960422       -11.58852     0.0003668013        145.9539                0               0                0               0
1.11842                  0.99593       -11.68817      0.000373045        145.9075                0               0                0               0
1.125                  0.9958148       -11.78865     0.0003825711        145.8886                0               0                0               0
1.13158                0.9956963       -11.88999     0.0003955423        145.7941                0               0                0               0
1.13816                0.9955739        -11.9922     0.0004120044        145.5311                0               0                0               0
1.14474                0.9954474       -12.09528     0.0004318941        145.0258                0               0                0               0
1.15132                0.9953163       -12.19925     0.0004550586        144.2273                0               0                0               0
1.15789                0.9951803       -12.30411     0.0004812795        143.1076                0               0                0               0
1.16447                0.9950392       -12.40986     0.0005102966         141.659                0               0                0               0
1.17105                0.9948922        -12.5165     0.0005418275        139.8885                0               0                0               0
1.17763                0.9947394       -12.62402     0.0005755833        137.8137                0               0                0               0
1.18421                0.9945804       -12.73243      0.000611278        135.4584                0               0                0               0
1.19079                0.9944151       -12.84172     0.0006486344        132.8495                0               0                0               0
1.19737                0.9942433       -12.95189     0.0006873871        130.0143                0               0                0               0
1.20395                0.9940649       -13.06293     0.0007272839        126.9798                0               0                0               0
1.21053                0.9938799       -13.17483     0.0007680855        123.7714                0               0                0               0
1.21711                0.9936883       -13.28759     0.0008095653        120.4126                0               0                0               0
1.22368                0.9934899       -13.40121     0.0008515081        116.9247                0               0                0               0
1.23026                0.9932852        -13.5157     0.0008937106        113.3271                0               0                0               0
1.23684                 0.993074       -13.63105      0.000935979        109.6375                0               0                0               0
1.24342                0.9928566       -13.74726     0.0009781308        105.8716                0               0                0               0
1.25                   0.9926331       -13.86436      0.001019992        102.0437                0               0                0               0
1.25658                0.9924036       -13.98234      0.001061401        98.16681                0               0                0               0
1.26316                0.9921685       -14.10123      0.001102205        94.25273                0               0                0               0
1.26974                 0.991928       -14.22103      0.001142262        90.31232                0               0                0               0
1.27632                0.9916821       -14.34179      0.001181443         86.3556                0               0                0               0
1.28289                0.9914311       -14.46351       0.00121963        82.39191                0               0                0               0
1.28947                0.9911749       -14.58624      0.001256719        78.42999                0               0                0               0
1.29605                0.9909138          -14.71      0.001292622        74.47809                0               0                0               0
1.30263                0.9906478       -14.83482      0.001327266        70.54407                0               0                0               0
1.30921                0.9903766       -14.96073      0.001360596        66.63544                0               0                0               0
1.31579                0.9901006       -15.08779      0.001392577        62.75942                0               0                0               0
1.32237                0.9898194       -15.21602      0.001423195        58.92298                0               0                0               0
1.32895                0.9895327       -15.34547      0.001452457        55.13285                0               0                0               0
1.33553                0.9892405       -15.47617      0.001480397        51.39552                0               0                0               0
1.34211                0.9889424       -15.60816      0.001507075        47.71724                0               0                0               0
1.34868                 0.988638       -15.74148       0.00153258        44.10395                0               0                0               0
1.35526                0.9883269       -15.87616      0.001557031        40.56129                0               0                0               0
1.36184                0.9880088       -16.01225      0.001580579        37.09442                0               0                0               0
1.36842                 0.987683       -16.14975       0.00160341        33.70801                0               0                0               0
1.375                  0.9873492       -16.28872      0.001625743        30.40607                0               0                0               0
1.38158                0.9870068       -16.42917      0.001647832        27.19182                0               0                0               0
1.38816                0.9866554       -16.57113      0.001669968         24.0675                0               0                0               0
1.39474                0.9862944       -16.71462      0.001692474        21.03422                0               0                0               0
1.40132                0.9859234       -16.85966      0.001715704        18.09177                0               0                0               0
1.40789                0.9855419       -17.00627      0.001740044        15.23841                0               0                0               0
1.41447                0.9851494       -17.15447      0.001765902        12.47079                0               0                0               0
1.42105                0.9847456       -17.30426      0.001793704        9.783778                0               0                0               0
1.42763                0.9843301       -17.45567       0.00182389        7.170436                0               0                0               0
1.43421                0.9839027        -17.6087        0.0018569         4.62205                0               0                0               0
1.44079                 0.983463       -17.76338      0.001893172        2.128242                0               0                0               0
1.44737                0.9830108       -17.91973      0.001933125       -0.322814                0               0                0               0
1.45395                0.9825463       -18.07775      0.001977154       -2.744084                0               0                0               0
1.46053                0.9820691       -18.23747       0.00202562       -5.149296                0               0                0               0
1.46711                0.9815792       -18.39893      0.002078842       -7.552493                0               0                0               0
1.47368                0.9810765       -18.56214      0.002137087       -9.967584                0               0                0               0
1.48026                0.9805612       -18.72715      0.002200571       -12.40788                0               0                0               0
1.48684                0.9800331       -18.89398      0.002269452       -14.88571                0               0                0               0
1.49342                0.9794921       -19.06269      0.002343829       -17.41205                0               0                0               0
1.5                    0.9789386       -19.23333      0.002423744       -19.99634                0               0                0               0
1.50658                0.9783721       -19.40594      0.002509186       -22.64626                0               0                0               0
1.51316                0.9777928        -19.5806      0.002600094       -25.36774                0               0                0               0
1.51974                0.9772005       -19.75737      0.002696356       -28.16497                0               0                0               0
1.52632                0.9765949       -19.93632      0.002797827       -31.04046                0               0                0               0
1.53289                0.9759758       -20.11753      0.002904322       -33.99524                0               0                0               0
1.53947                0.9753427       -20.30109      0.003015629       -37.02899                0               0                0               0
1.54605                0.9746953       -20.48706      0.003131512       -40.14028                0               0                0               0
1.55263                0.9740327       -20.67556      0.003251716       -43.32669                0               0                0               0
1.55921                0.9733544       -20.86666      0.003375973       -46.58508                0               0                0               0
1.56579                0.9726594       -21.06047      0.003504005       -49.91168                0               0                0               0
1.57237                0.9719469       -21.25706      0.003635531       -53.30229                0               0                0               0
1.57895                0.9712156       -21.45655      0.003770264       -56.75238                0               0                0               0
1.58553                0.9704643       -21.65902      0.003907923       -60.25724                0               0                0               0
1.59211                0.9696917       -21.86456      0.004048231       -63.81202                0               0                0               0
1.59868                0.9688963       -22.07327      0.004190917       -67.41184                0               0                0               0
1.60526                0.9680765       -22.28521      0.004335723       -71.05183                0               0                0               0
1.61184                0.9672308       -22.50049      0.004482403       -74.72719                0               0                0               0
1.61842                0.9663572       -22.71917       0.00463073       -78.43322                0               0                0               0
1.625                  0.9654542       -22.94132      0.004780492       -82.16535                0               0                0               0
1.63158                0.9645197       -23.16702      0.004931503       -85.91915                0               0                0               0
1.63816                0.9635519       -23.39633      0.005083597       -89.69035                0               0                0               0
1.64474                0.9625488       -23.62931      0.005236637       -93.47486                0               0                0               0
1.65132                0.9615085       -23.86601      0.005390515        -97.2688                0               0                0               0
1.65789                0.9604291       -24.10648      0.005545154       -101.0685                0               0                0               0
1.66447                0.9593088       -24.35076      0.005700513       -104.8703                0               0                0               0
1.67105                0.9581455        -24.5989      0.005856587       -108.6712                0               0                0               0
1.67763                0.9569376       -24.85095      0.006013411       -112.4679                0               0                0               0
1.68421                0.9556832       -25.10694      0.006171061       -116.2577                0               0                0               0
1.69079                0.9543804       -25.36691      0.006329657        -120.038                0               0                0               0
1.69737                0.9530277        -25.6309      0.006489362       -123.8065                0               0                0               0
1.70395                0.9516233       -25.89895      0.006650392       -127.5612                0               0                0               0
1.71053                0.9501659       -26.17112      0.006813006       -131.3003                0               0                0               0
1.71711                0.9486536       -26.44745      0.006977513       -135.0225                0               0                0               0
1.72368                0.9470849       -26.72799      0.007144271       -138.7266                0               0                0               0
1.73026                0.9454582       -27.01281      0.007313687       -142.4118                0               0                0               0
1.73684                0.9437722       -27.30197      0.007486218       -146.0778                0               0                0               0
1.74342                0.9420251       -27.59554      0.007662364       -149.7245                0               0                0               0
1.75                   0.9402154       -27.89361       0.00784267       -153.3523                0               0                0               0
1.75658                0.9383414       -28.19627      0.008027721        -156.962                0               0                0               0
1.76316                0.9364013       -28.50362       0.00821814       -160.5546                0               0                0               0
1.76974                0.9343933       -28.81577      0.008414576       -164.1316                0               0                0               0
1.77632                0.9323154       -29.13282       0.00861771       -167.6951                0               0                0               0
1.78289                0.9301654       -29.45491       0.00882824       -171.2471                0               0                0               0
1.78947                 0.927941       -29.78217      0.009046875       -174.7902                0               0                0               0
1.79605                0.9256397       -30.11474       0.00927433       -178.3274                0               0                0               0
1.80263                0.9232587       -30.45276      0.009511315        178.1382                0               0                0               0
1.80921                0.9207952       -30.79639      0.009758531        174.6034                0               0                0               0
1.81579                0.9182459       -31.14577       0.01001666        171.0646                0               0                0               0
1.82237                0.9156074       -31.50107       0.01028635        167.5182                0               0                0               0
1.82895                 0.912876       -31.86245       0.01056822        163.9606                0               0                0               0
1.83553                0.9100476       -32.23006       0.01086284        160.3882                0               0                0               0
1.84211                0.9071181       -32.60406       0.01117074        156.7974                0               0                0               0
1.84868                0.9040829       -32.98461       0.01149239        153.1847                0               0                0               0
