! TOUCHSTONE file generated by CST MICROWAVE STUDIO
! Date and time: Tue Mar 11 13:58:11 2025
! Project name: transverse.cst
! Parameters = {Fracture=1; B=12.5; D=160; F=15; Feed=2.85625; L=100; M=10; R=0.384908; S=1; Theta=270; length=57.125; wave=114.25}
! Header version: 2024
! Port assignment regex: !\s*Touchstone port\s*([0-9]+)\s*=\s*(CST MWS port|CST DES external port|CST DES block port)\s*(.+)\s* \(\"(.*)\"\)(\s*mode\s*([0-9]+))?.*
! Touchstone port assignment:
! Touchstone port 1 = CST MWS port 1 ("")
! Touchstone port 2 = CST MWS port 2 ("")
# GHz S MA R 50
1                       0.997843       -10.03251     0.0003406729       -144.2624                0               0                0               0
1.00658                0.9977476       -10.12263      0.000349237       -148.7698                0               0                0               0
1.01316                0.9976471       -10.21308     0.0003565907       -153.2109                0               0                0               0
1.01974                0.9975425       -10.30382      0.000362684       -157.5714                0               0                0               0
1.02632                0.9974344       -10.39487     0.0003674778       -161.8362                0               0                0               0
1.03289                0.9973238       -10.48622     0.0003709466       -165.9887                0               0                0               0
1.03947                0.9972116       -10.57787     0.0003730801       -170.0102                0               0                0               0
1.04605                0.9970986       -10.66984      0.000373887         -173.88                0               0                0               0
1.05263                0.9969859       -10.76218      0.000373398       -177.5744                0               0                0               0
1.05921                 0.996874        -10.8549     0.0003716707        178.9332                0               0                0               0
1.06579                0.9967637       -10.94807     0.0003687943        175.6729                0               0                0               0
1.07237                0.9966556       -11.04174     0.0003648966        172.6784                0               0                0               0
1.07895                  0.99655       -11.13595      0.000360151        169.9869                0               0                0               0
1.08553                0.9964474       -11.23079     0.0003547854        167.6384                0               0                0               0
1.09211                0.9963478       -11.32631      0.000349091        165.6741                0               0                0               0
1.09868                0.9962511       -11.42259     0.0003434313        164.1331                0               0                0               0
1.10526                 0.996157       -11.51969     0.0003382486        163.0477                0               0                0               0
1.11184                0.9960653       -11.61769     0.0003340649        162.4359                0               0                0               0
1.11842                0.9959752       -11.71664     0.0003314729        162.2924                0               0                0               0
1.125                  0.9958862       -11.81662     0.0003311133        162.5792                0               0                0               0
1.13158                0.9957972       -11.91766     0.0003336343        163.2185                0               0                0               0
1.13816                0.9957073       -12.01981     0.0003396377         164.093                0               0                0               0
1.14474                0.9956156       -12.12312     0.0003496195        165.0558                0               0                0               0
1.15132                0.9955207        -12.2276      0.000363922        165.9495                0               0                0               0
1.15789                0.9954216       -12.33329     0.0003827101        166.6286                0               0                0               0
1.16447                 0.995317       -12.44017     0.0004059773        166.9782                0               0                0               0
1.17105                0.9952058       -12.54825     0.0004335769        166.9232                0               0                0               0
1.17763                 0.995087       -12.65752     0.0004652631        166.4277                0               0                0               0
1.18421                0.9949595       -12.76795     0.0005007319        165.4885                0               0                0               0
1.19079                0.9948224       -12.87952     0.0005396541        164.1249                0               0                0               0
1.19737                0.9946748       -12.99218     0.0005816968        162.3698                0               0                0               0
1.20395                0.9945163        -13.1059     0.0006265377        160.2628                0               0                0               0
1.21053                0.9943463       -13.22063     0.0006738701         157.845                0               0                0               0
1.21711                0.9941646       -13.33632     0.0007234059        155.1566                0               0                0               0
1.22368                0.9939711       -13.45293     0.0007748751        152.2345                0               0                0               0
1.23026                 0.993766       -13.57039     0.0008280242        149.1122                0               0                0               0
1.23684                0.9935492       -13.68868     0.0008826146        145.8197                0               0                0               0
1.24342                0.9933215       -13.80775     0.0009384207        142.3833                0               0                0               0
1.25                   0.9930834       -13.92757      0.000995229        138.8261                0               0                0               0
1.25658                0.9928356       -14.04811      0.001052837        135.1684                0               0                0               0
1.26316                0.9925788       -14.16936      0.001111051        131.4281                0               0                0               0
1.26974                0.9923142       -14.29131       0.00116969        127.6208                0               0                0               0
1.27632                0.9920424       -14.41396       0.00122858        123.7605                0               0                0               0
1.28289                0.9917646       -14.53735       0.00128756        119.8597                0               0                0               0
1.28947                0.9914817       -14.66148      0.001346479        115.9294                0               0                0               0
1.29605                0.9911945       -14.78641      0.001405197        111.9796                0               0                0               0
1.30263                 0.990904       -14.91218      0.001463591        108.0195                0               0                0               0
1.30921                0.9906109       -15.03886      0.001521549        104.0573                0               0                0               0
1.31579                0.9903156       -15.16652      0.001578977        100.1006                0               0                0               0
1.32237                0.9900187       -15.29522      0.001635798        96.15657                0               0                0               0
1.32895                0.9897203       -15.42506      0.001691956        92.23155                0               0                0               0
1.33553                0.9894205       -15.55612      0.001747415        88.33161                0               0                0               0
1.34211                0.9891192       -15.68849      0.001802162        84.46235                0               0                0               0
1.34868                0.9888158       -15.82225      0.001856212        80.62891                0               0                0               0
1.35526                  0.98851       -15.95751      0.001909604        76.83605                0               0                0               0
1.36184                 0.988201       -16.09433      0.001962409        73.08806                0               0                0               0
1.36842                0.9878876       -16.23281      0.002014725        69.38882                0               0                0               0
1.375                  0.9875692       -16.37301      0.002066685         65.7417                0               0                0               0
1.38158                 0.987244       -16.51499      0.002118455        62.14954                0               0                0               0
1.38816                0.9869108       -16.65881      0.002170233        58.61457                0               0                0               0
1.39474                0.9865685       -16.80452      0.002222255        55.13842                0               0                0               0
1.40132                0.9862151       -16.95214      0.002274785        51.72195                0               0                0               0
1.40789                0.9858496       -17.10169      0.002328126        48.36527                0               0                0               0
1.41447                0.9854705       -17.25318      0.002382609        45.06763                0               0                0               0
1.42105                 0.985076       -17.40662      0.002438593        41.82739                0               0                0               0
1.42763                0.9846653       -17.56198      0.002496464          38.642                0               0                0               0
1.43421                0.9842369       -17.71926      0.002556627        35.50793                0               0                0               0
1.44079                  0.98379       -17.87841      0.002619502        32.42073                0               0                0               0
1.44737                0.9833236       -18.03942       0.00268552        29.37506                0               0                0               0
1.45395                0.9828372       -18.20224       0.00275511        26.36476                0               0                0               0
1.46053                0.9823303       -18.36683      0.002828701        23.38295                0               0                0               0
1.46711                0.9818026       -18.53315      0.002906706        20.42221                0               0                0               0
1.47368                0.9812543       -18.70117       0.00298952         17.4747                0               0                0               0
1.48026                0.9806854       -18.87087       0.00307751        14.53236                0               0                0               0
1.48684                0.9800964       -19.04222      0.003171011        11.58714                0               0                0               0
1.49342                0.9794877        -19.2152      0.003270317        8.631135                0               0                0               0
1.5                    0.9788601       -19.38981      0.003375681         5.65683                0               0                0               0
1.50658                0.9782142       -19.56607      0.003487308        2.657231                0               0                0               0
1.51316                0.9775511       -19.74399      0.003605355      -0.3739836                0               0                0               0
1.51974                0.9768715       -19.92364       0.00372993       -3.442363                0               0                0               0
1.52632                0.9761764       -20.10505      0.003861088       -6.552603                0               0                0               0
1.53289                0.9754664       -20.28829       0.00399884       -9.708516                0               0                0               0
1.53947                0.9747426       -20.47347      0.004143148       -12.91302                0               0                0               0
1.54605                0.9740051       -20.66068       0.00429393       -16.16817                0               0                0               0
1.55263                0.9732546       -20.85004      0.004451067       -19.47518                0               0                0               0
1.55921                0.9724913       -21.04168      0.004614401       -22.83452                0               0                0               0
1.56579                 0.971715       -21.23573       0.00478374       -26.24595                0               0                0               0
1.57237                0.9709253       -21.43236      0.004958867       -29.70861                0               0                0               0
1.57895                0.9701217        -21.6317      0.005139537       -33.22112                0               0                0               0
1.58553                0.9693031       -21.83392      0.005325487       -36.78165                0               0                0               0
1.59211                0.9684683       -22.03918      0.005516437       -40.38799                0               0                0               0
1.59868                0.9676156       -22.24764      0.005712093       -44.03762                0               0                0               0
1.60526                 0.966743       -22.45945      0.005912154       -47.72779                0               0                0               0
1.61184                0.9658485       -22.67474      0.006116316       -51.45554                0               0                0               0
1.61842                0.9649295       -22.89367      0.006324271       -55.21782                0               0                0               0
1.625                  0.9639833       -23.11634      0.006535716       -59.01147                0               0                0               0
1.63158                0.9630069       -23.34287      0.006750352       -62.83327                0               0                0               0
1.63816                0.9619973       -23.57335      0.006967893       -66.67999                0               0                0               0
1.64474                0.9609512       -23.80786      0.007188066       -70.54843                0               0                0               0
1.65132                0.9598655       -24.04645      0.007410615       -74.43539                0               0                0               0
1.65789                0.9587368       -24.28917      0.007635304       -78.33773                0               0                0               0
1.66447                0.9575618       -24.53605      0.007861923       -82.25241                0               0                0               0
1.67105                0.9563374       -24.78707       0.00809029       -86.17643                0               0                0               0
1.67763                0.9550605       -25.04225      0.008320254       -90.10692                0               0                0               0
1.68421                0.9537284       -25.30155      0.008551699        -94.0411                0               0                0               0
1.69079                0.9523384       -25.56493      0.008784549       -97.97632                0               0                0               0
1.69737                 0.950888       -25.83237      0.009018768       -101.9101                0               0                0               0
1.70395                0.9493751        -26.1038      0.009254369         -105.84                0               0                0               0
1.71053                0.9477979       -26.37918      0.009491407       -109.7638                0               0                0               0
1.71711                0.9461548       -26.65845      0.009729994       -113.6795                0               0                0               0
1.72368                0.9444444       -26.94156      0.009970294       -117.5852                0               0                0               0
1.73026                0.9426659       -27.22847       0.01021253       -121.4793                0               0                0               0
1.73684                0.9408185       -27.51915       0.01045697       -125.3602                0               0                0               0
1.74342                0.9389016       -27.81358       0.01070395       -129.2268                0               0                0               0
1.75                   0.9369148       -28.11176       0.01095388        -133.078                0               0                0               0
1.75658                0.9348581       -28.41371       0.01120721       -136.9132                0               0                0               0
1.76316                0.9327313       -28.71946       0.01146444       -140.7317                0               0                0               0
1.76974                0.9305342       -29.02908       0.01172617       -144.5334                0               0                0               0
1.77632                0.9282668       -29.34264         0.011993       -148.3183                0               0                0               0
1.78289                0.9259289       -29.66028       0.01226564       -152.0869                0               0                0               0
1.78947                0.9235201       -29.98211        0.0125448       -155.8397                0               0                0               0
1.79605                0.9210397        -30.3083       0.01283125       -159.5778                0               0                0               0
1.80263                0.9184867       -30.63904       0.01312582       -163.3025                0               0                0               0
1.80921                  0.91586       -30.97453       0.01342933       -167.0152                0               0                0               0
1.81579                0.9131577         -31.315       0.01374266       -170.7178                0               0                0               0
1.82237                0.9103777       -31.66069       0.01406668       -174.4123                0               0                0               0
1.82895                0.9075173       -32.01186       0.01440228       -178.1012                0               0                0               0
1.83553                0.9045731       -32.36878       0.01475033        178.2131                0               0                0               0
1.84211                0.9015415        -32.7317       0.01511171         174.528                0               0                0               0
1.84868                0.8984178       -33.10091       0.01548724        170.8404                0               0                0               0
