! TOUCHSTONE file generated by CST MICROWAVE STUDIO
! Date and time: Tue Mar 11 13:58:20 2025
! Project name: transverse.cst
! Parameters = {Fracture=5; B=12.5; D=160; F=15; Feed=2.85625; L=100; M=20; R=0.384908; S=1; Theta=270; length=57.125; wave=114.25}
! Header version: 2024
! Port assignment regex: !\s*Touchstone port\s*([0-9]+)\s*=\s*(CST MWS port|CST DES external port|CST DES block port)\s*(.+)\s* \(\"(.*)\"\)(\s*mode\s*([0-9]+))?.*
! Touchstone port assignment:
! Touchstone port 1 = CST MWS port 1 ("")
! Touchstone port 2 = CST MWS port 2 ("")
# GHz S MA R 50
1                      0.9975733       -9.825559      0.000468737       -171.9791                0               0                0               0
1.0066                 0.9974832       -9.912908     0.0004656291       -177.2365                0               0                0               0
1.0132                 0.9973933       -10.00071     0.0004606461        177.6499                0               0                0               0
1.0198                 0.9973041       -10.08899     0.0004537906        172.6972                0               0                0               0
1.0264                 0.9972159       -10.17779     0.0004450849        167.9268                0               0                0               0
1.033                  0.9971288       -10.26715     0.0004345745        163.3652                0               0                0               0
1.0396                 0.9970428       -10.35711     0.0004223337        159.0459                0               0                0               0
1.0462                  0.996958       -10.44772     0.0004084723        155.0107                0               0                0               0
1.05281                0.9968743       -10.53903     0.0003931458        151.3119                0               0                0               0
1.05941                0.9967915       -10.63107     0.0003765679         148.015                0               0                0               0
1.06601                0.9967092       -10.72388     0.0003590286         145.201                0               0                0               0
1.07261                 0.996627       -10.81752     0.0003409182        142.9689                0               0                0               0
1.07921                0.9965445       -10.91202     0.0003227581        141.4356                0               0                0               0
1.08581                 0.996461        -11.0074     0.0003052376        140.7304                0               0                0               0
1.09241                0.9963759       -11.10371     0.0002892495        140.9784                0               0                0               0
1.09901                0.9962886       -11.20095     0.0002759071        142.2658                0               0                0               0
1.10561                0.9961983       -11.29916     0.0002665074        144.5817                0               0                0               0
1.11221                0.9961042       -11.39833     0.0002623983         147.753                0               0                0               0
1.11881                0.9960055       -11.49848     0.0002647389        151.4152                0               0                0               0
1.12541                0.9959017        -11.5996     0.0002742281        155.0717                0               0                0               0
1.13201                 0.995792       -11.70169     0.0002909522        158.2347                0               0                0               0
1.13861                0.9956758       -11.80473     0.0003144469        160.5603                0               0                0               0
1.14521                0.9955526       -11.90871     0.0003439101        161.8968                0               0                0               0
1.15182                0.9954218        -12.0136     0.0003784285        162.2482                0               0                0               0
1.15842                0.9952832       -12.11939     0.0004171275         161.708                0               0                0               0
1.16502                0.9951365       -12.22603     0.0004592366        160.4042                0               0                0               0
1.17162                0.9949814       -12.33352     0.0005041016        158.4662                0               0                0               0
1.17822                0.9948182       -12.44182     0.0005511725        156.0101                0               0                0               0
1.18482                0.9946468        -12.5509     0.0005999819        153.1344                0               0                0               0
1.19142                0.9944676       -12.66074     0.0006501273        149.9197                0               0                0               0
1.19802                0.9942806       -12.77133     0.0007012539        146.4317                0               0                0               0
1.20462                0.9940866       -12.88264     0.0007530435        142.7236                0               0                0               0
1.21122                0.9938859       -12.99467     0.0008052042        138.8383                0               0                0               0
1.21782                 0.993679       -13.10742     0.0008574652        134.8112                0               0                0               0
1.22442                0.9934667       -13.22089     0.0009095723        130.6711                0               0                0               0
1.23102                0.9932496       -13.33509     0.0009612841        126.4421                0               0                0               0
1.23762                0.9930281       -13.45005      0.001012371        122.1446                0               0                0               0
1.24422                0.9928031       -13.56579      0.001062613        117.7957                0               0                0               0
1.25083                0.9925753       -13.68236      0.001111802        113.4105                0               0                0               0
1.25743                0.9923449       -13.79978      0.001159739        109.0022                0               0                0               0
1.26403                0.9921124       -13.91812      0.001206236        104.5824                0               0                0               0
1.27063                0.9918782       -14.03744      0.001251116        100.1618                0               0                0               0
1.27723                0.9916426       -14.15779      0.001294216        95.75021                0               0                0               0
1.28383                0.9914056       -14.27924      0.001335388        91.35686                0               0                0               0
1.29043                0.9911671       -14.40186      0.001374499        86.99053                0               0                0               0
1.29703                0.9909269       -14.52573      0.001411436        82.65971                0               0                0               0
1.30363                0.9906846        -14.6509      0.001446105        78.37272                0               0                0               0
1.31023                0.9904398       -14.77746      0.001478436        74.13783                0               0                0               0
1.31683                0.9901917       -14.90547      0.001508387        69.96332                0               0                0               0
1.32343                0.9899395       -15.03499      0.001535944        65.85753                0               0                0               0
1.33003                0.9896824       -15.16607      0.001561125        61.82891                0               0                0               0
1.33663                0.9894193       -15.29878      0.001583987        57.88603                0               0                0               0
1.34323                0.9891491       -15.43314      0.001604626         54.0376                0               0                0               0
1.34984                0.9888705       -15.56921      0.001623185        50.29233                0               0                0               0
1.35644                0.9885825       -15.70699      0.001639855        46.65896                0               0                0               0
1.36304                0.9882836       -15.84652      0.001654882        43.14599                0               0                0               0
1.36964                0.9879729       -15.98779      0.001668569        39.76161                0               0                0               0
1.37624                0.9876491       -16.13082      0.001681281        36.51332                0               0                0               0
1.38284                0.9873112       -16.27558       0.00169345        33.40761                0               0                0               0
1.38944                 0.986958       -16.42208      0.001705571         30.4496                0               0                0               0
1.39604                0.9865887       -16.57027      0.001718209        27.64245                0               0                0               0
1.40264                0.9862027       -16.72015       0.00173199        24.98687                0               0                0               0
1.40924                0.9857993       -16.87167        0.0017476        22.48051                0               0                0               0
1.41584                0.9853783        -17.0248      0.001765773        20.11748                0               0                0               0
1.42244                0.9849391       -17.17953      0.001787276        17.88788                0               0                0               0
1.42904                0.9844818        -17.3358      0.001812896         15.7776                0               0                0               0
1.43564                0.9840065       -17.49361      0.001843416        13.76833                0               0                0               0
1.44224                0.9835135       -17.65292      0.001879592        11.83796                0               0                0               0
1.44884                0.9830031       -17.81371      0.001922128        9.961261                0               0                0               0
1.45545                0.9824758       -17.97599      0.001971653        8.110984                0               0                0               0
1.46205                0.9819322       -18.13976      0.002028705        6.259087                0               0                0               0
1.46865                0.9813733       -18.30503       0.00209371        4.378106                0               0                0               0
1.47525                0.9807995       -18.47183      0.002166977        2.442453                0               0                0               0
1.48185                0.9802118        -18.6402      0.002248698       0.4294872                0               0                0               0
1.48845                0.9796109       -18.81018      0.002338945       -1.679699                0               0                0               0
1.49505                0.9789974       -18.98185      0.002437688       -3.899873                0               0                0               0
1.50165                 0.978372       -19.15528      0.002544799       -6.241571                0               0                0               0
1.50825                0.9777352       -19.33056      0.002660073       -8.711301                0               0                0               0
1.51485                0.9770873        -19.5078      0.002783237       -11.31195                0               0                0               0
1.52145                0.9764284        -19.6871      0.002913966        -14.0433                0               0                0               0
1.52805                0.9757585       -19.86859      0.003051899       -16.90262                0               0                0               0
1.53465                0.9750774       -20.05238      0.003196645        -19.8852                0               0                0               0
1.54125                0.9743845       -20.23863      0.003347795       -22.98491                0               0                0               0
1.54785                0.9736788       -20.42745      0.003504931       -26.19458                0               0                0               0
1.55446                0.9729595       -20.61897      0.003667629       -29.50644                0               0                0               0
1.56106                0.9722252       -20.81334      0.003835468       -32.91238                0               0                0               0
1.56766                0.9714744       -21.01069      0.004008034       -36.40419                0               0                0               0
1.57426                0.9707053       -21.21113      0.004184919       -39.97371                0               0                0               0
1.58086                0.9699157       -21.41478       0.00436573       -43.61297                0               0                0               0
1.58746                0.9691035       -21.62175      0.004550088       -47.31431                0               0                0               0
1.59406                0.9682664       -21.83212      0.004737632       -51.07035                0               0                0               0
1.60066                 0.967402       -22.04598      0.004928024       -54.87409                0               0                0               0
1.60726                0.9665074        -22.2634      0.005120944        -58.7189                0               0                0               0
1.61386                0.9655802       -22.48443      0.005316103       -62.59853                0               0                0               0
1.62046                0.9646177       -22.70912      0.005513234       -66.50709                0               0                0               0
1.62706                0.9636173       -22.93748      0.005712108       -70.43907                0               0                0               0
1.63366                0.9625765       -23.16953      0.005912521       -74.38932                0               0                0               0
1.64026                0.9614928       -23.40527      0.006114312         -78.353                0               0                0               0
1.64686                 0.960364       -23.64469      0.006317356       -82.32564                0               0                0               0
1.65347                0.9591879       -23.88777      0.006521572       -86.30306                0               0                0               0
1.66007                0.9579627       -24.13449       0.00672692       -90.28142                0               0                0               0
1.66667                0.9566866       -24.38482      0.006933412       -94.25718                0               0                0               0
1.67327                0.9553582       -24.63872       0.00714111        -98.2271                0               0                0               0
1.67987                0.9539764       -24.89617      0.007350127       -102.1883                0               0                0               0
1.68647                0.9525399       -25.15715      0.007560634       -106.1381                0               0                0               0
1.69307                0.9510484       -25.42163      0.007772856       -110.0742                0               0                0               0
1.69967                0.9495009        -25.6896      0.007987083       -113.9947                0               0                0               0
1.70627                0.9478972       -25.96106      0.008203661       -117.8979                0               0                0               0
1.71287                0.9462371       -26.23604      0.008422999       -121.7826                0               0                0               0
1.71947                0.9445205       -26.51455      0.008645568       -125.6478                0               0                0               0
1.72607                0.9427472       -26.79667      0.008871898       -129.4929                0               0                0               0
1.73267                0.9409174       -27.08245      0.009102581       -133.3179                0               0                0               0
1.73927                0.9390308       -27.37199       0.00933826       -137.1227                0               0                0               0
1.74587                0.9370873        -27.6654      0.009579636       -140.9082                0               0                0               0
1.75248                0.9350866       -27.96281      0.009827459       -144.6752                0               0                0               0
1.75908                0.9330282       -28.26439       0.01008252       -148.4251                0               0                0               0
1.76568                0.9309114       -28.57031       0.01034565       -152.1596                0               0                0               0
1.77228                 0.928735       -28.88077        0.0106177       -155.8809                0               0                0               0
1.77888                0.9264976       -29.19598       0.01089955       -159.5914                0               0                0               0
1.78548                0.9241975       -29.51617       0.01119211       -163.2937                0               0                0               0
1.79208                0.9218322       -29.84158       0.01149626       -166.9911                0               0                0               0
1.79868                0.9193992       -30.17245       0.01181288       -170.6865                0               0                0               0
1.80528                0.9168951       -30.50905       0.01214287       -174.3835                0               0                0               0
1.81188                0.9143164       -30.85162       0.01248705       -178.0856                0               0                0               0
1.81848                0.9116587       -31.20042       0.01284624        178.2037                0               0                0               0
1.82508                0.9089175        -31.5557       0.01322121        174.4807                0               0                0               0
1.83168                0.9060876       -31.91771       0.01361265         170.742                0               0                0               0
1.83828                0.9031634       -32.28666       0.01402121         166.984                0               0                0               0
1.84488                0.9001387       -32.66277       0.01444748        163.2034                0               0                0               0
1.85149                0.8970073       -33.04623       0.01489194        159.3972                0               0                0               0
