! TOUCHSTONE file generated by CST MICROWAVE STUDIO
! Date and time: Tue Mar 11 13:58:24 2025
! Project name: transverse.cst
! Parameters = {Fracture=1; B=12.5; D=160; F=25; Feed=2.85625; L=100; M=10; R=0.384908; S=2; Theta=270; length=57.125; wave=114.25}
! Header version: 2024
! Port assignment regex: !\s*Touchstone port\s*([0-9]+)\s*=\s*(CST MWS port|CST DES external port|CST DES block port)\s*(.+)\s* \(\"(.*)\"\)(\s*mode\s*([0-9]+))?.*
! Touchstone port assignment:
! Touchstone port 1 = CST MWS port 1 ("")
! Touchstone port 2 = CST MWS port 2 ("")
# GHz S MA R 50
1                      0.9977812       -10.00329      0.000366506       -164.7068                0               0                0               0
1.00658                0.9976963       -10.09264     0.0003716416       -168.3655                0               0                0               0
1.01316                 0.997608       -10.18248     0.0003762328       -171.9005                0               0                0               0
1.01974                0.9975167       -10.27281     0.0003803415       -175.3022                0               0                0               0
1.02632                0.9974224       -10.36363     0.0003840453       -178.5616                0               0                0               0
1.03289                0.9973256       -10.45495     0.0003874391        178.3296                0               0                0               0
1.03947                0.9972262       -10.54678     0.0003906354        175.3786                0               0                0               0
1.04605                0.9971246       -10.63913     0.0003937651         172.591                0               0                0               0
1.05263                0.9970212       -10.73202     0.0003969773        169.9703                0               0                0               0
1.05921                 0.996916       -10.82546     0.0004004384        167.5169                0               0                0               0
1.06579                0.9968091       -10.91948       0.00040433        165.2276                0               0                0               0
1.07237                0.9967007        -11.0141     0.0004088465        163.0949                0               0                0               0
1.07895                0.9965909       -11.10935     0.0004141905        161.1066                0               0                0               0
1.08553                0.9964797       -11.20525     0.0004205679        159.2457                0               0                0               0
1.09211                0.9963669       -11.30184     0.0004281805        157.4898                0               0                0               0
1.09868                0.9962527       -11.39914     0.0004372207        155.8128                0               0                0               0
1.10526                0.9961366       -11.49717     0.0004478627        154.1848                0               0                0               0
1.11184                0.9960185       -11.59597     0.0004602571        152.5743                0               0                0               0
1.11842                0.9958982       -11.69556     0.0004745258        150.9495                0               0                0               0
1.125                  0.9957753       -11.79597     0.0004907576        149.2798                0               0                0               0
1.13158                0.9956495       -11.89721     0.0005090073        147.5377                0               0                0               0
1.13816                0.9955204       -11.99931     0.0005292959        145.6996                0               0                0               0
1.14474                0.9953875       -12.10228     0.0005516126        143.7467                0               0                0               0
1.15132                0.9952504       -12.20614     0.0005759179        141.6653                0               0                0               0
1.15789                0.9951086       -12.31088     0.0006021473        139.4463                0               0                0               0
1.16447                0.9949617       -12.41652     0.0006302165        137.0854                0               0                0               0
1.17105                0.9948094       -12.52307     0.0006600243        134.5819                0               0                0               0
1.17763                0.9946511       -12.63052     0.0006914571        131.9383                0               0                0               0
1.18421                0.9944866       -12.73886     0.0007243917        129.1596                0               0                0               0
1.19079                0.9943155        -12.8481     0.0007586988        126.2527                0               0                0               0
1.19737                0.9941377       -12.95822     0.0007942446        123.2254                0               0                0               0
1.20395                0.9939526       -13.06922     0.0008308924        120.0866                0               0                0               0
1.21053                0.9937604       -13.18108     0.0008685053        116.8455                0               0                0               0
1.21711                0.9935611        -13.2938     0.0009069461        113.5115                0               0                0               0
1.22368                0.9933543       -13.40737     0.0009460787        110.0938                0               0                0               0
1.23026                0.9931402       -13.52178     0.0009857689        106.6014                0               0                0               0
1.23684                 0.992919       -13.63702      0.001025886        103.0432                0               0                0               0
1.24342                0.9926909        -13.7531      0.001066301        99.42757                0               0                0               0
1.25                   0.9924559          -13.87       0.00110689        95.76253                0               0                0               0
1.25658                0.9922145       -13.98774      0.001147533        92.05573                0               0                0               0
1.26316                0.9919667       -14.10631      0.001188116         88.3144                0               0                0               0
1.26974                 0.991713       -14.22573      0.001228531        84.54545                0               0                0               0
1.27632                0.9914537       -14.34601      0.001268674         80.7554                0               0                0               0
1.28289                0.9911892       -14.46717      0.001308452        76.95047                0               0                0               0
1.28947                0.9909194       -14.58924      0.001347778        73.13654                0               0                0               0
1.29605                 0.990645       -14.71224      0.001386573        69.31927                0               0                0               0
1.30263                0.9903662        -14.8362      0.001424769          65.504                0               0                0               0
1.30921                0.9900831       -14.96117      0.001462309        61.69588                0               0                0               0
1.31579                0.9897959       -15.08717      0.001499147        57.89979                0               0                0               0
1.32237                0.9895047       -15.21425      0.001535249        54.12045                0               0                0               0
1.32895                0.9892093       -15.34246      0.001570594        50.36231                0               0                0               0
1.33553                  0.98891       -15.47184      0.001605177        46.62966                0               0                0               0
1.34211                0.9886065       -15.60244      0.001639008        42.92655                0               0                0               0
1.34868                0.9882987        -15.7343      0.001672112        39.25682                0               0                0               0
1.35526                0.9879863       -15.86747      0.001704532        35.62407                0               0                0               0
1.36184                0.9876688         -16.002      0.001736328        32.03163                0               0                0               0
1.36842                0.9873461       -16.13794       0.00176758        28.48255                0               0                0               0
1.375                  0.9870174       -16.27531      0.001798385        24.97955                0               0                0               0
1.38158                0.9866825       -16.41418      0.001828861        21.52498                0               0                0               0
1.38816                0.9863409       -16.55457      0.001859145        18.12079                0               0                0               0
1.39474                 0.985992       -16.69652      0.001889392        14.76845                0               0                0               0
1.40132                 0.985635       -16.84006      0.001919778        11.46895                0               0                0               0
1.40789                0.9852695       -16.98522      0.001950494        8.222677                0               0                0               0
1.41447                 0.984895       -17.13202       0.00198175        5.029447                0               0                0               0
1.42105                 0.984511        -17.2805       0.00201377        1.888397                0               0                0               0
1.42763                0.9841169       -17.43067      0.002046792       -1.202015                0               0                0               0
1.43421                0.9837121       -17.58255      0.002081063       -4.244045                0               0                0               0
1.44079                0.9832965       -17.73616      0.002116837       -7.240659                0               0                0               0
1.44737                0.9828694       -17.89152      0.002154373       -10.19553                0               0                0               0
1.45395                0.9824307       -18.04866      0.002193931         -13.113                0               0                0               0
1.46053                0.9819801       -18.20758      0.002235766       -15.99802                0               0                0               0
1.46711                0.9815174       -18.36831      0.002280127       -18.85605                0               0                0               0
1.47368                0.9810425       -18.53088      0.002327251       -21.69302                0               0                0               0
1.48026                0.9805553       -18.69532      0.002377359       -24.51513                0               0                0               0
1.48684                0.9800555       -18.86166      0.002430653       -27.32877                0               0                0               0
1.49342                0.9795436       -19.02995      0.002487317       -30.14037                0               0                0               0
1.5                    0.9790191       -19.20021      0.002547505       -32.95625                0               0                0               0
1.50658                0.9784821       -19.37251      0.002611348       -35.78249                0               0                0               0
1.51316                0.9779328       -19.54691      0.002678949        -38.6248                0               0                0               0
1.51974                0.9773709       -19.72346      0.002750382       -41.48841                0               0                0               0
1.52632                0.9767963       -19.90224      0.002825694       -44.37801                0               0                0               0
1.53289                 0.976209       -20.08333      0.002904902       -47.29766                0               0                0               0
1.53947                0.9756085       -20.26681         0.002988       -50.25072                0               0                0               0
1.54605                0.9749947       -20.45278      0.003074955       -53.23991                0               0                0               0
1.55263                0.9743668       -20.64132      0.003165713       -56.26726                0               0                0               0
1.55921                0.9737244       -20.83255      0.003260199       -59.33412                0               0                0               0
1.56579                0.9730667       -21.02656      0.003358322       -62.44122                0               0                0               0
1.57237                0.9723928       -21.22346      0.003459974       -65.58873                0               0                0               0
1.57895                0.9717015       -21.42336      0.003565038       -68.77628                0               0                0               0
1.58553                0.9709918       -21.62638      0.003673387       -72.00304                0               0                0               0
1.59211                0.9702621       -21.83261      0.003784888       -75.26776                0               0                0               0
1.59868                0.9695108       -22.04218      0.003899407       -78.56886                0               0                0               0
1.60526                0.9687364       -22.25518      0.004016806       -81.90448                0               0                0               0
1.61184                0.9679368       -22.47172      0.004136953       -85.27251                0               0                0               0
1.61842                  0.96711        -22.6919      0.004259721       -88.67068                0               0                0               0
1.625                  0.9662541       -22.91579      0.004384987       -92.09658                0               0                0               0
1.63158                0.9653666        -23.1435      0.004512642       -95.54772                0               0                0               0
1.63816                0.9644453       -23.37509      0.004642589       -99.02156                0               0                0               0
1.64474                0.9634877       -23.61063      0.004774743       -102.5156                0               0                0               0
1.65132                0.9624914       -23.85018      0.004909039       -106.0271                0               0                0               0
1.65789                0.9614539       -24.09381      0.005045429       -109.5539                0               0                0               0
1.66447                0.9603726       -24.34156      0.005183887       -113.0933                0               0                0               0
1.67105                0.9592453       -24.59346      0.005324407       -116.6432                0               0                0               0
1.67763                0.9580694       -24.84954      0.005467012       -120.2013                0               0                0               0
1.68421                0.9568423       -25.10983      0.005611745       -123.7655                0               0                0               0
1.69079                0.9555622       -25.37435       0.00575868        -127.334                0               0                0               0
1.69737                0.9542264       -25.64311      0.005907918       -130.9051                0               0                0               0
1.70395                 0.952833       -25.91614      0.006059588       -134.4771                0               0                0               0
1.71053                  0.95138       -26.19344       0.00621385       -138.0488                0               0                0               0
1.71711                0.9498654       -26.47502      0.006370892        -141.619                0               0                0               0
1.72368                0.9482874        -26.7609      0.006530934       -145.1868                0               0                0               0
1.73026                0.9466443        -27.0511      0.006694223       -148.7515                0               0                0               0
1.73684                0.9449344       -27.34563      0.006861037       -152.3128                0               0                0               0
1.74342                0.9431563       -27.64453       0.00703168       -155.8704                0               0                0               0
1.75                   0.9413085       -27.94783      0.007206483       -159.4243                0               0                0               0
1.75658                0.9393894       -28.25558      0.007385799        -162.975                0               0                0               0
1.76316                0.9373978       -28.56783      0.007570006       -166.5228                0               0                0               0
1.76974                0.9353321       -28.88465      0.007759497       -170.0687                0               0                0               0
1.77632                0.9331908       -29.20613      0.007954684       -173.6137                0               0                0               0
1.78289                0.9309724       -29.53234      0.008155992       -177.1589                0               0                0               0
1.78947                0.9286753       -29.86339       0.00836385        179.2942                0               0                0               0
1.79605                0.9262977       -30.19941      0.008578693        175.7439                0               0                0               0
1.80263                0.9238376       -30.54053      0.008800961        172.1886                0               0                0               0
1.80921                0.9212928       -30.88687      0.009031081        168.6262                0               0                0               0
1.81579                0.9186609       -31.23861      0.009269476        165.0548                0               0                0               0
1.82237                0.9159392       -31.59589      0.009516554        161.4724                0               0                0               0
1.82895                0.9131249       -31.95889      0.009772708        157.8767                0               0                0               0
1.83553                0.9102145       -32.32779       0.01003831        154.2657                0               0                0               0
1.84211                0.9072044       -32.70278       0.01031369        150.6372                0               0                0               0
1.84868                0.9040906       -33.08403       0.01059916        146.9891                0               0                0               0
