! TOUCHSTONE file generated by CST MICROWAVE STUDIO
! Date and time: Tue Mar 11 13:58:05 2025
! Project name: transverse.cst
! Parameters = {Fracture=5; B=12.5; D=160; F=5; Feed=2.85625; L=100; M=20; R=0.384908; S=1; Theta=270; length=57.125; wave=114.25}
! Header version: 2024
! Port assignment regex: !\s*Touchstone port\s*([0-9]+)\s*=\s*(CST MWS port|CST DES external port|CST DES block port)\s*(.+)\s* \(\"(.*)\"\)(\s*mode\s*([0-9]+))?.*
! Touchstone port assignment:
! Touchstone port 1 = CST MWS port 1 ("")
! Touchstone port 2 = CST MWS port 2 ("")
# GHz S MA R 50
1                      0.9978546       -9.760352     0.0003266751       -131.5857                0               0                0               0
1.00658                0.9977534         -9.8493     0.0003462494       -136.1264                0               0                0               0
1.01316                0.9976447       -9.938541     0.0003652028       -140.7054                0               0                0               0
1.01974                0.9975296       -10.02803     0.0003834417       -145.3053                0               0                0               0
1.02632                0.9974087       -10.11775     0.0004008773       -149.9114                0               0                0               0
1.03289                0.9972834       -10.20766     0.0004174267       -154.5104                0               0                0               0
1.03947                0.9971546       -10.29776      0.000433013       -159.0907                0               0                0               0
1.04605                0.9970237       -10.38805     0.0004475665       -163.6412                0               0                0               0
1.05263                0.9968918       -10.47854     0.0004610254       -168.1514                0               0                0               0
1.05921                  0.99676       -10.56926     0.0004733365       -172.6112                0               0                0               0
1.06579                0.9966296       -10.66025     0.0004844568       -177.0104                0               0                0               0
1.07237                0.9965015       -10.75156     0.0004943547        178.6612                0               0                0               0
1.07895                0.9963765       -10.84325     0.0005030109        174.4142                0               0                0               0
1.08553                0.9962555       -10.93538     0.0005104209        170.2596                0               0                0               0
1.09211                 0.996139       -11.02803     0.0005165958        166.2089                0               0                0               0
1.09868                0.9960274       -11.12128     0.0005215649        162.2741                0               0                0               0
1.10526                0.9959207       -11.21522     0.0005253773        158.4678                0               0                0               0
1.11184                 0.995819       -11.30993     0.0005281049        154.8032                0               0                0               0
1.11842                 0.995722       -11.40551     0.0005298439        151.2941                0               0                0               0
1.125                  0.9956292       -11.50202     0.0005307178        147.9543                0               0                0               0
1.13158                0.9955397       -11.59956     0.0005308799        144.7976                0               0                0               0
1.13816                0.9954529       -11.69819      0.000530515        141.8375                0               0                0               0
1.14474                0.9953677       -11.79797     0.0005298418        139.0857                0               0                0               0
1.15132                0.9952826       -11.89897     0.0005291129        136.5519                0               0                0               0
1.15789                0.9951966       -12.00123     0.0005286146        134.2424                0               0                0               0
1.16447                0.9951084       -12.10478     0.0005286643        132.1587                0               0                0               0
1.17105                0.9950162       -12.20963     0.0005296052        130.2959                0               0                0               0
1.17763                 0.994919        -12.3158     0.0005317981        128.6417                0               0                0               0
1.18421                 0.994815       -12.42328     0.0005356098        127.1749                0               0                0               0
1.19079                0.9947033       -12.53205     0.0005413989        125.8658                0               0                0               0
1.19737                0.9945823       -12.64209     0.0005494991        124.6762                0               0                0               0
1.20395                0.9944512       -12.75335     0.0005602026        123.5613                0               0                0               0
1.21053                 0.994309        -12.8658     0.0005737451        122.4724                0               0                0               0
1.21711                0.9941549       -12.97937     0.0005902947        121.3603                0               0                0               0
1.22368                0.9939885       -13.09402     0.0006099453        120.1784                0               0                0               0
1.23026                0.9938094       -13.20967     0.0006327169        118.8861                0               0                0               0
1.23684                0.9936176       -13.32628     0.0006585598        117.4503                0               0                0               0
1.24342                0.9934132       -13.44377     0.0006873642        115.8471                0               0                0               0
1.25                   0.9931966       -13.56211     0.0007189701        114.0612                0               0                0               0
1.25658                0.9929683       -13.68123     0.0007531795        112.0855                0               0                0               0
1.26316                0.9927291       -13.80109      0.000789767        109.9195                0               0                0               0
1.26974                  0.99248       -13.92168     0.0008284892        107.5683                0               0                0               0
1.27632                0.9922219       -14.04295     0.0008690924         105.041                0               0                0               0
1.28289                 0.991956       -14.16492     0.0009113184        102.3493                0               0                0               0
1.28947                0.9916835       -14.28758     0.0009549095        99.50638                0               0                0               0
1.29605                0.9914055       -14.41096     0.0009996115        96.52661                0               0                0               0
1.30263                0.9911235        -14.5351      0.001045176        93.42443                0               0                0               0
1.30921                0.9908383       -14.66003      0.001091361         90.2142                0               0                0               0
1.31579                0.9905513       -14.78582      0.001137936        86.90982                0               0                0               0
1.32237                0.9902631       -14.91255       0.00118468        83.52467                0               0                0               0
1.32895                0.9899747        -15.0403       0.00123138        80.07143                0               0                0               0
1.33553                0.9896864       -15.16917       0.00127784        76.56214                0               0                0               0
1.34211                0.9893987       -15.29926      0.001323872        73.00813                0               0                0               0
1.34868                0.9891116       -15.43068      0.001369307        69.42013                0               0                0               0
1.35526                0.9888249       -15.56354      0.001413989        65.80827                0               0                0               0
1.36184                0.9885383       -15.69795      0.001457777        62.18213                0               0                0               0
1.36842                 0.988251       -15.83402      0.001500551        58.55083                0               0                0               0
1.375                  0.9879622       -15.97186       0.00154221        54.92301                0               0                0               0
1.38158                0.9876706       -16.11158      0.001582675        51.30697                0               0                0               0
1.38816                 0.987375       -16.25326      0.001621888        47.71062                0               0                0               0
1.39474                0.9870737       -16.39698       0.00165982        44.14152                0               0                0               0
1.40132                 0.986765       -16.54282      0.001696466        40.60693                0               0                0               0
1.40789                0.9864471       -16.69083      0.001731851        37.11377                0               0                0               0
1.41447                 0.986118       -16.84106      0.001766034        33.66862                0               0                0               0
1.42105                 0.985776       -16.99353      0.001799104        30.27766                0               0                0               0
1.42763                 0.985419       -17.14827      0.001831189        26.94665                0               0                0               0
1.43421                0.9850453       -17.30527      0.001862449        23.68085                0               0                0               0
1.44079                 0.984653       -17.46452      0.001893088        20.48492                0               0                0               0
1.44737                0.9842403         -17.626      0.001923345         17.3628                0               0                0               0
1.45395                0.9838061       -17.78967        0.0019535        14.31762                0               0                0               0
1.46053                0.9833488       -17.95549      0.001983873        11.35153                0               0                0               0
1.46711                0.9828675       -18.12342      0.002014819        8.465571                0               0                0               0
1.47368                0.9823614       -18.29339      0.002046731        5.659532                0               0                0               0
1.48026                0.9818298       -18.46536      0.002080033        2.931811                0               0                0               0
1.48684                0.9812725       -18.63926      0.002115174       0.2793138                0               0                0               0
1.49342                0.9806894       -18.81506      0.002152624       -2.302617                0               0                0               0
1.5                    0.9800805       -18.99271      0.002192867        -4.82021                0               0                0               0
1.50658                0.9794465       -19.17216       0.00223639       -7.281219                0               0                0               0
1.51316                0.9787877       -19.35341      0.002283674       -9.694801                0               0                0               0
1.51974                0.9781049       -19.53644      0.002335189       -12.07131                0               0                0               0
1.52632                 0.977399       -19.72125      0.002391375       -14.42203                0               0                0               0
1.53289                0.9766708       -19.90786      0.002452642       -16.75885                0               0                0               0
1.53947                0.9759213       -20.09633      0.002519357        -19.0939                0               0                0               0
1.54605                0.9751514       -20.28668      0.002591836       -21.43916                0               0                0               0
1.55263                 0.974362       -20.47902      0.002670345        -23.8061                0               0                0               0
1.55921                0.9735539       -20.67341      0.002755089       -26.20534                0               0                0               0
1.56579                0.9727275       -20.86998      0.002846221       -28.64638                0               0                0               0
1.57237                0.9718833       -21.06884      0.002943831       -31.13742                0               0                0               0
1.57895                0.9710213       -21.27014       0.00304796       -33.68518                0               0                0               0
1.58553                0.9701413       -21.47401      0.003158595       -36.29491                0               0                0               0
1.59211                0.9692429       -21.68062      0.003275683       -38.97036                0               0                0               0
1.59868                0.9683252       -21.89012      0.003399128       -41.71387                0               0                0               0
1.60526                0.9673871       -22.10269      0.003528803       -44.52647                0               0                0               0
1.61184                0.9664269       -22.31847      0.003664551       -47.40806                0               0                0               0
1.61842                0.9654428       -22.53765        0.0038062        -50.3575                0               0                0               0
1.625                  0.9644326       -22.76037      0.003953558       -53.37284                0               0                0               0
1.63158                0.9633939       -22.98678      0.004106428       -56.45145                0               0                0               0
1.63816                0.9623236       -23.21701      0.004264608       -59.59013                0               0                0               0
1.64474                0.9612186       -23.45118      0.004427897       -62.78533                0               0                0               0
1.65132                0.9600758        -23.6894      0.004596103       -66.03319                0               0                0               0
1.65789                0.9588917       -23.93174      0.004769041       -69.32968                0               0                0               0
1.66447                0.9576626       -24.17829      0.004946545       -72.67069                0               0                0               0
1.67105                0.9563851       -24.42908      0.005128463       -76.05209                0               0                0               0
1.67763                0.9550554       -24.68413      0.005314667       -79.46981                0               0                0               0
1.68421                0.9536699       -24.94347      0.005505056       -82.91989                0               0                0               0
1.69079                0.9522253       -25.20706      0.005699554       -86.39849                0               0                0               0
1.69737                0.9507183        -25.4749      0.005898118       -89.90198                0               0                0               0
1.70395                0.9491457       -25.74692      0.006100739       -93.42691                0               0                0               0
1.71053                0.9475048       -26.02307      0.006307445        -96.9701                0               0                0               0
1.71711                0.9457928       -26.30328      0.006518297       -100.5286                0               0                0               0
1.72368                0.9440076       -26.58748      0.006733402       -104.0997                0               0                0               0
1.73026                0.9421473       -26.87559      0.006952907       -107.6809                0               0                0               0
1.73684                0.9402101       -27.16753         0.007177       -111.2703                0               0                0               0
1.74342                0.9381949       -27.46321      0.007405912       -114.8659                0               0                0               0
1.75                   0.9361005       -27.76259      0.007639921       -118.4663                0               0                0               0
1.75658                0.9339265       -28.06558      0.007879345       -122.0702                0               0                0               0
1.76316                0.9316722       -28.37216      0.008124546       -125.6767                0               0                0               0
1.76974                0.9293375       -28.68229      0.008375927       -129.2853                0               0                0               0
1.77632                0.9269221       -28.99597      0.008633928       -132.8956                0               0                0               0
1.78289                0.9244263        -29.3132      0.008899029       -136.5077                0               0                0               0
1.78947                  0.92185       -29.63404      0.009171742       -140.1219                0               0                0               0
1.79605                0.9191933       -29.95854      0.009452609       -143.7389                0               0                0               0
1.80263                0.9164561       -30.28679      0.009742195       -147.3593                0               0                0               0
1.80921                0.9136381       -30.61892       0.01004109       -150.9843                0               0                0               0
1.81579                0.9107391       -30.95505        0.0103499       -154.6154                0               0                0               0
1.82237                 0.907758       -31.29536       0.01066922       -158.2538                0               0                0               0
1.82895                0.9046939       -31.64004       0.01099969       -161.9014                0               0                0               0
1.83553                0.9015452       -31.98929        0.0113419       -165.5599                0               0                0               0
1.84211                0.8983098       -32.34334       0.01169646       -169.2313                0               0                0               0
1.84868                0.8949852       -32.70243       0.01206395       -172.9176                0               0                0               0
