! TOUCHSTONE file generated by CST MICROWAVE STUDIO
! Date and time: Tue Mar 11 13:56:52 2025
! Project name: transverse.cst
! Parameters = {Fracture=5; B=12.5; D=160; F=5; Feed=2.85625; L=100; M=20; R=0.384908; S=1; Theta=90; length=57.125; wave=114.25}
! Header version: 2024
! Port assignment regex: !\s*Touchstone port\s*([0-9]+)\s*=\s*(CST MWS port|CST DES external port|CST DES block port)\s*(.+)\s* \(\"(.*)\"\)(\s*mode\s*([0-9]+))?.*
! Touchstone port assignment:
! Touchstone port 1 = CST MWS port 1 ("")
! Touchstone port 2 = CST MWS port 2 ("")
# GHz S MA R 50
1                      0.9978545       -9.760356     0.0003266975        -131.587                0               0                0               0
1.00658                0.9977533       -9.849304     0.0003462717       -136.1273                0               0                0               0
1.01316                0.9976447       -9.938546     0.0003652251        -140.706                0               0                0               0
1.01974                0.9975295       -10.02804     0.0003834638       -145.3057                0               0                0               0
1.02632                0.9974086       -10.11775     0.0004008993       -149.9115                0               0                0               0
1.03289                0.9972833       -10.20766     0.0004174485       -154.5104                0               0                0               0
1.03947                0.9971545       -10.29776     0.0004330347       -159.0905                0               0                0               0
1.04605                0.9970237       -10.38805     0.0004475881       -163.6408                0               0                0               0
1.05263                0.9968917       -10.47854     0.0004610467       -168.1509                0               0                0               0
1.05921                0.9967599       -10.56927     0.0004733576       -172.6107                0               0                0               0
1.06579                0.9966295       -10.66026     0.0004844777       -177.0098                0               0                0               0
1.07237                0.9965014       -10.75156     0.0004943753        178.6619                0               0                0               0
1.07895                0.9963764       -10.84325     0.0005030312         174.415                0               0                0               0
1.08553                0.9962554       -10.93538     0.0005104409        170.2604                0               0                0               0
1.09211                0.9961389       -11.02803     0.0005166155        166.2097                0               0                0               0
1.09868                0.9960272       -11.12128     0.0005215843        162.2749                0               0                0               0
1.10526                0.9959206       -11.21522     0.0005253964        158.4686                0               0                0               0
1.11184                0.9958189       -11.30993     0.0005281236         154.804                0               0                0               0
1.11842                0.9957219        -11.4055     0.0005298621        151.2948                0               0                0               0
1.125                   0.995629       -11.50202     0.0005307356         147.955                0               0                0               0
1.13158                0.9955396       -11.59955     0.0005308971        144.7983                0               0                0               0
1.13816                0.9954528       -11.69818     0.0005305318        141.8381                0               0                0               0
1.14474                0.9953675       -11.79797      0.000529858        139.0862                0               0                0               0
1.15132                0.9952825       -11.89897     0.0005291284        136.5524                0               0                0               0
1.15789                0.9951966       -12.00122     0.0005286293        134.2428                0               0                0               0
1.16447                0.9951083       -12.10477     0.0005286782         132.159                0               0                0               0
1.17105                0.9950162       -12.20962     0.0005296182        130.2961                0               0                0               0
1.17763                 0.994919       -12.31579     0.0005318101        128.6417                0               0                0               0
1.18421                 0.994815       -12.42327     0.0005356208        127.1749                0               0                0               0
1.19079                0.9947033       -12.53204     0.0005414086        125.8658                0               0                0               0
1.19737                0.9945823       -12.64208     0.0005495075        124.6761                0               0                0               0
1.20395                0.9944512       -12.75334     0.0005602097        123.5611                0               0                0               0
1.21053                 0.994309       -12.86579     0.0005737508        122.4722                0               0                0               0
1.21711                 0.994155       -12.97936     0.0005902989        121.3601                0               0                0               0
1.22368                0.9939886       -13.09401     0.0006099481        120.1782                0               0                0               0
1.23026                0.9938095       -13.20967     0.0006327183        118.8859                0               0                0               0
1.23684                0.9936177       -13.32627     0.0006585599        117.4502                0               0                0               0
1.24342                0.9934133       -13.44377     0.0006873629         115.847                0               0                0               0
1.25                   0.9931967        -13.5621     0.0007189676        114.0612                0               0                0               0
1.25658                0.9929684       -13.68122     0.0007531759        112.0854                0               0                0               0
1.26316                0.9927292       -13.80109     0.0007897623        109.9195                0               0                0               0
1.26974                0.9924801       -13.92167     0.0008284835        107.5684                0               0                0               0
1.27632                 0.992222       -14.04295     0.0008690857        105.0412                0               0                0               0
1.28289                0.9919561       -14.16492      0.000911311        102.3495                0               0                0               0
1.28947                0.9916836       -14.28759     0.0009549014        99.50662                0               0                0               0
1.29605                0.9914057       -14.41097     0.0009996028        96.52689                0               0                0               0
1.30263                0.9911236        -14.5351      0.001045166        93.42475                0               0                0               0
1.30921                0.9908385       -14.66003      0.001091351        90.21454                0               0                0               0
1.31579                0.9905514       -14.78583      0.001137926         86.9102                0               0                0               0
1.32237                0.9902632       -14.91255      0.001184669        83.52506                0               0                0               0
1.32895                0.9899747       -15.04031       0.00123137        80.07184                0               0                0               0
1.33553                0.9896864       -15.16918      0.001277829        76.56256                0               0                0               0
1.34211                0.9893987       -15.29927      0.001323862        73.00856                0               0                0               0
1.34868                0.9891115       -15.43069      0.001369297        69.42057                0               0                0               0
1.35526                0.9888248       -15.56354      0.001413978        65.80871                0               0                0               0
1.36184                0.9885382       -15.69795      0.001457767        62.18257                0               0                0               0
1.36842                0.9882509       -15.83403      0.001500541        58.55126                0               0                0               0
1.375                  0.9879621       -15.97187      0.001542201        54.92344                0               0                0               0
1.38158                0.9876705       -16.11158      0.001582666        51.30739                0               0                0               0
1.38816                0.9873749       -16.25326       0.00162188        47.71103                0               0                0               0
1.39474                0.9870735       -16.39698      0.001659812        44.14192                0               0                0               0
1.40132                0.9867649       -16.54282      0.001696458        40.60732                0               0                0               0
1.40789                0.9864469       -16.69083      0.001731844        37.11414                0               0                0               0
1.41447                0.9861179       -16.84106      0.001766027        33.66897                0               0                0               0
1.42105                0.9857759       -16.99353      0.001799098        30.27799                0               0                0               0
1.42763                 0.985419       -17.14826      0.001831183        26.94696                0               0                0               0
1.43421                0.9850452       -17.30526      0.001862445        23.68113                0               0                0               0
1.44079                0.9846528       -17.46451      0.001893084        20.48517                0               0                0               0
1.44737                0.9842403       -17.62599      0.001923341        17.36302                0               0                0               0
1.45395                 0.983806       -17.78966      0.001953497        14.31781                0               0                0               0
1.46053                0.9833488       -17.95548       0.00198387        11.35168                0               0                0               0
1.46711                0.9828675        -18.1234      0.002014818         8.46569                0               0                0               0
1.47368                0.9823614       -18.29338       0.00204673        5.659618                0               0                0               0
1.48026                0.9818299       -18.46535      0.002080032         2.93186                0               0                0               0
1.48684                0.9812726       -18.63925      0.002115173       0.2793264                0               0                0               0
1.49342                0.9806895       -18.81505      0.002152623        -2.30264                0               0                0               0
1.5                    0.9800807        -18.9927      0.002192866       -4.820269                0               0                0               0
1.50658                0.9794467       -19.17215      0.002236389       -7.281314                0               0                0               0
1.51316                 0.978788        -19.3534      0.002283674        -9.69493                0               0                0               0
1.51974                0.9781052       -19.53643      0.002335188       -12.07147                0               0                0               0
1.52632                0.9773992       -19.72124      0.002391375       -14.42222                0               0                0               0
1.53289                0.9766711       -19.90786      0.002452641       -16.75907                0               0                0               0
1.53947                0.9759217       -20.09632      0.002519355       -19.09414                0               0                0               0
1.54605                0.9751518       -20.28668      0.002591834       -21.43942                0               0                0               0
1.55263                0.9743623       -20.47902      0.002670341       -23.80638                0               0                0               0
1.55921                0.9735542       -20.67341      0.002755085       -26.20563                0               0                0               0
1.56579                0.9727278       -20.86998      0.002846215       -28.64668                0               0                0               0
1.57237                0.9718835       -21.06885      0.002943824       -31.13773                0               0                0               0
1.57895                0.9710216       -21.27015      0.003047952        -33.6855                0               0                0               0
1.58553                0.9701416       -21.47402      0.003158587       -36.29524                0               0                0               0
1.59211                0.9692433       -21.68063      0.003275674       -38.97068                0               0                0               0
1.59868                0.9683254       -21.89013      0.003399118       -41.71419                0               0                0               0
1.60526                0.9673874        -22.1027      0.003528791       -44.52679                0               0                0               0
1.61184                0.9664272       -22.31849      0.003664539       -47.40837                0               0                0               0
1.61842                0.9654431       -22.53767      0.003806187        -50.3578                0               0                0               0
1.625                  0.9644329       -22.76039      0.003953544       -53.37314                0               0                0               0
1.63158                 0.963394        -22.9868      0.004106413       -56.45174                0               0                0               0
1.63816                0.9623238       -23.21702      0.004264592       -59.59042                0               0                0               0
1.64474                0.9612188        -23.4512      0.004427881        -62.7856                0               0                0               0
1.65132                0.9600759       -23.68941      0.004596086       -66.03346                0               0                0               0
1.65789                0.9588917       -23.93177      0.004769025       -69.32994                0               0                0               0
1.66447                0.9576626       -24.17831      0.004946528       -72.67094                0               0                0               0
1.67105                 0.956385        -24.4291      0.005128446       -76.05232                0               0                0               0
1.67763                0.9550553       -24.68415       0.00531465       -79.47004                0               0                0               0
1.68421                0.9536699       -24.94349      0.005505039        -82.9201                0               0                0               0
1.69079                0.9522253       -25.20708      0.005699537        -86.3987                0               0                0               0
1.69737                0.9507182       -25.47492      0.005898102       -89.90218                0               0                0               0
1.70395                0.9491457       -25.74693      0.006100724       -93.42711                0               0                0               0
1.71053                0.9475047       -26.02308      0.006307429       -96.97028                0               0                0               0
1.71711                0.9457926       -26.30329      0.006518281       -100.5287                0               0                0               0
1.72368                0.9440075       -26.58749      0.006733388       -104.0998                0               0                0               0
1.73026                0.9421471        -26.8756      0.006952893       -107.6811                0               0                0               0
1.73684                  0.94021       -27.16754      0.007176987       -111.2704                0               0                0               0
1.74342                0.9381948       -27.46323        0.0074059       -114.8661                0               0                0               0
1.75                   0.9361004        -27.7626       0.00763991       -118.4664                0               0                0               0
1.75658                0.9339263       -28.06559      0.007879335       -122.0703                0               0                0               0
1.76316                0.9316721       -28.37217      0.008124537       -125.6768                0               0                0               0
1.76974                0.9293374        -28.6823      0.008375918       -129.2854                0               0                0               0
1.77632                 0.926922       -28.99598      0.008633921       -132.8957                0               0                0               0
1.78289                0.9244262       -29.31321      0.008899023       -136.5079                0               0                0               0
1.78947                0.9218499       -29.63405      0.009171738       -140.1221                0               0                0               0
1.79605                0.9191931       -29.95855      0.009452606        -143.739                0               0                0               0
1.80263                 0.916456        -30.2868      0.009742194       -147.3594                0               0                0               0
1.80921                 0.913638       -30.61892       0.01004109       -150.9845                0               0                0               0
1.81579                 0.910739       -30.95506        0.0103499       -154.6155                0               0                0               0
1.82237                0.9077579       -31.29537       0.01066923       -158.2539                0               0                0               0
1.82895                0.9046939       -31.64005       0.01099969       -161.9015                0               0                0               0
1.83553                0.9015451        -31.9893        0.0113419         -165.56                0               0                0               0
1.84211                0.8983097       -32.34335       0.01169646       -169.2314                0               0                0               0
1.84868                 0.894985       -32.70243       0.01206396       -172.9177                0               0                0               0
