! TOUCHSTONE file generated by CST MICROWAVE STUDIO
! Date and time: Tue Mar 11 13:57:03 2025
! Project name: transverse.cst
! Parameters = {Fracture=1; B=12.5; D=160; F=15; Feed=2.85625; L=100; M=30; R=0.384908; S=1; Theta=90; length=57.125; wave=114.25}
! Header version: 2024
! Port assignment regex: !\s*Touchstone port\s*([0-9]+)\s*=\s*(CST MWS port|CST DES external port|CST DES block port)\s*(.+)\s* \(\"(.*)\"\)(\s*mode\s*([0-9]+))?.*
! Touchstone port assignment:
! Touchstone port 1 = CST MWS port 1 ("")
! Touchstone port 2 = CST MWS port 2 ("")
# GHz S MA R 50
1                      0.9974998       -10.01188     0.0004648381        176.9072                0               0                0               0
1.00658                0.9974209       -10.09929     0.0004636077        171.2384                0               0                0               0
1.01316                0.9973437       -10.18726     0.0004604493        165.6712                0               0                0               0
1.01974                0.9972682       -10.27584     0.0004553263        160.2154                0               0                0               0
1.02632                0.9971945       -10.36506     0.0004482136        154.8836                0               0                0               0
1.03289                 0.997122       -10.45498     0.0004390996        149.6918                0               0                0               0
1.03947                0.9970504       -10.54564     0.0004279882         144.661                0               0                0               0
1.04605                0.9969794       -10.63708     0.0004149021        139.8179                0               0                0               0
1.05263                0.9969084       -10.72933     0.0003998876        135.1971                0               0                0               0
1.05921                0.9968367       -10.82243     0.0003830205         130.844                0               0                0               0
1.06579                0.9967636       -10.91641     0.0003644157        126.8183                0               0                0               0
1.07237                0.9966883       -11.01128     0.0003442406        123.1996                0               0                0               0
1.07895                0.9966103       -11.10706     0.0003227356         120.095                0               0                0               0
1.08553                0.9965285       -11.20376     0.0003002464        117.6485                0               0                0               0
1.09211                0.9964424       -11.30138     0.0002772719        116.0538                0               0                0               0
1.09868                 0.996351       -11.39991     0.0002545379        115.5642                0               0                0               0
1.10526                0.9962539       -11.49934     0.0002330992        116.4897                0               0                0               0
1.11184                0.9961502       -11.59965     0.0002144567        119.1498                0               0                0               0
1.11842                0.9960396       -11.70083     0.0002006114        123.7265                0               0                0               0
1.125                  0.9959214       -11.80284     0.0001938719        129.9971                0               0                0               0
1.13158                0.9957955       -11.90566     0.0001962289        137.1193                0               0                0               0
1.13816                0.9956615       -12.00926     0.0002085303        143.8448                0               0                0               0
1.14474                0.9955194        -12.1136      0.000230195        149.1384                0               0                0               0
1.15132                0.9953693       -12.21865     0.0002597372        152.5748                0               0                0               0
1.15789                0.9952112       -12.32439     0.0002954976        154.2315                0               0                0               0
1.16447                0.9950455       -12.43079     0.0003360521        154.4041                0               0                0               0
1.17105                0.9948724       -12.53782     0.0003803024        153.4157                0               0                0               0
1.17763                0.9946924       -12.64546     0.0004274267        151.5418                0               0                0               0
1.18421                0.9945063        -12.7537     0.0004768033        148.9963                0               0                0               0
1.19079                0.9943146       -12.86255     0.0005279471        145.9402                0               0                0               0
1.19737                0.9941179       -12.97199     0.0005804642        142.4932                0               0                0               0
1.20395                0.9939171       -13.08204     0.0006340212        138.7449                0               0                0               0
1.21053                0.9937126       -13.19272     0.0006883259        134.7627                0               0                0               0
1.21711                0.9935054       -13.30405     0.0007431139        130.5983                0               0                0               0
1.22368                 0.993296       -13.41607     0.0007981403        126.2918                0               0                0               0
1.23026                 0.993085       -13.52881     0.0008531746        121.8746                0               0                0               0
1.23684                0.9928731       -13.64234     0.0009079966        117.3721                0               0                0               0
1.24342                0.9926605        -13.7567      0.000962395        112.8048                0               0                0               0
1.25                   0.9924476       -13.87195      0.001016166        108.1897                0               0                0               0
1.25658                0.9922344       -13.98816      0.001069113         103.541                0               0                0               0
1.26316                 0.992021        -14.1054      0.001121046        98.87102                0               0                0               0
1.26974                0.9918075       -14.22373      0.001171784        94.19034                0               0                0               0
1.27632                0.9915933       -14.34324      0.001221152        89.50844                0               0                0               0
1.28289                0.9913781       -14.46398      0.001268985        84.83385                0               0                0               0
1.28947                0.9911612       -14.58601      0.001315131        80.17444                0               0                0               0
1.29605                0.9909421       -14.70942      0.001359448        75.53756                0               0                0               0
1.30263                0.9907197       -14.83424      0.001401806        70.93021                0               0                0               0
1.30921                0.9904933       -14.96054      0.001442093        66.35918                0               0                0               0
1.31579                0.9902617       -15.08836      0.001480213        61.83109                0               0                0               0
1.32237                0.9900237       -15.21772      0.001516089        57.35251                0               0                0               0
1.32895                0.9897784       -15.34867      0.001549669        52.93003                0               0                0               0
1.33553                0.9895244       -15.48122      0.001580922        48.57028                0               0                0               0
1.34211                0.9892608       -15.61538      0.001609845        44.27997                0               0                0               0
1.34868                0.9889862       -15.75115      0.001636466        40.06592                0               0                0               0
1.35526                0.9886997       -15.88852      0.001660846        35.93502                0               0                0               0
1.36184                0.9884004       -16.02749      0.001683084        31.89425                0               0                0               0
1.36842                0.9880873       -16.16804      0.001703315        27.95058                0               0                0               0
1.375                  0.9877597       -16.31013      0.001721721        24.11092                0               0                0               0
1.38158                 0.987417       -16.45373      0.001738529        20.38199                0               0                0               0
1.38816                0.9870587       -16.59883      0.001754017        16.77014                0               0                0               0
1.39474                0.9866847       -16.74539      0.001768513        13.28114                0               0                0               0
1.40132                0.9862948       -16.89337      0.001782401        9.919931                0               0                0               0
1.40789                0.9858889       -17.04275      0.001796117        6.690298                0               0                0               0
1.41447                0.9854675        -17.1935      0.001810156        3.594511                0               0                0               0
1.42105                0.9850307       -17.34561      0.001825058       0.6329275                0               0                0               0
1.42763                 0.984579       -17.49907      0.001841414       -2.196404                0               0                0               0
1.43421                0.9841131       -17.65387      0.001859853       -4.898119                0               0                0               0
1.44079                0.9836334       -17.81002      0.001881033       -7.479847                0               0                0               0
1.44737                0.9831409       -17.96754      0.001905625       -9.952396                0               0                0               0
1.45395                0.9826361       -18.12647        0.0019343       -12.32976                0               0                0               0
1.46053                0.9821199       -18.28684      0.001967713       -14.62894                0               0                0               0
1.46711                0.9815929       -18.44871      0.002006479       -16.86949                0               0                0               0
1.47368                0.9810556       -18.61215      0.002051157       -19.07286                0               0                0               0
1.48026                0.9805085       -18.77724      0.002102234       -21.26158                0               0                0               0
1.48684                0.9799522       -18.94405      0.002160113       -23.45833                0               0                0               0
1.49342                0.9793867       -19.11269      0.002225099       -25.68491                0               0                0               0
1.5                     0.978812       -19.28327      0.002297398       -27.96146                0               0                0               0
1.50658                 0.978228       -19.45589      0.002377115       -30.30569                0               0                0               0
1.51316                0.9776341       -19.63067       0.00246426       -32.73238                0               0                0               0
1.51974                0.9770298       -19.80773      0.002558752       -35.25317                0               0                0               0
1.52632                0.9764142       -19.98719      0.002660433       -37.87644                0               0                0               0
1.53289                 0.975786       -20.16917      0.002769076       -40.60753                0               0                0               0
1.53947                 0.975144       -20.35377      0.002884398       -43.44897                0               0                0               0
1.54605                0.9744866        -20.5411       0.00300607       -46.40088                0               0                0               0
1.55263                0.9738118       -20.73128      0.003133726       -49.46132                0               0                0               0
1.55921                0.9731178       -20.92437      0.003266979       -52.62675                0               0                0               0
1.56579                0.9724026       -21.12047      0.003405419       -55.89238                0               0                0               0
1.57237                0.9716637       -21.31964      0.003548628        -59.2525                0               0                0               0
1.57895                 0.970899       -21.52193      0.003696184       -62.70076                0               0                0               0
1.58553                0.9701061       -21.72739      0.003847663       -66.23045                0               0                0               0
1.59211                0.9692827       -21.93604      0.004002647       -69.83464                0               0                0               0
1.59868                0.9684264        -22.1479      0.004160725       -73.50634                0               0                0               0
1.60526                0.9675349       -22.36297      0.004321498       -77.23864                0               0                0               0
1.61184                0.9666063       -22.58123      0.004484583       -81.02474                0               0                0               0
1.61842                0.9656384       -22.80267      0.004649613       -84.85805                0               0                0               0
1.625                  0.9646295       -23.02725      0.004816241        -88.7322                0               0                0               0
1.63158                 0.963578       -23.25494      0.004984144       -92.64108                0               0                0               0
1.63816                0.9624825       -23.48569      0.005153026       -96.57884                0               0                0               0
1.64474                0.9613419       -23.71946      0.005322617       -100.5399                0               0                0               0
1.65132                0.9601554       -23.95621      0.005492681        -104.519                0               0                0               0
1.65789                0.9589222       -24.19589      0.005663015       -108.5111                0               0                0               0
1.66447                 0.957642       -24.43847      0.005833456       -112.5113                0               0                0               0
1.67105                0.9563145       -24.68392      0.006003878       -116.5153                0               0                0               0
1.67763                0.9549398       -24.93222      0.006174203       -120.5188                0               0                0               0
1.68421                0.9535181       -25.18337        0.0063444       -124.5178                0               0                0               0
1.69079                0.9520496       -25.43739      0.006514484       -128.5087                0               0                0               0
1.69737                 0.950535       -25.69429      0.006684529        -132.488                0               0                0               0
1.70395                0.9489745       -25.95414      0.006854664       -136.4525                0               0                0               0
1.71053                0.9473688       -26.21698      0.007025073       -140.3995                0               0                0               0
1.71711                0.9457182       -26.48292      0.007196009       -144.3265                0               0                0               0
1.72368                0.9440232       -26.75207      0.007367782       -148.2311                0               0                0               0
1.73026                0.9422838       -27.02454      0.007540769       -152.1117                0               0                0               0
1.73684                0.9405001        -27.3005      0.007715414       -155.9667                0               0                0               0
1.74342                 0.938672       -27.58011      0.007892227       -159.7951                0               0                0               0
1.75                   0.9367988       -27.86355       0.00807178       -163.5962                0               0                0               0
1.75658                0.9348798       -28.15103      0.008254713       -167.3698                0               0                0               0
1.76316                0.9329137       -28.44276      0.008441724       -171.1163                0               0                0               0
1.76974                0.9308987       -28.73896      0.008633565       -174.8364                0               0                0               0
1.77632                 0.928833       -29.03987      0.008831047       -178.5313                0               0                0               0
1.78289                 0.926714       -29.34573      0.009035017        177.7972                0               0                0               0
1.78947                0.9245389       -29.65676      0.009246365        174.1469                0               0                0               0
1.79605                0.9223043        -29.9732      0.009466012         170.515                0               0                0               0
1.80263                0.9200064       -30.29529      0.009694889        166.8985                0               0                0               0
1.80921                0.9176413       -30.62324      0.009933943        163.2937                0               0                0               0
1.81579                0.9152043       -30.95726       0.01018411        159.6967                0               0                0               0
1.82237                0.9126905       -31.29756       0.01044633        156.1033                0               0                0               0
1.82895                 0.910095       -31.64429        0.0107215         152.509                0               0                0               0
1.83553                0.9074121       -31.99763       0.01101047        148.9094                0               0                0               0
1.84211                0.9046367       -32.35772       0.01131407        145.2997                0               0                0               0
1.84868                0.9017627       -32.72467       0.01163305        141.6752                0               0                0               0
