! TOUCHSTONE file generated by CST MICROWAVE STUDIO
! Date and time: Tue Mar 11 13:56:24 2025
! Project name: transverse.cst
! Parameters = {Fracture=1; B=12.5; D=160; F=25; Feed=2.85625; L=100; M=10; R=0.384908; S=1; Theta=0; length=57.125; wave=114.25}
! Header version: 2024
! Port assignment regex: !\s*Touchstone port\s*([0-9]+)\s*=\s*(CST MWS port|CST DES external port|CST DES block port)\s*(.+)\s* \(\"(.*)\"\)(\s*mode\s*([0-9]+))?.*
! Touchstone port assignment:
! Touchstone port 1 = CST MWS port 1 ("")
! Touchstone port 2 = CST MWS port 2 ("")
# GHz S MA R 50
1                      0.9975971       -10.10346     0.0004151118       -171.1961                0               0                0               0
1.00658                0.9975388       -10.19267     0.0004099786       -175.5873                0               0                0               0
1.01316                0.9974811       -10.28265     0.0004033104       -179.7454                0               0                0               0
1.01974                0.9974238       -10.37343     0.0003952013        176.3636                0               0                0               0
1.02632                 0.997366       -10.46506     0.0003857862        172.7808                0               0                0               0
1.03289                 0.997307       -10.55754     0.0003752515        169.5553                0               0                0               0
1.03947                0.9972461       -10.65092     0.0003638472        166.7444                0               0                0               0
1.04605                0.9971826       -10.74519     0.0003519033        164.4137                0               0                0               0
1.05263                0.9971156       -10.84038     0.0003398475        162.6348                0               0                0               0
1.05921                0.9970443       -10.93647     0.0003282241        161.4793                0               0                0               0
1.06579                0.9969679       -11.03347     0.0003177091        161.0085                0               0                0               0
1.07237                0.9968858       -11.13136     0.0003091114         161.255                0               0                0               0
1.07895                0.9967973       -11.23012     0.0003033478        162.1979                0               0                0               0
1.08553                 0.996702       -11.32974     0.0003013778        163.7386                0               0                0               0
1.09211                0.9965992       -11.43018      0.000304095        165.6887                0               0                0               0
1.09868                0.9964886       -11.53142     0.0003121952        167.7866                0               0                0               0
1.10526                0.9963701       -11.63342     0.0003260717        169.7447                0               0                0               0
1.11184                0.9962435       -11.73616     0.0003457794        171.3091                0               0                0               0
1.11842                0.9961087        -11.8396     0.0003710811        172.3032                0               0                0               0
1.125                  0.9959661       -11.94371     0.0004015441        172.6401                0               0                0               0
1.13158                0.9958158       -12.04847     0.0004366411        172.3081                0               0                0               0
1.13816                 0.995658       -12.15386     0.0004758265        171.3454                0               0                0               0
1.14474                0.9954934       -12.25985     0.0005185826        169.8162                0               0                0               0
1.15132                0.9953223       -12.36643     0.0005644383        167.7936                0               0                0               0
1.15789                0.9951453        -12.4736      0.000612974        165.3495                0               0                0               0
1.16447                 0.994963       -12.58136     0.0006638173        162.5498                0               0                0               0
1.17105                0.9947762       -12.68971     0.0007166363         159.452                0               0                0               0
1.17763                0.9945853       -12.79868     0.0007711321        156.1056                0               0                0               0
1.18421                0.9943911       -12.90827     0.0008270329        152.5524                0               0                0               0
1.19079                 0.994194       -13.01854     0.0008840874        148.8277                0               0                0               0
1.19737                0.9939948        -13.1295     0.0009420622        144.9611                0               0                0               0
1.20395                0.9937935        -13.2412      0.001000737        140.9779                0               0                0               0
1.21053                0.9935908        -13.3537      0.001059904        136.8992                0               0                0               0
1.21711                0.9933868       -13.46704      0.001119365        132.7431                0               0                0               0
1.22368                0.9931815       -13.58127       0.00117893        128.5253                0               0                0               0
1.23026                0.9929752       -13.69646      0.001238419        124.2591                0               0                0               0
1.23684                0.9927674       -13.81267      0.001297662        119.9564                0               0                0               0
1.24342                 0.992558       -13.92994      0.001356493        115.6274                0               0                0               0
1.25                   0.9923465       -14.04834       0.00141476        111.2814                0               0                0               0
1.25658                0.9921325       -14.16792      0.001472318        106.9266                0               0                0               0
1.26316                0.9919155       -14.28873      0.001529035        102.5704                0               0                0               0
1.26974                0.9916945       -14.41081      0.001584788        98.21982                0               0                0               0
1.27632                0.9914689       -14.53421      0.001639468        93.88099                0               0                0               0
1.28289                0.9912379       -14.65895      0.001692982        89.55979                0               0                0               0
1.28947                0.9910004       -14.78506      0.001745249         85.2617                0               0                0               0
1.29605                0.9907556       -14.91257      0.001796208        80.99186                0               0                0               0
1.30263                0.9905027       -15.04147      0.001845814        76.75515                0               0                0               0
1.30921                0.9902407       -15.17178      0.001894042        72.55618                0               0                0               0
1.31579                0.9899688        -15.3035      0.001940891        68.39935                0               0                0               0
1.32237                0.9896864       -15.43662       0.00198638        64.28879                0               0                0               0
1.32895                0.9893926       -15.57112      0.002030553        60.22845                0               0                0               0
1.33553                 0.989087         -15.707      0.002073481        56.22198                0               0                0               0
1.34211                0.9887692       -15.84422      0.002115261        52.27278                0               0                0               0
1.34868                0.9884387       -15.98278      0.002156019        48.38392                0               0                0               0
1.35526                0.9880956       -16.12264       0.00219591        44.55813                0               0                0               0
1.36184                0.9877395       -16.26379      0.002235118        40.79769                0               0                0               0
1.36842                0.9873706       -16.40621      0.002273857        37.10444                0               0                0               0
1.375                  0.9869892       -16.54988      0.002312372        33.47963                0               0                0               0
1.38158                0.9865955       -16.69481      0.002350936        29.92391                0               0                0               0
1.38816                0.9861899       -16.84097      0.002389849        26.43721                0               0                0               0
1.39474                 0.985773       -16.98837      0.002429436        23.01871                0               0                0               0
1.40132                0.9853453       -17.13703      0.002470046        19.66674                0               0                0               0
1.40789                0.9849071       -17.28697      0.002512044        16.37873                0               0                0               0
1.41447                0.9844597       -17.43822      0.002555811        13.15121                0               0                0               0
1.42105                0.9840031       -17.59081      0.002601737        9.979791                0               0                0               0
1.42763                0.9835381       -17.74479      0.002650213        6.859181                0               0                0               0
1.43421                0.9830653       -17.90023      0.002701628        3.783247                0               0                0               0
1.44079                 0.982585       -18.05718      0.002756359        0.745117                0               0                0               0
1.44737                0.9820976       -18.21573      0.002814769       -2.262699                0               0                0               0
1.45395                0.9816034       -18.37596      0.002877194       -5.248153                0               0                0               0
1.46053                0.9811024       -18.53795      0.002943941       -8.219475                0               0                0               0
1.46711                0.9805945        -18.7018       0.00301528       -11.18498                0               0                0               0
1.47368                0.9800795       -18.86761      0.003091444       -14.15285                0               0                0               0
1.48026                0.9795568       -19.03548      0.003172617         -17.131                0               0                0               0
1.48684                0.9790262       -19.20551      0.003258943        -20.1268                0               0                0               0
1.49342                0.9784866        -19.3778      0.003350513       -23.14703                0               0                0               0
1.5                    0.9779372       -19.55244      0.003447374       -26.19767                0               0                0               0
1.50658                0.9773768       -19.72955      0.003549524       -29.28389                0               0                0               0
1.51316                0.9768043       -19.90919       0.00365692       -32.40993                0               0                0               0
1.51974                0.9762184       -20.09147      0.003769475       -35.57912                0               0                0               0
1.52632                0.9756174       -20.27646      0.003887064       -38.79389                0               0                0               0
1.53289                    0.975       -20.46423       0.00400953       -42.05579                0               0                0               0
1.53947                0.9743644       -20.65485      0.004136684       -45.36558                0               0                0               0
1.54605                0.9737092       -20.84837      0.004268315       -48.72326                0               0                0               0
1.55263                0.9730324       -21.04483      0.004404185       -52.12818                0               0                0               0
1.55921                0.9723327       -21.24429      0.004544048       -55.57909                0               0                0               0
1.56579                0.9716086       -21.44678      0.004687639       -59.07428                0               0                0               0
1.57237                0.9708582       -21.65232      0.004834687        -62.6116                0               0                0               0
1.57895                0.9700802       -21.86094      0.004984919       -66.18856                0               0                0               0
1.58553                0.9692734       -22.07266      0.005138059       -69.80241                0               0                0               0
1.59211                0.9684364       -22.28749      0.005293837        -73.4502                0               0                0               0
1.59868                0.9675683       -22.50546       0.00545199       -77.12881                0               0                0               0
1.60526                0.9666677       -22.72659      0.005612265       -80.83502                0               0                0               0
1.61184                0.9657341        -22.9509      0.005774425       -84.56557                0               0                0               0
1.61842                0.9647666       -23.17841      0.005938249       -88.31716                0               0                0               0
1.625                  0.9637643       -23.40915      0.006103538       -92.08651                0               0                0               0
1.63158                0.9627268       -23.64317      0.006270115       -95.87036                0               0                0               0
1.63816                0.9616535       -23.88053      0.006437834       -99.66554                0               0                0               0
1.64474                0.9605439       -24.12126      0.006606576       -103.4689                0               0                0               0
1.65132                0.9593975       -24.36545      0.006776254       -107.2775                0               0                0               0
1.65789                0.9582136       -24.61318      0.006946821       -111.0885                0               0                0               0
1.66447                0.9569917       -24.86455      0.007118265        -114.899                0               0                0               0
1.67105                 0.955731       -25.11966      0.007290617       -118.7066                0               0                0               0
1.67763                 0.954431       -25.37863      0.007463949       -122.5088                0               0                0               0
1.68421                0.9530903       -25.64159      0.007638381       -126.3033                0               0                0               0
1.69079                0.9517079       -25.90869       0.00781408       -130.0883                0               0                0               0
1.69737                0.9502824       -26.18008       0.00799126       -133.8618                0               0                0               0
1.70395                0.9488123       -26.45591      0.008170187       -137.6223                0               0                0               0
1.71053                0.9472953       -26.73637      0.008351175       -141.3686                0               0                0               0
1.71711                0.9457295        -27.0216      0.008534591       -145.0997                0               0                0               0
1.72368                0.9441123        -27.3118       0.00872085       -148.8148                0               0                0               0
1.73026                0.9424408       -27.60714      0.008910416       -152.5135                0               0                0               0
1.73684                 0.940712       -27.90779      0.009103803       -156.1957                0               0                0               0
1.74342                0.9389225       -28.21392      0.009301565       -159.8617                0               0                0               0
1.75                   0.9370685        -28.5257      0.009504298       -163.5121                0               0                0               0
1.75658                0.9351461       -28.84329      0.009712637       -167.1477                0               0                0               0
1.76316                0.9331508       -29.16682      0.009927242       -170.7699                0               0                0               0
1.76974                0.9310786       -29.49645       0.01014881       -174.3803                0               0                0               0
1.77632                0.9289244       -29.83228       0.01037804       -177.9807                0               0                0               0
1.78289                0.9266834       -30.17444       0.01061566        178.4266                0               0                0               0
1.78947                0.9243509       -30.52301        0.0108624        174.8392                0               0                0               0
1.79605                0.9219217       -30.87807       0.01111897        171.2543                0               0                0               0
1.80263                0.9193905       -31.23968       0.01138609        167.6691                0               0                0               0
1.80921                0.9167523        -31.6079       0.01166443        164.0803                0               0                0               0
1.81579                0.9140021       -31.98275       0.01195467         160.485                0               0                0               0
1.82237                0.9111345       -32.36425       0.01225742        156.8797                0               0                0               0
1.82895                0.9081447       -32.75241       0.01257326        153.2612                0               0                0               0
1.83553                0.9050277       -33.14722       0.01290272        149.6264                0               0                0               0
1.84211                0.9017789       -33.54866       0.01324627         145.972                0               0                0               0
1.84868                0.8983933       -33.95672        0.0136043        142.2951                0               0                0               0
