! TOUCHSTONE file generated by CST MICROWAVE STUDIO
! Date and time: Tue Mar 11 13:56:41 2025
! Project name: transverse.cst
! Parameters = {Fracture=1; B=10; D=160; F=25; Feed=2.85625; L=100; M=20; R=0.384908; S=1; Theta=90; length=57.125; wave=114.25}
! Header version: 2024
! Port assignment regex: !\s*Touchstone port\s*([0-9]+)\s*=\s*(CST MWS port|CST DES external port|CST DES block port)\s*(.+)\s* \(\"(.*)\"\)(\s*mode\s*([0-9]+))?.*
! Touchstone port assignment:
! Touchstone port 1 = CST MWS port 1 ("")
! Touchstone port 2 = CST MWS port 2 ("")
# GHz S MA R 50
1                      0.9976273       -10.00132     0.0004978096        176.4203                0               0                0               0
1.00658                0.9975648       -10.08933     0.0004909836        171.3009                0               0                0               0
1.01316                0.9975029       -10.17804     0.0004822453        166.3648                0               0                0               0
1.01974                 0.997441       -10.26751     0.0004716436         161.637                0               0                0               0
1.02632                0.9973786       -10.35775     0.0004592575        157.1484                0               0                0               0
1.03289                0.9973152       -10.44878     0.0004452029        152.9377                0               0                0               0
1.03947                  0.99725       -10.54064     0.0004296419        149.0526                0               0                0               0
1.04605                0.9971824       -10.63334     0.0004127955        145.5522                0               0                0               0
1.05263                0.9971118       -10.72688     0.0003949606        142.5088                0               0                0               0
1.05921                0.9970374       -10.82126      0.000376532        140.0094                0               0                0               0
1.06579                0.9969587       -10.91649       0.00035803        138.1548                0               0                0               0
1.07237                0.9968748       -11.01257     0.0003401328         137.055                0               0                0               0
1.07895                0.9967855       -11.10946     0.0003237068        136.8153                0               0                0               0
1.08553                0.9966901       -11.20717     0.0003098201        137.5087                0               0                0               0
1.09211                0.9965883       -11.30566     0.0002997129        139.1323                0               0                0               0
1.09868                0.9964796       -11.40493     0.0002946895        141.5565                0               0                0               0
1.10526                0.9963639       -11.50493     0.0002959205        144.4969                0               0                0               0
1.11184                0.9962412       -11.60566      0.000304204        147.5469                0               0                0               0
1.11842                0.9961112       -11.70707     0.0003197982        150.2768                0               0                0               0
1.125                  0.9959742       -11.80916     0.0003424232        152.3467                0               0                0               0
1.13158                0.9958304       -11.91189     0.0003714143        153.5679                0               0                0               0
1.13816                0.9956799       -12.01526     0.0004059262        153.8942                0               0                0               0
1.14474                0.9955231       -12.11924     0.0004450931        153.3757                0               0                0               0
1.15132                0.9953605       -12.22383     0.0004881187        152.1101                0               0                0               0
1.15789                0.9951926       -12.32902     0.0005343071        150.2088                0               0                0               0
1.16447                0.9950196       -12.43482     0.0005830628        147.7783                0               0                0               0
1.17105                0.9948425       -12.54123     0.0006338765        144.9126                0               0                0               0
1.17763                0.9946613       -12.64828      0.000686308         141.691                0               0                0               0
1.18421                0.9944769       -12.75597     0.0007399708        138.1793                0               0                0               0
1.19079                0.9942898       -12.86434     0.0007945197        134.4313                0               0                0               0
1.19737                   0.9941       -12.97343     0.0008496401        130.4914                0               0                0               0
1.20395                0.9939083       -13.08327     0.0009050423        126.3957                0               0                0               0
1.21053                0.9937147        -13.1939     0.0009604548        122.1742                0               0                0               0
1.21711                0.9935195       -13.30538      0.001015622        117.8517                0               0                0               0
1.22368                0.9933227       -13.41775        0.0010703        113.4493                0               0                0               0
1.23026                0.9931242       -13.53106      0.001124258        108.9846                0               0                0               0
1.23684                0.9929239       -13.64538      0.001177275        104.4731                0               0                0               0
1.24342                0.9927214       -13.76075      0.001229139        99.92792                0               0                0               0
1.25                   0.9925165       -13.87721      0.001279651        95.36087                0               0                0               0
1.25658                0.9923085       -13.99483      0.001328622        90.78247                0               0                0               0
1.26316                0.9920969       -14.11365      0.001375873        86.20226                0               0                0               0
1.26974                 0.991881        -14.2337      0.001421242        81.62909                0               0                0               0
1.27632                0.9916598       -14.35503      0.001464578         77.0712                0               0                0               0
1.28289                0.9914329       -14.47765      0.001505747        72.53645                0               0                0               0
1.28947                0.9911989        -14.6016      0.001544633        68.03243                0               0                0               0
1.29605                0.9909573       -14.72689       0.00158114        63.56651                0               0                0               0
1.30263                0.9907071       -14.85352      0.001615195        59.14602                0               0                0               0
1.30921                0.9904475       -14.98151      0.001646747        54.77822                0               0                0               0
1.31579                0.9901776       -15.11084      0.001675775        50.47042                0               0                0               0
1.32237                0.9898967       -15.24151      0.001702286        46.22999                0               0                0               0
1.32895                0.9896042       -15.37351       0.00172632        42.06437                0               0                0               0
1.33553                0.9892993        -15.5068      0.001747956         37.9811                0               0                0               0
1.34211                0.9889818       -15.64137       0.00176731        33.98778                0               0                0               0
1.34868                0.9886513       -15.77719      0.001784543        30.09197                0               0                0               0
1.35526                0.9883075       -15.91425      0.001799861        26.30119                0               0                0               0
1.36184                0.9879503        -16.0525      0.001813524        22.62268                0               0                0               0
1.36842                0.9875801       -16.19193      0.001825841        19.06332                0               0                0               0
1.375                  0.9871968       -16.33252       0.00183718        15.62932                0               0                0               0
1.38158                0.9868007       -16.47424      0.001847966        12.32598                0               0                0               0
1.38816                0.9863924        -16.6171      0.001858679        9.157279                0               0                0               0
1.39474                0.9859724       -16.76107       0.00186986        6.125543                0               0                0               0
1.40132                0.9855411       -16.90618        0.0018821         3.23096                0               0                0               0
1.40789                0.9850995       -17.05242      0.001896038       0.4711616                0               0                0               0
1.41447                 0.984648       -17.19982      0.001912352       -2.159188                0               0                0               0
1.42105                0.9841875        -17.3484      0.001931743       -4.668715                0               0                0               0
1.42763                0.9837188       -17.49822      0.001954923       -7.069509                0               0                0               0
1.43421                0.9832423       -17.64932      0.001982595       -9.377097                0               0                0               0
1.44079                0.9827588       -17.80176      0.002015433       -11.61017                0               0                0               0
1.44737                0.9822688        -17.9556      0.002054063       -13.79005                0               0                0               0
1.45395                0.9817727       -18.11094       0.00209904       -15.93989                0               0                0               0
1.46053                0.9812708       -18.26785      0.002150832       -18.08376                0               0                0               0
1.46711                0.9807631       -18.42642       0.00220981       -20.24554                0               0                0               0
1.47368                0.9802497       -18.58675      0.002276232        -22.4479                0               0                0               0
1.48026                0.9797304       -18.74895      0.002350252        -24.7114                0               0                0               0
1.48684                0.9792049       -18.91311      0.002431908       -27.05377                0               0                0               0
1.49342                0.9786725       -19.07935      0.002521139       -29.48946                0               0                0               0
1.5                    0.9781323       -19.24776      0.002617793       -32.02941                0               0                0               0
1.50658                0.9775836       -19.41845      0.002721635        -34.6812                0               0                0               0
1.51316                0.9770253       -19.59152      0.002832363       -37.44914                0               0                0               0
1.51974                0.9764561       -19.76706      0.002949621       -40.33475                0               0                0               0
1.52632                0.9758746       -19.94517      0.003073009       -43.33709                0               0                0               0
1.53289                0.9752791       -20.12592      0.003202094       -46.45327                0               0                0               0
1.53947                0.9746682       -20.30938       0.00333642       -49.67887                0               0                0               0
1.54605                0.9740401       -20.49563      0.003475519       -53.00831                0               0                0               0
1.55263                0.9733933       -20.68472      0.003618911       -56.43518                0               0                0               0
1.55921                0.9727257        -20.8767      0.003766116       -59.95259                0               0                0               0
1.56579                0.9720356        -21.0716      0.003916653       -63.55333                0               0                0               0
1.57237                0.9713213       -21.26946       0.00407005       -67.23007                0               0                0               0
1.57895                0.9705812        -21.4703      0.004225843       -70.97552                0               0                0               0
1.58553                0.9698136       -21.67414       0.00438358       -74.78249                0               0                0               0
1.59211                 0.969017       -21.88099      0.004542821       -78.64395                0               0                0               0
1.59868                0.9681901       -22.09085      0.004703147       -82.55314                0               0                0               0
1.60526                0.9673314       -22.30373      0.004864158       -86.50353                0               0                0               0
1.61184                0.9664399       -22.51963      0.005025473       -90.48886                0               0                0               0
1.61842                0.9655145       -22.73855       0.00518674       -94.50313                0               0                0               0
1.625                  0.9645543        -22.9605      0.005347628       -98.54063                0               0                0               0
1.63158                0.9635585       -23.18548      0.005507843       -102.5959                0               0                0               0
1.63816                0.9625266        -23.4135      0.005667119       -106.6637                0               0                0               0
1.64474                0.9614581       -23.64458      0.005825227       -110.7391                0               0                0               0
1.65132                0.9603523       -23.87875      0.005981974       -114.8174                0               0                0               0
1.65789                 0.959209       -24.11605      0.006137213        -118.894                0               0                0               0
1.66447                0.9580278       -24.35651      0.006290838       -122.9647                0               0                0               0
1.67105                0.9568086       -24.60019      0.006442794       -127.0255                0               0                0               0
1.67763                0.9555508       -24.84717      0.006593076       -131.0724                0               0                0               0
1.68421                0.9542542       -25.09751      0.006741735       -135.1018                0               0                0               0
1.69079                0.9529183       -25.35132      0.006888876       -139.1105                0               0                0               0
1.69737                0.9515427        -25.6087      0.007034672       -143.0952                0               0                0               0
1.70395                0.9501266       -25.86976      0.007179353       -147.0531                0               0                0               0
1.71053                0.9486694       -26.13463       0.00732322       -150.9816                0               0                0               0
1.71711                0.9471698       -26.40344      0.007466637       -154.8786                0               0                0               0
1.72368                 0.945627       -26.67635      0.007610043        -158.742                0               0                0               0
1.73026                0.9440393       -26.95349      0.007753943       -162.5704                0               0                0               0
1.73684                0.9424051       -27.23505      0.007898913       -166.3626                0               0                0               0
1.74342                0.9407228       -27.52118      0.008045599       -170.1181                0               0                0               0
1.75                     0.93899       -27.81204      0.008194711       -173.8367                0               0                0               0
1.75658                0.9372044       -28.10782      0.008347025       -177.5186                0               0                0               0
1.76316                0.9353633       -28.40867      0.008503372         178.835                0               0                0               0
1.76974                0.9334641       -28.71477      0.008664635        175.2229                0               0                0               0
1.77632                0.9315035       -29.02629      0.008831744        171.6428                0               0                0               0
1.78289                 0.929478       -29.34339      0.009005657        168.0921                0               0                0               0
1.78947                0.9273843       -29.66623      0.009187363        164.5676                0               0                0               0
1.79605                0.9252185       -29.99496      0.009377859        161.0655                0               0                0               0
1.80263                0.9229767       -30.32972      0.009578144        157.5815                0               0                0               0
1.80921                0.9206549       -30.67066      0.009789204        154.1108                0               0                0               0
1.81579                 0.918249        -31.0179       0.01001199        150.6483                0               0                0               0
1.82237                0.9157544       -31.37159       0.01024743        147.1888                0               0                0               0
1.82895                0.9131669       -31.73182       0.01049638        143.7265                0               0                0               0
1.83553                0.9104819       -32.09871       0.01075964        140.2559                0               0                0               0
1.84211                0.9076948       -32.47238       0.01103794        136.7712                0               0                0               0
1.84868                0.9048011       -32.85291       0.01133189        133.2671                0               0                0               0
