! TOUCHSTONE file generated by CST MICROWAVE STUDIO
! Date and time: Tue Mar 11 13:56:30 2025
! Project name: transverse.cst
! Parameters = {Fracture=1; B=10; D=160; F=5; Feed=2.85625; L=100; M=10; R=0.384908; S=1; Theta=90; length=57.125; wave=114.25}
! Header version: 2024
! Port assignment regex: !\s*Touchstone port\s*([0-9]+)\s*=\s*(CST MWS port|CST DES external port|CST DES block port)\s*(.+)\s* \(\"(.*)\"\)(\s*mode\s*([0-9]+))?.*
! Touchstone port assignment:
! Touchstone port 1 = CST MWS port 1 ("")
! Touchstone port 2 = CST MWS port 2 ("")
# GHz S MA R 50
1                       0.997914       -9.990278     0.0003151287        -113.517                0               0                0               0
1.00658                0.9978328       -10.08091     0.0003409113       -119.1882                0               0                0               0
1.01316                0.9977436       -10.17198     0.0003657616       -124.8489                0               0                0               0
1.01974                0.9976471       -10.26345     0.0003895426       -130.4927                0               0                0               0
1.02632                0.9975437       -10.35526     0.0004121189       -136.1143                0               0                0               0
1.03289                0.9974343       -10.44739     0.0004333574       -141.7088                0               0                0               0
1.03947                0.9973195        -10.5398     0.0004531277        -147.272                0               0                0               0
1.04605                0.9972006       -10.63248     0.0004713039       -152.7993                0               0                0               0
1.05263                0.9970786       -10.72541     0.0004877642       -158.2864                0               0                0               0
1.05921                0.9969544        -10.8186     0.0005023924       -163.7284                0               0                0               0
1.06579                0.9968294       -10.91206     0.0005150789       -169.1203                0               0                0               0
1.07237                0.9967045       -11.00582     0.0005257213       -174.4564                0               0                0               0
1.07895                0.9965811       -11.09991     0.0005342261       -179.7302                0               0                0               0
1.08553                0.9964597       -11.19438     0.0005405085        175.0656                0               0                0               0
1.09211                0.9963414       -11.28929     0.0005444954        169.9396                0               0                0               0
1.09868                 0.996227       -11.38471     0.0005461258        164.9018                0               0                0               0
1.10526                0.9961168       -11.48072     0.0005453527        159.9641                0               0                0               0
1.11184                0.9960115       -11.57739     0.0005421455        155.1406                0               0                0               0
1.11842                0.9959111        -11.6748     0.0005364918        150.4484                0               0                0               0
1.125                  0.9958155       -11.77306     0.0005284012        145.9083                0               0                0               0
1.13158                0.9957245       -11.87223     0.0005179092        141.5455                0               0                0               0
1.13816                0.9956375       -11.97242     0.0005050824        137.3916                0               0                0               0
1.14474                0.9955539        -12.0737     0.0004900255        133.4853                0               0                0               0
1.15132                0.9954729       -12.17615     0.0004728914        129.8755                0               0                0               0
1.15789                0.9953933       -12.27983     0.0004538942        126.6234                0               0                0               0
1.16447                 0.995314       -12.38482     0.0004333283        123.8058                0               0                0               0
1.17105                0.9952337       -12.49114     0.0004115937        121.5187                0               0                0               0
1.17763                0.9951507       -12.59886     0.0003892313        119.8796                0               0                0               0
1.18421                0.9950638       -12.70799      0.000366969        119.0277                0               0                0               0
1.19079                0.9949712       -12.81854     0.0003457744        119.1149                0               0                0               0
1.19737                0.9948717       -12.93052     0.0003269046        120.2811                0               0                0               0
1.20395                0.9947635       -13.04391     0.0003119143        122.6021                0               0                0               0
1.21053                0.9946456       -13.15869     0.0003025671        126.0103                0               0                0               0
1.21711                0.9945165       -13.27484     0.0003005835        130.2193                0               0                0               0
1.22368                0.9943752       -13.39229     0.0003072547        134.7255                0               0                0               0
1.23026                0.9942207       -13.51101     0.0003231003        138.9369                0               0                0               0
1.23684                0.9940523       -13.63093     0.0003477988        142.3645                0               0                0               0
1.24342                0.9938695         -13.752     0.0003804201        144.7413                0               0                0               0
1.25                    0.993672       -13.87415     0.0004197714        146.0148                0               0                0               0
1.25658                0.9934596       -13.99731     0.0004646621        146.2693                0               0                0               0
1.26316                0.9932327       -14.12142      0.000514036        145.6478                0               0                0               0
1.26974                0.9929914       -14.24643     0.0005670048        144.3025                0               0                0               0
1.27632                0.9927365       -14.37228     0.0006228338        142.3719                0               0                0               0
1.28289                0.9924686       -14.49893     0.0006809138        139.9728                0               0                0               0
1.28947                0.9921887       -14.62636     0.0007407315        137.2008                0               0                0               0
1.29605                0.9918979       -14.75453     0.0008018464        134.1326                0               0                0               0
1.30263                0.9915973       -14.88344     0.0008638728        130.8298                0               0                0               0
1.30921                0.9912881        -15.0131     0.0009264674        127.3418                0               0                0               0
1.31579                0.9909714       -15.14353     0.0009893196        123.7089                0               0                0               0
1.32237                0.9906486       -15.27477      0.001052147        119.9637                0               0                0               0
1.32895                0.9903207       -15.40685       0.00111469        116.1333                0               0                0               0
1.33553                0.9899888       -15.53985      0.001176711        112.2405                0               0                0               0
1.34211                0.9896537       -15.67385      0.001237994        108.3045                0               0                0               0
1.34868                 0.989316       -15.80892      0.001298342        104.3419                0               0                0               0
1.35526                0.9889765       -15.94517      0.001357582        100.3673                0               0                0               0
1.36184                0.9886353       -16.08269      0.001415559        96.39332                0               0                0               0
1.36842                0.9882923        -16.2216      0.001472149         92.4316                0               0                0               0
1.375                  0.9879474       -16.36201      0.001527251        88.49253                0               0                0               0
1.38158                0.9876001       -16.50402      0.001580792         84.5857                0               0                0               0
1.38816                0.9872495       -16.64776      0.001632734        80.71995                0               0                0               0
1.39474                0.9868948       -16.79333      0.001683072        76.90352                0               0                0               0
1.40132                0.9865344       -16.94082      0.001731839        73.14407                0               0                0               0
1.40789                0.9861671       -17.09033       0.00177911        69.44874                0               0                0               0
1.41447                0.9857912       -17.24193      0.001825003        65.82409                0               0                0               0
1.42105                0.9854047       -17.39569      0.001869682        62.27608                0               0                0               0
1.42763                0.9850058       -17.55167      0.001913363        58.81001                0               0                0               0
1.43421                0.9845923       -17.70989      0.001956311        55.43038                0               0                0               0
1.44079                0.9841624        -17.8704      0.001998847        52.14077                0               0                0               0
1.44737                0.9837139       -18.03318      0.002041344        48.94369                0               0                0               0
1.45395                 0.983245       -18.19823      0.002084227        45.84038                0               0                0               0
1.46053                0.9827537       -18.36554      0.002127974        42.83067                0               0                0               0
1.46711                0.9822383       -18.53506      0.002173109        39.91276                0               0                0               0
1.47368                0.9816974       -18.70675      0.002220198        37.08314                0               0                0               0
1.48026                0.9811296       -18.88055      0.002269842        34.33643                0               0                0               0
1.48684                0.9805339       -19.05639      0.002322666        31.66537                0               0                0               0
1.49342                0.9799096       -19.23422      0.002379306        29.06086                0               0                0               0
1.5                    0.9792559       -19.41396      0.002440403        26.51209                0               0                0               0
1.50658                0.9785729       -19.59553       0.00250658        24.00682                0               0                0               0
1.51316                0.9778606       -19.77889      0.002578438        21.53165                0               0                0               0
1.51974                0.9771192       -19.96396      0.002656533        19.07248                0               0                0               0
1.52632                0.9763496        -20.1507      0.002741371        16.61494                0               0                0               0
1.53289                0.9755521       -20.33907      0.002833392        14.14489                0               0                0               0
1.53947                0.9747283       -20.52906       0.00293297        11.64886                0               0                0               0
1.54605                 0.973879       -20.72066      0.003040398         9.11448                0               0                0               0
1.55263                0.9730055       -20.91387      0.003155894        6.530784                0               0                0               0
1.55921                0.9721091       -21.10875      0.003279598        3.888455                0               0                0               0
1.56579                0.9711914       -21.30533      0.003411573        1.179965                0               0                0               0
1.57237                0.9702531        -21.5037      0.003551813       -1.600406                0               0                0               0
1.57895                0.9692957       -21.70396      0.003700247       -4.456606                0               0                0               0
1.58553                0.9683202       -21.90621      0.003856747       -7.390928                0               0                0               0
1.59211                0.9673272        -22.1106      0.004021133       -10.40417                0               0                0               0
1.59868                0.9663174       -22.31727      0.004193187       -13.49582                0               0                0               0
1.60526                0.9652904       -22.52639      0.004372649       -16.66426                0               0                0               0
1.61184                0.9642466       -22.73813      0.004559236       -19.90695                0               0                0               0
1.61842                 0.963185       -22.95269      0.004752641       -23.22064                0               0                0               0
1.625                  0.9621051       -23.17026      0.004952543       -26.60153                0               0                0               0
1.63158                0.9610049       -23.39102       0.00515861        -30.0454                0               0                0               0
1.63816                 0.959883       -23.61518      0.005370505       -33.54777                0               0                0               0
1.64474                0.9587371        -23.8429      0.005587892       -37.10399                0               0                0               0
1.65132                0.9575644       -24.07439      0.005810443       -40.70934                0               0                0               0
1.65789                0.9563623       -24.30979      0.006037836       -44.35908                0               0                0               0
1.66447                0.9551273       -24.54927      0.006269763       -48.04857                0               0                0               0
1.67105                0.9538557       -24.79295      0.006505934       -51.77323                0               0                0               0
1.67763                0.9525441       -25.04095      0.006746083       -55.52861                0               0                0               0
1.68421                0.9511884       -25.29335      0.006989964       -59.31046                0               0                0               0
1.69079                0.9497844       -25.55022      0.007237364       -63.11468                0               0                0               0
1.69737                0.9483282       -25.81161      0.007488102       -66.93739                0               0                0               0
1.70395                0.9468158       -26.07753      0.007742029        -70.7749                0               0                0               0
1.71053                0.9452431       -26.34798      0.007999041       -74.62375                0               0                0               0
1.71711                0.9436063       -26.62293      0.008259073       -78.48072                0               0                0               0
1.72368                 0.941902       -26.90235      0.008522106       -82.34279                0               0                0               0
1.73026                0.9401267       -27.18615      0.008788169       -86.20721                0               0                0               0
1.73684                0.9382776       -27.47427      0.009057344       -90.07147                0               0                0               0
1.74342                0.9363519       -27.76662      0.009329763        -93.9333                0               0                0               0
1.75                   0.9343475       -28.06309       0.00960562       -97.79072                0               0                0               0
1.75658                0.9322623        -28.3636      0.009885156        -101.642                0               0                0               0
1.76316                 0.930095       -28.66803       0.01016868       -105.4856                0               0                0               0
1.76974                0.9278445        -28.9763       0.01045655       -109.3205                0               0                0               0
1.77632                0.9255101       -29.28833       0.01074919       -113.1456                0               0                0               0
1.78289                0.9230915       -29.60403       0.01104708       -116.9605                0               0                0               0
1.78947                0.9205887       -29.92338       0.01135075       -120.7648                0               0                0               0
1.79605                0.9180019       -30.24634       0.01166079       -124.5584                0               0                0               0
1.80263                0.9153314       -30.57291       0.01197783       -128.3418                0               0                0               0
1.80921                0.9125778       -30.90312       0.01230256       -132.1153                0               0                0               0
1.81579                0.9097418       -31.23703        0.0126357         -135.88                0               0                0               0
1.82237                0.9068237       -31.57473       0.01297801       -139.6369                0               0                0               0
1.82895                0.9038239       -31.91636       0.01333027       -143.3874                0               0                0               0
1.83553                0.9007428       -32.26208        0.0136933       -147.1331                0               0                0               0
1.84211                  0.89758       -32.61208        0.0140679        -150.876                0               0                0               0
1.84868                 0.894335       -32.96659       0.01445491        -154.618                0               0                0               0
