! TOUCHSTONE file generated by CST MICROWAVE STUDIO
! Date and time: Tue Mar 11 13:57:56 2025
! Project name: transverse.cst
! Parameters = {Fracture=5; B=10; D=160; F=15; Feed=2.85625; L=100; M=20; R=0.384908; S=1; Theta=270; length=57.125; wave=114.25}
! Header version: 2024
! Port assignment regex: !\s*Touchstone port\s*([0-9]+)\s*=\s*(CST MWS port|CST DES external port|CST DES block port)\s*(.+)\s* \(\"(.*)\"\)(\s*mode\s*([0-9]+))?.*
! Touchstone port assignment:
! Touchstone port 1 = CST MWS port 1 ("")
! Touchstone port 2 = CST MWS port 2 ("")
# GHz S MA R 50
1                      0.9977425       -9.750007     0.0004118955       -159.2577                0               0                0               0
1.00658                0.9976428       -9.837314     0.0004151853        -163.912                0               0                0               0
1.01316                0.9975401       -9.924931     0.0004171578        -168.441                0               0                0               0
1.01974                0.9974353       -10.01286     0.0004178167       -172.8312                0               0                0               0
1.02632                0.9973292       -10.10111     0.0004171823       -177.0665                0               0                0               0
1.03289                0.9972223       -10.18971     0.0004152941        178.8711                0               0                0               0
1.03947                0.9971155       -10.27867     0.0004122152        175.0025                0               0                0               0
1.04605                0.9970094       -10.36803     0.0004080355        171.3514                0               0                0               0
1.05263                0.9969047       -10.45784     0.0004028768        167.9446                0               0                0               0
1.05921                0.9968016       -10.54815     0.0003968982        164.8114                0               0                0               0
1.06579                0.9967005       -10.63899     0.0003903024        161.9838                0               0                0               0
1.07237                0.9966018       -10.73044     0.0003833428        159.4951                0               0                0               0
1.07895                0.9965055       -10.82255     0.0003763286        157.3777                0               0                0               0
1.08553                0.9964112       -10.91537     0.0003696311        155.6603                0               0                0               0
1.09211                0.9963193       -11.00898     0.0003636846        154.3631                0               0                0               0
1.09868                0.9962287       -11.10343      0.000358982        153.4913                0               0                0               0
1.10526                0.9961394       -11.19876     0.0003560614        153.0284                0               0                0               0
1.11184                0.9960505       -11.29504     0.0003554806        152.9296                0               0                0               0
1.11842                0.9959615        -11.3923     0.0003577803        153.1183                0               0                0               0
1.125                  0.9958713       -11.49059     0.0003634385        153.4888                0               0                0               0
1.13158                0.9957791       -11.58994     0.0003728268        153.9156                0               0                0               0
1.13816                 0.995684       -11.69036     0.0003861771        154.2683                0               0                0               0
1.14474                0.9955847       -11.79187     0.0004035693        154.4283                0               0                0               0
1.15132                0.9954805       -11.89448     0.0004249412        154.3014                0               0                0               0
1.15789                0.9953703       -11.99819     0.0004501142        153.8248                0               0                0               0
1.16447                0.9952534       -12.10297     0.0004788276        152.9663                0               0                0               0
1.17105                0.9951287       -12.20882     0.0005107708        151.7201                0               0                0               0
1.17763                0.9949956        -12.3157      0.000545611        150.0989                0               0                0               0
1.18421                0.9948533       -12.42358     0.0005830109        148.1278                0               0                0               0
1.19079                0.9947016       -12.53244      0.000622641        145.8385                0               0                0               0
1.19737                0.9945401       -12.64222     0.0006641857        143.2651                0               0                0               0
1.20395                0.9943685        -12.7529     0.0007073448        140.4414                0               0                0               0
1.21053                0.9941869       -12.86443     0.0007518354        137.3996                0               0                0               0
1.21711                0.9939953       -12.97677     0.0007973889        134.1696                0               0                0               0
1.22368                0.9937943       -13.08989     0.0008437519        130.7782                0               0                0               0
1.23026                 0.993584       -13.20376      0.000890683        127.2495                0               0                0               0
1.23684                0.9933652       -13.31836     0.0009379527        123.6052                0               0                0               0
1.24342                0.9931385       -13.43367     0.0009853421        119.8644                0               0                0               0
1.25                   0.9929046       -13.54969      0.001032642        116.0443                0               0                0               0
1.25658                0.9926642       -13.66641      0.001079653        112.1602                0               0                0               0
1.26316                0.9924185       -13.78385      0.001126186        108.2259                0               0                0               0
1.26974                 0.992168       -13.90203      0.001172062         104.254                0               0                0               0
1.27632                0.9919136       -14.02099      0.001217113        100.2557                0               0                0               0
1.28289                0.9916562       -14.14078      0.001261182        96.24173                0               0                0               0
1.28947                0.9913962       -14.26143      0.001304124        92.22179                0               0                0               0
1.29605                0.9911344       -14.38301      0.001345811        88.20508                0               0                0               0
1.30263                0.9908711        -14.5056      0.001386128         84.2003                0               0                0               0
1.30921                0.9906066       -14.62926      0.001424979        80.21575                0               0                0               0
1.31579                 0.990341       -14.75408      0.001462287        76.25944                0               0                0               0
1.32237                0.9900741       -14.88013      0.001497996        72.33911                0               0                0               0
1.32895                0.9898058        -15.0075      0.001532075        68.46235                0               0                0               0
1.33553                0.9895353       -15.13628      0.001564519        64.63652                0               0                0               0
1.34211                0.9892624       -15.26654      0.001595353        60.86886                0               0                0               0
1.34868                0.9889859       -15.39836      0.001624633        57.16642                0               0                0               0
1.35526                0.9887049       -15.53181      0.001652449        53.53605                0               0                0               0
1.36184                0.9884184       -15.66695      0.001678931        49.98432                0               0                0               0
1.36842                0.9881249       -15.80383      0.001704248        46.51746                0               0                0               0
1.375                  0.9878233        -15.9425      0.001728612        43.14123                0               0                0               0
1.38158                0.9875121         -16.083       0.00175228        39.86075                0               0                0               0
1.38816                0.9871898       -16.22534      0.001775558        36.68035                0               0                0               0
1.39474                0.9868552       -16.36954      0.001798795        33.60331                0               0                0               0
1.40132                0.9865065        -16.5156      0.001822391        30.63165                0               0                0               0
1.40789                 0.986143       -16.66352      0.001846791        27.76589                0               0                0               0
1.41447                0.9857631       -16.81327      0.001872482        25.00475                0               0                0               0
1.42105                0.9853657       -16.96482      0.001899987        22.34491                0               0                0               0
1.42763                0.9849501       -17.11815      0.001929862         19.7809                0               0                0               0
1.43421                0.9845156       -17.27323      0.001962681        17.30486                0               0                0               0
1.44079                0.9840613          -17.43      0.001999028        14.90666                0               0                0               0
1.44737                0.9835874       -17.58842      0.002039488        12.57393                0               0                0               0
1.45395                0.9830932       -17.74847      0.002084624        10.29233                0               0                0               0
1.46053                0.9825793       -17.91009      0.002134972        8.046002                0               0                0               0
1.46711                0.9820457       -18.07327      0.002191024         5.81803                0               0                0               0
1.47368                0.9814927       -18.23797      0.002253213         3.59107                0               0                0               0
1.48026                0.9809212       -18.40418      0.002321909         1.34799                0               0                0               0
1.48684                0.9803318        -18.5719      0.002397409      -0.9275153                0               0                0               0
1.49342                0.9797254       -18.74114      0.002479934       -3.250371                0               0                0               0
1.5                    0.9791027       -18.91192      0.002569625       -5.633688                0               0                0               0
1.50658                0.9784648       -19.08428      0.002666552       -8.088455                0               0                0               0
1.51316                0.9778126       -19.25827      0.002770711       -10.62338                0               0                0               0
1.51974                0.9771468       -19.43397      0.002882034       -13.24489                0               0                0               0
1.52632                0.9764683       -19.61145      0.003000396       -15.95716                0               0                0               0
1.53289                0.9757777       -19.79081      0.003125621       -18.76236                0               0                0               0
1.53947                0.9750754       -19.97216      0.003257494       -21.66082                0               0                0               0
1.54605                0.9743616       -20.15563      0.003395764       -24.65137                0               0                0               0
1.55263                0.9736363       -20.34135      0.003540152       -27.73151                0               0                0               0
1.55921                0.9728994       -20.52945      0.003690362       -30.89775                0               0                0               0
1.56579                  0.97215       -20.72008       0.00384608       -34.14581                0               0                0               0
1.57237                0.9713876       -20.91339      0.004006987       -37.47086                0               0                0               0
1.57895                0.9706108       -21.10952      0.004172757       -40.86765                0               0                0               0
1.58553                0.9698183       -21.30863      0.004343065       -44.33071                0               0                0               0
1.59211                0.9690082       -21.51086      0.004517593       -47.85444                0               0                0               0
1.59868                0.9681787       -21.71634      0.004696026       -51.43324                0               0                0               0
1.60526                0.9673274       -21.92519      0.004878063       -55.06153                0               0                0               0
1.61184                 0.966452       -22.13753      0.005063418       -58.73388                0               0                0               0
1.61842                0.9655497       -22.35345      0.005251821         -62.445                0               0                0               0
1.625                  0.9646178       -22.57305      0.005443024       -66.18977                0               0                0               0
1.63158                0.9636533       -22.79639      0.005636801        -69.9633                0               0                0               0
1.63816                0.9626535       -23.02354      0.005832952       -73.76092                0               0                0               0
1.64474                0.9616153       -23.25451       0.00603131       -77.57818                0               0                0               0
1.65132                 0.960536       -23.48934      0.006231737       -81.41088                0               0                0               0
1.65789                0.9594126       -23.72804      0.006434131       -85.25507                0               0                0               0
1.66447                0.9582427       -23.97059      0.006638431       -89.10703                0               0                0               0
1.67105                0.9570236       -24.21698      0.006844614       -92.96334                0               0                0               0
1.67763                0.9557531       -24.46719      0.007052702       -96.82079                0               0                0               0
1.68421                0.9544291       -24.72117      0.007262766       -100.6765                0               0                0               0
1.69079                  0.95305       -24.97889      0.007474924       -104.5277                0               0                0               0
1.69737                0.9516142       -25.24031      0.007689347       -108.3722                0               0                0               0
1.70395                0.9501203       -25.50539      0.007906253       -112.2077                0               0                0               0
1.71053                0.9485676       -25.77409      0.008125927       -116.0326                0               0                0               0
1.71711                0.9469549       -26.04638      0.008348697       -119.8454                0               0                0               0
1.72368                0.9452821       -26.32226      0.008574956       -123.6449                0               0                0               0
1.73026                0.9435486       -26.60172       0.00880515       -127.4302                0               0                0               0
1.73684                0.9417544       -26.88478      0.009039779        -131.201                0               0                0               0
1.74342                0.9398994       -27.17147      0.009279399        -134.957                0               0                0               0
1.75                   0.9379835       -27.46184      0.009524616       -138.6984                0               0                0               0
1.75658                0.9360068       -27.75599      0.009776086       -142.4258                0               0                0               0
1.76316                0.9339691       -28.05399       0.01003451       -146.1402                0               0                0               0
1.76974                0.9318704       -28.35599       0.01030061       -149.8426                0               0                0               0
1.77632                0.9297101       -28.66213       0.01057517       -153.5349                0               0                0               0
1.78289                0.9274877       -28.97258       0.01085899       -157.2187                0               0                0               0
1.78947                0.9252022       -29.28753       0.01115288       -160.8963                0               0                0               0
1.79605                0.9228525       -29.60721       0.01145766       -164.5701                0               0                0               0
1.80263                0.9204368       -29.93183       0.01177417       -168.2429                0               0                0               0
1.80921                0.9179527       -30.26164       0.01210322       -171.9174                0               0                0               0
1.81579                0.9153978        -30.5969       0.01244561       -175.5966                0               0                0               0
1.82237                0.9127688       -30.93788       0.01280214       -179.2837                0               0                0               0
1.82895                0.9100621       -31.28483       0.01317355        177.0183                0               0                0               0
1.83553                0.9072733       -31.63803       0.01356054        173.3061                0               0                0               0
1.84211                0.9043976       -31.99774       0.01396376        169.5768                0               0                0               0
1.84868                0.9014298        -32.3642       0.01438382        165.8271                0               0                0               0
