! TOUCHSTONE file generated by CST MICROWAVE STUDIO
! Date and time: Tue Mar 11 13:55:53 2025
! Project name: transverse.cst
! Parameters = {Fracture=1; B=10; D=160; F=15; Feed=2.85625; L=100; M=30; R=0.384908; S=1; Theta=0; length=57.125; wave=114.25}
! Header version: 2024
! Port assignment regex: !\s*Touchstone port\s*([0-9]+)\s*=\s*(CST MWS port|CST DES external port|CST DES block port)\s*(.+)\s* \(\"(.*)\"\)(\s*mode\s*([0-9]+))?.*
! Touchstone port assignment:
! Touchstone port 1 = CST MWS port 1 ("")
! Touchstone port 2 = CST MWS port 2 ("")
# GHz S MA R 50
1                      0.9974649         -10.017     0.0005509959        174.0564                0               0                0               0
1.0066                 0.9973869       -10.10445     0.0005464738        167.7657                0               0                0               0
1.0132                 0.9973119       -10.19247     0.0005395458        161.5517                0               0                0               0
1.0198                 0.9972399       -10.28113     0.0005301573        155.4182                0               0                0               0
1.0264                 0.9971705       -10.37048     0.0005182633        149.3705                0               0                0               0
1.033                  0.9971034       -10.46057     0.0005038298        143.4165                0               0                0               0
1.0396                 0.9970381       -10.55147     0.0004868343        137.5673                0               0                0               0
1.0462                 0.9969741       -10.64321     0.0004672674         131.838                0               0                0               0
1.05281                0.9969104       -10.73584     0.0004451343        126.2495                0               0                0               0
1.05941                0.9968464        -10.8294     0.0004204577        120.8314                0               0                0               0
1.06601                0.9967811       -10.92391     0.0003932815        115.6255                0               0                0               0
1.07261                0.9967137        -11.0194     0.0003636771         110.693                0               0                0               0
1.07921                0.9966431       -11.11588     0.0003317547        106.1261                0               0                0               0
1.08581                0.9965684       -11.21335     0.0002976835        102.0693                0               0                0               0
1.09241                0.9964886       -11.31181     0.0002617311        98.75987                0               0                0               0
1.09901                0.9964028       -11.41125     0.0002243477        96.61076                0               0                0               0
1.10561                0.9963103       -11.51165     0.0001863613        96.38659                0               0                0               0
1.11221                0.9962101       -11.61298     0.0001494699        99.58113                0               0                0               0
1.11881                0.9961019       -11.71521     0.0001175201         109.019                0               0                0               0
1.12541                0.9959848       -11.81831     9.890492e-05        127.8749                0               0                0               0
1.13201                0.9958589       -11.92223     0.0001043239        151.3989                0               0                0               0
1.13861                0.9957235       -12.02694     0.0001331149        167.7369                0               0                0               0
1.14521                0.9955789       -12.13238     0.0001756735        175.2704                0               0                0               0
1.15182                0.9954251       -12.23852     0.0002254658         177.508                0               0                0               0
1.15842                0.9952622       -12.34532      0.000279487        176.8756                0               0                0               0
1.16502                0.9950909       -12.45274     0.0003363094        174.6218                0               0                0               0
1.17162                0.9949115       -12.56076     0.0003951491        171.3932                0               0                0               0
1.17822                0.9947246       -12.66934     0.0004555021        167.5455                0               0                0               0
1.18482                0.9945312       -12.77848     0.0005169961        163.2869                0               0                0               0
1.19142                0.9943318       -12.88816     0.0005793242        158.7467                0               0                0               0
1.19802                0.9941275       -12.99838     0.0006422144        154.0089                0               0                0               0
1.20462                0.9939193       -13.10917     0.0007054133        149.1306                0               0                0               0
1.21122                0.9937079       -13.22053     0.0007686781         144.152                0               0                0               0
1.21782                0.9934942       -13.33251     0.0008317719        139.1023                0               0                0               0
1.22442                0.9932791       -13.44514     0.0008944616        134.0036                0               0                0               0
1.23102                0.9930633       -13.55848     0.0009565171        128.8729                0               0                0               0
1.23762                0.9928475       -13.67257      0.001017711        123.7234                0               0                0               0
1.24422                0.9926321        -13.7875      0.001077818        118.5664                0               0                0               0
1.25083                0.9924175       -13.90333      0.001136617         113.411                0               0                0               0
1.25743                0.9922038       -14.02014      0.001193892        108.2651                0               0                0               0
1.26403                0.9919911       -14.13801      0.001249431         103.136                0               0                0               0
1.27063                0.9917791       -14.25702      0.001303031        98.02992                0               0                0               0
1.27723                0.9915676       -14.37725      0.001354496        92.95304                0               0                0               0
1.28383                0.9913559       -14.49879      0.001403641        87.91109                0               0                0               0
1.29043                0.9911433       -14.62171      0.001450293        82.90973                0               0                0               0
1.29703                 0.990929       -14.74608      0.001494293        77.95461                0               0                0               0
1.30363                0.9907119       -14.87197      0.001535498        73.05148                0               0                0               0
1.31023                0.9904907       -14.99942      0.001573785        68.20621                0               0                0               0
1.31683                0.9902643        -15.1285      0.001609052        63.42495                0               0                0               0
1.32343                0.9900314       -15.25923       0.00164122        58.71412                0               0                0               0
1.33003                0.9897906       -15.39164      0.001670242         54.0805                0               0                0               0
1.33663                0.9895404       -15.52575      0.001696097        49.53127                0               0                0               0
1.34323                0.9892796       -15.66157      0.001718804        45.07402                0               0                0               0
1.34984                0.9890067       -15.79909      0.001738419        40.71683                0               0                0               0
1.35644                0.9887207       -15.93829      0.001755043        36.46818                0               0                0               0
1.36304                0.9884204       -16.07915      0.001768826        32.33698                0               0                0               0
1.36964                0.9881047       -16.22165      0.001779972        28.33249                0               0                0               0
1.37624                0.9877729       -16.36575      0.001788748        24.46419                0               0                0               0
1.38284                0.9874244       -16.51139      0.001795482        20.74159                0               0                0               0
1.38944                0.9870587       -16.65855      0.001800576        17.17402                0               0                0               0
1.39604                0.9866755       -16.80718      0.001804508        13.77019                0               0                0               0
1.40264                0.9862748       -16.95723      0.001807834        10.53777                0               0                0               0
1.40924                0.9858568       -17.10866      0.001811191        7.482781                0               0                0               0
1.41584                0.9854217       -17.26145      0.001815297        4.608903                0               0                0               0
1.42244                0.9849702       -17.41556      0.001820945        1.916669                0               0                0               0
1.42904                0.9845027       -17.57098      0.001828994       -0.597364                0               0                0               0
1.43564                0.9840201        -17.7277      0.001840355       -2.941379                0               0                0               0
1.44224                0.9835232       -17.88572       0.00185597       -5.128915                0               0                0               0
1.44884                0.9830131       -18.04507      0.001876782       -7.179158                0               0                0               0
1.45545                0.9824906       -18.20577       0.00190371       -9.116798                0               0                0               0
1.46205                0.9819567       -18.36788      0.001937609       -10.97136                0               0                0               0
1.46865                0.9814122       -18.53144      0.001979242       -12.77599                0               0                0               0
1.47525                 0.980858       -18.69655      0.002029244       -14.56576                0               0                0               0
1.48185                0.9802948       -18.86327      0.002088107       -16.37582                0               0                0               0
1.48845                 0.979723       -19.03172      0.002156162        -18.2394                0               0                0               0
1.49505                0.9791429         -19.202      0.002233577       -20.18614                0               0                0               0
1.50165                0.9785547       -19.37424      0.002320366       -22.24089                0               0                0               0
1.50825                0.9779582       -19.54855      0.002416397       -24.42295                0               0                0               0
1.51485                0.9773531       -19.72507      0.002521419       -26.74597                0               0                0               0
1.52145                0.9767385       -19.90393      0.002635078       -29.21811                0               0                0               0
1.52805                0.9761136       -20.08527      0.002756941       -31.84278                0               0                0               0
1.53465                0.9754771       -20.26922      0.002886516       -34.61929                0               0                0               0
1.54125                0.9748274       -20.45591      0.003023269       -37.54371                0               0                0               0
1.54785                0.9741629       -20.64545       0.00316664       -40.60973                0               0                0               0
1.55446                0.9734816       -20.83796      0.003316052       -43.80928                0               0                0               0
1.56106                0.9727811       -21.03354      0.003470926       -47.13319                0               0                0               0
1.56766                0.9720594       -21.23228      0.003630681       -50.57165                0               0                0               0
1.57426                0.9713137       -21.43425      0.003794748       -54.11459                0               0                0               0
1.58086                0.9705416        -21.6395      0.003962566       -57.75191                0               0                0               0
1.58746                0.9697404       -21.84809      0.004133589       -61.47375                0               0                0               0
1.59406                0.9689075       -22.06003      0.004307292       -65.27055                0               0                0               0
1.60066                0.9680403       -22.27535      0.004483167       -69.13317                0               0                0               0
1.60726                0.9671364       -22.49404      0.004660731       -73.05287                0               0                0               0
1.61386                0.9661935       -22.71607      0.004839525       -77.02143                0               0                0               0
1.62046                0.9652092       -22.94143      0.005019117       -81.03106                0               0                0               0
1.62706                0.9641816       -23.17008      0.005199105       -85.07441                0               0                0               0
1.63366                0.9631092       -23.40195      0.005379122       -89.14456                0               0                0               0
1.64026                0.9619903       -23.63702      0.005558834         -93.235                0               0                0               0
1.64686                0.9608235       -23.87521      0.005737947       -97.33959                0               0                0               0
1.65347                0.9596082       -24.11648      0.005916208       -101.4525                0               0                0               0
1.66007                0.9583436       -24.36077      0.006093413       -105.5684                0               0                0               0
1.66667                0.9570293       -24.60804      0.006269405        -109.682                0               0                0               0
1.67327                0.9556651       -24.85824      0.006444082       -113.7886                0               0                0               0
1.67987                0.9542512       -25.11137        0.0066174       -117.8835                0               0                0               0
1.68647                0.9527879        -25.3674      0.006789378       -121.9625                0               0                0               0
1.69307                0.9512754       -25.62635      0.006960098       -126.0218                0               0                0               0
1.69967                0.9497146       -25.88823      0.007129717       -130.0575                0               0                0               0
1.70627                0.9481059       -26.15311      0.007298464       -134.0664                0               0                0               0
1.71287                  0.94645       -26.42105      0.007466647       -138.0454                0               0                0               0
1.71947                0.9447474       -26.69213      0.007634652       -141.9919                0               0                0               0
1.72607                0.9429987       -26.96648      0.007802952       -145.9036                0               0                0               0
1.73267                0.9412041       -27.24423      0.007972104       -149.7788                0               0                0               0
1.73927                0.9393638       -27.52554      0.008142752       -153.6161                0               0                0               0
1.74587                0.9374776        -27.8106      0.008315624       -157.4145                0               0                0               0
1.75248                 0.935545        -28.0996      0.008491533       -161.1739                0               0                0               0
1.75908                 0.933565       -28.39276      0.008671371       -164.8944                0               0                0               0
1.76568                0.9315366       -28.69031      0.008856112        -168.577                0               0                0               0
1.77228                0.9294578        -28.9925      0.009046791       -172.2233                0               0                0               0
1.77888                0.9273267       -29.29957      0.009244507       -175.8355                0               0                0               0
1.78548                0.9251405       -29.61178       0.00945041       -179.4163                0               0                0               0
1.79208                0.9228963       -29.92938      0.009665688        177.0305                0               0                0               0
1.79868                0.9205903       -30.25263      0.009891551         173.501                0               0                0               0
1.80528                0.9182187       -30.58177       0.01012922        169.9904                0               0                0               0
1.81188                0.9157768       -30.91705       0.01037991        166.4935                0               0                0               0
1.81848                0.9132601       -31.25868        0.0106448        163.0046                0               0                0               0
1.82508                0.9106629       -31.60688       0.01092505         159.518                0               0                0               0
1.83168                0.9079801       -31.96184       0.01122176        156.0274                0               0                0               0
1.83828                0.9052058       -32.32373       0.01153593        152.5266                0               0                0               0
1.84488                0.9023337       -32.69269       0.01186851        149.0096                0               0                0               0
1.85149                0.8993578       -33.06887       0.01222034        145.4703                0               0                0               0
