! TOUCHSTONE file generated by CST MICROWAVE STUDIO
! Date and time: Tue Mar 11 13:57:02 2025
! Project name: transverse.cst
! Parameters = {Fracture=5; B=12.5; D=160; F=15; Feed=2.85625; L=100; M=20; R=0.384908; S=2; Theta=90; length=57.125; wave=114.25}
! Header version: 2024
! Port assignment regex: !\s*Touchstone port\s*([0-9]+)\s*=\s*(CST MWS port|CST DES external port|CST DES block port)\s*(.+)\s* \(\"(.*)\"\)(\s*mode\s*([0-9]+))?.*
! Touchstone port assignment:
! Touchstone port 1 = CST MWS port 1 ("")
! Touchstone port 2 = CST MWS port 2 ("")
# GHz S MA R 50
1                      0.9976765       -9.760843     0.0004345593       -173.1038                0               0                0               0
1.0066                 0.9975931       -9.848297     0.0004338594       -177.7964                0               0                0               0
1.0132                 0.9975078       -9.936261      0.000431756        177.6657                0               0                0               0
1.0198                 0.9974206       -10.02475     0.0004282857           173.3                0               0                0               0
1.0264                 0.9973318       -10.11377     0.0004235072        169.1267                0               0                0               0
1.033                  0.9972416       -10.20334     0.0004175041        165.1699                0               0                0               0
1.0396                 0.9971499       -10.29348     0.0004103903        161.4568                0               0                0               0
1.0462                 0.9970569       -10.38421     0.0004023146         158.019                0               0                0               0
1.05281                0.9969624       -10.47556     0.0003934686        154.8916                0               0                0               0
1.05941                0.9968668       -10.56753      0.000384093        152.1134                0               0                0               0
1.06601                0.9967696       -10.66016     0.0003744861         149.725                0               0                0               0
1.07261                0.9966712       -10.75347     0.0003650116        147.7664                0               0                0               0
1.07921                0.9965711       -10.84749     0.0003561039        146.2724                0               0                0               0
1.08581                0.9964692       -10.94223     0.0003482689         145.266                0               0                0               0
1.09241                0.9963655       -11.03771     0.0003420763        144.7493                0               0                0               0
1.09901                0.9962596       -11.13397     0.0003381367        144.6934                0               0                0               0
1.10561                0.9961511       -11.23102     0.0003370649        145.0303                0               0                0               0
1.11221                  0.99604       -11.32887     0.0003394259        145.6502                0               0                0               0
1.11881                0.9959257       -11.42754     0.0003456764        146.4092                0               0                0               0
1.12541                0.9958082       -11.52705      0.000356115        147.1464                0               0                0               0
1.13201                0.9956868       -11.62742     0.0003708559        147.7073                0               0                0               0
1.13861                0.9955613       -11.72863     0.0003898349        147.9647                0               0                0               0
1.14521                0.9954314       -11.83072      0.000412841        147.8312                0               0                0               0
1.15182                0.9952966       -11.93367     0.0004395608        147.2606                0               0                0               0
1.15842                0.9951567        -12.0375     0.0004696242        146.2423                0               0                0               0
1.16502                0.9950116        -12.1422     0.0005026396        144.7914                0               0                0               0
1.17162                0.9948607       -12.24778     0.0005382184        142.9389                0               0                0               0
1.17822                0.9947041       -12.35423     0.0005759893         140.724                0               0                0               0
1.18482                0.9945414       -12.46156     0.0006156038        138.1887                0               0                0               0
1.19142                0.9943725       -12.56975     0.0006567389        135.3738                0               0                0               0
1.19802                0.9941974       -12.67881     0.0006990954        132.3179                0               0                0               0
1.20462                 0.994016       -12.78873     0.0007423955        129.0556                0               0                0               0
1.21122                0.9938282       -12.89952      0.000786381        125.6181                0               0                0               0
1.21782                 0.993634       -13.01118     0.0008308101        122.0327                0               0                0               0
1.22442                0.9934337        -13.1237     0.0008754562        118.3235                0               0                0               0
1.23102                0.9932273        -13.2371     0.0009201057        114.5118                0               0                0               0
1.23762                0.9930149       -13.35137     0.0009645572        110.6162                0               0                0               0
1.24422                0.9927965       -13.46654       0.00100862        106.6531                0               0                0               0
1.25083                0.9925723       -13.58261      0.001052116        102.6373                0               0                0               0
1.25743                0.9923425       -13.69959      0.001094877        98.58192                0               0                0               0
1.26403                0.9921071       -13.81751      0.001136745        94.49879                0               0                0               0
1.27063                0.9918666        -13.9364      0.001177578        90.39876                0               0                0               0
1.27723                0.9916206       -14.05626      0.001217242        86.29182                0               0                0               0
1.28383                0.9913695       -14.17713      0.001255621        82.18723                0               0                0               0
1.29043                0.9911134       -14.29904      0.001292611        78.09371                0               0                0               0
1.29703                 0.990852       -14.42202      0.001328125        74.01953                0               0                0               0
1.30363                0.9905855        -14.5461      0.001362097        69.97259                0               0                0               0
1.31023                0.9903137       -14.67132      0.001394476         65.9605                0               0                0               0
1.31683                0.9900365       -14.79772      0.001425236        61.99063                0               0                0               0
1.32343                0.9897536       -14.92532      0.001454373        58.07018                0               0                0               0
1.33003                 0.989465       -15.05417      0.001481912        54.20612                0               0                0               0
1.33663                0.9891702        -15.1843      0.001507901        50.40527                0               0                0               0
1.34323                 0.988869       -15.31575      0.001532422        46.67422                0               0                0               0
1.34984                0.9885609       -15.44854      0.001555588        43.01933                0               0                0               0
1.35644                0.9882457       -15.58271      0.001577547        39.44658                0               0                0               0
1.36304                0.9879228       -15.71828      0.001598483        35.96156                0               0                0               0
1.36964                0.9875919        -15.8553       0.00161862        32.56927                0               0                0               0
1.37624                0.9872523       -15.99378      0.001638218          29.274                0               0                0               0
1.38284                0.9869037       -16.13375       0.00165758         26.0791                0               0                0               0
1.38944                0.9865457       -16.27522      0.001677046         22.9868                0               0                0               0
1.39604                0.9861778       -16.41823      0.001696995        19.99794                0               0                0               0
1.40264                0.9857997       -16.56278      0.001717842         17.1118                0               0                0               0
1.40924                0.9854107        -16.7089      0.001740029        14.32579                0               0                0               0
1.41584                0.9850108       -16.85659      0.001764029        11.63533                0               0                0               0
1.42244                0.9845994       -17.00589      0.001790327        9.033704                0               0                0               0
1.42904                0.9841766       -17.15681      0.001819419        6.511999                0               0                0               0
1.43564                0.9837416       -17.30935      0.001851797        4.059204                0               0                0               0
1.44224                0.9832949       -17.46355      0.001887942        1.662377                0               0                0               0
1.44884                0.9828358       -17.61942      0.001928306      -0.6930152                0               0                0               0
1.45545                0.9823643       -17.77699      0.001973305       -3.022672                0               0                0               0
1.46205                0.9818807       -17.93629       0.00202331       -5.342928                0               0                0               0
1.46865                0.9813843       -18.09734      0.002078632       -7.670173                0               0                0               0
1.47525                0.9808759       -18.26019      0.002139524       -10.02027                0               0                0               0
1.48185                0.9803547       -18.42486      0.002206167       -12.40804                0               0                0               0
1.48845                 0.979821       -18.59142      0.002278679       -14.84673                0               0                0               0
1.49505                0.9792747        -18.7599      0.002357106       -17.34781                0               0                0               0
1.50165                0.9787159       -18.93036      0.002441435       -19.92061                0               0                0               0
1.50825                0.9781442       -19.10287      0.002531592       -22.57235                0               0                0               0
1.51485                0.9775596       -19.27749       0.00262745        -25.3081                0               0                0               0
1.52145                0.9769617       -19.45429      0.002728835       -28.13095                0               0                0               0
1.52805                0.9763505       -19.63334      0.002835536       -31.04213                0               0                0               0
1.53465                0.9757252       -19.81473      0.002947309        -34.0413                0               0                0               0
1.54125                0.9750856       -19.99854      0.003063882       -37.12677                0               0                0               0
1.54785                 0.974431       -20.18485      0.003184965       -40.29571                0               0                0               0
1.55446                0.9737606       -20.37376      0.003310255       -43.54445                0               0                0               0
1.56106                0.9730736       -20.56535      0.003439436       -46.86862                0               0                0               0
1.56766                0.9723691       -20.75972      0.003572192       -50.26338                0               0                0               0
1.57426                 0.971646       -20.95696      0.003708201       -53.72355                0               0                0               0
1.58086                0.9709029       -21.15715      0.003847147       -57.24374                0               0                0               0
1.58746                0.9701388       -21.36038       0.00398872       -60.81849                0               0                0               0
1.59406                0.9693522       -21.56675      0.004132618       -64.44229                0               0                0               0
1.60066                0.9685417       -21.77634      0.004278551       -68.10971                0               0                0               0
1.60726                0.9677054       -21.98923      0.004426245       -71.81541                0               0                0               0
1.61386                0.9668418        -22.2055      0.004575442       -75.55417                0               0                0               0
1.62046                0.9659492       -22.42521      0.004725905       -79.32096                0               0                0               0
1.62706                0.9650257       -22.64845      0.004877418        -83.1109                0               0                0               0
1.63366                0.9640696       -22.87526      0.005029795       -86.91932                0               0                0               0
1.64026                0.9630789       -23.10573      0.005182873       -90.74176                0               0                0               0
1.64686                0.9620519       -23.33989      0.005336523       -94.57396                0               0                0               0
1.65347                0.9609865       -23.57781      0.005490648       -98.41187                0               0                0               0
1.66007                0.9598809       -23.81953      0.005645187       -102.2517                0               0                0               0
1.66667                0.9587333       -24.06511       0.00580012       -106.0899                0               0                0               0
1.67327                0.9575419       -24.31458      0.005955467        -109.923                0               0                0               0
1.67987                0.9563049         -24.568      0.006111291        -113.748                0               0                0               0
1.68647                0.9550206        -24.8254      0.006267702       -117.5621                0               0                0               0
1.69307                0.9536871       -25.08683      0.006424858       -121.3627                0               0                0               0
1.69967                0.9523029       -25.35235      0.006582968       -125.1475                0               0                0               0
1.70627                0.9508663       -25.62198      0.006742291       -128.9146                0               0                0               0
1.71287                0.9493757        -25.8958       0.00690314       -132.6623                0               0                0               0
1.71947                0.9478294       -26.17386      0.007065879       -136.3894                0               0                0               0
1.72607                 0.946226       -26.45623      0.007230926       -140.0948                0               0                0               0
1.73267                0.9445637       -26.74295      0.007398753        -143.778                0               0                0               0
1.73927                0.9428409       -27.03413      0.007569877       -147.4389                0               0                0               0
1.74587                0.9410559       -27.32984      0.007744867       -151.0777                0               0                0               0
1.75248                0.9392071       -27.63016      0.007924337       -154.6951                0               0                0               0
1.75908                0.9372927       -27.93519       0.00810894       -158.2922                0               0                0               0
1.76568                0.9353105       -28.24506      0.008299364       -161.8705                0               0                0               0
1.77228                0.9332588       -28.55985      0.008496328       -165.4319                0               0                0               0
1.77888                0.9311354       -28.87971      0.008700576       -168.9788                0               0                0               0
1.78548                0.9289376       -29.20476      0.008912859       -172.5138                0               0                0               0
1.79208                0.9266632       -29.53513      0.009133945       -176.0401                0               0                0               0
1.79868                0.9243094       -29.87097      0.009364592       -179.5609                0               0                0               0
1.80528                0.9218732       -30.21242      0.009605551        176.9201                0               0                0               0
1.81188                0.9193516       -30.55964      0.009857556        173.3991                0               0                0               0
1.81848                0.9167409       -30.91279       0.01012131        169.8723                0               0                0               0
1.82508                0.9140378         -31.272       0.01039747        166.3356                0               0                0               0
1.83168                 0.911238       -31.63746       0.01068666        162.7851                0               0                0               0
1.83828                0.9083375       -32.00931       0.01098946        159.2168                0               0                0               0
1.84488                0.9053318        -32.3877       0.01130636         155.627                0               0                0               0
1.85149                0.9022163       -32.77278       0.01163781         152.012                0               0                0               0
