! TOUCHSTONE file generated by CST MICROWAVE STUDIO
! Date and time: Tue Mar 11 13:57:51 2025
! Project name: transverse.cst
! Parameters = {Fracture=1; B=10; D=160; F=5; Feed=2.85625; L=100; M=20; R=0.384908; S=2; Theta=270; length=57.125; wave=114.25}
! Header version: 2024
! Port assignment regex: !\s*Touchstone port\s*([0-9]+)\s*=\s*(CST MWS port|CST DES external port|CST DES block port)\s*(.+)\s* \(\"(.*)\"\)(\s*mode\s*([0-9]+))?.*
! Touchstone port assignment:
! Touchstone port 1 = CST MWS port 1 ("")
! Touchstone port 2 = CST MWS port 2 ("")
# GHz S MA R 50
1                      0.9978552       -10.00815     0.0003392651        -132.558                0               0                0               0
1.00658                0.9977549        -10.0986      0.000358093       -137.0331                0               0                0               0
1.01316                0.9976477       -10.18936     0.0003762707        -141.539                0               0                0               0
1.01974                 0.997534       -10.28038     0.0003937089       -146.0595                0               0                0               0
1.02632                 0.997415       -10.37163     0.0004103245       -150.5804                0               0                0               0
1.03289                0.9972913       -10.46309     0.0004260399       -155.0892                0               0                0               0
1.03947                0.9971645       -10.55475     0.0004407849       -159.5741                0               0                0               0
1.04605                0.9970353       -10.64662     0.0004544967       -164.0242                0               0                0               0
1.05263                0.9969053       -10.73871     0.0004671213        -168.429                0               0                0               0
1.05921                0.9967752       -10.83104     0.0004786145        -172.778                0               0                0               0
1.06579                0.9966465       -10.92365     0.0004889429       -177.0608                0               0                0               0
1.07237                0.9965198       -11.01659     0.0004980853         178.733                0               0                0               0
1.07895                0.9963961       -11.10992     0.0005060346        174.6145                0               0                0               0
1.08553                 0.996276       -11.20369     0.0005127988        170.5949                0               0                0               0
1.09211                0.9961603         -11.298     0.0005184038        166.6858                0               0                0               0
1.09868                0.9960492       -11.39291     0.0005228939        162.8996                0               0                0               0
1.10526                0.9959428        -11.4885     0.0005263355        159.2489                0               0                0               0
1.11184                 0.995841       -11.58487     0.0005288184        155.7467                0               0                0               0
1.11842                0.9957436       -11.68209     0.0005304582        152.4062                0               0                0               0
1.125                  0.9956501       -11.78025     0.0005313988        149.2405                0               0                0               0
1.13158                0.9955599       -11.87941     0.0005318143        146.2619                0               0                0               0
1.13816                0.9954721       -11.97966     0.0005319103        143.4815                0               0                0               0
1.14474                0.9953856       -12.08105     0.0005319248        140.9084                0               0                0               0
1.15132                0.9952993       -12.18364     0.0005321274        138.5485                0               0                0               0
1.15789                0.9952118       -12.28747     0.0005328173         136.403                0               0                0               0
1.16447                0.9951221       -12.39257     0.0005343186         134.468                0               0                0               0
1.17105                0.9950284       -12.49897     0.0005369726        132.7322                0               0                0               0
1.17763                0.9949296       -12.60666     0.0005411281         131.177                0               0                0               0
1.18421                0.9948244       -12.71564      0.000547128        129.7756                0               0                0               0
1.19079                0.9947112       -12.82591     0.0005552952        128.4933                0               0                0               0
1.19737                0.9945892       -12.93742     0.0005659168        127.2896                0               0                0               0
1.20395                 0.994457       -13.05016       0.00057923        126.1199                0               0                0               0
1.21053                0.9943141       -13.16406     0.0005954116        124.9384                0               0                0               0
1.21711                0.9941594       -13.27909     0.0006145704        123.7014                0               0                0               0
1.22368                0.9939926       -13.39518     0.0006367466        122.3695                0               0                0               0
1.23026                0.9938133       -13.51229     0.0006619141        120.9105                0               0                0               0
1.23684                0.9936217       -13.63035     0.0006899878        119.2996                0               0                0               0
1.24342                0.9934174        -13.7493     0.0007208324        117.5203                0               0                0               0
1.25                   0.9932012       -13.86909     0.0007542739        115.5637                0               0                0               0
1.25658                0.9929734       -13.98968     0.0007901082        113.4276                0               0                0               0
1.26316                0.9927347       -14.11103      0.000828111        111.1148                0               0                0               0
1.26974                0.9924862       -14.23311     0.0008680456        108.6326                0               0                0               0
1.27632                0.9922285       -14.35589      0.000909668         105.991                0               0                0               0
1.28289                0.9919629       -14.47938     0.0009527334        103.2019                0               0                0               0
1.28947                0.9916906       -14.60358      0.000996998        100.2784                0               0                0               0
1.29605                0.9914127        -14.7285      0.001042223        97.23412                0               0                0               0
1.30263                0.9911304       -14.85419      0.001088176        94.08255                0               0                0               0
1.30921                0.9908445       -14.98069      0.001134633         90.8371                0               0                0               0
1.31579                0.9905564       -15.10805      0.001181378        87.51066                0               0                0               0
1.32237                0.9902667       -15.23635      0.001228209         84.1156                0               0                0               0
1.32895                0.9899761       -15.36568      0.001274932        80.66369                0               0                0               0
1.33553                0.9896851       -15.49612      0.001321369        77.16609                0               0                0               0
1.34211                0.9893941       -15.62777      0.001367353        73.63335                0               0                0               0
1.34868                0.9891031       -15.76073      0.001412734        70.07547                0               0                0               0
1.35526                 0.988812       -15.89512       0.00145738        66.50191                0               0                0               0
1.36184                0.9885202       -16.03103      0.001501174        62.92167                0               0                0               0
1.36842                0.9882272       -16.16858      0.001544021        59.34327                0               0                0               0
1.375                   0.987932       -16.30787      0.001585847        55.77485                0               0                0               0
1.38158                0.9876337       -16.44898      0.001626601        52.22415                0               0                0               0
1.38816                0.9873306       -16.59202      0.001666257        48.69854                0               0                0               0
1.39474                0.9870213       -16.73704      0.001704816        45.20506                0               0                0               0
1.40132                0.9867043       -16.88413       0.00174231        41.75033                0               0                0               0
1.40789                0.9863777       -17.03334      0.001778798        38.34061                0               0                0               0
1.41447                0.9860399        -17.1847      0.001814377        34.98173                0               0                0               0
1.42105                0.9856887       -17.33825      0.001849174        31.67904                0               0                0               0
1.42763                0.9853226       -17.49399      0.001883354        28.43735                0               0                0               0
1.43421                0.9849396       -17.65192       0.00191712        25.26079                0               0                0               0
1.44079                0.9845383       -17.81204      0.001950712        22.15282                0               0                0               0
1.44737                0.9841167       -17.97431      0.001984406        19.11601                0               0                0               0
1.45395                0.9836738        -18.1387      0.002018517        16.15195                0               0                0               0
1.46053                0.9832082       -18.30517      0.002053396        13.26118                0               0                0               0
1.46711                0.9827191       -18.47367      0.002089424          10.443                0               0                0               0
1.47368                0.9822056       -18.64415      0.002127014         7.69541                0               0                0               0
1.48026                0.9816673       -18.81655        0.0021666        5.015022                0               0                0               0
1.48684                0.9811039       -18.99083      0.002208637        2.397038                0               0                0               0
1.49342                0.9805155       -19.16692      0.002253588      -0.1647461                0               0                0               0
1.5                    0.9799023       -19.34479      0.002301922       -2.677862                0               0                0               0
1.50658                0.9792647       -19.52442      0.002354098       -5.151041                0               0                0               0
1.51316                0.9786034       -19.70577      0.002410563       -7.594004                0               0                0               0
1.51974                 0.977919       -19.88884       0.00247174       -10.01722                0               0                0               0
1.52632                0.9772126       -20.07364      0.002538017       -12.43158                0               0                0               0
1.53289                0.9764849       -20.26018      0.002609747       -14.84814                0               0                0               0
1.53947                0.9757373       -20.44851      0.002687234        -17.2777                0               0                0               0
1.54605                0.9749705       -20.63869      0.002770735       -19.73056                0               0                0               0
1.55263                0.9741854       -20.83079      0.002860454       -22.21621                0               0                0               0
1.55921                0.9733828        -21.0249       0.00295654       -24.74313                0               0                0               0
1.56579                0.9725635       -21.22114      0.003059092       -27.31859                0               0                0               0
1.57237                0.9717277       -21.41963      0.003168158       -29.94856                0               0                0               0
1.57895                0.9708757        -21.6205       0.00328374       -32.63771                0               0                0               0
1.58553                0.9700072       -21.82391      0.003405797       -35.38936                0               0                0               0
1.59211                 0.969122       -22.03002      0.003534251        -38.2056                0               0                0               0
1.59868                0.9682192       -22.23898      0.003668993       -41.08736                0               0                0               0
1.60526                0.9672976       -22.45097      0.003809887       -44.03455                0               0                0               0
1.61184                0.9663559       -22.66616      0.003956776       -47.04617                0               0                0               0
1.61842                0.9653922        -22.8847      0.004109489       -50.12047                0               0                0               0
1.625                  0.9644043       -23.10677      0.004267845       -53.25509                0               0                0               0
1.63158                0.9633898        -23.3325      0.004431656       -56.44717                0               0                0               0
1.63816                 0.962346       -23.56205      0.004600737       -59.69349                0               0                0               0
1.64474                0.9612697       -23.79553      0.004774905       -62.99055                0               0                0               0
1.65132                0.9601579       -24.03305      0.004953985        -66.3347                0               0                0               0
1.65789                 0.959007       -24.27471      0.005137815       -69.72218                0               0                0               0
1.66447                0.9578136       -24.52058      0.005326247       -73.14921                0               0                0               0
1.67105                0.9565741       -24.77072      0.005519152       -76.61206                0               0                0               0
1.67763                0.9552849       -25.02516      0.005716425       -80.10706                0               0                0               0
1.68421                0.9539424       -25.28391      0.005917984       -83.63068                0               0                0               0
1.69079                0.9525433       -25.54698      0.006123775       -87.17952                0               0                0               0
1.69737                0.9510843       -25.81434      0.006333775       -90.75038                0               0                0               0
1.70395                0.9495622       -26.08597      0.006547992       -94.34024                0               0                0               0
1.71053                0.9479741       -26.36181      0.006766468       -97.94633                0               0                0               0
1.71711                0.9463175       -26.64181      0.006989282       -101.5661                0               0                0               0
1.72368                0.9445899        -26.9259      0.007216551       -105.1972                0               0                0               0
1.73026                0.9427894       -27.21403      0.007448431       -108.8376                0               0                0               0
1.73684                0.9409142       -27.50611      0.007685117       -112.4855                0               0                0               0
1.74342                0.9389629        -27.8021      0.007926842       -116.1394                0               0                0               0
1.75                   0.9369345       -28.10192      0.008173883        -119.798                0               0                0               0
1.75658                0.9348279       -28.40553      0.008426553       -123.4603                0               0                0               0
1.76316                0.9326426        -28.7129      0.008685203       -127.1257                0               0                0               0
1.76974                0.9303781       -29.02402      0.008950224       -130.7937                0               0                0               0
1.77632                0.9280342       -29.33888       0.00922204       -134.4641                0               0                0               0
1.78289                0.9256106        -29.6575      0.009501105       -138.1371                0               0                0               0
1.78947                0.9231071       -29.97995      0.009787906       -141.8129                0               0                0               0
1.79605                0.9205236       -30.30628       0.01008295       -145.4922                0               0                0               0
1.80263                0.9178595       -30.63659       0.01038677       -149.1758                0               0                0               0
1.80921                0.9151146         -30.971       0.01069991       -152.8646                0               0                0               0
1.81579                0.9122881       -31.30966       0.01102293         -156.56                0               0                0               0
1.82237                0.9093787       -31.65274       0.01135639       -160.2632                0               0                0               0
1.82895                0.9063853       -32.00042       0.01170086       -163.9758                0               0                0               0
1.83553                0.9033058       -32.35292       0.01205689       -167.6994                0               0                0               0
1.84211                0.9001381       -32.71045       0.01242503       -171.4356                0               0                0               0
1.84868                0.8968791       -33.07324        0.0128058       -175.1863                0               0                0               0
