! TOUCHSTONE file generated by CST MICROWAVE STUDIO
! Date and time: Tue Mar 11 13:57:02 2025
! Project name: transverse.cst
! Parameters = {Fracture=5; B=12.5; D=160; F=15; Feed=2.85625; L=100; M=20; R=0.384908; S=1; Theta=90; length=57.125; wave=114.25}
! Header version: 2024
! Port assignment regex: !\s*Touchstone port\s*([0-9]+)\s*=\s*(CST MWS port|CST DES external port|CST DES block port)\s*(.+)\s* \(\"(.*)\"\)(\s*mode\s*([0-9]+))?.*
! Touchstone port assignment:
! Touchstone port 1 = CST MWS port 1 ("")
! Touchstone port 2 = CST MWS port 2 ("")
# GHz S MA R 50
1                      0.9975735       -9.825569     0.0004687276       -171.9815                0               0                0               0
1.0066                 0.9974833       -9.912917     0.0004656201       -177.2391                0               0                0               0
1.0132                 0.9973935       -10.00072     0.0004606374        177.6472                0               0                0               0
1.0198                 0.9973042         -10.089     0.0004537822        172.6944                0               0                0               0
1.0264                  0.997216        -10.1778     0.0004450768        167.9238                0               0                0               0
1.033                  0.9971288       -10.26716     0.0004345666         163.362                0               0                0               0
1.0396                 0.9970428       -10.35712     0.0004223258        159.0426                0               0                0               0
1.0462                 0.9969581       -10.44773     0.0004084645        155.0072                0               0                0               0
1.05281                0.9968742       -10.53904     0.0003931377        151.3082                0               0                0               0
1.05941                0.9967914       -10.63108     0.0003765594        148.0111                0               0                0               0
1.06601                0.9967092        -10.7239     0.0003590195        145.1969                0               0                0               0
1.07261                 0.996627       -10.81753     0.0003409082        142.9647                0               0                0               0
1.07921                0.9965445       -10.91203     0.0003227469        141.4312                0               0                0               0
1.08581                0.9964609       -11.00741     0.0003052249        140.7259                0               0                0               0
1.09241                0.9963759       -11.10372      0.000289235        140.9739                0               0                0               0
1.09901                0.9962885       -11.20096     0.0002758905        142.2614                0               0                0               0
1.10561                0.9961982       -11.29916     0.0002664886        144.5776                0               0                0               0
1.11221                 0.996104       -11.39834     0.0002623774        147.7494                0               0                0               0
1.11881                0.9960055       -11.49848     0.0002647162        151.4124                0               0                0               0
1.12541                0.9959016        -11.5996     0.0002742041        155.0698                0               0                0               0
1.13201                 0.995792       -11.70169     0.0002909276        158.2335                0               0                0               0
1.13861                0.9956758       -11.80473     0.0003144222        160.5598                0               0                0               0
1.14521                0.9955525       -11.90871     0.0003438858        161.8968                0               0                0               0
1.15182                0.9954218        -12.0136      0.000378405        162.2485                0               0                0               0
1.15842                 0.995283       -12.11939     0.0004171048        161.7085                0               0                0               0
1.16502                0.9951364       -12.22604     0.0004592148        160.4048                0               0                0               0
1.17162                0.9949814       -12.33352     0.0005040809        158.4669                0               0                0               0
1.17822                0.9948182       -12.44182     0.0005511527        156.0108                0               0                0               0
1.18482                0.9946468        -12.5509     0.0005999633         153.135                0               0                0               0
1.19142                0.9944676       -12.66074     0.0006501098        149.9204                0               0                0               0
1.19802                0.9942807       -12.77133     0.0007012376        146.4324                0               0                0               0
1.20462                0.9940866       -12.88264     0.0007530281        142.7242                0               0                0               0
1.21122                0.9938858       -12.99467     0.0008051899        138.8389                0               0                0               0
1.21782                 0.993679       -13.10742     0.0008574521        134.8118                0               0                0               0
1.22442                0.9934667       -13.22089     0.0009095604        130.6717                0               0                0               0
1.23102                0.9932495        -13.3351     0.0009612733        126.4427                0               0                0               0
1.23762                0.9930281       -13.45005      0.001012361        122.1451                0               0                0               0
1.24422                0.9928032        -13.5658      0.001062605        117.7962                0               0                0               0
1.25083                0.9925752       -13.68236      0.001111795         113.411                0               0                0               0
1.25743                0.9923448       -13.79979      0.001159733        109.0027                0               0                0               0
1.26403                0.9921124       -13.91813      0.001206231        104.5829                0               0                0               0
1.27063                0.9918783       -14.03744      0.001251112        100.1622                0               0                0               0
1.27723                0.9916426       -14.15779      0.001294214        95.75066                0               0                0               0
1.28383                0.9914056       -14.27925      0.001335387        91.35731                0               0                0               0
1.29043                0.9911671       -14.40187      0.001374499        86.99098                0               0                0               0
1.29703                0.9909269       -14.52573      0.001411437        82.66016                0               0                0               0
1.30363                0.9906846       -14.65091      0.001446107        78.37317                0               0                0               0
1.31023                0.9904398       -14.77747       0.00147844        74.13829                0               0                0               0
1.31683                0.9901918       -14.90548      0.001508392        69.96377                0               0                0               0
1.32343                0.9899396       -15.03499       0.00153595        65.85799                0               0                0               0
1.33003                0.9896824       -15.16608      0.001561132        61.82937                0               0                0               0
1.33663                0.9894193       -15.29878      0.001583995         57.8865                0               0                0               0
1.34323                 0.989149       -15.43315      0.001604636        54.03806                0               0                0               0
1.34984                0.9888706       -15.56921      0.001623196         50.2928                0               0                0               0
1.35644                0.9885825         -15.707      0.001639867        46.65942                0               0                0               0
1.36304                0.9882836       -15.84652      0.001654895        43.14646                0               0                0               0
1.36964                0.9879729        -15.9878      0.001668583        39.76208                0               0                0               0
1.37624                0.9876491       -16.13082      0.001681297        36.51377                0               0                0               0
1.38284                0.9873111       -16.27559      0.001693466        33.40807                0               0                0               0
1.38944                 0.986958       -16.42208      0.001705589        30.45005                0               0                0               0
1.39604                0.9865887       -16.57028      0.001718228        27.64289                0               0                0               0
1.40264                0.9862027       -16.72015       0.00173201        24.98728                0               0                0               0
1.40924                0.9857994       -16.87167      0.001747621        22.48091                0               0                0               0
1.41584                0.9853783       -17.02481      0.001765795        20.11785                0               0                0               0
1.42244                0.9849391       -17.17953      0.001787299        17.88823                0               0                0               0
1.42904                0.9844818       -17.33581       0.00181292        15.77792                0               0                0               0
1.43564                0.9840067       -17.49361      0.001843441        13.76862                0               0                0               0
1.44224                0.9835135       -17.65292      0.001879617        11.83821                0               0                0               0
1.44884                0.9830032       -17.81372      0.001922154        9.961483                0               0                0               0
1.45545                0.9824759         -17.976       0.00197168        8.111169                0               0                0               0
1.46205                0.9819324       -18.13977      0.002028732        6.259239                0               0                0               0
1.46865                0.9813734       -18.30504      0.002093737        4.378227                0               0                0               0
1.47525                0.9807997       -18.47184      0.002167005        2.442544                0               0                0               0
1.48185                0.9802119        -18.6402      0.002248725       0.4295527                0               0                0               0
1.48845                 0.979611       -18.81019      0.002338973       -1.679658                0               0                0               0
1.49505                0.9789976       -18.98186      0.002437716       -3.899851                0               0                0               0
1.50165                0.9783721       -19.15529      0.002544827       -6.241563                0               0                0               0
1.50825                0.9777354       -19.33058      0.002660101       -8.711305                0               0                0               0
1.51485                0.9770874       -19.50781      0.002783264       -11.31196                0               0                0               0
1.52145                0.9764286       -19.68711      0.002913994       -14.04332                0               0                0               0
1.52805                0.9757586        -19.8686      0.003051926       -16.90264                0               0                0               0
1.53465                0.9750775        -20.0524      0.003196671       -19.88522                0               0                0               0
1.54125                0.9743845       -20.23864      0.003347821       -22.98493                0               0                0               0
1.54785                0.9736789       -20.42746      0.003504956        -26.1946                0               0                0               0
1.55446                0.9729596       -20.61899      0.003667654       -29.50646                0               0                0               0
1.56106                0.9722254       -20.81336      0.003835494       -32.91239                0               0                0               0
1.56766                0.9714745        -21.0107      0.004008058       -36.40419                0               0                0               0
1.57426                0.9707052       -21.21115      0.004184943        -39.9737                0               0                0               0
1.58086                0.9699157        -21.4148      0.004365753       -43.61296                0               0                0               0
1.58746                0.9691035       -21.62176      0.004550111       -47.31429                0               0                0               0
1.59406                0.9682665       -21.83214      0.004737655       -51.07032                0               0                0               0
1.60066                0.9674019         -22.046      0.004928045       -54.87405                0               0                0               0
1.60726                0.9665075       -22.26342      0.005120966       -58.71886                0               0                0               0
1.61386                0.9655802       -22.48445      0.005316123       -62.59848                0               0                0               0
1.62046                0.9646176       -22.70914      0.005513254       -66.50704                0               0                0               0
1.62706                0.9636173       -22.93749      0.005712126       -70.43902                0               0                0               0
1.63366                0.9625764       -23.16954       0.00591254       -74.38926                0               0                0               0
1.64026                0.9614928       -23.40528      0.006114331       -78.35294                0               0                0               0
1.64686                0.9603639        -23.6447      0.006317374       -82.32557                0               0                0               0
1.65347                0.9591878       -23.88778      0.006521589       -86.30299                0               0                0               0
1.66007                0.9579626        -24.1345      0.006726937       -90.28134                0               0                0               0
1.66667                0.9566865       -24.38483      0.006933429       -94.25709                0               0                0               0
1.67327                0.9553582       -24.63874      0.007141125       -98.22701                0               0                0               0
1.67987                0.9539763       -24.89619      0.007350142       -102.1882                0               0                0               0
1.68647                0.9525399       -25.15717      0.007560648        -106.138                0               0                0               0
1.69307                0.9510483       -25.42164       0.00777287       -110.0741                0               0                0               0
1.69967                0.9495008       -25.68961      0.007987096       -113.9946                0               0                0               0
1.70627                0.9478971       -25.96107      0.008203674       -117.8978                0               0                0               0
1.71287                 0.946237       -26.23605      0.008423012       -121.7825                0               0                0               0
1.71947                0.9445204       -26.51456       0.00864558       -125.6477                0               0                0               0
1.72607                0.9427471       -26.79668       0.00887191       -129.4928                0               0                0               0
1.73267                0.9409172       -27.08246      0.009102591       -133.3178                0               0                0               0
1.73927                0.9390307       -27.37199       0.00933827       -137.1227                0               0                0               0
1.74587                0.9370871        -27.6654      0.009579645       -140.9081                0               0                0               0
1.75248                0.9350865       -27.96282      0.009827468       -144.6751                0               0                0               0
1.75908                0.9330282        -28.2644       0.01008253        -148.425                0               0                0               0
1.76568                0.9309113       -28.57032       0.01034565       -152.1595                0               0                0               0
1.77228                 0.928735       -28.88078       0.01061771       -155.8808                0               0                0               0
1.77888                0.9264975       -29.19599       0.01089956       -159.5913                0               0                0               0
1.78548                0.9241974       -29.51618       0.01119211       -163.2937                0               0                0               0
1.79208                0.9218321       -29.84158       0.01149626        -166.991                0               0                0               0
1.79868                0.9193991       -30.17246       0.01181289       -170.6864                0               0                0               0
1.80528                 0.916895       -30.50905       0.01214287       -174.3834                0               0                0               0
1.81188                0.9143163       -30.85162       0.01248706       -178.0855                0               0                0               0
1.81848                0.9116587       -31.20043       0.01284625        178.2038                0               0                0               0
1.82508                0.9089175       -31.55571       0.01322121        174.4808                0               0                0               0
1.83168                0.9060875       -31.91771       0.01361265         170.742                0               0                0               0
1.83828                0.9031633       -32.28667       0.01402121         166.984                0               0                0               0
1.84488                0.9001386       -32.66278       0.01444748        163.2035                0               0                0               0
1.85149                0.8970072       -33.04624       0.01489194        159.3973                0               0                0               0
