! TOUCHSTONE file generated by CST MICROWAVE STUDIO
! Date and time: Tue Mar 11 13:57:46 2025
! Project name: transverse.cst
! Parameters = {Fracture=5; B=12.5; D=160; F=25; Feed=2.85625; L=100; M=20; R=0.384908; S=1; Theta=180; length=57.125; wave=114.25}
! Header version: 2024
! Port assignment regex: !\s*Touchstone port\s*([0-9]+)\s*=\s*(CST MWS port|CST DES external port|CST DES block port)\s*(.+)\s* \(\"(.*)\"\)(\s*mode\s*([0-9]+))?.*
! Touchstone port assignment:
! Touchstone port 1 = CST MWS port 1 ("")
! Touchstone port 2 = CST MWS port 2 ("")
# GHz S MA R 50
1                      0.9976189       -9.766062     0.0005121767        174.4876                0               0                0               0
1.0066                 0.9975526       -9.852865     0.0005060587        169.1498                0               0                0               0
1.0132                 0.9974866        -9.94035     0.0004979425        163.9761                0               0                0               0
1.0198                 0.9974209       -10.02855     0.0004878556        158.9873                0               0                0               0
1.0264                 0.9973547        -10.1175     0.0004758504        154.2094                0               0                0               0
1.033                  0.9972878       -10.20722     0.0004620098        149.6751                0               0                0               0
1.0396                 0.9972194       -10.29774     0.0004464549        145.4253                0               0                0               0
1.0462                  0.997149       -10.38908     0.0004293544        141.5113                0               0                0               0
1.05281                0.9970761       -10.48125     0.0004109389        137.9974                0               0                0               0
1.05941                0.9970001       -10.57425     0.0003915195        134.9631                0               0                0               0
1.06601                0.9969202        -10.6681     0.0003715124        132.5057                0               0                0               0
1.07261                0.9968359       -10.76279     0.0003514721        130.7403                0               0                0               0
1.07921                0.9967467       -10.85831      0.000332129        129.7947                0               0                0               0
1.08581                0.9966519       -10.95466     0.0003144284        129.7938                0               0                0               0
1.09241                0.9965513       -11.05182     0.0002995486        130.8261                0               0                0               0
1.09901                0.9964445       -11.14978     0.0002888655        132.8877                0               0                0               0
1.10561                0.9963312       -11.24851     0.0002838167        135.8175                0               0                0               0
1.11221                0.9962111         -11.348     0.0002856511        139.2642                0               0                0               0
1.11881                0.9960841       -11.44822     0.0002951385        142.7394                0               0                0               0
1.12541                0.9959505       -11.54916     0.0003123971        145.7536                0               0                0               0
1.13201                0.9958099        -11.6508     0.0003369472        147.9533                0               0                0               0
1.13861                0.9956627       -11.75312      0.000367934         149.175                0               0                0               0
1.14521                0.9955091        -11.8561      0.000404373        149.4134                0               0                0               0
1.15182                0.9953494       -11.95974     0.0004453154        148.7569                0               0                0               0
1.15842                0.9951838       -12.06403     0.0004899242        147.3309                0               0                0               0
1.16502                 0.995013       -12.16897     0.0005374895        145.2646                0               0                0               0
1.17162                0.9948374       -12.27457     0.0005874153        142.6744                0               0                0               0
1.17822                0.9946572       -12.38083     0.0006391981        139.6591                0               0                0               0
1.18482                0.9944729       -12.48778     0.0006924059        136.3004                0               0                0               0
1.19142                 0.994285       -12.59544     0.0007466608        132.6644                0               0                0               0
1.19802                0.9940939       -12.70382     0.0008016251        128.8047                0               0                0               0
1.20462                0.9938998       -12.81297     0.0008569919        124.7648                0               0                0               0
1.21122                 0.993703       -12.92292     0.0009124778        120.5801                0               0                0               0
1.21782                0.9935038       -13.03372     0.0009678181        116.2796                0               0                0               0
1.22442                0.9933023        -13.1454      0.001022763        111.8875                0               0                0               0
1.23102                0.9930981       -13.25801      0.001077075         107.424                0               0                0               0
1.23762                0.9928918       -13.37161       0.00113053        102.9063                0               0                0               0
1.24422                0.9926825       -13.48624      0.001182914        98.34931                0               0                0               0
1.25083                0.9924702       -13.60194      0.001234023         93.7658                0               0                0               0
1.25743                0.9922547       -13.71876      0.001283667        89.16725                0               0                0               0
1.26403                0.9920351       -13.83676      0.001331666        84.56396                0               0                0               0
1.27063                0.9918109       -13.95595      0.001377853        79.96533                0               0                0               0
1.27723                0.9915818       -14.07639      0.001422079        75.38009                0               0                0               0
1.28383                0.9913466        -14.1981      0.001464207        70.81646                0               0                0               0
1.29043                 0.991105       -14.32111      0.001504121         66.2823                0               0                0               0
1.29703                0.9908557       -14.44544      0.001541721        61.78524                0               0                0               0
1.30363                0.9905984        -14.5711      0.001576933        57.33275                0               0                0               0
1.31023                 0.990332        -14.6981      0.001609706        52.93223                0               0                0               0
1.31683                0.9900558       -14.82645      0.001640015        48.59106                0               0                0               0
1.32343                0.9897692       -14.95613      0.001667867        44.31666                0               0                0               0
1.33003                0.9894713       -15.08714        0.0016933        40.11648                0               0                0               0
1.33663                0.9891618       -15.21948      0.001716391        35.99803                0               0                0               0
1.34323                0.9888402       -15.35312      0.001737254        31.96882                0               0                0               0
1.34984                0.9885061       -15.48804      0.001756047        28.03632                0               0                0               0
1.35644                0.9881591       -15.62424      0.001772976        24.20789                0               0                0               0
1.36304                0.9877992       -15.76168      0.001788293        20.49059                0               0                0               0
1.36964                0.9874263       -15.90035      0.001802306        16.89105                0               0                0               0
1.37624                0.9870405       -16.04023      0.001815379        13.41523                0               0                0               0
1.38284                0.9866422       -16.18131      0.001827929        10.06809                0               0                0               0
1.38944                0.9862313       -16.32359      0.001840432        6.853284                0               0                0               0
1.39604                0.9858086       -16.46706       0.00185342        3.772778                0               0                0               0
1.40264                0.9853741       -16.61172      0.001867474       0.8264025                0               0                0               0
1.40924                0.9849289       -16.75759      0.001883224       -1.988546                0               0                0               0
1.41584                0.9844732       -16.90468      0.001901333       -4.677687                0               0                0               0
1.42244                0.9840075       -17.05303       0.00192249       -7.249844                0               0                0               0
1.42904                0.9835327       -17.20267      0.001947391       -9.717191                0               0                0               0
1.43564                0.9830491       -17.35365      0.001976724       -12.09519                0               0                0               0
1.44224                 0.982557       -17.50601      0.002011147       -14.40232                0               0                0               0
1.44884                0.9820574       -17.65984      0.002051273        -16.6595                0               0                0               0
1.45545                0.9815503       -17.81519      0.002097641       -18.88938                0               0                0               0
1.46205                0.9810358       -17.97214       0.00215071       -21.11536                0               0                0               0
1.46865                0.9805141       -18.13078      0.002210841        -23.3606                0               0                0               0
1.47525                0.9799851        -18.2912      0.002278291       -25.64704                0               0                0               0
1.48185                0.9794489       -18.45349      0.002353209       -27.99453                0               0                0               0
1.48845                0.9789046       -18.61775      0.002435637       -30.42017                0               0                0               0
1.49505                0.9783519       -18.78407       0.00252552       -32.93789                0               0                0               0
1.50165                  0.97779       -18.95256       0.00262271       -35.55828                0               0                0               0
1.50825                0.9772182       -19.12331      0.002726982       -38.28861                0               0                0               0
1.51485                0.9766353        -19.2964      0.002838044       -41.13309                0               0                0               0
1.52145                  0.97604       -19.47194       0.00295555       -44.09318                0               0                0               0
1.52805                0.9754311       -19.64999      0.003079108       -47.16803                0               0                0               0
1.53465                0.9748071       -19.83065      0.003208294       -50.35485                0               0                0               0
1.54125                0.9741667       -20.01397      0.003342664       -53.64938                0               0                0               0
1.54785                 0.973508       -20.20002      0.003481751       -57.04624                0               0                0               0
1.55446                0.9728295       -20.38886      0.003625084       -60.53925                0               0                0               0
1.56106                0.9721293       -20.58053      0.003772184       -64.12173                0               0                0               0
1.56766                 0.971406       -20.77507      0.003922574       -67.78667                0               0                0               0
1.57426                0.9706579       -20.97249      0.004075779       -71.52696                0               0                0               0
1.58086                0.9698833       -21.17285      0.004231336        -75.3355                0               0                0               0
1.58746                0.9690807       -21.37613      0.004388787       -79.20527                0               0                0               0
1.59406                0.9682487       -21.58236       0.00454769       -83.12943                0               0                0               0
1.60066                 0.967386       -21.79153      0.004707616       -87.10135                0               0                0               0
1.60726                0.9664913       -22.00367      0.004868155       -91.11464                0               0                0               0
1.61386                0.9655636       -22.21875      0.005028918       -95.16315                0               0                0               0
1.62046                 0.964602       -22.43679      0.005189538       -99.24101                0               0                0               0
1.62706                0.9636055        -22.6578      0.005349671       -103.3426                0               0                0               0
1.63366                0.9625736       -22.88177      0.005509004       -107.4625                0               0                0               0
1.64026                0.9615057       -23.10872      0.005667253       -111.5955                0               0                0               0
1.64686                0.9604014       -23.33867      0.005824167       -115.7369                0               0                0               0
1.65347                0.9592602       -23.57165      0.005979531       -119.8818                0               0                0               0
1.66007                0.9580821       -23.80768      0.006133171       -124.0257                0               0                0               0
1.66667                0.9568665       -24.04683      0.006284954       -128.1645                0               0                0               0
1.67327                0.9556135       -24.28914      0.006434794       -132.2939                0               0                0               0
1.67987                0.9543228       -24.53469      0.006582655       -136.4101                0               0                0               0
1.68647                0.9529941       -24.78356      0.006728551       -140.5095                0               0                0               0
1.69307                0.9516271       -25.03584      0.006872555       -144.5886                0               0                0               0
1.69967                0.9502214       -25.29166      0.007014796        -148.644                0               0                0               0
1.70627                0.9487765       -25.55111      0.007155468       -152.6729                0               0                0               0
1.71287                0.9472916       -25.81435      0.007294827       -156.6724                0               0                0               0
1.71947                 0.945766       -26.08151      0.007433199       -160.6401                0               0                0               0
1.72607                0.9441985       -26.35275      0.007570975       -164.5738                0               0                0               0
1.73267                0.9425879       -26.62823       0.00770862       -168.4718                0               0                0               0
1.73927                0.9409325       -26.90811      0.007846667       -172.3327                0               0                0               0
1.74587                0.9392305       -27.19259       0.00798572       -176.1553                0               0                0               0
1.75248                  0.93748       -27.48184      0.008126451       -179.9393                0               0                0               0
1.75908                0.9356785       -27.77603      0.008269598        176.3155                0               0                0               0
1.76568                0.9338236       -28.07536      0.008415965        172.6085                0               0                0               0
1.77228                0.9319121       -28.38001      0.008566402        168.9387                0               0                0               0
1.77888                0.9299412       -28.69016      0.008721821        165.3044                0               0                0               0
1.78548                0.9279072       -29.00598      0.008883169        161.7034                0               0                0               0
1.79208                0.9258068       -29.32766      0.009051426        158.1328                0               0                0               0
1.79868                0.9236358       -29.65536      0.009227589        154.5892                0               0                0               0
1.80528                0.9213907       -29.98923       0.00941267        151.0685                0               0                0               0
1.81188                0.9190669       -30.32945      0.009607673        147.5663                0               0                0               0
1.81848                0.9166602       -30.67614      0.009813581        144.0776                0               0                0               0
1.82508                 0.914166       -31.02945       0.01003135        140.5971                0               0                0               0
1.83168                0.9115798       -31.38951       0.01026188        137.1191                0               0                0               0
1.83828                0.9088971       -31.75644       0.01050603         133.638                0               0                0               0
1.84488                0.9061129       -32.13037       0.01076457        130.1479                0               0                0               0
1.85149                0.9032225        -32.5114        0.0110382         126.643                0               0                0               0
