! TOUCHSTONE file generated by CST MICROWAVE STUDIO
! Date and time: Tue Mar 11 13:56:35 2025
! Project name: transverse.cst
! Parameters = {Fracture=5; B=10; D=160; F=15; Feed=2.85625; L=100; M=10; R=0.384908; S=1; Theta=90; length=57.125; wave=114.25}
! Header version: 2024
! Port assignment regex: !\s*Touchstone port\s*([0-9]+)\s*=\s*(CST MWS port|CST DES external port|CST DES block port)\s*(.+)\s* \(\"(.*)\"\)(\s*mode\s*([0-9]+))?.*
! Touchstone port assignment:
! Touchstone port 1 = CST MWS port 1 ("")
! Touchstone port 2 = CST MWS port 2 ("")
# GHz S MA R 50
1                       0.997918       -9.764515     0.0003350487       -122.6834                0               0                0               0
1.00658                0.9978174       -9.853365     0.0003537341       -127.7814                0               0                0               0
1.01316                0.9977102       -9.942479     0.0003713495       -132.8464                0               0                0               0
1.01974                0.9975974       -10.03182     0.0003877917       -137.8688                0               0                0               0
1.02632                0.9974802       -10.12138     0.0004029638        -142.839                0               0                0               0
1.03289                0.9973597       -10.21114     0.0004167749       -147.7474                0               0                0               0
1.03947                0.9972373        -10.3011      0.000429143       -152.5844                0               0                0               0
1.04605                0.9971138       -10.39128     0.0004399952       -157.3393                0               0                0               0
1.05263                0.9969906       -10.48172     0.0004492706       -162.0008                0               0                0               0
1.05921                0.9968689       -10.57244     0.0004569214       -166.5563                0               0                0               0
1.06579                0.9967493       -10.66351     0.0004629157       -170.9918                0               0                0               0
1.07237                0.9966329       -10.75498     0.0004672406       -175.2916                0               0                0               0
1.07895                0.9965204       -10.84692      0.000469905       -179.4379                0               0                0               0
1.08553                0.9964124       -10.93942     0.0004709437        176.5895                0               0                0               0
1.09211                0.9963089       -11.03255     0.0004704221        172.8134                0               0                0               0
1.09868                0.9962102        -11.1264     0.0004684421        169.2593                0               0                0               0
1.10526                0.9961161       -11.22106     0.0004651484        165.9561                0               0                0               0
1.11184                 0.996026       -11.31661     0.0004607361        162.9351                0               0                0               0
1.11842                0.9959396       -11.41314       0.00045546          160.23                0               0                0               0
1.125                   0.995856       -11.51072     0.0004496429        157.8756                0               0                0               0
1.13158                0.9957742       -11.60942     0.0004436853        155.9051                0               0                0               0
1.13816                0.9956931       -11.70931     0.0004380714        154.3467                0               0                0               0
1.14474                0.9956112       -11.81043     0.0004333713        153.2183                0               0                0               0
1.15132                0.9955274       -11.91283     0.0004302348        152.5207                0               0                0               0
1.15789                  0.99544       -12.01652     0.0004293709        152.2301                0               0                0               0
1.16447                0.9953476       -12.12152      0.000431513         152.292                0               0                0               0
1.17105                0.9952488       -12.22784      0.000437368        152.6192                0               0                0               0
1.17763                 0.995142       -12.33545     0.0004475564         153.096                0               0                0               0
1.18421                0.9950261       -12.44434     0.0004625564        153.5907                0               0                0               0
1.19079                0.9948996       -12.55446     0.0004826658        153.9714                0               0                0               0
1.19737                0.9947617       -12.66578     0.0005079914        154.1232                0               0                0               0
1.20395                0.9946113       -12.77823     0.0005384658        153.9597                0               0                0               0
1.21053                 0.994448       -12.89176     0.0005738834        153.4274                0               0                0               0
1.21711                 0.994271        -13.0063     0.0006139434        152.5033                0               0                0               0
1.22368                0.9940804       -13.12178     0.0006582891        151.1889                0               0                0               0
1.23026                 0.993876       -13.23814     0.0007065395        149.5029                0               0                0               0
1.23684                0.9936582       -13.35532     0.0007583107         147.474                0               0                0               0
1.24342                0.9934273       -13.47326     0.0008132281         145.136                0               0                0               0
1.25                   0.9931842        -13.5919     0.0008709339        142.5242                0               0                0               0
1.25658                0.9929297       -13.71119     0.0009310892        139.6728                0               0                0               0
1.26316                0.9926647       -13.83112     0.0009933744        136.6138                0               0                0               0
1.26974                0.9923904       -13.95166      0.001057488        133.3764                0               0                0               0
1.27632                0.9921081       -14.07281      0.001123147         129.987                0               0                0               0
1.28289                 0.991819       -14.19456      0.001190081        126.4688                0               0                0               0
1.28947                0.9915245       -14.31695      0.001258039        122.8427                0               0                0               0
1.29605                0.9912258       -14.44002      0.001326778        119.1271                0               0                0               0
1.30263                 0.990924       -14.56381      0.001396074        115.3383                0               0                0               0
1.30921                0.9906204       -14.68839      0.001465714        111.4907                0               0                0               0
1.31579                0.9903155       -14.81384      0.001535499        107.5973                0               0                0               0
1.32237                0.9900104       -14.94024      0.001605245        103.6696                0               0                0               0
1.32895                0.9897053       -15.06769      0.001674784        99.71816                0               0                0               0
1.33553                0.9894007       -15.19631      0.001743962         95.7523                0               0                0               0
1.34211                0.9890965       -15.32618      0.001812648        91.78065                0               0                0               0
1.34868                0.9887924       -15.45743      0.001880726        87.81107                0               0                0               0
1.35526                 0.988488       -15.59016      0.001948103        83.85077                0               0                0               0
1.36184                0.9881825       -15.72447      0.002014712        79.90639                0               0                0               0
1.36842                0.9878748       -15.86048      0.002080508        75.98405                0               0                0               0
1.375                  0.9875637       -15.99826      0.002145473        72.08942                0               0                0               0
1.38158                0.9872478       -16.13791       0.00220962        68.22767                0               0                0               0
1.38816                0.9869255       -16.27948      0.002272994        64.40356                0               0                0               0
1.39474                0.9865951       -16.42305      0.002335669         60.6214                0               0                0               0
1.40132                0.9862547       -16.56865      0.002397759          56.885                0               0                0               0
1.40789                0.9859025       -16.71631      0.002459409        53.19773                0               0                0               0
1.41447                0.9855367       -16.86604      0.002520804        49.56237                0               0                0               0
1.42105                0.9851556       -17.01785      0.002582166        45.98117                0               0                0               0
1.42763                0.9847573       -17.17172      0.002643755        42.45573                0               0                0               0
1.43421                0.9843406       -17.32762      0.002705868        38.98696                0               0                0               0
1.44079                0.9839036       -17.48552      0.002768838        35.57507                0               0                0               0
1.44737                0.9834456       -17.64536      0.002833031        32.21943                0               0                0               0
1.45395                0.9829654       -17.80709      0.002898846        28.91862                0               0                0               0
1.46053                0.9824626       -17.97065      0.002966707        25.67033                0               0                0               0
1.46711                0.9819365       -18.13599      0.003037061        22.47142                0               0                0               0
1.47368                0.9813872       -18.30303      0.003110368        19.31786                0               0                0               0
1.48026                0.9808147       -18.47174      0.003187104        16.20481                0               0                0               0
1.48684                0.9802194       -18.64205      0.003267741        13.12668                0               0                0               0
1.49342                0.9796022       -18.81393       0.00335275        10.07725                0               0                0               0
1.5                    0.9789638       -18.98735      0.003442587        7.049733                0               0                0               0
1.50658                0.9783051       -19.16231      0.003537686        4.036984                0               0                0               0
1.51316                0.9776274       -19.33881      0.003638455        1.031633                0               0                0               0
1.51974                0.9769319       -19.51686      0.003745265       -1.973735                0               0                0               0
1.52632                  0.97622       -19.69652      0.003858447       -4.986409                0               0                0               0
1.53289                 0.975493       -19.87785      0.003978286       -8.013373                0               0                0               0
1.53947                 0.974752       -20.06092      0.004105015       -11.06117                0               0                0               0
1.54605                 0.973998       -20.24585      0.004238817       -14.13577                0               0                0               0
1.55263                0.9732321       -20.43275      0.004379824       -17.24245                0               0                0               0
1.55921                0.9724548       -20.62176      0.004528111       -20.38577                0               0                0               0
1.56579                0.9716667       -20.81304      0.004683705       -23.56945                0               0                0               0
1.57237                0.9708677       -21.00675      0.004846581       -26.79645                0               0                0               0
1.57895                0.9700576       -21.20307       0.00501667       -30.06892                0               0                0               0
1.58553                0.9692356       -21.40218      0.005193858       -33.38823                0               0                0               0
1.59211                0.9684006       -21.60428      0.005377993       -36.75506                0               0                0               0
1.59868                0.9675516       -21.80955      0.005568892       -40.16943                0               0                0               0
1.60526                0.9666863       -22.01818      0.005766336       -43.63077                0               0                0               0
1.61184                0.9658026       -22.23034      0.005970087       -47.13802                0               0                0               0
1.61842                 0.964898       -22.44621      0.006179882       -50.68965                0               0                0               0
1.625                  0.9639695       -22.66594      0.006395448        -54.2838                0               0                0               0
1.63158                0.9630138       -22.88968      0.006616495       -57.91826                0               0                0               0
1.63816                0.9620275       -23.11755       0.00684273       -61.59063                0               0                0               0
1.64474                0.9610069       -23.34965      0.007073857       -65.29829                0               0                0               0
1.65132                0.9599483       -23.58606      0.007309582       -69.03849                0               0                0               0
1.65789                0.9588477       -23.82684      0.007549618       -72.80842                0               0                0               0
1.66447                0.9577014       -24.07202      0.007793688       -76.60518                0               0                0               0
1.67105                0.9565054       -24.32162      0.008041529       -80.42587                0               0                0               0
1.67763                 0.955256       -24.57564      0.008292897       -84.26761                0               0                0               0
1.68421                0.9539497       -24.83403       0.00854757       -88.12755                0               0                0               0
1.69079                0.9525832       -25.09677      0.008805351       -92.00289                0               0                0               0
1.69737                0.9511535       -25.36379      0.009066073       -95.89092                0               0                0               0
1.70395                0.9496577       -25.63502      0.009329603       -99.78902                0               0                0               0
1.71053                0.9480935       -25.91036      0.009595842       -103.6947                0               0                0               0
1.71711                0.9464588       -26.18975      0.009864732       -107.6055                0               0                0               0
1.72368                0.9447519       -26.47309       0.01013626       -111.5193                0               0                0               0
1.73026                0.9429718        -26.7603       0.01041045       -115.4338                0               0                0               0
1.73684                0.9411171       -27.05131       0.01068739       -119.3473                0               0                0               0
1.74342                0.9391875       -27.34604       0.01096719       -123.2579                0               0                0               0
1.75                   0.9371825       -27.64446       0.01125005        -127.164                0               0                0               0
1.75658                0.9351022       -27.94652       0.01153619       -131.0642                0               0                0               0
1.76316                0.9329465       -28.25222       0.01182591       -134.9574                0               0                0               0
1.76974                0.9307159       -28.56159       0.01211953       -138.8426                0               0                0               0
1.77632                0.9284105       -28.87465       0.01241747        -142.719                0               0                0               0
1.78289                0.9260308       -29.19149       0.01272017        -146.586                0               0                0               0
1.78947                0.9235769       -29.51221       0.01302813       -150.4434                0               0                0               0
1.79605                0.9210487       -29.83694       0.01334191       -154.2912                0               0                0               0
1.80263                0.9184463       -30.16583        0.0136621       -158.1295                0               0                0               0
1.80921                0.9157689       -30.49908       0.01398935       -161.9588                0               0                0               0
1.81579                0.9130157       -30.83691       0.01432433       -165.7797                0               0                0               0
1.82237                0.9101854       -31.17955       0.01466777       -169.5932                0               0                0               0
1.82895                0.9072759       -31.52725       0.01502039       -173.4003                0               0                0               0
1.83553                0.9042846        -31.8803       0.01538296       -177.2025                0               0                0               0
1.84211                0.9012086       -32.23898       0.01575625        178.9987                0               0                0               0
1.84868                0.8980441       -32.60356       0.01614104        175.2016                0               0                0               0
