! TOUCHSTONE file generated by CST MICROWAVE STUDIO
! Date and time: Tue Mar 11 13:57:09 2025
! Project name: transverse.cst
! Parameters = {Fracture=5; B=12.5; D=160; F=25; Feed=2.85625; L=100; M=30; R=0.384908; S=2; Theta=90; length=57.125; wave=114.25}
! Header version: 2024
! Port assignment regex: !\s*Touchstone port\s*([0-9]+)\s*=\s*(CST MWS port|CST DES external port|CST DES block port)\s*(.+)\s* \(\"(.*)\"\)(\s*mode\s*([0-9]+))?.*
! Touchstone port assignment:
! Touchstone port 1 = CST MWS port 1 ("")
! Touchstone port 2 = CST MWS port 2 ("")
# GHz S MA R 50
1                      0.9975584       -9.767706     0.0004444643        166.0524                0               0                0               0
1.00658                0.9974963       -9.853571     0.0004458328        160.6673                0               0                0               0
1.01316                0.9974373       -9.940178     0.0004456873        155.3933                0               0                0               0
1.01974                0.9973812       -10.02759     0.0004440168        150.2406                0               0                0               0
1.02632                0.9973269       -10.11587     0.0004408225        145.2215                0               0                0               0
1.03289                0.9972739       -10.20507     0.0004361202         140.351                0               0                0               0
1.03947                 0.997221       -10.29523     0.0004299421        135.6471                0               0                0               0
1.04605                0.9971673       -10.38638     0.0004223404        131.1313                0               0                0               0
1.05263                0.9971116       -10.47855     0.0004133907        126.8297                0               0                0               0
1.05921                0.9970526       -10.57176     0.0004031968        122.7733                0               0                0               0
1.06579                0.9969893       -10.66601     0.0003918968         118.999                0               0                0               0
1.07237                0.9969206        -10.7613     0.0003796703        115.5504                0               0                0               0
1.07895                0.9968452       -10.85762     0.0003667488        112.4783                0               0                0               0
1.08553                0.9967621       -10.95494     0.0003534259        109.8403                0               0                0               0
1.09211                0.9966704       -11.05323     0.0003400713        107.6993                0               0                0               0
1.09868                0.9965692       -11.15245     0.0003271434        106.1197                0               0                0               0
1.10526                0.9964579       -11.25255     0.0003151999        105.1584                0               0                0               0
1.11184                 0.996336       -11.35348     0.0003048988        104.8522                0               0                0               0
1.11842                0.9962031       -11.45519     0.0002969822        105.1982                0               0                0               0
1.125                  0.9960591       -11.55762     0.0002922308        106.1327                0               0                0               0
1.13158                0.9959041       -11.66073     0.0002913869        107.5172                0               0                0               0
1.13816                0.9957382       -11.76444     0.0002950545        109.1419                0               0                0               0
1.14474                0.9955617       -11.86872     0.0003036067         110.756                0               0                0               0
1.15132                0.9953755       -11.97353     0.0003171371        112.1143                0               0                0               0
1.15789                  0.99518       -12.07881      0.000335474        113.0227                0               0                0               0
1.16447                0.9949762       -12.18455     0.0003582465        113.3609                0               0                0               0
1.17105                 0.994765       -12.29073     0.0003849687        113.0819                0               0                0               0
1.17763                0.9945474       -12.39734      0.000415114        112.1948                0               0                0               0
1.18421                0.9943244       -12.50438     0.0004481651        110.7431                0               0                0               0
1.19079                0.9940972       -12.61186     0.0004836404        108.7874                0               0                0               0
1.19737                0.9938667       -12.71981     0.0005211043        106.3931                0               0                0               0
1.20395                 0.993634       -12.82827     0.0005601668        103.6231                0               0                0               0
1.21053                0.9933998       -12.93728     0.0006004785        100.5348                0               0                0               0
1.21711                0.9931652       -13.04691     0.0006417255        97.17848                0               0                0               0
1.22368                0.9929306        -13.1572     0.0006836223         93.5976                0               0                0               0
1.23026                0.9926968       -13.26825     0.0007259071        89.82932                0               0                0               0
1.23684                0.9924637       -13.38012     0.0007683369        85.90526                0               0                0               0
1.24342                0.9922317       -13.49291      0.000810685        81.85238                0               0                0               0
1.25                   0.9920005       -13.60668     0.0008527379        77.69372                0               0                0               0
1.25658                  0.99177       -13.72154     0.0008942937         73.4491                0               0                0               0
1.26316                0.9915397       -13.83755     0.0009351608        69.13572                0               0                0               0
1.26974                0.9913089        -13.9548     0.0009751575        64.76858                0               0                0               0
1.27632                0.9910765       -14.07337      0.001014112        60.36099                0               0                0               0
1.28289                0.9908416       -14.19331       0.00105186        55.92481                0               0                0               0
1.28947                0.9906033       -14.31469      0.001088251        51.47079                0               0                0               0
1.29605                0.9903599       -14.43755       0.00112314         47.0088                0               0                0               0
1.30263                0.9901102       -14.56192      0.001156396        42.54801                0               0                0               0
1.30921                 0.989853       -14.68785      0.001187901        38.09709                0               0                0               0
1.31579                0.9895866       -14.81532      0.001217547        33.66432                0               0                0               0
1.32237                0.9893096       -14.94436      0.001245244        29.25772                0               0                0               0
1.32895                0.9890208       -15.07494      0.001270915        24.88517                0               0                0               0
1.33553                0.9887189       -15.20705      0.001294504         20.5545                0               0                0               0
1.34211                0.9884028       -15.34066      0.001315972        16.27354                0               0                0               0
1.34868                0.9880714       -15.47573      0.001335303        12.05021                0               0                0               0
1.35526                0.9877241        -15.6122      0.001352506        7.892573                0               0                0               0
1.36184                0.9873602       -15.75005      0.001367615        3.808821                0               0                0               0
1.36842                0.9869792        -15.8892      0.001380694      -0.1926636                0               0                0               0
1.375                  0.9865809       -16.02961      0.001391839       -4.103351                0               0                0               0
1.38158                0.9861656       -16.17122      0.001401181       -7.914595                0               0                0               0
1.38816                0.9857333       -16.31399      0.001408891       -11.61772                0               0                0               0
1.39474                0.9852846       -16.45786      0.001415178       -15.20415                0               0                0               0
1.40132                  0.98482       -16.60281      0.001420298        -18.6656                0               0                0               0
1.40789                0.9843404        -16.7488      0.001424553        -21.9943                0               0                0               0
1.41447                0.9838467       -16.89583      0.001428294       -25.18336                0               0                0               0
1.42105                0.9833398       -17.04389       0.00143192       -28.22714                0               0                0               0
1.42763                0.9828211       -17.19299      0.001435883       -31.12176                0               0                0               0
1.43421                0.9822915       -17.34316      0.001440679       -33.86559                0               0                0               0
1.44079                0.9817522       -17.49443      0.001446847       -36.45991                0               0                0               0
1.44737                0.9812043       -17.64687      0.001454962       -38.90936                0               0                0               0
1.45395                0.9806487       -17.80053      0.001465621        -41.2225                0               0                0               0
1.46053                0.9800863       -17.95551      0.001479434       -43.41207                0               0                0               0
1.46711                0.9795178       -18.11191      0.001497006       -45.49508                0               0                0               0
1.47368                0.9789437       -18.26981      0.001518914       -47.49253                0               0                0               0
1.48026                0.9783642       -18.42935      0.001545696       -49.42884                0               0                0               0
1.48684                0.9777793       -18.59064      0.001577826       -51.33085                0               0                0               0
1.49342                0.9771887       -18.75381      0.001615699       -53.22664                0               0                0               0
1.5                     0.976592       -18.91898      0.001659625       -55.14415                0               0                0               0
1.50658                0.9759883       -19.08629      0.001709812       -57.10986                0               0                0               0
1.51316                0.9753764       -19.25586      0.001766373       -59.14758                0               0                0               0
1.51974                0.9747552        -19.4278      0.001829326       -61.27763                0               0                0               0
1.52632                0.9741229       -19.60224      0.001898601        -63.5162                0               0                0               0
1.53289                0.9734778       -19.77927       0.00197405       -65.87526                0               0                0               0
1.53947                0.9728179       -19.95898      0.002055461       -68.36261                0               0                0               0
1.54605                0.9721411       -20.14145      0.002142572       -70.98225                0               0                0               0
1.55263                 0.971445       -20.32673      0.002235074       -73.73492                0               0                0               0
1.55921                0.9707275       -20.51488      0.002332634       -76.61858                0               0                0               0
1.56579                0.9699863       -20.70593      0.002434897        -79.6291                0               0                0               0
1.57237                0.9692189       -20.89988      0.002541495       -82.76068                0               0                0               0
1.57895                0.9684234       -21.09674      0.002652053        -86.0064                0               0                0               0
1.58553                0.9675975       -21.29649      0.002766197        -89.3586                0               0                0               0
1.59211                0.9667394        -21.4991      0.002883556        -92.8092                0               0                0               0
1.59868                0.9658474       -21.70454      0.003003765       -96.34993                0               0                0               0
1.60526                0.9649201       -21.91275      0.003126468       -99.97254                0               0                0               0
1.61184                0.9639563       -22.12368      0.003251322       -103.6689                0               0                0               0
1.61842                 0.962955       -22.33728      0.003377996       -107.4313                0               0                0               0
1.625                  0.9619159       -22.55348      0.003506175        -111.252                0               0                0               0
1.63158                0.9608384       -22.77224      0.003635559       -115.1238                0               0                0               0
1.63816                0.9597225       -22.99349      0.003765867         -119.04                0               0                0               0
1.64474                0.9585685       -23.21721      0.003896839       -122.9941                0               0                0               0
1.65132                 0.957377       -23.44337      0.004028234       -126.9798                0               0                0               0
1.65789                0.9561486       -23.67195      0.004159835       -130.9916                0               0                0               0
1.66447                0.9548844       -23.90295      0.004291449       -135.0238                0               0                0               0
1.67105                0.9535853       -24.13642      0.004422909       -139.0714                0               0                0               0
1.67763                0.9522524       -24.37239      0.004554076       -143.1297                0               0                0               0
1.68421                0.9508871       -24.61093      0.004684843        -147.194                0               0                0               0
1.69079                0.9494903       -24.85214       0.00481513       -151.2603                0               0                0               0
1.69737                 0.948063       -25.09614      0.004944896       -155.3246                0               0                0               0
1.70395                0.9466064       -25.34307      0.005074132       -159.3832                0               0                0               0
1.71053                0.9451209        -25.5931      0.005202867       -163.4328                0               0                0               0
1.71711                 0.943607       -25.84642      0.005331169       -167.4703                0               0                0               0
1.72368                0.9420649       -26.10324      0.005459149       -171.4928                0               0                0               0
1.73026                0.9404941       -26.36378      0.005586955        -175.498                0               0                0               0
1.73684                0.9388942       -26.62829      0.005714784       -179.4835                0               0                0               0
1.74342                0.9372638       -26.89702       0.00584287        176.5526                0               0                0               0
1.75                   0.9356014       -27.17024      0.005971495        172.6117                0               0                0               0
1.75658                0.9339051       -27.44821      0.006100986        168.6951                0               0                0               0
1.76316                0.9321723        -27.7312      0.006231712        164.8036                0               0                0               0
1.76974                0.9303998       -28.01948      0.006364082        160.9378                0               0                0               0
1.77632                0.9285843       -28.31331       0.00649855        157.0976                0               0                0               0
1.78289                0.9267221       -28.61294      0.006635606        153.2826                0               0                0               0
1.78947                0.9248087        -28.9186      0.006775771        149.4922                0               0                0               0
1.79605                0.9228395       -29.23052      0.006919601         145.725                0               0                0               0
1.80263                0.9208096        -29.5489      0.007067677        141.9794                0               0                0               0
1.80921                 0.918714       -29.87393      0.007220598        138.2533                0               0                0               0
1.81579                0.9165472       -30.20577      0.007378979        134.5442                0               0                0               0
1.82237                0.9143038       -30.54456      0.007543441        130.8493                0               0                0               0
1.82895                0.9119783       -30.89041      0.007714604        127.1653                0               0                0               0
1.83553                0.9095652       -31.24343      0.007893085        123.4887                0               0                0               0
1.84211                0.9070591       -31.60371       0.00807948        119.8159                0               0                0               0
1.84868                0.9044545       -31.97129      0.008274367        116.1427                0               0                0               0
