! TOUCHSTONE file generated by CST MICROWAVE STUDIO
! Date and time: Tue Mar 11 13:57:08 2025
! Project name: transverse.cst
! Parameters = {Fracture=1; B=12.5; D=160; F=25; Feed=2.85625; L=100; M=30; R=0.384908; S=1; Theta=90; length=57.125; wave=114.25}
! Header version: 2024
! Port assignment regex: !\s*Touchstone port\s*([0-9]+)\s*=\s*(CST MWS port|CST DES external port|CST DES block port)\s*(.+)\s* \(\"(.*)\"\)(\s*mode\s*([0-9]+))?.*
! Touchstone port assignment:
! Touchstone port 1 = CST MWS port 1 ("")
! Touchstone port 2 = CST MWS port 2 ("")
# GHz S MA R 50
1                      0.9975237       -10.02355     0.0005411989        164.6967                0               0                0               0
1.0066                 0.9974605       -10.11123     0.0005374685        158.5961                0               0                0               0
1.0132                    0.9974       -10.19963     0.0005315086        152.6031                0               0                0               0
1.0198                 0.9973422        -10.2888      0.000523281        146.7262                0               0                0               0
1.0264                 0.9972863       -10.37881     0.0005127607        140.9771                0               0                0               0
1.033                  0.9972313        -10.4697     0.0004999368        135.3714                0               0                0               0
1.0396                 0.9971767       -10.56151     0.0004848159        129.9292                0               0                0               0
1.0462                 0.9971214       -10.65427     0.0004674254        124.6776                0               0                0               0
1.05281                0.9970642       -10.74801     0.0004478176        119.6518                0               0                0               0
1.05941                0.9970044       -10.84275     0.0004260775        114.8996                0               0                0               0
1.06601                 0.996941       -10.93849     0.0004023331         110.485                0               0                0               0
1.07261                0.9968725       -11.03523     0.0003767711        106.4962                0               0                0               0
1.07921                0.9967984       -11.13297     0.0003496631        103.0555                0               0                0               0
1.08581                0.9967174       -11.23167     0.0003214064         100.335                0               0                0               0
1.09241                0.9966288       -11.33131     0.0002925922        98.57677                0               0                0               0
1.09901                0.9965319       -11.43187     0.0002641149        98.11753                0               0                0               0
1.10561                0.9964261        -11.5333     0.0002373421        99.39879                0               0                0               0
1.11221                 0.996311       -11.63556     0.0002143329        102.9092                0               0                0               0
1.11881                0.9961863       -11.73861     0.0001979655        108.9379                0               0                0               0
1.12541                0.9960518        -11.8424     0.0001915658        117.0683                0               0                0               0
1.13201                0.9959076       -11.94688     0.0001976402        125.8408                0               0                0               0
1.13861                0.9957538       -12.05201      0.000216487        133.4013                0               0                0               0
1.14521                0.9955908       -12.15776     0.0002463109         138.645                0               0                0               0
1.15182                0.9954191       -12.26407     0.0002845866        141.4693                0               0                0               0
1.15842                0.9952395       -12.37094      0.000329095        142.2798                0               0                0               0
1.16502                0.9950524       -12.47834     0.0003781964        141.5645                0               0                0               0
1.17162                0.9948588       -12.58625     0.0004307382        139.7298                0               0                0               0
1.17822                0.9946593       -12.69468     0.0004859018        137.0777                0               0                0               0
1.18482                0.9944553       -12.80363     0.0005430823         133.824                0               0                0               0
1.19142                0.9942471       -12.91311     0.0006018091        130.1223                0               0                0               0
1.19802                 0.994036       -13.02316     0.0006616969         126.083                0               0                0               0
1.20462                0.9938226       -13.13382     0.0007224149        121.7863                0               0                0               0
1.21122                0.9936076       -13.24512     0.0007836684         117.292                0               0                0               0
1.21782                0.9933917       -13.35712      0.000845186        112.6449                0               0                0               0
1.22442                0.9931753       -13.46988     0.0009067133        107.8795                0               0                0               0
1.23102                 0.992959       -13.58348     0.0009680077        103.0228                0               0                0               0
1.23762                0.9927426       -13.69798      0.001028835        98.09638                0               0                0               0
1.24422                0.9925264       -13.81345       0.00108897        93.11748                0               0                0               0
1.25083                  0.99231       -13.92998      0.001148191        88.10046                0               0                0               0
1.25743                0.9920932       -14.04763      0.001206285        83.05733                0               0                0               0
1.26403                0.9918754       -14.16649      0.001263045        77.99834                0               0                0               0
1.27063                 0.991656       -14.28661      0.001318272         72.9324                0               0                0               0
1.27723                 0.991434       -14.40806      0.001371771        67.86742                0               0                0               0
1.28383                0.9912085        -14.5309      0.001423359        62.81052                0               0                0               0
1.29043                0.9909784       -14.65518      0.001472861        57.76829                0               0                0               0
1.29703                0.9907425       -14.78094      0.001520114        52.74687                0               0                0               0
1.30363                0.9904997        -14.9082      0.001564967        47.75214                0               0                0               0
1.31023                0.9902485         -15.037      0.001607282        42.78982                0               0                0               0
1.31683                0.9899878       -15.16733      0.001646938        37.86553                0               0                0               0
1.32343                0.9897162        -15.2992      0.001683829        32.98487                0               0                0               0
1.33003                0.9894328        -15.4326      0.001717872        28.15353                0               0                0               0
1.33663                0.9891363       -15.56751      0.001749003        23.37729                0               0                0               0
1.34323                0.9888259        -15.7039      0.001777183         18.6621                0               0                0               0
1.34984                0.9885005       -15.84175      0.001802398        14.01411                0               0                0               0
1.35644                0.9881597       -15.98101      0.001824666        9.439681                0               0                0               0
1.36304                0.9878029       -16.12165      0.001844033        4.945427                0               0                0               0
1.36964                0.9874299       -16.26363      0.001860585       0.5381969                0               0                0               0
1.37624                0.9870404       -16.40689      0.001874442       -3.774936                0               0                0               0
1.38284                0.9866345        -16.5514      0.001885767       -7.986719                0               0                0               0
1.38944                0.9862124       -16.69712      0.001894769       -12.08979                0               0                0               0
1.39604                0.9857746       -16.84404      0.001901705       -16.07679                0               0                0               0
1.40264                0.9853216       -16.99211      0.001906883        -19.9405                0               0                0               0
1.40924                0.9848539       -17.14133      0.001910664       -23.67407                0               0                0               0
1.41584                0.9843725        -17.2917      0.001913468       -27.27129                0               0                0               0
1.42244                0.9838781       -17.44323       0.00191577       -30.72689                0               0                0               0
1.42904                0.9833716       -17.59593      0.001918103       -34.03694                0               0                0               0
1.43564                0.9828538       -17.74984      0.001921052       -37.19937                0               0                0               0
1.44224                0.9823256       -17.90501      0.001925255       -40.21437                0               0                0               0
1.44884                0.9817877       -18.06149      0.001931388       -43.08496                0               0                0               0
1.45545                0.9812409       -18.21935      0.001940159        -45.8174                0               0                0               0
1.46205                0.9806855       -18.37867       0.00195229        -48.4216                0               0                0               0
1.46865                0.9801219       -18.53955      0.001968501       -50.91123                0               0                0               0
1.47525                0.9795504       -18.70208       0.00198949       -53.30372                0               0                0               0
1.48185                0.9789708       -18.86636      0.002015905       -55.61987                0               0                0               0
1.48845                 0.978383        -19.0325       0.00204833       -57.88324                0               0                0               0
1.49505                0.9777864       -19.20062      0.002087261       -60.11918                0               0                0               0
1.50165                0.9771801       -19.37083      0.002133086       -62.35373                0               0                0               0
1.50825                0.9765633       -19.54323       0.00218608       -64.61246                0               0                0               0
1.51485                0.9759347       -19.71792      0.002246395       -66.91929                0               0                0               0
1.52145                0.9752929       -19.89501      0.002314063       -69.29554                0               0                0               0
1.52805                0.9746363       -20.07459      0.002389001        -71.7592                0               0                0               0
1.53465                0.9739631       -20.25673      0.002471022       -74.32454                0               0                0               0
1.54125                0.9732715        -20.4415      0.002559846         -77.002                0               0                0               0
1.54785                0.9725593       -20.62895      0.002655119       -79.79831                0               0                0               0
1.55446                0.9718247       -20.81913      0.002756424       -82.71681                0               0                0               0
1.56106                0.9710655       -21.01206      0.002863297       -85.75794                0               0                0               0
1.56766                0.9702797       -21.20776      0.002975241       -88.91965                0               0                0               0
1.57426                0.9694653       -21.40624      0.003091733       -92.19798                0               0                0               0
1.58086                0.9686205       -21.60746      0.003212238        -95.5875                0               0                0               0
1.58746                0.9677436       -21.81142      0.003336214       -99.08169                0               0                0               0
1.59406                0.9668329       -22.01809      0.003463119       -102.6733                0               0                0               0
1.60066                0.9658875       -22.22741      0.003592416       -106.3548                0               0                0               0
1.60726                0.9649058       -22.43936      0.003723579       -110.1181                0               0                0               0
1.61386                0.9638875       -22.65387      0.003856091       -113.9554                0               0                0               0
1.62046                0.9628317        -22.8709      0.003989453       -117.8589                0               0                0               0
1.62706                0.9617382       -23.09041      0.004123184       -121.8208                0               0                0               0
1.63366                 0.960607       -23.31235      0.004256821       -125.8336                0               0                0               0
1.64026                0.9594381        -23.5367      0.004389927       -129.8902                0               0                0               0
1.64686                0.9582322       -23.76344      0.004522087       -133.9835                0               0                0               0
1.65347                0.9569898       -23.99256      0.004652915       -138.1068                0               0                0               0
1.66007                0.9557116       -24.22407      0.004782052       -142.2537                0               0                0               0
1.66667                0.9543987       -24.45801      0.004909174        -146.418                0               0                0               0
1.67327                0.9530518       -24.69442      0.005033989       -150.5936                0               0                0               0
1.67987                0.9516721       -24.93337      0.005156246       -154.7748                0               0                0               0
1.68647                0.9502605       -25.17495      0.005275731       -158.9561                0               0                0               0
1.69307                0.9488177       -25.41929      0.005392279       -163.1322                0               0                0               0
1.69967                0.9473447       -25.66651      0.005505768       -167.2977                0               0                0               0
1.70627                0.9458418       -25.91679      0.005616131       -171.4478                0               0                0               0
1.71287                0.9443093       -26.17028      0.005723352       -175.5776                0               0                0               0
1.71947                0.9427471        -26.4272      0.005827477       -179.6825                0               0                0               0
1.72607                0.9411549       -26.68777      0.005928615         176.242                0               0                0               0
1.73267                0.9395318       -26.95219       0.00602694        172.2001                0               0                0               0
1.73927                0.9378767       -27.22072      0.006122697        168.1958                0               0                0               0
1.74587                 0.936188       -27.49361      0.006216203        164.2329                0               0                0               0
1.75248                0.9344634       -27.77109      0.006307855        160.3146                0               0                0               0
1.75908                0.9327007       -28.05344      0.006398128         156.444                0               0                0               0
1.76568                0.9308965       -28.34087      0.006487575        152.6237                0               0                0               0
1.77228                0.9290479       -28.63366      0.006576837        148.8559                0               0                0               0
1.77888                0.9271505       -28.93201       0.00666663        145.1419                0               0                0               0
1.78548                0.9252006       -29.23616      0.006757753        141.4827                0               0                0               0
1.79208                0.9231934        -29.5463      0.006851081        137.8783                0               0                0               0
1.79868                0.9211244       -29.86262      0.006947559         134.328                0               0                0               0
1.80528                0.9189882       -30.18529      0.007048193        130.8302                0               0                0               0
1.81188                0.9167799       -30.51445      0.007154047        127.3823                0               0                0               0
1.81848                0.9144941       -30.85021      0.007266222        123.9809                0               0                0               0
1.82508                0.9121256       -31.19269      0.007385849        120.6213                0               0                0               0
1.83168                0.9096687       -31.54196       0.00751407        117.2981                0               0                0               0
1.83828                0.9071185       -31.89808       0.00765202        114.0049                0               0                0               0
1.84488                0.9044696       -32.26109      0.007800812        110.7345                0               0                0               0
1.85149                0.9017172         -32.631      0.007961512         107.479                0               0                0               0
