! TOUCHSTONE file generated by CST MICROWAVE STUDIO
! Date and time: Tue Mar 11 13:57:00 2025
! Project name: transverse.cst
! Parameters = {Fracture=5; B=12.5; D=160; F=15; Feed=2.85625; L=100; M=10; R=0.384908; S=1; Theta=90; length=57.125; wave=114.25}
! Header version: 2024
! Port assignment regex: !\s*Touchstone port\s*([0-9]+)\s*=\s*(CST MWS port|CST DES external port|CST DES block port)\s*(.+)\s* \(\"(.*)\"\)(\s*mode\s*([0-9]+))?.*
! Touchstone port assignment:
! Touchstone port 1 = CST MWS port 1 ("")
! Touchstone port 2 = CST MWS port 2 ("")
# GHz S MA R 50
1                      0.9978424       -9.759709     0.0003460802       -146.2828                0               0                0               0
1.0066                 0.9977489        -9.84816      0.000353215       -150.8098                0               0                0               0
1.0132                 0.9976509       -9.936957     0.0003590883       -155.2563                0               0                0               0
1.0198                 0.9975486       -10.02608     0.0003636581       -159.6079                0               0                0               0
1.0264                  0.997443       -10.11554     0.0003668949       -163.8488                0               0                0               0
1.033                  0.9973351       -10.20531     0.0003687838       -167.9609                0               0                0               0
1.0396                 0.9972253       -10.29542     0.0003693268       -171.9239                0               0                0               0
1.0462                 0.9971147       -10.38588     0.0003685472       -175.7147                0               0                0               0
1.05281                0.9970041       -10.47672     0.0003664929       -179.3068                0               0                0               0
1.05941                0.9968941       -10.56798     0.0003632422        177.3303                0               0                0               0
1.06601                0.9967854        -10.6597     0.0003589098        174.2309                0               0                0               0
1.07261                0.9966784       -10.75193     0.0003536544        171.4338                0               0                0               0
1.07921                0.9965737       -10.84473     0.0003476879        168.9815                0               0                0               0
1.08581                0.9964714       -10.93816     0.0003412848        166.9192                0               0                0               0
1.09241                0.9963717       -11.03228     0.0003347927        165.2921                0               0                0               0
1.09901                0.9962742       -11.12715     0.0003286416        164.1406                0               0                0               0
1.10561                0.9961792       -11.22285     0.0003233478         163.493                0               0                0               0
1.11221                0.9960859       -11.31943     0.0003195092        163.3552                0               0                0               0
1.11881                0.9959938       -11.41696     0.0003177864        163.6998                0               0                0               0
1.12541                0.9959025       -11.51549     0.0003188639        164.4553                0               0                0               0
1.13201                0.9958108       -11.61507      0.000323393        165.5036                0               0                0               0
1.13861                0.9957181       -11.71575     0.0003319251        166.6877                0               0                0               0
1.14521                0.9956231       -11.81755     0.0003448524        167.8323                0               0                0               0
1.15182                0.9955251        -11.9205     0.0003623753        168.7706                0               0                0               0
1.15842                0.9954227       -12.02463     0.0003845036        169.3676                0               0                0               0
1.16502                0.9953148       -12.12993     0.0004110887        169.5339                0               0                0               0
1.17162                0.9952006       -12.23641     0.0004418715        169.2258                0               0                0               0
1.17822                0.9950788       -12.34404     0.0004765284        168.4379                0               0                0               0
1.18482                0.9949486       -12.45282     0.0005147101        167.1914                0               0                0               0
1.19142                 0.994809       -12.56272     0.0005560664        165.5232                0               0                0               0
1.19802                0.9946596        -12.6737     0.0006002598        163.4776                0               0                0               0
1.20462                0.9944995       -12.78572      0.000646973        161.1002                0               0                0               0
1.21122                0.9943285       -12.89874     0.0006959103        158.4352                0               0                0               0
1.21782                0.9941462       -13.01273      0.000746796        155.5231                0               0                0               0
1.22442                0.9939525       -13.12762     0.0007993728        152.4001                0               0                0               0
1.23102                0.9937477       -13.24339     0.0008534001        149.0985                0               0                0               0
1.23762                 0.993532       -13.35999     0.0009086504        145.6461                0               0                0               0
1.24422                0.9933056       -13.47738     0.0009649089        142.0677                0               0                0               0
1.25083                0.9930693       -13.59555      0.001021971        138.3844                0               0                0               0
1.25743                0.9928237       -13.71446      0.001079644         134.615                0               0                0               0
1.26403                0.9925696        -13.8341      0.001137741        130.7757                0               0                0               0
1.27063                0.9923076       -13.95448      0.001196089        126.8811                0               0                0               0
1.27723                0.9920388        -14.0756      0.001254522        122.9438                0               0                0               0
1.28383                0.9917639       -14.19748      0.001312886        118.9754                0               0                0               0
1.29043                0.9914841       -14.32015      0.001371036        114.9859                0               0                0               0
1.29703                0.9911999       -14.44365      0.001428842        110.9848                0               0                0               0
1.30363                0.9909122       -14.56803      0.001486187        106.9804                0               0                0               0
1.31023                0.9906215       -14.69335      0.001542969        102.9805                0               0                0               0
1.31683                0.9903285       -14.81967      0.001599101        98.99219                0               0                0               0
1.32343                0.9900334       -14.94708      0.001654517         95.0222                0               0                0               0
1.33003                0.9897364       -15.07564      0.001709171        91.07665                0               0                0               0
1.33663                0.9894375       -15.20544      0.001763039        87.16126                0               0                0               0
1.34323                0.9891365       -15.33658      0.001816119        83.28137                0               0                0               0
1.34984                0.9888332       -15.46912      0.001868439        79.44192                0               0                0               0
1.35644                0.9885265       -15.60316      0.001920052        75.64746                0               0                0               0
1.36304                0.9882161       -15.73878      0.001971043         71.9021                0               0                0               0
1.36964                 0.987901       -15.87604      0.002021527        68.20952                0               0                0               0
1.37624                  0.98758       -16.01502      0.002071654        64.57291                0               0                0               0
1.38284                0.9872519       -16.15578      0.002121605        60.99489                0               0                0               0
1.38944                0.9869155       -16.29836      0.002171599        57.47749                0               0                0               0
1.39604                0.9865695       -16.44281      0.002221887        54.02205                0               0                0               0
1.40264                0.9862122       -16.58916      0.002272756        50.62916                0               0                0               0
1.40924                0.9858425       -16.73742      0.002324524        47.29857                0               0                0               0
1.41584                0.9854588        -16.8876      0.002377542        44.02916                0               0                0               0
1.42244                0.9850601        -17.0397      0.002432187        40.81884                0               0                0               0
1.42904                0.9846448       -17.19372       0.00248886        37.66458                0               0                0               0
1.43564                 0.984212       -17.34962      0.002547982        34.56231                0               0                0               0
1.44224                0.9837609       -17.50739      0.002609984        31.50706                0               0                0               0
1.44884                0.9832905         -17.667      0.002675306        28.49287                0               0                0               0
1.45545                0.9828003       -17.82841      0.002744387        25.51303                0               0                0               0
1.46205                  0.98229       -17.99159      0.002817654         22.5601                0               0                0               0
1.46865                0.9817592        -18.1565      0.002895521        19.62612                0               0                0               0
1.47525                0.9812081       -18.32311      0.002978378        16.70276                0               0                0               0
1.48185                0.9806368       -18.49141      0.003066584        13.78158                0               0                0               0
1.48845                0.9800457       -18.66137      0.003160458         10.8542                0               0                0               0
1.49505                0.9794353       -18.83298      0.003260281        7.912495                0               0                0               0
1.50165                0.9788062       -19.00625      0.003366286        4.948819                0               0                0               0
1.50825                0.9781593        -19.1812      0.003478656        1.956155                0               0                0               0
1.51485                0.9774951       -19.35785      0.003597522        -1.07176                0               0                0               0
1.52145                0.9768146       -19.53624      0.003722967       -4.140324                0               0                0               0
1.52805                0.9761186       -19.71645      0.003855023        -7.25402                0               0                0               0
1.53465                0.9754076       -19.89853       0.00399367       -10.41639                0               0                0               0
1.54125                0.9746827       -20.08258      0.004138848       -13.63004                0               0                0               0
1.54785                0.9739438       -20.26871      0.004290448       -16.89668                0               0                0               0
1.55446                0.9731916       -20.45703      0.004448324       -20.21719                0               0                0               0
1.56106                 0.972426       -20.64766      0.004612297       -23.59167                0               0                0               0
1.56766                 0.971647       -20.84075      0.004782155       -27.01955                0               0                0               0
1.57426                 0.970854       -21.03645      0.004957659       -30.49963                0               0                0               0
1.58086                0.9700464       -21.23489      0.005138547       -34.03025                0               0                0               0
1.58746                0.9692231       -21.43623       0.00532454       -37.60926                0               0                0               0
1.59406                0.9683827       -21.64064      0.005515341        -41.2342                0               0                0               0
1.60066                0.9675238       -21.84826      0.005710648       -44.90232                0               0                0               0
1.60726                0.9666443       -22.05923      0.005910149       -48.61065                0               0                0               0
1.61386                0.9657419        -22.2737      0.006113528       -52.35606                0               0                0               0
1.62046                0.9648144       -22.49179      0.006320474       -56.13533                0               0                0               0
1.62706                0.9638588       -22.71364      0.006530678       -59.94514                0               0                0               0
1.63366                0.9628726       -22.93933      0.006743839       -63.78216                0               0                0               0
1.64026                0.9618524       -23.16895      0.006959669       -67.64305                0               0                0               0
1.64686                0.9607954       -23.40259      0.007177896       -71.52451                0               0                0               0
1.65347                0.9596983       -23.64029      0.007398267       -75.42326                0               0                0               0
1.66007                0.9585577       -23.88211      0.007620551       -79.33609                0               0                0               0
1.66667                0.9573708       -24.12805      0.007844545       -83.25989                0               0                0               0
1.67327                0.9561344       -24.37813      0.008070074       -87.19163                0               0                0               0
1.67987                0.9548455       -24.63234         0.008297       -91.12837                0               0                0               0
1.68647                0.9535015       -24.89067      0.008525217       -95.06732                0               0                0               0
1.69307                0.9520996       -25.15308      0.008754665       -99.00578                0               0                0               0
1.69967                0.9506378       -25.41954      0.008985327       -102.9412                0               0                0               0
1.70627                0.9491137       -25.69001      0.009217231       -106.8713                0               0                0               0
1.71287                0.9475256       -25.96443      0.009450457       -110.7937                0               0                0               0
1.71947                 0.945872       -26.24277      0.009685139       -114.7064                0               0                0               0
1.72607                0.9441517       -26.52499      0.009921466       -118.6076                0               0                0               0
1.73267                0.9423634       -26.81106       0.01015969       -122.4956                0               0                0               0
1.73927                0.9405064       -27.10095        0.0104001        -126.369                0               0                0               0
1.74587                0.9385802       -27.39465       0.01064309       -130.2266                0               0                0               0
1.75248                0.9365843       -27.69217       0.01088907       -134.0674                0               0                0               0
1.75908                0.9345183       -27.99354       0.01113855       -137.8908                0               0                0               0
1.76568                0.9323819       -28.29881       0.01139206       -141.6964                0               0                0               0
1.77228                0.9301751       -28.60803       0.01165023        -145.484                0               0                0               0
1.77888                0.9278973       -28.92132       0.01191371       -149.2539                0               0                0               0
1.78548                0.9255482       -29.23878       0.01218324       -153.0065                0               0                0               0
1.79208                0.9231272       -29.56054       0.01245957       -156.7426                0               0                0               0
1.79868                0.9206333       -29.88678       0.01274352       -160.4635                0               0                0               0
1.80528                0.9180654       -30.21767       0.01303595       -164.1704                0               0                0               0
1.81188                 0.915422       -30.55343       0.01333772       -167.8653                0               0                0               0
1.81848                 0.912701       -30.89426       0.01364973         -171.55                0               0                0               0
1.82508                0.9099002       -31.24042       0.01397289       -175.2268                0               0                0               0
1.83168                0.9070166       -31.59214       0.01430812       -178.8983                0               0                0               0
1.83828                0.9040466       -31.94968       0.01465632        177.4328                0               0                0               0
1.84488                0.9009864        -32.3133       0.01501838        173.7636                0               0                0               0
1.85149                0.8978313       -32.68325       0.01539514        170.0911                0               0                0               0
