! TOUCHSTONE file generated by CST MICROWAVE STUDIO
! Date and time: Tue Mar 11 13:58:01 2025
! Project name: transverse.cst
! Parameters = {Fracture=1; B=10; D=160; F=25; Feed=2.85625; L=100; M=20; R=0.384908; S=2; Theta=270; length=57.125; wave=114.25}
! Header version: 2024
! Port assignment regex: !\s*Touchstone port\s*([0-9]+)\s*=\s*(CST MWS port|CST DES external port|CST DES block port)\s*(.+)\s* \(\"(.*)\"\)(\s*mode\s*([0-9]+))?.*
! Touchstone port assignment:
! Touchstone port 1 = CST MWS port 1 ("")
! Touchstone port 2 = CST MWS port 2 ("")
# GHz S MA R 50
1                      0.9976398        -9.99939      0.000455793        177.0111                0               0                0               0
1.00658                 0.997567       -10.08767     0.0004556371        172.2518                0               0                0               0
1.01316                0.9974945       -10.17659     0.0004541288        167.6378                0               0                0               0
1.01974                0.9974219       -10.26617     0.0004513062        163.1842                0               0                0               0
1.02632                0.9973489       -10.35645     0.0004472271        158.9083                0               0                0               0
1.03289                0.9972753       -10.44746     0.0004419724        154.8302                0               0                0               0
1.03947                0.9972005       -10.53922     0.0004356497        150.9725                0               0                0               0
1.04605                0.9971241       -10.63176     0.0004283978        147.3608                0               0                0               0
1.05263                0.9970456        -10.7251     0.0004203914        144.0233                0               0                0               0
1.05921                0.9969645       -10.81925     0.0004118468        140.9905                0               0                0               0
1.06579                0.9968803       -10.91422     0.0004030278        138.2939                0               0                0               0
1.07237                0.9967922       -11.01001     0.0003942504        135.9643                0               0                0               0
1.07895                0.9966999       -11.10664     0.0003858873        134.0286                0               0                0               0
1.08553                0.9966028        -11.2041     0.0003783672        132.5054                0               0                0               0
1.09211                0.9965005       -11.30239     0.0003721701         131.399                0               0                0               0
1.09868                0.9963923       -11.40149     0.0003678124        130.6932                0               0                0               0
1.10526                0.9962781        -11.5014     0.0003658222        130.3448                0               0                0               0
1.11184                0.9961573        -11.6021     0.0003667035         130.281                0               0                0               0
1.11842                0.9960299       -11.70357     0.0003708937        130.4012                0               0                0               0
1.125                  0.9958956        -11.8058     0.0003787228        130.5858                0               0                0               0
1.13158                0.9957543       -11.90876     0.0003903838        130.7095                0               0                0               0
1.13816                0.9956059       -12.01246     0.0004059219        130.6575                0               0                0               0
1.14474                0.9954506       -12.11685     0.0004252446         130.337                0               0                0               0
1.15132                0.9952884       -12.22194     0.0004481478        129.6847                0               0                0               0
1.15789                0.9951193       -12.32771     0.0004743488        128.6666                0               0                0               0
1.16447                0.9949439       -12.43416     0.0005035185        127.2739                0               0                0               0
1.17105                0.9947622       -12.54127     0.0005353077        125.5168                0               0                0               0
1.17763                0.9945747       -12.64904     0.0005693658        123.4176                0               0                0               0
1.18421                0.9943817       -12.75748     0.0006053525        121.0058                0               0                0               0
1.19079                0.9941835        -12.8666     0.0006429435        118.3136                0               0                0               0
1.19737                0.9939805       -12.97641     0.0006818336        115.3739                0               0                0               0
1.20395                0.9937731       -13.08692     0.0007217362        112.2176                0               0                0               0
1.21053                0.9935616       -13.19816     0.0007623829         108.874                0               0                0               0
1.21711                0.9933462       -13.31015     0.0008035214        105.3693                0               0                0               0
1.22368                0.9931273       -13.42293     0.0008449149        101.7274                0               0                0               0
1.23026                0.9929051       -13.53652     0.0008863398        97.96956                0               0                0               0
1.23684                0.9926796       -13.65096     0.0009275851         94.1148                0               0                0               0
1.24342                0.9924509        -13.7663     0.0009684516        90.18012                0               0                0               0
1.25                    0.992219       -13.88255      0.001008751        86.18075                0               0                0               0
1.25658                0.9919838       -13.99978      0.001048307        82.13044                0               0                0               0
1.26316                0.9917451       -14.11802      0.001086953        78.04165                0               0                0               0
1.26974                0.9915028       -14.23731      0.001124534        73.92576                0               0                0               0
1.27632                0.9912564       -14.35768      0.001160909        69.79328                0               0                0               0
1.28289                0.9910055       -14.47918      0.001195947          65.654                0               0                0               0
1.28947                0.9907499       -14.60183      0.001229533        61.51713                0               0                0               0
1.29605                0.9904889       -14.72566      0.001261565         57.3914                0               0                0               0
1.30263                 0.990222       -14.85071      0.001291958        53.28518                0               0                0               0
1.30921                0.9899488         -14.977      0.001320644         49.2066                0               0                0               0
1.31579                0.9896685       -15.10453      0.001347577        45.16355                0               0                0               0
1.32237                0.9893808       -15.23334      0.001372729        41.16379                0               0                0               0
1.32895                 0.989085       -15.36342      0.001396096        37.21499                0               0                0               0
1.33553                0.9887807       -15.49479        0.0014177        33.32471                0               0                0               0
1.34211                0.9884675       -15.62746       0.00143759        29.50044                0               0                0               0
1.34868                0.9881449       -15.76142      0.001455844        25.74957                0               0                0               0
1.35526                0.9878127       -15.89666      0.001472572        22.07936                0               0                0               0
1.36184                0.9874705       -16.03321      0.001487921        18.49686                0               0                0               0
1.36842                0.9871182       -16.17104       0.00150207        15.00877                0               0                0               0
1.375                  0.9867557       -16.31016      0.001515241        11.62137                0               0                0               0
1.38158                0.9863827       -16.45057      0.001527692        8.340264                0               0                0               0
1.38816                0.9859998       -16.59227      0.001539726        5.170209                0               0                0               0
1.39474                0.9856067       -16.73527      0.001551682        2.114826                0               0                0               0
1.40132                0.9852039       -16.87957      0.001563945        -0.82369                0               0                0               0
1.40789                0.9847914        -17.0252      0.001576932       -3.644884                0               0                0               0
1.41447                0.9843696       -17.17216      0.001591097       -6.350366                0               0                0               0
1.42105                0.9839388       -17.32049      0.001606922       -8.944106                0               0                0               0
1.42763                0.9834994       -17.47022      0.001624907       -11.43266                0               0                0               0
1.43421                0.9830518       -17.62138      0.001645566       -13.82531                0               0                0               0
1.44079                0.9825961       -17.77404      0.001669407       -16.13406                0               0                0               0
1.44737                0.9821328       -17.92823      0.001696927       -18.37348                0               0                0               0
1.45395                 0.981662       -18.08401      0.001728596       -20.56034                0               0                0               0
1.46053                 0.981184       -18.24146      0.001764844       -22.71311                0               0                0               0
1.46711                0.9806989       -18.40065      0.001806046       -24.85125                0               0                0               0
1.47368                0.9802065       -18.56165      0.001852516       -26.99449                0               0                0               0
1.48026                0.9797068       -18.72456      0.001904501       -29.16204                0               0                0               0
1.48684                0.9791995       -18.88945      0.001962171       -31.37183                0               0                0               0
1.49342                0.9786842       -19.05641      0.002025622       -33.63993                0               0                0               0
1.5                    0.9781603       -19.22555       0.00209488       -35.98007                0               0                0               0
1.50658                0.9776272       -19.39694        0.0021699       -38.40333                0               0                0               0
1.51316                0.9770842       -19.57069       0.00225058       -40.91811                0               0                0               0
1.51974                  0.97653       -19.74688       0.00233676        -43.5301                0               0                0               0
1.52632                0.9759638       -19.92559      0.002428239       -46.24256                0               0                0               0
1.53289                0.9753842       -20.10693      0.002524775       -49.05648                0               0                0               0
1.53947                0.9747901       -20.29096      0.002626101       -51.97097                0               0                0               0
1.54605                0.9741799       -20.47777      0.002731924       -54.98355                0               0                0               0
1.55263                0.9735521       -20.66741       0.00284194       -58.09052                0               0                0               0
1.55921                0.9729053       -20.85996      0.002955833       -61.28717                0               0                0               0
1.56579                0.9722378       -21.05548      0.003073284       -64.56812                0               0                0               0
1.57237                0.9715479         -21.254       0.00319397       -67.92752                0               0                0               0
1.57895                0.9708341       -21.45558      0.003317577       -71.35923                0               0                0               0
1.58553                0.9700947       -21.66026      0.003443795       -74.85694                0               0                0               0
1.59211                0.9693281       -21.86806      0.003572323       -78.41435                0               0                0               0
1.59868                0.9685328       -22.07902      0.003702874       -82.02521                0               0                0               0
1.60526                0.9677074       -22.29316      0.003835176        -85.6834                0               0                0               0
1.61184                0.9668505        -22.5105      0.003968971       -89.38297                0               0                0               0
1.61842                0.9659607       -22.73105      0.004104025       -93.11819                0               0                0               0
1.625                  0.9650369       -22.95484      0.004240122       -96.88357                0               0                0               0
1.63158                0.9640781       -23.18188      0.004377072       -100.6738                0               0                0               0
1.63816                 0.963083        -23.4122      0.004514711        -104.484                0               0                0               0
1.64474                 0.962051        -23.6458        0.0046529       -108.3094                0               0                0               0
1.65132                0.9609812       -23.88274      0.004791534       -112.1454                0               0                0               0
1.65789                0.9598727       -24.12302      0.004930539       -115.9879                0               0                0               0
1.66447                0.9587251       -24.36671      0.005069876        -119.833                0               0                0               0
1.67105                0.9575375       -24.61384      0.005209542       -123.6771                0               0                0               0
1.67763                0.9563095       -24.86447      0.005349575       -127.5166                0               0                0               0
1.68421                0.9550404       -25.11867      0.005490051       -131.3486                0               0                0               0
1.69079                0.9537297       -25.37651      0.005631088       -135.1702                0               0                0               0
1.69737                0.9523767       -25.63809      0.005772852       -138.9789                0               0                0               0
1.70395                0.9509808        -25.9035       0.00591555       -142.7727                0               0                0               0
1.71053                0.9495408       -26.17286      0.006059433       -146.5496                0               0                0               0
1.71711                0.9480564       -26.44628      0.006204804       -150.3082                0               0                0               0
1.72368                 0.946526        -26.7239      0.006352007       -154.0473                0               0                0               0
1.73026                0.9449486       -27.00585      0.006501431       -157.7662                0               0                0               0
1.73684                0.9433227        -27.2923      0.006653513       -161.4646                0               0                0               0
1.74342                0.9416468        -27.5834      0.006808727       -165.1425                0               0                0               0
1.75                    0.939919       -27.87931      0.006967587       -168.8004                0               0                0               0
1.75658                0.9381373       -28.18021      0.007130645       -172.4393                0               0                0               0
1.76316                0.9362994       -28.48629      0.007298481       -176.0603                0               0                0               0
1.76974                0.9344026       -28.79771      0.007471701       -179.6653                0               0                0               0
1.77632                0.9324441       -29.11466      0.007650932        176.7437                0               0                0               0
1.78289                0.9304208       -29.43734      0.007836816        173.1641                0               0                0               0
1.78947                0.9283295       -29.76593          0.00803        169.5932                0               0                0               0
1.79605                0.9261667        -30.1006      0.008231131        166.0277                0               0                0               0
1.80263                0.9239281       -30.44155      0.008440846        162.4644                0               0                0               0
1.80921                0.9216101       -30.78894      0.008659769        158.8995                0               0                0               0
1.81579                0.9192082       -31.14297      0.008888501        155.3295                0               0                0               0
1.82237                0.9167178       -31.50378      0.009127605        151.7505                0               0                0               0
1.82895                0.9141345       -31.87156      0.009377615        148.1586                0               0                0               0
1.83553                0.9114531       -32.24646      0.009639017        144.5501                0               0                0               0
1.84211                0.9086687       -32.62862      0.009912243        140.9214                0               0                0               0
1.84868                 0.905776        -33.0182       0.01019768        137.2688                0               0                0               0
