! TOUCHSTONE file generated by CST MICROWAVE STUDIO
! Date and time: Tue Mar 11 13:58:01 2025
! Project name: transverse.cst
! Parameters = {Fracture=5; B=10; D=160; F=25; Feed=2.85625; L=100; M=20; R=0.384908; S=2; Theta=270; length=57.125; wave=114.25}
! Header version: 2024
! Port assignment regex: !\s*Touchstone port\s*([0-9]+)\s*=\s*(CST MWS port|CST DES external port|CST DES block port)\s*(.+)\s* \(\"(.*)\"\)(\s*mode\s*([0-9]+))?.*
! Touchstone port assignment:
! Touchstone port 1 = CST MWS port 1 ("")
! Touchstone port 2 = CST MWS port 2 ("")
# GHz S MA R 50
1                      0.9976306       -9.755244     0.0004651434        176.1516                0               0                0               0
1.00658                0.9975587       -9.841921     0.0004642216        171.2956                0               0                0               0
1.01316                0.9974872       -9.929241     0.0004618535         166.587                0               0                0               0
1.01974                0.9974157       -10.01724     0.0004580747        162.0412                0               0                0               0
1.02632                 0.997344       -10.10596     0.0004529417        157.6767                0               0                0               0
1.03289                0.9972716       -10.19541     0.0004465346        153.5148                0               0                0               0
1.03947                 0.997198       -10.28564     0.0004389613        149.5803                0               0                0               0
1.04605                0.9971228       -10.37665     0.0004303625        145.9016                0               0                0               0
1.05263                0.9970454       -10.46848     0.0004209176        142.5106                0               0                0               0
1.05921                0.9969652       -10.56113     0.0004108511        139.4426                0               0                0               0
1.06579                0.9968816       -10.65461     0.0004004403        136.7355                0               0                0               0
1.07237                0.9967943       -10.74893     0.0003900224        134.4276                0               0                0               0
1.07895                0.9967023        -10.8441     0.0003799999        132.5544                0               0                0               0
1.08553                0.9966053        -10.9401     0.0003708445        131.1435                0               0                0               0
1.09211                0.9965028       -11.03693     0.0003630919        130.2068                0               0                0               0
1.09868                0.9963944       -11.13457     0.0003573275        129.7323                0               0                0               0
1.10526                0.9962796       -11.23303     0.0003541566        129.6746                0               0                0               0
1.11184                 0.996158       -11.33227     0.0003541608        129.9501                0               0                0               0
1.11842                0.9960296       -11.43228     0.0003578426        130.4385                0               0                0               0
1.125                  0.9958941       -11.53304     0.0003655719        130.9941                0               0                0               0
1.13158                0.9957515       -11.63453     0.0003775479        131.4648                0               0                0               0
1.13816                0.9956016       -11.73674     0.0003937883        131.7132                0               0                0               0
1.14474                0.9954445       -11.83964     0.0004141474         131.633                0               0                0               0
1.15132                0.9952806       -11.94323     0.0004383535        131.1566                0               0                0               0
1.15789                  0.99511       -12.04748     0.0004660536        130.2531                0               0                0               0
1.16447                0.9949328        -12.1524     0.0004968543        128.9217                0               0                0               0
1.17105                0.9947495       -12.25797     0.0005303516        127.1825                0               0                0               0
1.17763                0.9945604       -12.36419     0.0005661515        125.0676                0               0                0               0
1.18421                0.9943659       -12.47108       0.00060388        122.6153                0               0                0               0
1.19079                0.9941664       -12.57864     0.0006431875        119.8652                0               0                0               0
1.19737                0.9939623       -12.68687     0.0006837498        116.8555                0               0                0               0
1.20395                 0.993754       -12.79582     0.0007252661        113.6218                0               0                0               0
1.21053                0.9935417       -12.90548     0.0007674568        110.1963                0               0                0               0
1.21711                0.9933258        -13.0159     0.0008100617        106.6076                0               0                0               0
1.22368                0.9931066       -13.12711     0.0008528365        102.8814                0               0                0               0
1.23026                0.9928842       -13.23913     0.0008955521        99.03984                0               0                0               0
1.23684                0.9926588       -13.35202     0.0009379923        95.10289                0               0                0               0
1.24342                0.9924303       -13.46581     0.0009799534        91.08801                0               0                0               0
1.25                    0.992199       -13.58053      0.001021243        87.01079                0               0                0               0
1.25658                0.9919642       -13.69624      0.001061681        82.88516                0               0                0               0
1.26316                0.9917263       -13.81297      0.001101097         78.7237                0               0                0               0
1.26974                0.9914846       -13.93076      0.001139334        74.53786                0               0                0               0
1.27632                0.9912388       -14.04966      0.001176245        70.33817                0               0                0               0
1.28289                0.9909886        -14.1697      0.001211699        66.13444                0               0                0               0
1.28947                0.9907336        -14.2909      0.001245577        61.93588                0               0                0               0
1.29605                0.9904731       -14.41331      0.001277776        57.75122                0               0                0               0
1.30263                0.9902066       -14.53695       0.00130821        53.58887                0               0                0               0
1.30921                0.9899334       -14.66183      0.001336809        49.45699                0               0                0               0
1.31579                0.9896533       -14.78798      0.001363526        45.36354                0               0                0               0
1.32237                0.9893653        -14.9154      0.001388333        41.31638                0               0                0               0
1.32895                0.9890691       -15.04412      0.001411229         37.3233                0               0                0               0
1.33553                0.9887642       -15.17412      0.001432237        33.39203                0               0                0               0
1.34211                  0.98845       -15.30543      0.001451409        29.53026                0               0                0               0
1.34868                0.9881263       -15.43803      0.001468827        25.74564                0               0                0               0
1.35526                0.9877926       -15.57192      0.001484608        22.04571                0               0                0               0
1.36184                0.9874488        -15.7071      0.001498905        18.43782                0               0                0               0
1.36842                0.9870947       -15.84357      0.001511909        14.92906                0               0                0               0
1.375                  0.9867303       -15.98132       0.00152385        11.52607                0               0                0               0
1.38158                0.9863554       -16.12035      0.001535002        8.234864                0               0                0               0
1.38816                0.9859701       -16.26067      0.001545683         5.06059                0               0                0               0
1.39474                0.9855747       -16.40228      0.001556252        2.007231                0               0                0               0
1.40132                0.9851696       -16.54518      0.001567114      -0.9227171                0               0                0               0
1.40789                0.9847549        -16.6894      0.001578711         -3.7286                0               0                0               0
1.41447                0.9843308       -16.83496      0.001591524       -6.411967                0               0                0               0
1.42105                0.9838979       -16.98187      0.001606062       -8.976913                0               0                0               0
1.42763                0.9834563       -17.13018      0.001622856       -11.43034                0               0                0               0
1.43421                0.9830068       -17.27993      0.001642448       -13.78213                0               0                0               0
1.44079                0.9825493       -17.43115      0.001665378       -16.04516                0               0                0               0
1.44737                0.9820845       -17.58392      0.001692169       -18.23509                0               0                0               0
1.45395                0.9816122       -17.73829      0.001723314       -20.37003                0               0                0               0
1.46053                 0.981133       -17.89434      0.001759261       -22.46988                0               0                0               0
1.46711                0.9806468       -18.05213      0.001800399       -24.55565                0               0                0               0
1.47368                0.9801535       -18.21174      0.001847051       -26.64855                0               0                0               0
1.48026                0.9796531       -18.37328      0.001899459       -28.76913                0               0                0               0
1.48684                0.9791451       -18.53681      0.001957789       -30.93649                0               0                0               0
1.49342                0.9786292       -18.70245      0.002022125       -33.16755                0               0                0               0
1.5                    0.9781049       -18.87026      0.002092473       -35.47663                0               0                0               0
1.50658                0.9775713       -19.04037      0.002168769       -37.87513                0               0                0               0
1.51316                0.9770276       -19.21284      0.002250883       -40.37145                0               0                0               0
1.51974                0.9764729       -19.38778      0.002338633       -42.97113                0               0                0               0
1.52632                0.9759059       -19.56528      0.002431786       -45.67704                0               0                0               0
1.53289                0.9753255       -19.74541      0.002530077       -48.48969                0               0                0               0
1.53947                0.9747302       -19.92826      0.002633211       -51.40763                0               0                0               0
1.54605                0.9741187       -20.11391      0.002740872       -54.42779                0               0                0               0
1.55263                0.9734893       -20.30242      0.002852729       -57.54585                0               0                0               0
1.55921                0.9728405       -20.49385      0.002968448       -60.75654                0               0                0               0
1.56579                0.9721706       -20.68826      0.003087685       -64.05392                0               0                0               0
1.57237                0.9714781       -20.88569      0.003210104       -67.43164                0               0                0               0
1.57895                0.9707612       -21.08619       0.00333537       -70.88309                0               0                0               0
1.58553                0.9700184        -21.2898      0.003463158       -74.40157                0               0                0               0
1.59211                0.9692481       -21.49654      0.003593154       -77.98041                0               0                0               0
1.59868                0.9684486       -21.70645      0.003725058       -81.61305                0               0                0               0
1.60526                0.9676188       -21.91953      0.003858585       -85.29307                0               0                0               0
1.61184                0.9667571       -22.13582      0.003993472       -89.01431                0               0                0               0
1.61842                0.9658624       -22.35532      0.004129472        -92.7708                0               0                0               0
1.625                  0.9649333       -22.57806      0.004266363       -96.55688                0               0                0               0
1.63158                0.9639689       -22.80404       0.00440395       -100.3671                0               0                0               0
1.63816                0.9629683        -23.0333      0.004542062       -104.1964                0               0                0               0
1.64474                0.9619305       -23.26585      0.004680561       -108.0398                0               0                0               0
1.65132                0.9608548       -23.50173      0.004819337       -111.8928                0               0                0               0
1.65789                0.9597404       -23.74097      0.004958317       -115.7511                0               0                0               0
1.66447                0.9585868        -23.9836      0.005097463       -119.6106                0               0                0               0
1.67105                0.9573934       -24.22968      0.005236774       -123.4676                0               0                0               0
1.67763                0.9561595       -24.47928      0.005376292       -127.3187                0               0                0               0
1.68421                0.9548846       -24.73245      0.005516101       -131.1606                0               0                0               0
1.69079                0.9535682       -24.98928      0.005656326       -134.9907                0               0                0               0
1.69737                0.9522094       -25.24987      0.005797142       -138.8062                0               0                0               0
1.70395                0.9508077       -25.51431      0.005938769        -142.605                0               0                0               0
1.71053                0.9493623       -25.78272      0.006081471       -146.3853                0               0                0               0
1.71711                 0.947872       -26.05522      0.006225566       -150.1454                0               0                0               0
1.72368                 0.946336       -26.33195      0.006371416       -153.8844                0               0                0               0
1.73026                0.9447528       -26.61306       0.00651943       -157.6015                0               0                0               0
1.73684                0.9431213        -26.8987      0.006670063       -161.2963                0               0                0               0
1.74342                0.9414394       -27.18902      0.006823814        -164.969                0               0                0               0
1.75                   0.9397053       -27.48421       0.00698122       -168.6201                0               0                0               0
1.75658                 0.937917       -27.78443      0.007142857       -172.2506                0               0                0               0
1.76316                0.9360721       -28.08987      0.007309332       -175.8618                0               0                0               0
1.76974                0.9341679        -28.4007      0.007481276       -179.4558                0               0                0               0
1.77632                0.9322014       -28.71712      0.007659344        176.9654                0               0                0               0
1.78289                0.9301698        -29.0393      0.007844204         173.399                0               0                0               0
1.78947                0.9280694       -29.36744      0.008036526         169.842                0               0                0               0
1.79605                0.9258965       -29.70172      0.008236982        166.2912                0               0                0               0
1.80263                0.9236474       -30.04231      0.008446234        162.7429                0               0                0               0
1.80921                0.9213179       -30.38939      0.008664924        159.1933                0               0                0               0
1.81579                0.9189037       -30.74314       0.00889367        155.6386                0               0                0               0
1.82237                0.9164001       -31.10373      0.009133055        152.0747                0               0                0               0
1.82895                0.9138025       -31.47131       0.00938362        148.4975                0               0                0               0
1.83553                 0.911106       -31.84604      0.009645862        144.9033                0               0                0               0
1.84211                0.9083055       -32.22807      0.009920221         141.288                0               0                0               0
1.84868                0.9053957       -32.61755       0.01020708         137.648                0               0                0               0
