! TOUCHSTONE file generated by CST MICROWAVE STUDIO
! Date and time: Tue Mar 11 13:56:16 2025
! Project name: transverse.cst
! Parameters = {Fracture=5; B=12.5; D=160; F=15; Feed=2.85625; L=100; M=10; R=0.384908; S=1; Theta=0; length=57.125; wave=114.25}
! Header version: 2024
! Port assignment regex: !\s*Touchstone port\s*([0-9]+)\s*=\s*(CST MWS port|CST DES external port|CST DES block port)\s*(.+)\s* \(\"(.*)\"\)(\s*mode\s*([0-9]+))?.*
! Touchstone port assignment:
! Touchstone port 1 = CST MWS port 1 ("")
! Touchstone port 2 = CST MWS port 2 ("")
# GHz S MA R 50
1                      0.9978423       -9.759701     0.0003461304       -146.2843                0               0                0               0
1.0066                 0.9977489       -9.848152      0.000353265       -150.8113                0               0                0               0
1.0132                 0.9976509       -9.936952      0.000359138       -155.2579                0               0                0               0
1.0198                 0.9975487       -10.02608     0.0003637074       -159.6097                0               0                0               0
1.0264                 0.9974431       -10.11553     0.0003669437       -163.8507                0               0                0               0
1.033                  0.9973351       -10.20531     0.0003688319       -167.9629                0               0                0               0
1.0396                 0.9972254       -10.29542     0.0003693741       -171.9262                0               0                0               0
1.0462                 0.9971148       -10.38588     0.0003685935       -175.7172                0               0                0               0
1.05281                0.9970041       -10.47673      0.000366538       -179.3094                0               0                0               0
1.05941                0.9968942       -10.56799     0.0003632859        177.3274                0               0                0               0
1.06601                0.9967854       -10.65971     0.0003589519        174.2277                0               0                0               0
1.07261                0.9966785       -10.75194     0.0003536948        171.4302                0               0                0               0
1.07921                0.9965736       -10.84474     0.0003477261        168.9776                0               0                0               0
1.08581                0.9964713       -10.93816     0.0003413206         166.915                0               0                0               0
1.09241                0.9963716       -11.03228     0.0003348259        165.2876                0               0                0               0
1.09901                0.9962741       -11.12716     0.0003286718        164.1357                0               0                0               0
1.10561                0.9961789       -11.22285     0.0003233746        163.4876                0               0                0               0
1.11221                0.9960856       -11.31944     0.0003195323        163.3496                0               0                0               0
1.11881                0.9959937       -11.41696     0.0003178055         163.694                0               0                0               0
1.12541                0.9959023       -11.51549     0.0003188788        164.4494                0               0                0               0
1.13201                0.9958107       -11.61507     0.0003234036        165.4977                0               0                0               0
1.13861                0.9957179       -11.71575     0.0003319315        166.6821                0               0                0               0
1.14521                 0.995623       -11.81755     0.0003448551        167.8271                0               0                0               0
1.15182                0.9955248        -11.9205     0.0003623746        168.7659                0               0                0               0
1.15842                0.9954225       -12.02463     0.0003845001        169.3634                0               0                0               0
1.16502                0.9953146       -12.12993     0.0004110831        169.5302                0               0                0               0
1.17162                0.9952004        -12.2364     0.0004418642        169.2227                0               0                0               0
1.17822                0.9950786       -12.34404     0.0004765201        168.4353                0               0                0               0
1.18482                0.9949482       -12.45282     0.0005147013        167.1892                0               0                0               0
1.19142                0.9948087       -12.56271     0.0005560574        165.5214                0               0                0               0
1.19802                0.9946593       -12.67369      0.000600251         163.476                0               0                0               0
1.20462                0.9944992       -12.78571     0.0006469648        161.0989                0               0                0               0
1.21122                0.9943282       -12.89873     0.0006959027        158.4341                0               0                0               0
1.21782                0.9941459       -13.01271     0.0007467892        155.5221                0               0                0               0
1.22442                0.9939524       -13.12761     0.0007993672        152.3993                0               0                0               0
1.23102                0.9937475       -13.24338     0.0008533954        149.0977                0               0                0               0
1.23762                0.9935319       -13.35998      0.000908647        145.6455                0               0                0               0
1.24422                0.9933056       -13.47737     0.0009649066         142.067                0               0                0               0
1.25083                0.9930693       -13.59553       0.00102197        138.3838                0               0                0               0
1.25743                0.9928237       -13.71444      0.001079644        134.6144                0               0                0               0
1.26403                0.9925695       -13.83409      0.001137743        130.7752                0               0                0               0
1.27063                0.9923076       -13.95447      0.001196091        126.8806                0               0                0               0
1.27723                0.9920387       -14.07559      0.001254525        122.9433                0               0                0               0
1.28383                0.9917639       -14.19747       0.00131289        118.9749                0               0                0               0
1.29043                0.9914841       -14.32015      0.001371041        114.9854                0               0                0               0
1.29703                   0.9912       -14.44365      0.001428848        110.9843                0               0                0               0
1.30363                0.9909122       -14.56802      0.001486193        106.9798                0               0                0               0
1.31023                0.9906217       -14.69334      0.001542975        102.9799                0               0                0               0
1.31683                0.9903287       -14.81967      0.001599108        98.99163                0               0                0               0
1.32343                0.9900336       -14.94707      0.001654525        95.02162                0               0                0               0
1.33003                0.9897366       -15.07563      0.001709178        91.07605                0               0                0               0
1.33663                0.9894377       -15.20544      0.001763045        87.16064                0               0                0               0
1.34323                0.9891367       -15.33657      0.001816125        83.28073                0               0                0               0
1.34984                0.9888332       -15.46912      0.001868444        79.44127                0               0                0               0
1.35644                0.9885267       -15.60316      0.001920057        75.64679                0               0                0               0
1.36304                0.9882163       -15.73878      0.001971046        71.90141                0               0                0               0
1.36964                0.9879011       -15.87604       0.00202153        68.20882                0               0                0               0
1.37624                0.9875801       -16.01502      0.002071655         64.5722                0               0                0               0
1.38284                0.9872519       -16.15578      0.002121604        60.99418                0               0                0               0
1.38944                0.9869156       -16.29837      0.002171596        57.47678                0               0                0               0
1.39604                0.9865695       -16.44282      0.002221882        54.02134                0               0                0               0
1.40264                0.9862123       -16.58916      0.002272749        50.62846                0               0                0               0
1.40924                0.9858424       -16.73742      0.002324514        47.29789                0               0                0               0
1.41584                0.9854588       -16.88761       0.00237753        44.02849                0               0                0               0
1.42244                  0.98506       -17.03971      0.002432173         40.8182                0               0                0               0
1.42904                0.9846447       -17.19372      0.002488843        37.66396                0               0                0               0
1.43564                0.9842119       -17.34963      0.002547962        34.56173                0               0                0               0
1.44224                0.9837607        -17.5074      0.002609962        31.50652                0               0                0               0
1.44884                0.9832902         -17.667      0.002675281        28.49238                0               0                0               0
1.45545                0.9828002       -17.82841      0.002744358        25.51259                0               0                0               0
1.46205                0.9822898       -17.99159      0.002817623        22.55972                0               0                0               0
1.46865                0.9817591        -18.1565      0.002895488        19.62579                0               0                0               0
1.47525                 0.981208       -18.32312      0.002978343         16.7025                0               0                0               0
1.48185                0.9806367       -18.49141      0.003066546        13.78139                0               0                0               0
1.48845                0.9800456       -18.66137      0.003160419        10.85407                0               0                0               0
1.49505                0.9794352       -18.83298      0.003260241        7.912438                0               0                0               0
1.50165                0.9788061       -19.00625      0.003366244        4.948829                0               0                0               0
1.50825                0.9781591        -19.1812      0.003478613        1.956229                0               0                0               0
1.51485                 0.977495       -19.35784      0.003597478       -1.071624                0               0                0               0
1.52145                0.9768145       -19.53624      0.003722924       -4.140128                0               0                0               0
1.52805                0.9761185       -19.71644      0.003854979       -7.253769                0               0                0               0
1.53465                0.9754076       -19.89853      0.003993628       -10.41609                0               0                0               0
1.54125                0.9746826       -20.08258      0.004138806       -13.62969                0               0                0               0
1.54785                0.9739438       -20.26871      0.004290407       -16.89629                0               0                0               0
1.55446                0.9731916       -20.45702      0.004448285       -20.21676                0               0                0               0
1.56106                0.9724261       -20.64766      0.004612261       -23.59121                0               0                0               0
1.56766                 0.971647       -20.84075      0.004782121       -27.01906                0               0                0               0
1.57426                0.9708541       -21.03644      0.004957627       -30.49912                0               0                0               0
1.58086                0.9700465       -21.23488      0.005138518       -34.02971                0               0                0               0
1.58746                0.9692232       -21.43623      0.005324513       -37.60871                0               0                0               0
1.59406                0.9683828       -21.64064      0.005515318       -41.23364                0               0                0               0
1.60066                0.9675239       -21.84825      0.005710629       -44.90176                0               0                0               0
1.60726                0.9666443       -22.05923      0.005910133       -48.61008                0               0                0               0
1.61386                0.9657421        -22.2737      0.006113517        -52.3555                0               0                0               0
1.62046                0.9648145        -22.4918      0.006320467       -56.13476                0               0                0               0
1.62706                 0.963859       -22.71364      0.006530675       -59.94458                0               0                0               0
1.63366                0.9628727       -22.93933       0.00674384       -63.78161                0               0                0               0
1.64026                0.9618526       -23.16896      0.006959675       -67.64251                0               0                0               0
1.64686                0.9607955        -23.4026      0.007177907       -71.52398                0               0                0               0
1.65347                0.9596983        -23.6403      0.007398281       -75.42274                0               0                0               0
1.66007                0.9585578       -23.88211      0.007620571       -79.33559                0               0                0               0
1.66667                0.9573709       -24.12806      0.007844569       -83.25941                0               0                0               0
1.67327                0.9561345       -24.37814      0.008070103       -87.19117                0               0                0               0
1.67987                0.9548456       -24.63235      0.008297033       -91.12793                0               0                0               0
1.68647                0.9535017       -24.89068      0.008525256       -95.06689                0               0                0               0
1.69307                0.9520998       -25.15309       0.00875471       -99.00537                0               0                0               0
1.69967                0.9506379       -25.41955      0.008985376       -102.9408                0               0                0               0
1.70627                0.9491138       -25.69002      0.009217284       -106.8709                0               0                0               0
1.71287                0.9475257       -25.96445      0.009450514       -110.7933                0               0                0               0
1.71947                 0.945872       -26.24279        0.0096852       -114.7061                0               0                0               0
1.72607                0.9441516       -26.52501      0.009921531       -118.6073                0               0                0               0
1.73267                0.9423633       -26.81107       0.01015975       -122.4953                0               0                0               0
1.73927                0.9405063       -27.10096       0.01040018       -126.3687                0               0                0               0
1.74587                  0.93858       -27.39466       0.01064317       -130.2264                0               0                0               0
1.75248                0.9365841       -27.69219       0.01088915       -134.0672                0               0                0               0
1.75908                0.9345181       -27.99356       0.01113863       -137.8906                0               0                0               0
1.76568                0.9323817       -28.29882       0.01139215       -141.6962                0               0                0               0
1.77228                0.9301749       -28.60805       0.01165032       -145.4839                0               0                0               0
1.77888                 0.927897       -28.92134        0.0119138       -149.2538                0               0                0               0
1.78548                 0.925548       -29.23879       0.01218333       -153.0064                0               0                0               0
1.79208                 0.923127       -29.56055       0.01245967       -156.7426                0               0                0               0
1.79868                 0.920633       -29.88679       0.01274362       -160.4634                0               0                0               0
1.80528                0.9180651       -30.21768       0.01303605       -164.1704                0               0                0               0
1.81188                0.9154218       -30.55344       0.01333782       -167.8652                0               0                0               0
1.81848                0.9127008       -30.89427       0.01364983       -171.5499                0               0                0               0
1.82508                   0.9099       -31.24043         0.013973       -175.2268                0               0                0               0
1.83168                0.9070163       -31.59215       0.01430824       -178.8983                0               0                0               0
1.83828                0.9040464       -31.94969       0.01465644        177.4327                0               0                0               0
1.84488                0.9009862       -32.31331       0.01501849        173.7635                0               0                0               0
1.85149                0.8978311       -32.68326       0.01539526         170.091                0               0                0               0
