! TOUCHSTONE file generated by CST MICROWAVE STUDIO
! Date and time: Tue Mar 11 13:56:59 2025
! Project name: transverse.cst
! Parameters = {Fracture=5; B=12.5; D=160; F=5; Feed=2.85625; L=100; M=30; R=0.384908; S=2; Theta=90; length=57.125; wave=114.25}
! Header version: 2024
! Port assignment regex: !\s*Touchstone port\s*([0-9]+)\s*=\s*(CST MWS port|CST DES external port|CST DES block port)\s*(.+)\s* \(\"(.*)\"\)(\s*mode\s*([0-9]+))?.*
! Touchstone port assignment:
! Touchstone port 1 = CST MWS port 1 ("")
! Touchstone port 2 = CST MWS port 2 ("")
# GHz S MA R 50
1                      0.9976371       -9.766296     0.0004021344       -173.6921                0               0                0               0
1.0066                 0.9975409        -9.85398     0.0004042184        -178.388                0               0                0               0
1.0132                 0.9974418       -9.942058     0.0004049905        177.0256                0               0                0               0
1.0198                 0.9973402       -10.03053     0.0004044494        172.5623                0               0                0               0
1.0264                 0.9972366       -10.11941     0.0004026079        168.2374                0               0                0               0
1.033                  0.9971316       -10.20871     0.0003994946        164.0686                0               0                0               0
1.0396                 0.9970255       -10.29844     0.0003951572        160.0768                0               0                0               0
1.0462                 0.9969189       -10.38864     0.0003896658        156.2857                0               0                0               0
1.05281                 0.996812       -10.47932     0.0003831168        152.7229                0               0                0               0
1.05941                0.9967053       -10.57053     0.0003756383        149.4197                0               0                0               0
1.06601                0.9965989        -10.6623     0.0003673957        146.4117                0               0                0               0
1.07261                0.9964931       -10.75467     0.0003585992         143.738                0               0                0               0
1.07921                0.9963877       -10.84768     0.0003495106        141.4404                0               0                0               0
1.08581                0.9962831       -10.94138     0.0003404521         139.561                0               0                0               0
1.09241                0.9961788       -11.03581     0.0003318117        138.1387                0               0                0               0
1.09901                0.9960746       -11.13101     0.0003240468        137.2022                0               0                0               0
1.10561                0.9959703       -11.22703     0.0003176787        136.7618                0               0                0               0
1.11221                0.9958656        -11.3239     0.0003132773        136.7988                0               0                0               0
1.11881                0.9957595       -11.42166      0.000311428        137.2559                0               0                0               0
1.12541                0.9956518       -11.52033      0.000312686        138.0325                0               0                0               0
1.13201                0.9955418       -11.61995     0.0003175184        138.9889                0               0                0               0
1.13861                0.9954287       -11.72053     0.0003262529        139.9623                0               0                0               0
1.14521                 0.995312       -11.82208     0.0003390453        140.7901                0               0                0               0
1.15182                0.9951909       -11.92462     0.0003558773        141.3332                0               0                0               0
1.15842                0.9950648       -12.02815     0.0003765818        141.4912                0               0                0               0
1.16502                0.9949328       -12.13266      0.000400884        141.2078                0               0                0               0
1.17162                0.9947947       -12.23815     0.0004284464        140.4647                0               0                0               0
1.17822                0.9946497        -12.3446     0.0004589048         139.273                0               0                0               0
1.18482                0.9944973         -12.452     0.0004918948        137.6621                0               0                0               0
1.19142                0.9943374       -12.56032     0.0005270665        135.6714                0               0                0               0
1.19802                0.9941695       -12.66955     0.0005640918        133.3438                0               0                0               0
1.20462                0.9939935       -12.77965      0.000602667         130.722                0               0                0               0
1.21122                0.9938094       -12.89062     0.0006425118        127.8459                0               0                0               0
1.21782                0.9936173       -13.00241     0.0006833668        124.7519                0               0                0               0
1.22442                0.9934174       -13.11502     0.0007249918        121.4726                0               0                0               0
1.23102                0.9932099       -13.22843     0.0007671627        118.0365                0               0                0               0
1.23762                0.9929952       -13.34262     0.0008096698         114.469                0               0                0               0
1.24422                0.9927737       -13.45759     0.0008523162        110.7921                0               0                0               0
1.25083                0.9925461       -13.57334     0.0008949168         107.025                0               0                0               0
1.25743                0.9923128       -13.68986     0.0009372968         103.185                0               0                0               0
1.26403                0.9920746       -13.80719      0.000979292        99.28711                0               0                0               0
1.27063                0.9918317       -13.92533      0.001020748         95.3448                0               0                0               0
1.27723                0.9915851       -14.04431      0.001061522        91.37019                0               0                0               0
1.28383                0.9913352       -14.16417      0.001101481        87.37426                0               0                0               0
1.29043                0.9910823       -14.28495      0.001140505        83.36705                0               0                0               0
1.29703                0.9908272       -14.40671      0.001178484        79.35782                0               0                0               0
1.30363                0.9905699       -14.52948      0.001215324         75.3552                0               0                0               0
1.31023                0.9903111       -14.65335      0.001250944        71.36728                0               0                0               0
1.31683                0.9900503       -14.77836       0.00128528        67.40173                0               0                0               0
1.32343                 0.989788       -14.90458      0.001318286        63.46585                0               0                0               0
1.33003                0.9895237       -15.03209      0.001349933        59.56664                0               0                0               0
1.33663                0.9892573       -15.16095      0.001380215        55.71084                0               0                0               0
1.34323                0.9889885       -15.29124      0.001409148        51.90492                0               0                0               0
1.34984                0.9887164       -15.42302       0.00143677        48.15511                0               0                0               0
1.35644                0.9884407       -15.55635      0.001463147        44.46735                0               0                0               0
1.36304                0.9881604       -15.69129      0.001488375        40.84731                0               0                0               0
1.36964                0.9878749        -15.8279      0.001512574        37.30025                0               0                0               0
1.37624                0.9875829       -15.96622      0.001535899        33.83101                0               0                0               0
1.38284                0.9872836       -16.10631      0.001558535        30.44386                0               0                0               0
1.38944                0.9869759       -16.24818      0.001580701        27.14241                0               0                0               0
1.39604                0.9866588       -16.39188      0.001602647        23.92944                0               0                0               0
1.40264                0.9863313       -16.53743      0.001624656        20.80674                0               0                0               0
1.40924                0.9859924       -16.68484      0.001647044        17.77496                0               0                0               0
1.41584                0.9856409       -16.83412      0.001670151        14.83344                0               0                0               0
1.42244                0.9852761       -16.98527      0.001694347           11.98                0               0                0               0
1.42904                0.9848973        -17.1383      0.001720021        9.210912                0               0                0               0
1.43564                0.9845036        -17.2932      0.001747575        6.520715                0               0                0               0
1.44224                0.9840945       -17.44996       0.00177742        3.902249                0               0                0               0
1.44884                0.9836695       -17.60859      0.001809969        1.346691                0               0                0               0
1.45545                0.9832281       -17.76906      0.001845622       -1.156304                0               0                0               0
1.46205                0.9827705       -17.93139      0.001884765       -3.618384                0               0                0               0
1.46865                0.9822962       -18.09557      0.001927755       -6.052177                0               0                0               0
1.47525                0.9818051       -18.26161      0.001974917       -8.470928                0               0                0               0
1.48185                0.9812976       -18.42951      0.002026531       -10.88806                0               0                0               0
1.48845                0.9807738        -18.5993      0.002082831       -13.31678                0               0                0               0
1.49505                0.9802339         -18.771      0.002143999        -15.7696                0               0                0               0
1.50165                0.9796778       -18.94465      0.002210163       -18.25802                0               0                0               0
1.50825                0.9791062       -19.12029      0.002281396       -20.79224                0               0                0               0
1.51485                0.9785191       -19.29798      0.002357722       -23.38088                0               0                0               0
1.52145                0.9779168       -19.47778      0.002439109       -26.03093                0               0                0               0
1.52805                0.9772992       -19.65978      0.002525485       -28.74768                0               0                0               0
1.53465                0.9766663       -19.84404      0.002616733       -31.53475                0               0                0               0
1.54125                0.9760182       -20.03068      0.002712703        -34.3942                0               0                0               0
1.54785                0.9753543       -20.21978      0.002813212       -37.32667                0               0                0               0
1.55446                0.9746742       -20.41146      0.002918054       -40.33156                0               0                0               0
1.56106                0.9739774       -20.60582      0.003027004       -43.40717                0               0                0               0
1.56766                0.9732628       -20.80298      0.003139823       -46.55092                0               0                0               0
1.57426                0.9725297       -21.00307      0.003256262       -49.75953                0               0                0               0
1.58086                0.9717764       -21.20619      0.003376067       -53.02911                0               0                0               0
1.58746                0.9710016       -21.41247      0.003498983       -56.35539                0               0                0               0
1.59406                0.9702034       -21.62201      0.003624761       -59.73378                0               0                0               0
1.60066                0.9693801       -21.83492      0.003753156       -63.15951                0               0                0               0
1.60726                0.9685297       -22.05131      0.003883937        -66.6277                0               0                0               0
1.61386                0.9676496       -22.27126      0.004016883       -70.13342                0               0                0               0
1.62046                0.9667377       -22.49486      0.004151792        -73.6718                0               0                0               0
1.62706                0.9657915       -22.72217      0.004288484         -77.238                0               0                0               0
1.63366                0.9648083       -22.95327      0.004426801       -80.82734                0               0                0               0
1.64026                0.9637857       -23.18821      0.004566613       -84.43524                0               0                0               0
1.64686                0.9627209       -23.42701      0.004707816       -88.05733                0               0                0               0
1.65347                0.9616114       -23.66972      0.004850344        -91.6894                0               0                0               0
1.66007                0.9604548       -23.91634      0.004994163       -95.32749                0               0                0               0
1.66667                0.9592484       -24.16689       0.00513928       -98.96784                0               0                0               0
1.67327                  0.95799       -24.42136      0.005285741        -102.607                0               0                0               0
1.67987                0.9566774       -24.67975      0.005433639       -106.2417                0               0                0               0
1.68647                0.9553085       -24.94205      0.005583111        -109.869                0               0                0               0
1.69307                0.9538813       -25.20823      0.005734344       -113.4863                0               0                0               0
1.69967                0.9523944        -25.4783      0.005887576       -117.0914                0               0                0               0
1.70627                 0.950846       -25.75222      0.006043096       -120.6824                0               0                0               0
1.71287                0.9492347       -26.02998      0.006201244       -124.2575                0               0                0               0
1.71947                0.9475596       -26.31159      0.006362419       -127.8159                0               0                0               0
1.72607                0.9458192       -26.59703      0.006527064       -131.3566                0               0                0               0
1.73267                0.9440129       -26.88632      0.006695685       -134.8794                0               0                0               0
1.73927                0.9421398       -27.17949      0.006868826       -138.3845                0               0                0               0
1.74587                0.9401991       -27.47656      0.007047085       -141.8724                0               0                0               0
1.75248                  0.93819       -27.77758      0.007231102       -145.3443                0               0                0               0
1.75908                0.9361119       -28.08263      0.007421556       -148.8018                0               0                0               0
1.76568                0.9339639       -28.39178      0.007619156       -152.2467                0               0                0               0
1.77228                0.9317452       -28.70513      0.007824642       -155.6814                0               0                0               0
1.77888                0.9294548        -29.0228      0.008038767       -159.1089                0               0                0               0
1.78548                0.9270913       -29.34492      0.008262302       -162.5323                0               0                0               0
1.79208                0.9246533       -29.67163      0.008496013        -165.955                0               0                0               0
1.79868                0.9221392        -30.0031      0.008740668       -169.3807                0               0                0               0
1.80528                0.9195468        -30.3395      0.008997018       -172.8133                0               0                0               0
1.81188                0.9168739       -30.68102      0.009265784       -176.2568                0               0                0               0
1.81848                0.9141177       -31.02784      0.009547662       -179.7154                0               0                0               0
1.82508                 0.911275       -31.38018      0.009843307        176.8071                0               0                0               0
1.83168                0.9083424       -31.73822       0.01015332        173.3066                0               0                0               0
1.83828                0.9053159       -32.10217       0.01047826        169.7794                0               0                0               0
1.84488                0.9021911       -32.47222       0.01081862        166.2219                0               0                0               0
1.85149                0.8989633       -32.84858       0.01117482        162.6308                0               0                0               0
