! TOUCHSTONE file generated by CST MICROWAVE STUDIO
! Date and time: Tue Mar 11 13:56:32 2025
! Project name: transverse.cst
! Parameters = {Fracture=1; B=10; D=160; F=5; Feed=2.85625; L=100; M=20; R=0.384908; S=2; Theta=90; length=57.125; wave=114.25}
! Header version: 2024
! Port assignment regex: !\s*Touchstone port\s*([0-9]+)\s*=\s*(CST MWS port|CST DES external port|CST DES block port)\s*(.+)\s* \(\"(.*)\"\)(\s*mode\s*([0-9]+))?.*
! Touchstone port assignment:
! Touchstone port 1 = CST MWS port 1 ("")
! Touchstone port 2 = CST MWS port 2 ("")
# GHz S MA R 50
1                      0.9978571       -10.00818     0.0003393651       -132.2847                0               0                0               0
1.00658                 0.997757       -10.09863      0.000358343       -136.7773                0               0                0               0
1.01316                0.9976498       -10.18938     0.0003766675       -141.3006                0               0                0               0
1.01974                0.9975361       -10.28039     0.0003942488       -145.8385                0               0                0               0
1.02632                0.9974171       -10.37164     0.0004110025       -150.3767                0               0                0               0
1.03289                0.9972937        -10.4631     0.0004268506       -154.9026                0               0                0               0
1.03947                0.9971668       -10.55476     0.0004417218       -159.4048                0               0                0               0
1.04605                0.9970379       -10.64663     0.0004555525       -163.8721                0               0                0               0
1.05263                0.9969079       -10.73871     0.0004682875       -168.2942                0               0                0               0
1.05921                0.9967781       -10.83104     0.0004798817       -172.6607                0               0                0               0
1.06579                0.9966493       -10.92365     0.0004903003       -176.9612                0               0                0               0
1.07237                0.9965227       -11.01659     0.0004995215        178.8147                0               0                0               0
1.07895                0.9963991       -11.10992     0.0005075363         174.678                0               0                0               0
1.08553                0.9962793       -11.20371     0.0005143522          170.64                0               0                0               0
1.09211                0.9961637       -11.29801     0.0005199931        166.7122                0               0                0               0
1.09868                0.9960525       -11.39293     0.0005245024         162.907                0               0                0               0
1.10526                0.9959462       -11.48853      0.000527945         159.237                0               0                0               0
1.11184                0.9958445        -11.5849     0.0005304095        155.7155                0               0                0               0
1.11842                0.9957472       -11.68213     0.0005320101        152.3555                0               0                0               0
1.125                  0.9956537       -11.78029     0.0005328895        149.1705                0               0                0               0
1.13158                0.9955635       -11.87947     0.0005332208        146.1729                0               0                0               0
1.13816                0.9954757       -11.97972     0.0005332088        143.3743                0               0                0               0
1.14474                0.9953892       -12.08112     0.0005330912        140.7839                0               0                0               0
1.15132                0.9953027       -12.18371     0.0005331377        138.4083                0               0                0               0
1.15789                0.9952152       -12.28755     0.0005336486        136.2492                0               0                0               0
1.16447                0.9951255       -12.39265     0.0005349496        134.3032                0               0                0               0
1.17105                0.9950318       -12.49905      0.000537385        132.5599                0               0                0               0
1.17763                0.9949328       -12.60674     0.0005413074        131.0008                0               0                0               0
1.18421                0.9948276       -12.71573     0.0005470651        129.5997                0               0                0               0
1.19079                0.9947144       -12.82599     0.0005549868        128.3222                0               0                0               0
1.19737                0.9945923       -12.93751     0.0005653662        127.1276                0               0                0               0
1.20395                0.9944601       -13.05024     0.0005784475        125.9709                0               0                0               0
1.21053                 0.994317       -13.16414     0.0005944138        124.8057                0               0                0               0
1.21711                0.9941624       -13.27917     0.0006133798        123.5874                0               0                0               0
1.22368                0.9939955       -13.39526     0.0006353901        122.2759                0               0                0               0
1.23026                0.9938163       -13.51236     0.0006604217        120.8378                0               0                0               0
1.23684                0.9936246       -13.63041     0.0006883915        119.2476                0               0                0               0
1.24342                0.9934204       -13.74936     0.0007191648        117.4882                0               0                0               0
1.25                   0.9932042       -13.86915     0.0007525667        115.5501                0               0                0               0
1.25658                0.9929764       -13.98974     0.0007883921        113.4306                0               0                0               0
1.26316                0.9927379       -14.11108     0.0008264147        111.1327                0               0                0               0
1.26974                0.9924894       -14.23316     0.0008663952        108.6633                0               0                0               0
1.27632                0.9922318       -14.35594     0.0009080878        106.0325                0               0                0               0
1.28289                0.9919663       -14.47943     0.0009512443        103.2524                0               0                0               0
1.28947                0.9916941       -14.60362     0.0009956191        100.3361                0               0                0               0
1.29605                0.9914164       -14.72855      0.001040971        97.29741                0               0                0               0
1.30263                0.9911341       -14.85424      0.001087064        94.14997                0               0                0               0
1.30921                0.9908484       -14.98073      0.001133673        90.90732                0               0                0               0
1.31579                0.9905604        -15.1081       0.00118058        87.58251                0               0                0               0
1.32237                0.9902707       -15.23641      0.001227579        84.18805                0               0                0               0
1.32895                0.9899802       -15.36574      0.001274477         80.7358                0               0                0               0
1.33553                0.9896893       -15.49618       0.00132109        77.23703                0               0                0               0
1.34211                0.9893984       -15.62784      0.001367253        73.70239                0               0                0               0
1.34868                0.9891075       -15.76081      0.001412813        70.14197                0               0                0               0
1.35526                0.9888165        -15.8952      0.001457634         66.5653                0               0                0               0
1.36184                0.9885248       -16.03113        0.0015016        62.98143                0               0                0               0
1.36842                0.9882318       -16.16868      0.001544613        59.39896                0               0                0               0
1.375                  0.9879367       -16.30797      0.001586597        55.82608                0               0                0               0
1.38158                0.9876382        -16.4491      0.001627499        52.27058                0               0                0               0
1.38816                0.9873351       -16.59213      0.001667292        48.73987                0               0                0               0
1.39474                0.9870258       -16.73717      0.001705976        45.24103                0               0                0               0
1.40132                0.9867087       -16.88427      0.001743579        41.78074                0               0                0               0
1.40789                0.9863822       -17.03348      0.001780162        38.36531                0               0                0               0
1.41447                0.9860442       -17.18485      0.001815816        35.00061                0               0                0               0
1.42105                 0.985693       -17.33839       0.00185067        31.69204                0               0                0               0
1.42763                0.9853268       -17.49414      0.001884887        28.44446                0               0                0               0
1.43421                0.9849439       -17.65207      0.001918669        25.26209                0               0                0               0
1.44079                0.9845423       -17.81219      0.001952253        22.14842                0               0                0               0
1.44737                0.9841208       -17.97446      0.001985916        19.10609                0               0                0               0
1.45395                0.9836778       -18.13885      0.002019974        16.13678                0               0                0               0
1.46053                0.9832121       -18.30532      0.002054775         13.2411                0               0                0               0
1.46711                 0.982723       -18.47382      0.002090704        10.41841                0               0                0               0
1.47368                0.9822096        -18.6443      0.002128171          7.6668                0               0                0               0
1.48026                0.9816713        -18.8167      0.002167614        4.982949                0               0                0               0
1.48684                 0.981108       -18.99097      0.002209488        2.362118                0               0                0               0
1.49342                0.9805196       -19.16706       0.00225426      -0.2018443                0               0                0               0
1.5                    0.9799064       -19.34493      0.002302399       -2.716433                0               0                0               0
1.50658                0.9792688       -19.52455      0.002354369       -5.190355                0               0                0               0
1.51316                0.9786075        -19.7059       0.00241062       -7.633335                0               0                0               0
1.51974                0.9779232       -19.88897      0.002471578       -10.05586                0               0                0               0
1.52632                0.9772169       -20.07377      0.002537637       -12.46887                0               0                0               0
1.53289                0.9764894       -20.26031      0.002609151       -14.88346                0               0                0               0
1.53947                0.9757419       -20.44865       0.00268643       -17.31051                0               0                0               0
1.54605                0.9749752       -20.63883      0.002769733       -19.76042                0               0                0               0
1.55263                0.9741903       -20.83093      0.002859267       -22.24277                0               0                0               0
1.55921                0.9733878       -21.02505      0.002955186       -24.76613                0               0                0               0
1.56579                0.9725685       -21.22129       0.00305759       -27.33787                0               0                0               0
1.57237                0.9717329       -21.41978       0.00316653       -29.96406                0               0                0               0
1.57895                0.9708809       -21.62066      0.003282008       -32.64943                0               0                0               0
1.58553                0.9700126       -21.82409      0.003403984       -35.39741                0               0                0               0
1.59211                0.9691275        -22.0302      0.003532382       -38.21013                0               0                0               0
1.59868                0.9682246       -22.23917      0.003667091       -41.08857                0               0                0               0
1.60526                0.9673031       -22.45117      0.003807976       -44.03268                0               0                0               0
1.61184                0.9663614       -22.66637       0.00395488        -47.0415                0               0                0               0
1.61842                0.9653978       -22.88492      0.004107629        -50.1133                0               0                0               0
1.625                  0.9644098       -23.10699      0.004266043       -53.24572                0               0                0               0
1.63158                0.9633954       -23.33274      0.004429931        -56.4359                0               0                0               0
1.63816                0.9623516       -23.56229      0.004599108       -59.68062                0               0                0               0
1.64474                0.9612752       -23.79578      0.004773387        -62.9764                0               0                0               0
1.65132                0.9601633       -24.03331      0.004952592       -66.31954                0               0                0               0
1.65789                0.9590124       -24.27497      0.005136559       -69.70628                0               0                0               0
1.66447                 0.957819       -24.52085       0.00532514       -73.13285                0               0                0               0
1.67105                0.9565793       -24.77099      0.005518202       -76.59546                0               0                0               0
1.67763                0.9552901       -25.02544      0.005715639       -80.09045                0               0                0               0
1.68421                0.9539476       -25.28419      0.005917365       -83.61426                0               0                0               0
1.69079                0.9525486       -25.54726      0.006123325       -87.16348                0               0                0               0
1.69737                0.9510894       -25.81463      0.006333494       -90.73488                0               0                0               0
1.70395                0.9495674       -26.08626      0.006547876       -94.32544                0               0                0               0
1.71053                0.9479793        -26.3621      0.006766516       -97.93235                0               0                0               0
1.71711                0.9463226        -26.6421      0.006989487        -101.553                0               0                0               0
1.72368                0.9445951        -26.9262      0.007216904       -105.1852                0               0                0               0
1.73026                0.9427946       -27.21432      0.007448923       -108.8266                0               0                0               0
1.73684                0.9409194       -27.50641      0.007685736       -112.4757                0               0                0               0
1.74342                0.9389682       -27.80239      0.007927576       -116.1308                0               0                0               0
1.75                   0.9369398       -28.10221      0.008174716       -119.7906                0               0                0               0
1.75658                0.9348334       -28.40583       0.00842747       -123.4542                0               0                0               0
1.76316                0.9326482        -28.7132      0.008686188       -127.1208                0               0                0               0
1.76974                0.9303838       -29.02432      0.008951259         -130.79                0               0                0               0
1.77632                0.9280401       -29.33919      0.009223104       -134.4616                0               0                0               0
1.78289                0.9256166       -29.65782      0.009502181       -138.1357                0               0                0               0
1.78947                0.9231132       -29.98028      0.009788974       -141.8126                0               0                0               0
1.79605                0.9205298       -30.30661       0.01008399       -145.4929                0               0                0               0
1.80263                 0.917866       -30.63693       0.01038776       -149.1774                0               0                0               0
1.80921                0.9151212       -30.97136       0.01070084       -152.8672                0               0                0               0
1.81579                0.9122948       -31.31003       0.01102377       -156.5633                0               0                0               0
1.82237                0.9093856       -31.65313       0.01135713       -160.2672                0               0                0               0
1.82895                0.9063923       -32.00083       0.01170148       -163.9804                0               0                0               0
1.83553                0.9033129       -32.35334       0.01205738       -167.7045                0               0                0               0
1.84211                0.9001453       -32.71088       0.01242537       -171.4412                0               0                0               0
1.84868                0.8968864       -33.07369       0.01280599       -175.1921                0               0                0               0
