! TOUCHSTONE file generated by CST MICROWAVE STUDIO
! Date and time: Tue Mar 11 13:56:34 2025
! Project name: transverse.cst
! Parameters = {Fracture=5; B=10; D=160; F=5; Feed=2.85625; L=100; M=30; R=0.384908; S=2; Theta=90; length=57.125; wave=114.25}
! Header version: 2024
! Port assignment regex: !\s*Touchstone port\s*([0-9]+)\s*=\s*(CST MWS port|CST DES external port|CST DES block port)\s*(.+)\s* \(\"(.*)\"\)(\s*mode\s*([0-9]+))?.*
! Touchstone port assignment:
! Touchstone port 1 = CST MWS port 1 ("")
! Touchstone port 2 = CST MWS port 2 ("")
# GHz S MA R 50
1                      0.9977069       -9.751342     0.0003766016       -164.4904                0               0                0               0
1.00658                0.9976063       -9.839038     0.0003831375       -168.9044                0               0                0               0
1.01316                0.9975015       -9.927063       0.00038864       -173.2501                0               0                0               0
1.01974                0.9973928        -10.0154     0.0003930859       -177.5166                0               0                0               0
1.02632                0.9972812       -10.10405     0.0003964618         178.308                0               0                0               0
1.03289                0.9971674       -10.19301      0.000398766        174.2365                0               0                0               0
1.03947                0.9970521        -10.2823     0.0004000099        170.2829                0               0                0               0
1.04605                0.9969361       -10.37194       0.00040022        166.4625                0               0                0               0
1.05263                0.9968201       -10.46195     0.0003994403        162.7924                0               0                0               0
1.05921                0.9967048       -10.55237     0.0003977351        159.2909                0               0                0               0
1.06579                0.9965906       -10.64324     0.0003951918        155.9783                0               0                0               0
1.07237                0.9964781       -10.73462     0.0003919242        152.8761                0               0                0               0
1.07895                0.9963676       -10.82654     0.0003880764         150.007                0               0                0               0
1.08553                0.9962593       -10.91908     0.0003838262        147.3942                0               0                0               0
1.09211                0.9961532       -11.01229     0.0003793889          145.06                0               0                0               0
1.09868                0.9960493       -11.10623     0.0003750201        143.0247                0               0                0               0
1.10526                0.9959472       -11.20095     0.0003710165        141.3036                0               0                0               0
1.11184                0.9958467       -11.29652      0.000367715        139.9043                0               0                0               0
1.11842                0.9957471       -11.39299     0.0003654866        138.8229                0               0                0               0
1.125                  0.9956478       -11.49041     0.0003647259        138.0406                0               0                0               0
1.13158                0.9955481       -11.58883     0.0003658343        137.5209                0               0                0               0
1.13816                0.9954472       -11.68827     0.0003691976        137.2087                0               0                0               0
1.14474                0.9953441       -11.78877     0.0003751607         137.032                0               0                0               0
1.15132                0.9952379       -11.89035     0.0003840029        136.9075                0               0                0               0
1.15789                0.9951275       -11.99302     0.0003959186        136.7481                0               0                0               0
1.16447                0.9950121       -12.09679     0.0004110078        136.4715                0               0                0               0
1.17105                0.9948906       -12.20165     0.0004292766        136.0075                0               0                0               0
1.17763                0.9947623       -12.30759     0.0004506476        135.3032                0               0                0               0
1.18421                0.9946262       -12.41459     0.0004749769        134.3245                0               0                0               0
1.19079                0.9944816       -12.52263     0.0005020713        133.0545                0               0                0               0
1.19737                0.9943283       -12.63167     0.0005317072        131.4912                0               0                0               0
1.20395                0.9941653       -12.74167     0.0005636435        129.6436                0               0                0               0
1.21053                0.9939928       -12.85261     0.0005976334        127.5279                0               0                0               0
1.21711                0.9938104       -12.96444     0.0006334311        125.1652                0               0                0               0
1.22368                0.9936181       -13.07713     0.0006707965        122.5783                0               0                0               0
1.23026                0.9934163       -13.19063     0.0007094979        119.7907                0               0                0               0
1.23684                0.9932051       -13.30491     0.0007493128        116.8257                0               0                0               0
1.24342                0.9929849       -13.41995     0.0007900289         113.705                0               0                0               0
1.25                   0.9927566       -13.53572     0.0008314436        110.4491                0               0                0               0
1.25658                0.9925207       -13.65222     0.0008733643        107.0767                0               0                0               0
1.26316                0.9922779       -13.76943     0.0009156075        103.6051                0               0                0               0
1.26974                0.9920292       -13.88736     0.0009579992          100.05                0               0                0               0
1.27632                0.9917755       -14.00602      0.001000375        96.42549                0               0                0               0
1.28289                0.9915173       -14.12544      0.001042579        92.74476                0               0                0               0
1.28947                0.9912558       -14.24564      0.001084468        89.01964                0               0                0               0
1.29605                0.9909917       -14.36669      0.001125905        85.26106                0               0                0               0
1.30263                0.9907255       -14.48862      0.001166769        81.47907                0               0                0               0
1.30921                0.9904581        -14.6115      0.001206947        77.68299                0               0                0               0
1.31579                0.9901898        -14.7354       0.00124634        73.88152                0               0                0               0
1.32237                0.9899209        -14.8604      0.001284865        70.08278                0               0                0               0
1.32895                0.9896516       -14.98657      0.001322452        66.29442                0               0                0               0
1.33553                0.9893819       -15.11401      0.001359048        62.52368                0               0                0               0
1.34211                0.9891115       -15.24279       0.00139462        58.77739                0               0                0               0
1.34868                0.9888401         -15.373      0.001429154        55.06206                0               0                0               0
1.35526                0.9885673       -15.50473      0.001462654        51.38384                0               0                0               0
1.36184                0.9882919       -15.63805       0.00149515        47.74858                0               0                0               0
1.36842                0.9880135       -15.77305      0.001526695        44.16172                0               0                0               0
1.375                  0.9877306       -15.90979      0.001557369         40.6284                0               0                0               0
1.38158                0.9874426       -16.04833      0.001587276        37.15326                0               0                0               0
1.38816                0.9871477       -16.18873      0.001616551        33.74051                0               0                0               0
1.39474                 0.986845       -16.33103      0.001645355        30.39375                0               0                0               0
1.40132                0.9865328       -16.47527      0.001673881        27.11598                0               0                0               0
1.40789                  0.98621       -16.62147       0.00170235        23.90941                0               0                0               0
1.41447                0.9858751       -16.76965       0.00173101         20.7754                0               0                0               0
1.42105                 0.985527       -16.91981       0.00176014        17.71435                0               0                0               0
1.42763                0.9851645       -17.07197       0.00179004        14.72558                0               0                0               0
1.43421                0.9847863       -17.22609      0.001821036        11.80722                0               0                0               0
1.44079                0.9843915       -17.38217      0.001853469        8.956171                0               0                0               0
1.44737                0.9839793        -17.5402      0.001887696        6.168068                0               0                0               0
1.45395                 0.983549       -17.70015      0.001924081        3.437245                0               0                0               0
1.46053                   0.9831       -17.86199       0.00196299        0.756819                0               0                0               0
1.46711                0.9826322        -18.0257      0.002004784       -1.881211                0               0                0               0
1.47368                0.9821454       -18.19127       0.00204981       -4.485803                0               0                0               0
1.48026                0.9816395       -18.35867      0.002098398       -7.066654                0               0                0               0
1.48684                0.9811146       -18.52791      0.002150851       -9.633941                0               0                0               0
1.49342                 0.980571       -18.69898      0.002207438       -12.19804                0               0                0               0
1.5                     0.980009       -18.87188      0.002268392       -14.76923                0               0                0               0
1.50658                0.9794293       -19.04664      0.002333904       -17.35739                0               0                0               0
1.51316                0.9788322        -19.2233      0.002404122       -19.97174                0               0                0               0
1.51974                0.9782181       -19.40188      0.002479147       -22.62064                0               0                0               0
1.52632                0.9775877       -19.58246      0.002559036       -25.31138                0               0                0               0
1.53289                0.9769413       -19.76509      0.002643802       -28.05006                0               0                0               0
1.53947                0.9762792       -19.94987      0.002733414       -30.84156                0               0                0               0
1.54605                0.9756018       -20.13688      0.002827806       -33.68952                0               0                0               0
1.55263                0.9749089       -20.32623      0.002926874       -36.59635                0               0                0               0
1.55921                0.9742004       -20.51804      0.003030486       -39.56333                0               0                0               0
1.56579                 0.973476       -20.71242      0.003138483       -42.59069                0               0                0               0
1.57237                0.9727351       -20.90951      0.003250684       -45.67775                0               0                0               0
1.57895                0.9719769       -21.10944       0.00336689       -48.82299                0               0                0               0
1.58553                   0.9712       -21.31235      0.003486893       -52.02425                0               0                0               0
1.59211                0.9704033       -21.51836      0.003610473       -55.27878                0               0                0               0
1.59868                0.9695849       -21.72761      0.003737408       -58.58337                0               0                0               0
1.60526                0.9687431       -21.94024      0.003867475       -61.93452                0               0                0               0
1.61184                0.9678757       -22.15635      0.004000456        -65.3284                0               0                0               0
1.61842                0.9669804       -22.37607      0.004136139       -68.76105                0               0                0               0
1.625                  0.9660545       -22.59949      0.004274324       -72.22839                0               0                0               0
1.63158                0.9650954        -22.8267      0.004414825       -75.72629                0               0                0               0
1.63816                0.9641002       -23.05779      0.004557476       -79.25062                0               0                0               0
1.64474                0.9630661       -23.29281      0.004702129       -82.79731                0               0                0               0
1.65132                0.9619901       -23.53181      0.004848664       -86.36235                0               0                0               0
1.65789                0.9608692       -23.77482      0.004996987       -89.94186                0               0                0               0
1.66447                0.9597005       -24.02188      0.005147037        -93.5321                0               0                0               0
1.67105                0.9584812       -24.27297      0.005298785       -97.12948                0               0                0               0
1.67763                0.9572086       -24.52811      0.005452242       -100.7306                0               0                0               0
1.68421                0.9558801       -24.78726      0.005607457       -104.3324                0               0                0               0
1.69079                0.9544932       -25.05041      0.005764524       -107.9318                0               0                0               0
1.69737                0.9530458       -25.31754      0.005923581       -111.5261                0               0                0               0
1.70395                0.9515358       -25.58859      0.006084814       -115.1131                0               0                0               0
1.71053                0.9499616       -25.86354      0.006248461       -118.6906                0               0                0               0
1.71711                0.9483215       -26.14234      0.006414808       -122.2567                0               0                0               0
1.72368                0.9466142       -26.42498      0.006584194       -125.8102                0               0                0               0
1.73026                0.9448386       -26.71142      0.006757012       -129.3499                0               0                0               0
1.73684                0.9429939       -27.00164      0.006933704       -132.8752                0               0                0               0
1.74342                0.9410791       -27.29565      0.007114766       -136.3857                0               0                0               0
1.75                   0.9390937       -27.59344      0.007300742       -139.8817                0               0                0               0
1.75658                0.9370374       -27.89505      0.007492221       -143.3636                0               0                0               0
1.76316                0.9349093       -28.20052      0.007689837       -146.8325                0               0                0               0
1.76974                0.9327091        -28.5099      0.007894262       -150.2898                0               0                0               0
1.77632                0.9304362       -28.82329      0.008106198       -153.7373                0               0                0               0
1.78289                  0.92809       -29.14077      0.008326377       -157.1771                0               0                0               0
1.78947                0.9256696       -29.46248      0.008555549       -160.6118                0               0                0               0
1.79605                 0.923174       -29.78854      0.008794476       -164.0444                0               0                0               0
1.80263                0.9206018       -30.11912      0.009043923       -167.4779                0               0                0               0
1.80921                0.9179515       -30.45438       0.00930465       -170.9158                0               0                0               0
1.81579                0.9152212       -30.79452      0.009577408       -174.3615                0               0                0               0
1.82237                0.9124083       -31.13973      0.009862918       -177.8189                0               0                0               0
1.82895                  0.90951       -31.49023       0.01016188        178.7085                0               0                0               0
1.83553                0.9065234       -31.84622       0.01047494        175.2168                0               0                0               0
1.84211                0.9034444       -32.20792       0.01080271        171.7026                0               0                0               0
1.84868                 0.900269       -32.57555       0.01114576        168.1623                0               0                0               0
