! TOUCHSTONE file generated by CST MICROWAVE STUDIO
! Date and time: Tue Mar 11 13:55:48 2025
! Project name: transverse.cst
! Parameters = {Fracture=1; B=10; D=160; F=5; Feed=2.85625; L=100; M=30; R=0.384908; S=2; Theta=0; length=57.125; wave=114.25}
! Header version: 2024
! Port assignment regex: !\s*Touchstone port\s*([0-9]+)\s*=\s*(CST MWS port|CST DES external port|CST DES block port)\s*(.+)\s* \(\"(.*)\"\)(\s*mode\s*([0-9]+))?.*
! Touchstone port assignment:
! Touchstone port 1 = CST MWS port 1 ("")
! Touchstone port 2 = CST MWS port 2 ("")
# GHz S MA R 50
1                      0.9976957       -10.00638     0.0003991594       -168.9768                0               0                0               0
1.0066                 0.9975967       -10.09592     0.0004030429       -173.6304                0               0                0               0
1.0132                 0.9974937       -10.18581     0.0004056763       -178.1902                0               0                0               0
1.0198                 0.9973873       -10.27604     0.0004070466        177.3556                0               0                0               0
1.0264                  0.997278       -10.36661     0.0004071529        173.0205                0               0                0               0
1.033                  0.9971668       -10.45752     0.0004060085        168.8196                0               0                0               0
1.0396                 0.9970542       -10.54879     0.0004036425        164.7704                0               0                0               0
1.0462                 0.9969407       -10.64044     0.0004001033        160.8927                0               0                0               0
1.05281                0.9968272       -10.73249     0.0003954614        157.2094                0               0                0               0
1.05941                0.9967142       -10.82499     0.0003898138        153.7462                0               0                0               0
1.06601                0.9966021       -10.91796     0.0003832881        150.5321                0               0                0               0
1.07261                0.9964915       -11.01147     0.0003760486        147.5991                0               0                0               0
1.07921                0.9963824       -11.10555      0.000368302        144.9822                0               0                0               0
1.08581                 0.996275       -11.20026     0.0003603043        142.7174                0               0                0               0
1.09241                0.9961694       -11.29566     0.0003523665        140.8401                0               0                0               0
1.09901                0.9960654        -11.3918     0.0003448599        139.3813                0               0                0               0
1.10561                0.9959629       -11.48873     0.0003382163        138.3621                0               0                0               0
1.11221                0.9958612       -11.58652     0.0003329229        137.7865                0               0                0               0
1.11881                0.9957601        -11.6852     0.0003295063        137.6336                0               0                0               0
1.12541                0.9956588       -11.78483     0.0003285045        137.8504                0               0                0               0
1.13201                0.9955569       -11.88544     0.0003304272        138.3488                0               0                0               0
1.13861                 0.995453       -11.98706     0.0003357086        139.0099                0               0                0               0
1.14521                0.9953467       -12.08973      0.000344665        139.6957                0               0                0               0
1.15182                0.9952371       -12.19346     0.0003574659        140.2673                0               0                0               0
1.15842                 0.995123       -12.29826     0.0003741291        140.6028                0               0                0               0
1.16502                0.9950037       -12.40414     0.0003945376        140.6105                0               0                0               0
1.17162                0.9948786       -12.51108     0.0004184712        140.2335                0               0                0               0
1.17822                0.9947462       -12.61909     0.0004456421        139.4479                0               0                0               0
1.18482                0.9946066       -12.72813     0.0004757283        138.2557                0               0                0               0
1.19142                0.9944586       -12.83819     0.0005083967        136.6768                0               0                0               0
1.19802                0.9943019       -12.94923     0.0005433202         134.742                0               0                0               0
1.20462                0.9941361       -13.06124     0.0005801858        132.4868                0               0                0               0
1.21122                 0.993961       -13.17416     0.0006186993        129.9483                0               0                0               0
1.21782                0.9937763       -13.28797     0.0006585852        127.1622                0               0                0               0
1.22442                0.9935825       -13.40263     0.0006995873        124.1618                0               0                0               0
1.23102                0.9933793       -13.51811     0.0007414658        120.9774                0               0                0               0
1.23762                0.9931674       -13.63438     0.0007839965        117.6361                0               0                0               0
1.24422                 0.992947       -13.75143     0.0008269685        114.1622                0               0                0               0
1.25083                0.9927187       -13.86922     0.0008701838         110.577                0               0                0               0
1.25743                0.9924833       -13.98776     0.0009134555        106.8996                0               0                0               0
1.26403                0.9922413       -14.10704     0.0009566073        103.1466                0               0                0               0
1.27063                0.9919938       -14.22708     0.0009994741        99.33324                0               0                0               0
1.27723                0.9917413       -14.34788        0.0010419        95.47282                0               0                0               0
1.28383                0.9914848       -14.46947      0.001083742         91.5775                0               0                0               0
1.29043                0.9912248       -14.59189      0.001124865         87.6583                0               0                0               0
1.29703                0.9909623       -14.71519      0.001165148        83.72529                0               0                0               0
1.30363                0.9906976       -14.83942      0.001204483        79.78779                0               0                0               0
1.31023                0.9904315       -14.96463      0.001242775        75.85445                0               0                0               0
1.31683                0.9901642       -15.09091      0.001279945         71.9334                0               0                0               0
1.32343                 0.989896       -15.21831      0.001315929        68.03229                0               0                0               0
1.33003                0.9896269       -15.34693      0.001350681         64.1584                0               0                0               0
1.33663                 0.989357       -15.47685      0.001384176        60.31867                0               0                0               0
1.34323                0.9890857       -15.60813       0.00141641        56.51971                0               0                0               0
1.34984                 0.988813       -15.74087        0.0014474        52.76788                0               0                0               0
1.35644                0.9885381       -15.87514      0.001477188        49.06918                0               0                0               0
1.36304                0.9882602       -16.01103      0.001505845        45.42937                0               0                0               0
1.36964                0.9879784        -16.1486      0.001533467        41.85379                0               0                0               0
1.37624                0.9876918       -16.28791      0.001560182        38.34738                0               0                0               0
1.38284                0.9873992       -16.42903      0.001586145        34.91461                0               0                0               0
1.38944                0.9870993         -16.572      0.001611546        31.55932                0               0                0               0
1.39604                0.9867911       -16.71687      0.001636607        28.28466                0               0                0               0
1.40264                0.9864731       -16.86367      0.001661581        25.09293                0               0                0               0
1.40924                0.9861441       -17.01242      0.001686753        21.98542                0               0                0               0
1.41584                0.9858027       -17.16313      0.001712436        18.96231                0               0                0               0
1.42244                0.9854478       -17.31581      0.001738974         16.0225                0               0                0               0
1.42904                0.9850784       -17.47047      0.001766731        13.16346                0               0                0               0
1.43564                0.9846933       -17.62708      0.001796092        10.38117                0               0                0               0
1.44224                0.9842916       -17.78564      0.001827454         7.67006                0               0                0               0
1.44884                0.9838727       -17.94614       0.00186122        5.023013                0               0                0               0
1.45545                 0.983436       -18.10855      0.001897793        2.431435                0               0                0               0
1.46205                0.9829808       -18.27285      0.001937563      -0.1145865                0               0                0               0
1.46865                0.9825072       -18.43904      0.001980905       -2.626056                0               0                0               0
1.47525                0.9820147       -18.60708      0.002028165       -5.114781                0               0                0               0
1.48185                0.9815035       -18.77698      0.002079655       -7.593018                0               0                0               0
1.48845                0.9809737       -18.94873      0.002135648        -10.0731                0               0                0               0
1.49505                0.9804257       -19.12234      0.002196367       -12.56707                0               0                0               0
1.50165                0.9798597       -19.29782      0.002261989       -15.08628                0               0                0               0
1.50825                 0.979276        -19.4752      0.002332635       -17.64112                0               0                0               0
1.51485                0.9786754       -19.65451      0.002408379       -20.24076                0               0                0               0
1.52145                0.9780579       -19.83581      0.002489237       -22.89294                0               0                0               0
1.52805                0.9774242       -20.01916      0.002575186        -25.6039                0               0                0               0
1.53465                0.9767745       -20.20463      0.002666148       -28.37836                0               0                0               0
1.54125                0.9761091       -20.39231      0.002762014       -31.21953                0               0                0               0
1.54785                0.9754279       -20.58228      0.002862633        -34.1292                0               0                0               0
1.55446                 0.974731       -20.77467      0.002967827       -37.10789                0               0                0               0
1.56106                 0.974018       -20.96959      0.003077393       -40.15499                0               0                0               0
1.56766                0.9732884       -21.16715      0.003191108       -43.26888                0               0                0               0
1.57426                0.9725417       -21.36749      0.003308734       -46.44713                0               0                0               0
1.58086                0.9717766       -21.57073      0.003430022       -49.68667                0               0                0               0
1.58746                0.9709921       -21.77701      0.003554718       -52.98385                0               0                0               0
1.59406                0.9701866       -21.98646      0.003682567       -56.33465                0               0                0               0
1.60066                0.9693584       -22.19921      0.003813317       -59.73477                0               0                0               0
1.60726                0.9685055       -22.41538      0.003946719       -63.17968                0               0                0               0
1.61386                0.9676257       -22.63509      0.004082538       -66.66476                0               0                0               0
1.62046                0.9667166       -22.85843      0.004220551       -70.18535                0               0                0               0
1.62706                0.9657755       -23.08552      0.004360549       -73.73677                0               0                0               0
1.63366                   0.9648       -23.31642      0.004502347       -77.31442                0               0                0               0
1.64026                 0.963787       -23.55121      0.004645782       -80.91379                0               0                0               0
1.64686                0.9627338       -23.78996      0.004790716       -84.53046                0               0                0               0
1.65347                0.9616373       -24.03269      0.004937045       -88.16022                0               0                0               0
1.66007                0.9604947       -24.27945      0.005084694       -91.79898                0               0                0               0
1.66667                0.9593032       -24.53024      0.005233628       -95.44287                0               0                0               0
1.67327                  0.95806       -24.78507      0.005383848       -99.08822                0               0                0               0
1.67987                0.9567624       -25.04394        0.0055354       -102.7316                0               0                0               0
1.68647                0.9554081       -25.30683      0.005688376       -106.3699                0               0                0               0
1.69307                0.9539944       -25.57371      0.005842913       -110.0002                0               0                0               0
1.69967                0.9525197       -25.84455      0.005999201       -113.6198                0               0                0               0
1.70627                0.9509817       -26.11933      0.006157483       -117.2266                0               0                0               0
1.71287                0.9493789         -26.398      0.006318053       -120.8185                0               0                0               0
1.71947                0.9477097       -26.68055      0.006481265       -124.3941                0               0                0               0
1.72607                0.9459729       -26.96693      0.006647525       -127.9521                0               0                0               0
1.73267                0.9441674       -27.25714      0.006817296       -131.4917                0               0                0               0
1.73927                0.9422924       -27.55116      0.006991095       -135.0127                0               0                0               0
1.74587                0.9403472         -27.849      0.007169495       -138.5151                0               0                0               0
1.75248                0.9383309       -28.15068      0.007353113       -141.9994                0               0                0               0
1.75908                0.9362432       -28.45623      0.007542619       -145.4669                0               0                0               0
1.76568                0.9340833        -28.7657      0.007738719       -148.9188                0               0                0               0
1.77228                0.9318508       -29.07916      0.007942158       -152.3573                0               0                0               0
1.77888                0.9295449       -29.39671      0.008153709       -155.7846                0               0                0               0
1.78548                0.9271651       -29.71844      0.008374168       -159.2035                0               0                0               0
1.79208                0.9247099        -30.0445       0.00860434       -162.6173                0               0                0               0
1.79868                0.9221787       -30.37501      0.008845041       -166.0293                0               0                0               0
1.80528                0.9195695       -30.71016      0.009097077       -169.4433                0               0                0               0
1.81188                0.9168808       -31.05011      0.009361242       -172.8633                0               0                0               0
1.81848                0.9141102       -31.39506      0.009638304       -176.2934                0               0                0               0
1.82508                0.9112551        -31.7452         0.009929       -179.7375                0               0                0               0
1.83168                0.9083127       -32.10075       0.01023403        176.8001                0               0                0               0
1.83828                0.9052794       -32.46193       0.01055404        173.3154                0               0                0               0
1.84488                0.9021512       -32.82893       0.01088961        169.8045                0               0                0               0
1.85149                0.8989237       -33.20197       0.01124127        166.2638                0               0                0               0
