! TOUCHSTONE file generated by CST MICROWAVE STUDIO
! Date and time: Tue Mar 11 13:55:55 2025
! Project name: transverse.cst
! Parameters = {Fracture=1; B=10; D=160; F=25; Feed=2.85625; L=100; M=10; R=0.384908; S=1; Theta=0; length=57.125; wave=114.25}
! Header version: 2024
! Port assignment regex: !\s*Touchstone port\s*([0-9]+)\s*=\s*(CST MWS port|CST DES external port|CST DES block port)\s*(.+)\s* \(\"(.*)\"\)(\s*mode\s*([0-9]+))?.*
! Touchstone port assignment:
! Touchstone port 1 = CST MWS port 1 ("")
! Touchstone port 2 = CST MWS port 2 ("")
# GHz S MA R 50
1                      0.9976047       -10.01515     0.0003761168        -163.251                0               0                0               0
1.0066                 0.9975402       -10.10316     0.0003753371       -167.0465                0               0                0               0
1.0132                 0.9974774       -10.19187     0.0003735907       -170.6245                0               0                0               0
1.0198                 0.9974159       -10.28131     0.0003709908       -173.9611                0               0                0               0
1.0264                 0.9973554       -10.37152      0.000367685       -177.0302                0               0                0               0
1.033                  0.9972952       -10.46255     0.0003638607       -179.8042                0               0                0               0
1.0396                 0.9972345       -10.55443     0.0003597503        177.7442                0               0                0               0
1.0462                 0.9971728       -10.64719     0.0003556356        175.6403                0               0                0               0
1.05281                0.9971092       -10.74085     0.0003518515        173.9047                0               0                0               0
1.05941                0.9970428       -10.83542     0.0003487858        172.5485                0               0                0               0
1.06601                0.9969729       -10.93092     0.0003468735        171.5688                0               0                0               0
1.07261                0.9968987       -11.02734     0.0003465848        170.9435                0               0                0               0
1.07921                0.9968192       -11.12468     0.0003484037        170.6268                0               0                0               0
1.08581                0.9967338       -11.22293     0.0003527981        170.5483                0               0                0               0
1.09241                0.9966419       -11.32207     0.0003601866        170.6158                0               0                0               0
1.09901                0.9965428       -11.42208     0.0003709044        170.7234                0               0                0               0
1.10561                 0.996436       -11.52292     0.0003851804        170.7628                0               0                0               0
1.11221                0.9963212       -11.62457     0.0004031261        170.6356                0               0                0               0
1.11881                 0.996198         -11.727     0.0004247414        170.2627                0               0                0               0
1.12541                0.9960664       -11.83017     0.0004499315        169.5892                0               0                0               0
1.13201                0.9959264       -11.93404     0.0004785306        168.5848                0               0                0               0
1.13861                0.9957779       -12.03859     0.0005103258        167.2403                0               0                0               0
1.14521                0.9956213       -12.14379     0.0005450784        165.5626                0               0                0               0
1.15182                0.9954571       -12.24961     0.0005825387        163.5697                0               0                0               0
1.15842                0.9952854       -12.35602     0.0006224571        161.2862                0               0                0               0
1.16502                0.9951069       -12.46302     0.0006645909        158.7397                0               0                0               0
1.17162                0.9949222       -12.57059     0.0007087071        155.9585                0               0                0               0
1.17822                 0.994732       -12.67874     0.0007545836        152.9702                0               0                0               0
1.18482                0.9945368       -12.78746     0.0008020102        149.8006                0               0                0               0
1.19142                0.9943375       -12.89677     0.0008507874        146.4735                0               0                0               0
1.19802                0.9941346        -13.0067     0.0009007257        143.0105                0               0                0               0
1.20462                0.9939289       -13.11726     0.0009516454        139.4307                0               0                0               0
1.21122                0.9937208       -13.22851      0.001003375        135.7517                0               0                0               0
1.21782                 0.993511       -13.34047      0.001055753        131.9887                0               0                0               0
1.22442                0.9932997        -13.4532      0.001108624        128.1555                0               0                0               0
1.23102                0.9930873       -13.56675      0.001161841        124.2645                0               0                0               0
1.23762                 0.992874       -13.68118      0.001215265        120.3266                0               0                0               0
1.24422                0.9926599       -13.79655      0.001268766        116.3517                0               0                0               0
1.25083                0.9924447       -13.91292      0.001322222        112.3487                0               0                0               0
1.25743                0.9922284       -14.03035       0.00137552        108.3257                0               0                0               0
1.26403                0.9920105       -14.14891      0.001428557          104.29                0               0                0               0
1.27063                0.9917906       -14.26864       0.00148124        100.2484                0               0                0               0
1.27723                0.9915681        -14.3896      0.001533487        96.20693                0               0                0               0
1.28383                0.9913422       -14.51185       0.00158523         92.1713                0               0                0               0
1.29043                0.9911122       -14.63543      0.001636412        88.14673                0               0                0               0
1.29703                0.9908772       -14.76037       0.00168699        84.13803                0               0                0               0
1.30363                0.9906363       -14.88671      0.001736938        80.14968                0               0                0               0
1.31023                0.9903885       -15.01447      0.001786242         76.1858                0               0                0               0
1.31683                0.9901329       -15.14367      0.001834909         72.2502                0               0                0               0
1.32343                0.9898685       -15.27431      0.001882961        68.34634                0               0                0               0
1.33003                0.9895944        -15.4064       0.00193044        64.47739                0               0                0               0
1.33663                0.9893099       -15.53992      0.001977405        60.64618                0               0                0               0
1.34323                0.9890141       -15.67488      0.002023936        56.85521                0               0                0               0
1.34984                0.9887063       -15.81126      0.002070134        53.10659                0               0                0               0
1.35644                0.9883861       -15.94902      0.002116119        49.40208                0               0                0               0
1.36304                0.9880532       -16.08817       0.00216203        45.74301                0               0                0               0
1.36964                 0.987707       -16.22866      0.002208027        42.13027                0               0                0               0
1.37624                0.9873476       -16.37047       0.00225429        38.56429                0               0                0               0
1.38284                 0.986975       -16.51359      0.002301014        35.04501                0               0                0               0
1.38944                0.9865893         -16.658      0.002348413        31.57182                0               0                0               0
1.39604                0.9861908       -16.80367      0.002396714         28.1436                0               0                0               0
1.40264                0.9857799       -16.95061      0.002446157        24.75869                0               0                0               0
1.40924                0.9853569       -17.09881      0.002496991        21.41486                0               0                0               0
1.41584                0.9849228       -17.24829      0.002549473        18.10933                0               0                0               0
1.42244                0.9844779       -17.39904      0.002603861        14.83886                0               0                0               0
1.42904                0.9840228       -17.55111      0.002660414        11.59968                0               0                0               0
1.43564                0.9835586       -17.70453      0.002719389        8.387635                0               0                0               0
1.44224                0.9830855       -17.85934      0.002781031        5.198214                0               0                0               0
1.44884                0.9826044       -18.01561      0.002845577        2.026631                0               0                0               0
1.45545                0.9821156        -18.1734      0.002913246       -1.132082                0               0                0               0
1.46205                0.9816197       -18.33278      0.002984241       -4.282975                0               0                0               0
1.46865                0.9811171       -18.49384      0.003058742       -7.431087                0               0                0               0
1.47525                0.9806077       -18.65669      0.003136904       -10.58134                0               0                0               0
1.48185                0.9800916        -18.8214      0.003218859       -13.73846                0               0                0               0
1.48845                0.9795687        -18.9881      0.003304709       -16.90687                0               0                0               0
1.49505                0.9790386       -19.15689      0.003394527       -20.09064                0               0                0               0
1.50165                0.9785008       -19.32787      0.003488361       -23.29341                0               0                0               0
1.50825                0.9779543       -19.50117      0.003586229       -26.51834                0               0                0               0
1.51485                0.9773984       -19.67688      0.003688119       -29.76812                0               0                0               0
1.52145                0.9768318       -19.85513      0.003793998       -33.04489                0               0                0               0
1.52805                0.9762532         -20.036      0.003903805        -36.3503                0               0                0               0
1.53465                0.9756613       -20.21959      0.004017459       -39.68549                0               0                0               0
1.54125                0.9750542         -20.406      0.004134859       -43.05109                0               0                0               0
1.54785                0.9744302        -20.5953      0.004255885       -46.44729                0               0                0               0
1.55446                0.9737877       -20.78756      0.004380406       -49.87386                0               0                0               0
1.56106                0.9731247       -20.98286      0.004508276       -53.33019                0               0                0               0
1.56766                0.9724392       -21.18124      0.004639342       -56.81532                0               0                0               0
1.57426                0.9717294       -21.38275      0.004773448       -60.32799                0               0                0               0
1.58086                0.9709934       -21.58741      0.004910432       -63.86669                0               0                0               0
1.58746                0.9702292       -21.79527      0.005050133       -67.42967                0               0                0               0
1.59406                0.9694353       -22.00634      0.005192395       -71.01503                0               0                0               0
1.60066                0.9686097       -22.22063      0.005337068       -74.62073                0               0                0               0
1.60726                0.9677512       -22.43815      0.005484012       -78.24461                0               0                0               0
1.61386                0.9668582        -22.6589      0.005633096       -81.88444                0               0                0               0
1.62046                0.9659295        -22.8829       0.00578421       -85.53795                0               0                0               0
1.62706                 0.964964       -23.11014      0.005937255       -89.20284                0               0                0               0
1.63366                0.9639606       -23.34064       0.00609216       -92.87685                0               0                0               0
1.64026                0.9629185        -23.5744      0.006248872       -96.55773                0               0                0               0
1.64686                0.9618371       -23.81145      0.006407365       -100.2433                0               0                0               0
1.65347                0.9607157       -24.05181      0.006567641       -103.9314                0               0                0               0
1.66007                0.9595538       -24.29552      0.006729736       -107.6201                0               0                0               0
1.66667                 0.958351       -24.54262      0.006893711       -111.3075                0               0                0               0
1.67327                0.9571066       -24.79318      0.007059668       -114.9918                0               0                0               0
1.67987                0.9558204       -25.04727      0.007227743       -118.6714                0               0                0               0
1.68647                0.9544919       -25.30497      0.007398108       -122.3448                0               0                0               0
1.69307                0.9531204        -25.5664      0.007570977       -126.0109                0               0                0               0
1.69967                0.9517053       -25.83167      0.007746598       -129.6686                0               0                0               0
1.70627                0.9502457        -26.1009      0.007925261       -133.3171                0               0                0               0
1.71287                0.9487404       -26.37424      0.008107296       -136.9558                0               0                0               0
1.71947                0.9471883       -26.65185      0.008293069       -140.5844                0               0                0               0
1.72607                0.9455877        -26.9339      0.008482986       -144.2028                0               0                0               0
1.73267                0.9439368       -27.22055      0.008677486       -147.8111                0               0                0               0
1.73927                0.9422333       -27.51199      0.008877041       -151.4099                0               0                0               0
1.74587                0.9404749        -27.8084      0.009082155       -154.9999                0               0                0               0
1.75248                0.9386584       -28.10997      0.009293355       -158.5821                0               0                0               0
1.75908                0.9367808        -28.4169      0.009511195       -162.1577                0               0                0               0
1.76568                0.9348384       -28.72936      0.009736241       -165.7283                0               0                0               0
1.77228                0.9328273       -29.04753      0.009969076       -169.2956                0               0                0               0
1.77888                0.9307432       -29.37158       0.01021029       -172.8616                0               0                0               0
1.78548                0.9285816       -29.70166       0.01046046       -176.4284                0               0                0               0
1.79208                0.9263377       -30.03793       0.01072019       -179.9984                0               0                0               0
1.79868                 0.924006        -30.3805       0.01099004        176.4261                0               0                0               0
1.80528                0.9215816        -30.7295       0.01127056        172.8424                0               0                0               0
1.81188                0.9190588       -31.08502       0.01156228        169.2479                0               0                0               0
1.81848                 0.916432       -31.44713       0.01186571        165.6401                0               0                0               0
1.82508                0.9136954       -31.81588       0.01218131        162.0163                0               0                0               0
1.83168                0.9108433        -32.1913       0.01250951        158.3739                0               0                0               0
1.83828                  0.90787       -32.57341       0.01285067        154.7105                0               0                0               0
1.84488                0.9047697       -32.96219       0.01320514        151.0236                0               0                0               0
1.85149                0.9015367       -33.35763       0.01357319        147.3111                0               0                0               0
