! TOUCHSTONE file generated by CST MICROWAVE STUDIO
! Date and time: Tue Mar 11 13:55:45 2025
! Project name: transverse.cst
! Parameters = {Fracture=1; B=10; D=160; F=5; Feed=2.85625; L=100; M=20; R=0.384908; S=1; Theta=0; length=57.125; wave=114.25}
! Header version: 2024
! Port assignment regex: !\s*Touchstone port\s*([0-9]+)\s*=\s*(CST MWS port|CST DES external port|CST DES block port)\s*(.+)\s* \(\"(.*)\"\)(\s*mode\s*([0-9]+))?.*
! Touchstone port assignment:
! Touchstone port 1 = CST MWS port 1 ("")
! Touchstone port 2 = CST MWS port 2 ("")
# GHz S MA R 50
1                      0.9979139        -10.0234     0.0003217564       -124.1435                0               0                0               0
1.0066                 0.9978129       -10.11489     0.0003437337       -128.9671                0               0                0               0
1.0132                 0.9977032       -10.20667     0.0003650692        -133.822                0               0                0               0
1.0198                 0.9975854       -10.29868     0.0003856581       -138.6916                0               0                0               0
1.0264                 0.9974608       -10.39088     0.0004053996        -143.562                0               0                0               0
1.033                  0.9973304       -10.48323     0.0004241974       -148.4212                0               0                0               0
1.0396                 0.9971957       -10.57573     0.0004419608       -153.2585                0               0                0               0
1.0462                 0.9970579       -10.66835     0.0004586046       -158.0639                0               0                0               0
1.05281                0.9969185        -10.7611     0.0004740509       -162.8281                0               0                0               0
1.05941                0.9967789       -10.85401     0.0004882297       -167.5419                0               0                0               0
1.06601                0.9966404       -10.94712     0.0005010802       -172.1961                0               0                0               0
1.07261                0.9965043       -11.04046     0.0005125517       -176.7814                0               0                0               0
1.07921                0.9963718        -11.1341     0.0005226056        178.7121                0               0                0               0
1.08581                0.9962438       -11.22811     0.0005312166        174.2946                0               0                0               0
1.09241                 0.996121       -11.32258     0.0005383748        169.9771                0               0                0               0
1.09901                0.9960043        -11.4176     0.0005440874        165.7713                0               0                0               0
1.10561                0.9958938       -11.51325      0.000548381          161.69                0               0                0               0
1.11221                0.9957895       -11.60965     0.0005513045        157.7467                0               0                0               0
1.11881                0.9956913       -11.70689     0.0005529315        153.9562                0               0                0               0
1.12541                0.9955989       -11.80506     0.0005533634        150.3338                0               0                0               0
1.13201                0.9955115       -11.90427     0.0005527328         146.896                0               0                0               0
1.13861                0.9954282        -12.0046     0.0005512071        143.6596                0               0                0               0
1.14521                0.9953479       -12.10613     0.0005489913        140.6415                0               0                0               0
1.15182                0.9952694       -12.20892     0.0005463317        137.8575                0               0                0               0
1.15842                0.9951911       -12.31305     0.0005435173        135.3219                0               0                0               0
1.16502                0.9951116       -12.41854     0.0005408813        133.0453                0               0                0               0
1.17162                0.9950292       -12.52543     0.0005387984        131.0334                0               0                0               0
1.17822                0.9949421       -12.63374     0.0005376807        129.2845                0               0                0               0
1.18482                0.9948488       -12.74346     0.0005379675        127.7874                0               0                0               0
1.19142                0.9947478       -12.85459     0.0005401117        126.5199                0               0                0               0
1.19802                0.9946374       -12.96709     0.0005445602        125.4479                0               0                0               0
1.20462                0.9945164       -13.08093     0.0005517314        124.5251                0               0                0               0
1.21122                0.9943836       -13.19606     0.0005619917        123.6963                0               0                0               0
1.21782                0.9942379       -13.31242     0.0005756334        122.8998                0               0                0               0
1.22442                0.9940787       -13.42993     0.0005928589        122.0732                0               0                0               0
1.23102                0.9939054       -13.54854     0.0006137725        121.1577                0               0                0               0
1.23762                0.9937179       -13.66816     0.0006383814        120.1029                0               0                0               0
1.24422                 0.993516       -13.78873     0.0006666042        118.8692                0               0                0               0
1.25083                0.9933002       -13.91017     0.0006982848        117.4293                0               0                0               0
1.25743                0.9930709       -14.03242      0.000733209        115.7675                0               0                0               0
1.26403                0.9928288       -14.15543     0.0007711209        113.8787                0               0                0               0
1.27063                 0.992575       -14.27914     0.0008117373        111.7658                0               0                0               0
1.27723                0.9923106       -14.40354     0.0008547597        109.4379                0               0                0               0
1.28383                0.9920368       -14.52858     0.0008998834        106.9086                0               0                0               0
1.29043                0.9917549       -14.65428     0.0009468044        104.1936                0               0                0               0
1.29703                0.9914666       -14.78063     0.0009952229        101.3104                0               0                0               0
1.30363                0.9911731       -14.90768      0.001044848        98.27641                0               0                0               0
1.31023                0.9908758       -15.03546      0.001095397        95.10918                0               0                0               0
1.31683                0.9905761       -15.16402        0.0011466        91.82546                0               0                0               0
1.32343                 0.990275       -15.29346      0.001198197        88.44117                0               0                0               0
1.33003                0.9899737       -15.42385      0.001249942        84.97129                0               0                0               0
1.33663                0.9896729       -15.55529      0.001301603        81.42981                0               0                0               0
1.34323                0.9893731        -15.6879      0.001352959        77.82975                0               0                0               0
1.34984                0.9890747       -15.82179      0.001403806        74.18327                0               0                0               0
1.35644                0.9887776       -15.95709      0.001453954        70.50167                0               0                0               0
1.36304                0.9884815       -16.09393      0.001503231        66.79555                0               0                0               0
1.36964                0.9881857       -16.23242      0.001551483        63.07484                0               0                0               0
1.37624                0.9878895        -16.3727      0.001598575         59.3489                0               0                0               0
1.38284                0.9875916       -16.51488      0.001644392        55.62658                0               0                0               0
1.38944                0.9872906       -16.65906      0.001688843        51.91627                0               0                0               0
1.39604                0.9869848       -16.80535      0.001731861        48.22598                0               0                0               0
1.40264                0.9866724       -16.95383      0.001773407        44.56336                0               0                0               0
1.40924                0.9863512       -17.10456      0.001813471        40.93569                0               0                0               0
1.41584                0.9860192       -17.25762      0.001852071        37.34994                0               0                0               0
1.42244                0.9856742       -17.41302      0.001889261        33.81275                0               0                0               0
1.42904                0.9853141       -17.57079      0.001925131        30.33035                0               0                0               0
1.43564                0.9849364       -17.73094      0.001959806        26.90859                0               0                0               0
1.44224                0.9845392       -17.89346      0.001993452        23.55283                0               0                0               0
1.44884                0.9841204       -18.05831      0.002026276        20.26788                0               0                0               0
1.45545                0.9836784       -18.22546      0.002058524        17.05787                0               0                0               0
1.46205                0.9832116       -18.39486      0.002090489        13.92615                0               0                0               0
1.46865                0.9827186       -18.56643      0.002122503        10.87516                0               0                0               0
1.47525                0.9821983       -18.74012      0.002154938        7.906259                0               0                0               0
1.48185                0.9816499       -18.91585      0.002188208        5.019609                0               0                0               0
1.48845                0.9810731       -19.09355      0.002222758        2.214019                0               0                0               0
1.49505                0.9804676       -19.27315      0.002259065      -0.5131702                0               0                0               0
1.50165                0.9798336       -19.45458      0.002297629       -3.166169                0               0                0               0
1.50825                0.9791715       -19.63779      0.002338966       -5.750767                0               0                0               0
1.51485                0.9784818       -19.82273      0.002383599       -8.274315                0               0                0               0
1.52145                0.9777656       -20.00937      0.002432047       -10.74562                0               0                0               0
1.52805                0.9770237       -20.19769      0.002484814       -13.17477                0               0                0               0
1.53465                0.9762574        -20.3877      0.002542383       -15.57287                0               0                0               0
1.54125                0.9754679       -20.57942      0.002605199       -17.95178                0               0                0               0
1.54785                0.9746565       -20.77289      0.002673665       -20.32368                0               0                0               0
1.55446                0.9738244       -20.96817      0.002748132       -22.70073                0               0                0               0
1.56106                0.9729727       -21.16536      0.002828892        -25.0947                0               0                0               0
1.56766                0.9721025       -21.36455      0.002916178        -27.5166                0               0                0               0
1.57426                0.9712145       -21.56587      0.003010159       -29.97639                0               0                0               0
1.58086                0.9703092       -21.76945      0.003110943       -32.48275                0               0                0               0
1.58746                0.9693869       -21.97546      0.003218576       -35.04292                0               0                0               0
1.59406                0.9684473       -22.18407       0.00333305       -37.66265                0               0                0               0
1.60066                  0.96749       -22.39544      0.003454307       -40.34615                0               0                0               0
1.60726                0.9665142       -22.60977      0.003582243        -43.0962                0               0                0               0
1.61386                0.9655184       -22.82724      0.003716718       -45.91423                0               0                0               0
1.62046                 0.964501       -23.04804      0.003857562       -48.80042                0               0                0               0
1.62706                  0.96346       -23.27234       0.00400458       -51.75392                0               0                0               0
1.63366                0.9623927       -23.50031       0.00415756       -54.77297                0               0                0               0
1.64026                0.9612964       -23.73213       0.00431628       -57.85506                0               0                0               0
1.64686                0.9601678       -23.96793      0.004480514       -60.99712                0               0                0               0
1.65347                0.9590035       -24.20785      0.004650036       -64.19561                0               0                0               0
1.66007                0.9577999       -24.45198      0.004824627        -67.4467                0               0                0               0
1.66667                 0.956553       -24.70043       0.00500408       -70.74633                0               0                0               0
1.67327                 0.955259       -24.95325      0.005188202       -74.09033                0               0                0               0
1.67987                0.9539137       -25.21048      0.005376821       -77.47452                0               0                0               0
1.68647                0.9525132       -25.47214      0.005569791       -80.89473                0               0                0               0
1.69307                0.9510539       -25.73823      0.005766992       -84.34688                0               0                0               0
1.69967                0.9495316       -26.00873      0.005968334       -87.82704                0               0                0               0
1.70627                0.9479431       -26.28358      0.006173764       -91.33146                0               0                0               0
1.71287                0.9462849       -26.56272      0.006383266       -94.85658                0               0                0               0
1.71947                0.9445541       -26.84607      0.006596864       -98.39908                0               0                0               0
1.72607                 0.942748       -27.13355      0.006814623       -101.9559                0               0                0               0
1.73267                0.9408645       -27.42506      0.007036657       -105.5242                0               0                0               0
1.73927                0.9389015       -27.72049      0.007263124       -109.1016                0               0                0               0
1.74587                0.9368575       -28.01976      0.007494228       -112.6857                0               0                0               0
1.75248                0.9347316       -28.32276      0.007730228       -116.2748                0               0                0               0
1.75908                0.9325226       -28.62941      0.007971423       -119.8672                0               0                0               0
1.76568                0.9302303       -28.93963      0.008218172       -123.4617                0               0                0               0
1.77228                0.9278544       -29.25338      0.008470872       -127.0573                0               0                0               0
1.77888                0.9253951       -29.57062      0.008729974       -130.6536                0               0                0               0
1.78548                0.9228526       -29.89133       0.00899597       -134.2502                0               0                0               0
1.79208                0.9202272       -30.21553      0.009269394       -137.8471                0               0                0               0
1.79868                0.9175193       -30.54326      0.009550821       -141.4448                0               0                0               0
1.80528                0.9147291        -30.8746      0.009840855        -145.044                0               0                0               0
1.81188                0.9118571       -31.20965       0.01014013       -148.6456                0               0                0               0
1.81848                0.9089031       -31.54854       0.01044932       -152.2508                0               0                0               0
1.82508                0.9058669       -31.89142       0.01076908       -155.8612                0               0                0               0
1.83168                 0.902748        -32.2385        0.0111001       -159.4783                0               0                0               0
1.83828                0.8995452       -32.58999       0.01144309       -163.1042                0               0                0               0
1.84488                 0.896257       -32.94612       0.01179871       -166.7408                0               0                0               0
1.85149                0.8928813       -33.30714       0.01216765       -170.3902                0               0                0               0
