! TOUCHSTONE file generated by CST MICROWAVE STUDIO
! Date and time: Tue Mar 11 13:57:05 2025
! Project name: transverse.cst
! Parameters = {Fracture=1; B=12.5; D=160; F=25; Feed=2.85625; L=100; M=10; R=0.384908; S=1; Theta=90; length=57.125; wave=114.25}
! Header version: 2024
! Port assignment regex: !\s*Touchstone port\s*([0-9]+)\s*=\s*(CST MWS port|CST DES external port|CST DES block port)\s*(.+)\s* \(\"(.*)\"\)(\s*mode\s*([0-9]+))?.*
! Touchstone port assignment:
! Touchstone port 1 = CST MWS port 1 ("")
! Touchstone port 2 = CST MWS port 2 ("")
# GHz S MA R 50
1                       0.997597       -10.10345     0.0004151196        -171.191                0               0                0               0
1.00658                0.9975387       -10.19266     0.0004099889        -175.582                0               0                0               0
1.01316                0.9974811       -10.28264     0.0004033234         -179.74                0               0                0               0
1.01974                0.9974237       -10.37343     0.0003952172        176.3691                0               0                0               0
1.02632                 0.997366       -10.46505     0.0003858052        172.7865                0               0                0               0
1.03289                0.9973071       -10.55754     0.0003752738         169.561                0               0                0               0
1.03947                0.9972462       -10.65091      0.000363873        166.7502                0               0                0               0
1.04605                0.9971826       -10.74519     0.0003519327        164.4194                0               0                0               0
1.05263                0.9971156       -10.84038     0.0003398807        162.6403                0               0                0               0
1.05921                0.9970444       -10.93647     0.0003282614        161.4845                0               0                0               0
1.06579                0.9969679       -11.03347     0.0003177502        161.0131                0               0                0               0
1.07237                0.9968859       -11.13136      0.000309156        161.2588                0               0                0               0
1.07895                0.9967975       -11.23012     0.0003033953        162.2006                0               0                0               0
1.08553                0.9967019       -11.32974     0.0003014274        163.7399                0               0                0               0
1.09211                0.9965992       -11.43018     0.0003041454        165.6885                0               0                0               0
1.09868                0.9964886       -11.53142     0.0003122453         167.785                0               0                0               0
1.10526                0.9963701       -11.63342     0.0003261201        169.7418                0               0                0               0
1.11184                0.9962434       -11.73616     0.0003458249        171.3052                0               0                0               0
1.11842                0.9961089        -11.8396     0.0003711232        172.2987                0               0                0               0
1.125                  0.9959661       -11.94372     0.0004015822        172.6353                0               0                0               0
1.13158                0.9958157       -12.04848     0.0004366749        172.3031                0               0                0               0
1.13816                 0.995658       -12.15386     0.0004758563        171.3405                0               0                0               0
1.14474                0.9954933       -12.25985     0.0005186083        169.8114                0               0                0               0
1.15132                0.9953223       -12.36643     0.0005644604        167.7891                0               0                0               0
1.15789                0.9951452        -12.4736     0.0006129926        165.3453                0               0                0               0
1.16447                 0.994963       -12.58136     0.0006638328        162.5459                0               0                0               0
1.17105                 0.994776       -12.68971     0.0007166489        159.4484                0               0                0               0
1.17763                0.9945853       -12.79868     0.0007711423        156.1023                0               0                0               0
1.18421                 0.994391       -12.90827     0.0008270405        152.5493                0               0                0               0
1.19079                 0.994194       -13.01854     0.0008840931        148.8249                0               0                0               0
1.19737                0.9939946        -13.1295      0.000942066        144.9586                0               0                0               0
1.20395                0.9937934        -13.2412      0.001000739        140.9756                0               0                0               0
1.21053                0.9935906        -13.3537      0.001059905        136.8971                0               0                0               0
1.21711                0.9933866       -13.46704      0.001119364        132.7412                0               0                0               0
1.22368                0.9931815       -13.58127      0.001178929        128.5236                0               0                0               0
1.23026                0.9929751       -13.69646      0.001238418        124.2575                0               0                0               0
1.23684                0.9927672       -13.81266      0.001297659         119.955                0               0                0               0
1.24342                0.9925578       -13.92994      0.001356491        115.6261                0               0                0               0
1.25                   0.9923464       -14.04834      0.001414758        111.2803                0               0                0               0
1.25658                0.9921325       -14.16792      0.001472316        106.9256                0               0                0               0
1.26316                0.9919154       -14.28872      0.001529033        102.5696                0               0                0               0
1.26974                0.9916946       -14.41081      0.001584787        98.21905                0               0                0               0
1.27632                0.9914689        -14.5342      0.001639468        93.88031                0               0                0               0
1.28289                0.9912378       -14.65894      0.001692983         89.5592                0               0                0               0
1.28947                0.9910005       -14.78505      0.001745252        85.26119                0               0                0               0
1.29605                0.9907557       -14.91256      0.001796212        80.99142                0               0                0               0
1.30263                0.9905027       -15.04146      0.001845819        76.75477                0               0                0               0
1.30921                0.9902408       -15.17178       0.00189405        72.55586                0               0                0               0
1.31579                0.9899689        -15.3035        0.0019409        68.39907                0               0                0               0
1.32237                0.9896864       -15.43661      0.001986391        64.28856                0               0                0               0
1.32895                0.9893927       -15.57112      0.002030566        60.22825                0               0                0               0
1.33553                0.9890871       -15.70699      0.002073497         56.2218                0               0                0               0
1.34211                0.9887694       -15.84422       0.00211528        52.27261                0               0                0               0
1.34868                0.9884388       -15.98277       0.00215604        48.38377                0               0                0               0
1.35526                0.9880956       -16.12264      0.002195933        44.55797                0               0                0               0
1.36184                0.9877396       -16.26379      0.002235144        40.79752                0               0                0               0
1.36842                0.9873707       -16.40621      0.002273886        37.10425                0               0                0               0
1.375                  0.9869893       -16.54989      0.002312403        33.47942                0               0                0               0
1.38158                0.9865956       -16.69481       0.00235097        29.92367                0               0                0               0
1.38816                  0.98619       -16.84097      0.002389885        26.43694                0               0                0               0
1.39474                0.9857731       -16.98837      0.002429474        23.01839                0               0                0               0
1.40132                0.9853453       -17.13704      0.002470086        19.66636                0               0                0               0
1.40789                0.9849073       -17.28698      0.002512085         16.3783                0               0                0               0
1.41447                0.9844597       -17.43822      0.002555854        13.15072                0               0                0               0
1.42105                0.9840031       -17.59081      0.002601781        9.979237                0               0                0               0
1.42763                0.9835382       -17.74479      0.002650258        6.858561                0               0                0               0
1.43421                0.9830653       -17.90023      0.002701672        3.782561                0               0                0               0
1.44079                 0.982585       -18.05718      0.002756404        0.744364                0               0                0               0
1.44737                0.9820977       -18.21573      0.002814813       -2.263515                0               0                0               0
1.45395                0.9816034       -18.37596      0.002877237       -5.249031                0               0                0               0
1.46053                0.9811024       -18.53795      0.002943982        -8.22041                0               0                0               0
1.46711                0.9805946        -18.7018       0.00301532       -11.18596                0               0                0               0
1.47368                0.9800795       -18.86761       0.00309148       -14.15389                0               0                0               0
1.48026                0.9795568       -19.03548      0.003172652       -17.13206                0               0                0               0
1.48684                0.9790262       -19.20551      0.003258974        -20.1279                0               0                0               0
1.49342                0.9784866        -19.3778      0.003350541       -23.14815                0               0                0               0
1.5                    0.9779372       -19.55245      0.003447398       -26.19881                0               0                0               0
1.50658                0.9773768       -19.72955      0.003549544       -29.28503                0               0                0               0
1.51316                0.9768043        -19.9092      0.003656935       -32.41107                0               0                0               0
1.51974                0.9762184       -20.09148      0.003769485       -35.58024                0               0                0               0
1.52632                0.9756175       -20.27647       0.00388707       -38.79499                0               0                0               0
1.53289                    0.975       -20.46424      0.004009531       -42.05687                0               0                0               0
1.53947                0.9743644       -20.65485       0.00413668       -45.36663                0               0                0               0
1.54605                0.9737091       -20.84837      0.004268305       -48.72428                0               0                0               0
1.55263                0.9730324       -21.04484      0.004404172       -52.12915                0               0                0               0
1.55921                0.9723327       -21.24429      0.004544029       -55.58002                0               0                0               0
1.56579                0.9716085       -21.44678      0.004687615       -59.07516                0               0                0               0
1.57237                0.9708582       -21.65232      0.004834659       -62.61243                0               0                0               0
1.57895                0.9700802       -21.86094      0.004984886       -66.18934                0               0                0               0
1.58553                0.9692733       -22.07266      0.005138021       -69.80314                0               0                0               0
1.59211                0.9684364       -22.28749      0.005293796       -73.45087                0               0                0               0
1.59868                0.9675683       -22.50546      0.005451945       -77.12942                0               0                0               0
1.60526                0.9666678       -22.72659      0.005612217       -80.83558                0               0                0               0
1.61184                0.9657342        -22.9509      0.005774374       -84.56608                0               0                0               0
1.61842                0.9647666       -23.17841      0.005938195       -88.31762                0               0                0               0
1.625                  0.9637644       -23.40915      0.006103482       -92.08691                0               0                0               0
1.63158                0.9627269       -23.64317      0.006270057       -95.87071                0               0                0               0
1.63816                0.9616536       -23.88052      0.006437774       -99.66584                0               0                0               0
1.64474                 0.960544       -24.12126      0.006606515       -103.4692                0               0                0               0
1.65132                0.9593975       -24.36545      0.006776193       -107.2777                0               0                0               0
1.65789                0.9582136       -24.61318      0.006946759       -111.0886                0               0                0               0
1.66447                0.9569918       -24.86455      0.007118203       -114.8991                0               0                0               0
1.67105                0.9557312       -25.11966      0.007290555       -118.7067                0               0                0               0
1.67763                0.9544311       -25.37863      0.007463888       -122.5088                0               0                0               0
1.68421                0.9530905       -25.64159      0.007638321       -126.3033                0               0                0               0
1.69079                0.9517081        -25.9087      0.007814021       -130.0882                0               0                0               0
1.69737                0.9502826       -26.18008      0.007991204       -133.8617                0               0                0               0
1.70395                0.9488124       -26.45592      0.008170131       -137.6222                0               0                0               0
1.71053                0.9472955       -26.73637      0.008351122       -141.3685                0               0                0               0
1.71711                0.9457297       -27.02161       0.00853454       -145.0996                0               0                0               0
1.72368                0.9441124       -27.31181      0.008720802       -148.8146                0               0                0               0
1.73026                 0.942441       -27.60715      0.008910371       -152.5133                0               0                0               0
1.73684                0.9407122        -27.9078      0.009103762       -156.1955                0               0                0               0
1.74342                0.9389226       -28.21393      0.009301527       -159.8615                0               0                0               0
1.75                   0.9370686       -28.52571      0.009504263       -163.5119                0               0                0               0
1.75658                0.9351462        -28.8433      0.009712605       -167.1475                0               0                0               0
1.76316                0.9331509       -29.16684      0.009927214       -170.7698                0               0                0               0
1.76974                0.9310787       -29.49646       0.01014878       -174.3801                0               0                0               0
1.77632                0.9289245        -29.8323       0.01037802       -177.9805                0               0                0               0
1.78289                0.9266836       -30.17445       0.01061565        178.4268                0               0                0               0
1.78947                0.9243511       -30.52302       0.01086238        174.8394                0               0                0               0
1.79605                0.9219218       -30.87808       0.01111896        171.2545                0               0                0               0
1.80263                0.9193906        -31.2397       0.01138607        167.6692                0               0                0               0
1.80921                0.9167523       -31.60791       0.01166442        164.0805                0               0                0               0
1.81579                0.9140021       -31.98276       0.01195466        160.4851                0               0                0               0
1.82237                0.9111345       -32.36427       0.01225741        156.8798                0               0                0               0
1.82895                0.9081447       -32.75243       0.01257325        153.2613                0               0                0               0
1.83553                0.9050277       -33.14724       0.01290271        149.6265                0               0                0               0
1.84211                0.9017788       -33.54868       0.01324626        145.9721                0               0                0               0
1.84868                0.8983933       -33.95673       0.01360429        142.2952                0               0                0               0
