! TOUCHSTONE file generated by CST MICROWAVE STUDIO
! Date and time: Tue Mar 11 13:58:00 2025
! Project name: transverse.cst
! Parameters = {Fracture=1; B=10; D=160; F=25; Feed=2.85625; L=100; M=20; R=0.384908; S=1; Theta=270; length=57.125; wave=114.25}
! Header version: 2024
! Port assignment regex: !\s*Touchstone port\s*([0-9]+)\s*=\s*(CST MWS port|CST DES external port|CST DES block port)\s*(.+)\s* \(\"(.*)\"\)(\s*mode\s*([0-9]+))?.*
! Touchstone port assignment:
! Touchstone port 1 = CST MWS port 1 ("")
! Touchstone port 2 = CST MWS port 2 ("")
# GHz S MA R 50
1                      0.9976269       -10.00126      0.000498995         176.319                0               0                0               0
1.00658                0.9975645       -10.08927     0.0004920953        171.1873                0               0                0               0
1.01316                0.9975026       -10.17798     0.0004832726        166.2384                0               0                0               0
1.01974                0.9974409       -10.26744     0.0004725751        161.4972                0               0                0               0
1.02632                0.9973785       -10.35768     0.0004600809        156.9947                0               0                0               0
1.03289                0.9973151       -10.44871     0.0004459049        152.7695                0               0                0               0
1.03947                  0.99725       -10.54057      0.000430208        148.8695                0               0                0               0
1.04605                0.9971826       -10.63326     0.0004132102         145.354                0               0                0               0
1.05263                 0.997112        -10.7268     0.0003952072        142.2959                0               0                0               0
1.05921                0.9970377       -10.82119     0.0003765926        139.7828                0               0                0               0
1.06579                 0.996959       -10.91642     0.0003578867         137.917                0               0                0               0
1.07237                0.9968753        -11.0125     0.0003397687        136.8108                0               0                0               0
1.07895                 0.996786        -11.1094      0.000323109        136.5724                0               0                0               0
1.08553                0.9966906       -11.20711     0.0003089841        137.2786                0               0                0               0
1.09211                0.9965888        -11.3056     0.0002986482        138.9301                0               0                0               0
1.09868                0.9964801       -11.40487     0.0002934257        141.3987                0               0                0               0
1.10526                0.9963645       -11.50488      0.000294509        144.3971                0               0                0               0
1.11184                0.9962417       -11.60561     0.0003027126         147.511                0               0                0               0
1.11842                0.9961117       -11.70703     0.0003182996         150.301                0               0                0               0
1.125                  0.9959747       -11.80912     0.0003409825        152.4201                0               0                0               0
1.13158                0.9958309       -11.91186     0.0003700815        153.6764                0               0                0               0
1.13816                0.9956803       -12.01522     0.0004047345        154.0246                0               0                0               0
1.14474                0.9955235       -12.11921     0.0004440626        153.5175                0               0                0               0
1.15132                0.9953608        -12.2238     0.0004872592        152.2556                0               0                0               0
1.15789                0.9951928       -12.32899      0.000533622        150.3529                0               0                0               0
1.16447                0.9950198       -12.43479     0.0005825515        147.9177                0               0                0               0
1.17105                0.9948425        -12.5412     0.0006335359        145.0453                0               0                0               0
1.17763                0.9946613       -12.64824     0.0006861336        141.8158                0               0                0               0
1.18421                0.9944768       -12.75593     0.0007399569        138.2957                0               0                0               0
1.19079                0.9942896       -12.86431     0.0007946602        134.5393                0               0                0               0
1.19737                0.9940999       -12.97339     0.0008499286        130.5908                0               0                0               0
1.20395                0.9939081       -13.08322     0.0009054716        126.4867                0               0                0               0
1.21053                0.9937144       -13.19385     0.0009610176         122.257                0               0                0               0
1.21711                0.9935192       -13.30533       0.00101631        117.9266                0               0                0               0
1.22368                0.9933223       -13.41769      0.001071107        113.5166                0               0                0               0
1.23026                0.9931237         -13.531      0.001125174        109.0446                0               0                0               0
1.23684                0.9929235       -13.64531      0.001178292         104.526                0               0                0               0
1.24342                0.9927212       -13.76067      0.001230248        99.97407                0               0                0               0
1.25                   0.9925162       -13.87714      0.001280843        95.40051                0               0                0               0
1.25658                0.9923083       -13.99476      0.001329886        90.81583                0               0                0               0
1.26316                0.9920966       -14.11357      0.001377199        86.22958                0               0                0               0
1.26974                0.9918807       -14.23362      0.001422619        81.65058                0               0                0               0
1.27632                0.9916597       -14.35494      0.001465995        77.08707                0               0                0               0
1.28289                0.9914327       -14.47756      0.001507193         72.5469                0               0                0               0
1.28947                0.9911988       -14.60151      0.001546096        68.03764                0               0                0               0
1.29605                0.9909573       -14.72679      0.001582608        63.56668                0               0                0               0
1.30263                0.9907072       -14.85343      0.001616655        59.14133                0               0                0               0
1.30921                0.9904477       -14.98141      0.001648187        54.76886                0               0                0               0
1.31579                0.9901778       -15.11075       0.00167718        50.45657                0               0                0               0
1.32237                0.9898969       -15.24142      0.001703644        46.21185                0               0                0               0
1.32895                0.9896044       -15.37341      0.001727617        42.04217                0               0                0               0
1.33553                0.9892996       -15.50671      0.001749179        37.95507                0               0                0               0
1.34211                 0.988982       -15.64128      0.001768445        33.95816                0               0                0               0
1.34868                0.9886515       -15.77711      0.001785577        30.05905                0               0                0               0
1.35526                0.9883078       -15.91416      0.001800782        26.26528                0               0                0               0
1.36184                0.9879507       -16.05242      0.001814318        22.58414                0               0                0               0
1.36842                0.9875803       -16.19185      0.001826498        19.02256                0               0                0               0
1.375                   0.987197       -16.33244      0.001837688        15.58679                0               0                0               0
1.38158                0.9868009       -16.47417      0.001848315        12.28216                0               0                0               0
1.38816                0.9863925       -16.61702      0.001858863        9.112748                0               0                0               0
1.39474                0.9859725         -16.761      0.001869872        6.080902                0               0                0               0
1.40132                0.9855412        -16.9061      0.001881936        3.186862                0               0                0               0
1.40789                0.9850995       -17.05234      0.001895698       0.4283002                0               0                0               0
1.41447                0.9846481       -17.19974      0.001911836       -2.200107                0               0                0               0
1.42105                0.9841875       -17.34832      0.001931057       -4.706984                0               0                0               0
1.42763                0.9837187       -17.49813      0.001954075       -7.104453                0               0                0               0
1.43421                0.9832422       -17.64923      0.001981598       -9.408098                0               0                0               0
1.44079                0.9827587       -17.80166      0.002014303        -11.6367                0               0                0               0
1.44737                0.9822687       -17.95551      0.002052817       -13.81169                0               0                0               0
1.45395                0.9817725       -18.11083        0.0020977       -15.95639                0               0                0               0
1.46053                0.9812706       -18.26774      0.002149421       -18.09499                0               0                0               0
1.46711                 0.980763        -18.4263      0.002208353       -20.25153                0               0                0               0
1.47368                0.9802496       -18.58663      0.002274756       -22.44884                0               0                0               0
1.48026                0.9797304       -18.74882       0.00234878        -24.7076                0               0                0               0
1.48684                0.9792048       -18.91298      0.002430466       -27.04564                0               0                0               0
1.49342                0.9786724       -19.07921       0.00251975       -29.47748                0               0                0               0
1.5                    0.9781323       -19.24762      0.002616479       -32.01414                0               0                0               0
1.50658                0.9775837       -19.41831      0.002720414       -34.66318                0               0                0               0
1.51316                0.9770255       -19.59138      0.002831253       -37.42893                0               0                0               0
1.51974                0.9764563       -19.76692      0.002948636       -40.31288                0               0                0               0
1.52632                0.9758749       -19.94502      0.003072159       -43.31406                0               0                0               0
1.53289                0.9752795       -20.12577      0.003201389       -46.42954                0               0                0               0
1.53947                0.9746687       -20.30923      0.003335868       -49.65484                0               0                0               0
1.54605                0.9740407       -20.49548      0.003475124       -52.98434                0               0                0               0
1.55263                0.9733939       -20.68457      0.003618676       -56.41159                0               0                0               0
1.55921                0.9727264       -20.87655       0.00376604       -59.92964                0               0                0               0
1.56579                0.9720363       -21.07145      0.003916737       -63.53124                0               0                0               0
1.57237                0.9713222       -21.26932       0.00407029       -67.20904                0               0                0               0
1.57895                0.9705821       -21.47016      0.004226235       -70.95569                0               0                0               0
1.58553                0.9698146         -21.674      0.004384118       -74.76398                0               0                0               0
1.59211                 0.969018       -21.88085      0.004543498       -78.62686                0               0                0               0
1.59868                 0.968191       -22.09072      0.004703956       -82.53753                0               0                0               0
1.60526                0.9673323       -22.30361      0.004865088       -86.48946                0               0                0               0
1.61184                0.9664407       -22.51951      0.005026515       -90.47635                0               0                0               0
1.61842                0.9655152       -22.73843      0.005187882       -94.49221                0               0                0               0
1.625                   0.964555       -22.96038       0.00534886       -98.53129                0               0                0               0
1.63158                0.9635592       -23.18536      0.005509152       -102.5881                0               0                0               0
1.63816                0.9625272       -23.41339      0.005668491       -106.6575                0               0                0               0
1.64474                0.9614586       -23.64447      0.005826649       -110.7344                0               0                0               0
1.65132                0.9603527       -23.87864      0.005983433       -114.8142                0               0                0               0
1.65789                0.9592093       -24.11593      0.006138694       -118.8923                0               0                0               0
1.66447                0.9580282       -24.35639      0.006292328       -122.9643                0               0                0               0
1.67105                0.9568088       -24.60007      0.006444276       -127.0264                0               0                0               0
1.67763                 0.955551       -24.84704      0.006594536       -131.0745                0               0                0               0
1.68421                0.9542543       -25.09738      0.006743157       -135.1052                0               0                0               0
1.69079                0.9529183       -25.35119      0.006890249       -139.1149                0               0                0               0
1.69737                0.9515427       -25.60855      0.007035978       -143.1006                0               0                0               0
1.70395                0.9501265       -25.86961       0.00718058       -147.0595                0               0                0               0
1.71053                0.9486692       -26.13447      0.007324354       -150.9889                0               0                0               0
1.71711                0.9471696       -26.40327      0.007467666       -154.8865                0               0                0               0
1.72368                0.9456267       -26.67617      0.007610954       -158.7506                0               0                0               0
1.73026                 0.944039       -26.95331      0.007754726       -162.5795                0               0                0               0
1.73684                0.9424051       -27.23486      0.007899559       -166.3721                0               0                0               0
1.74342                0.9407227       -27.52098      0.008046098       -170.1279                0               0                0               0
1.75                   0.9389899       -27.81183      0.008195058       -173.8466                0               0                0               0
1.75658                0.9372045        -28.1076      0.008347212       -177.5286                0               0                0               0
1.76316                0.9353635       -28.40844      0.008503396        178.8252                0               0                0               0
1.76974                0.9334644       -28.71454      0.008664495        175.2132                0               0                0               0
1.77632                0.9315037       -29.02605      0.008831438        171.6334                0               0                0               0
1.78289                0.9294784       -29.34314      0.009005189        168.0831                0               0                0               0
1.78947                0.9273847       -29.66597      0.009186735        164.5591                0               0                0               0
1.79605                0.9252191       -29.99469      0.009377077        161.0576                0               0                0               0
1.80263                0.9229774       -30.32945      0.009577216        157.5742                0               0                0               0
1.80921                0.9206557       -30.67039      0.009788138        154.1043                0               0                0               0
1.81579                0.9182499       -31.01763        0.0100108        150.6427                0               0                0               0
1.82237                0.9157554       -31.37131       0.01024613         147.184                0               0                0               0
1.82895                 0.913168       -31.73154       0.01049498        143.7226                0               0                0               0
1.83553                 0.910483       -32.09844       0.01075816        140.2528                0               0                0               0
1.84211                0.9076961       -32.47209       0.01103638        136.7691                0               0                0               0
1.84868                0.9048024       -32.85263       0.01133029        133.2658                0               0                0               0
