! TOUCHSTONE file generated by CST MICROWAVE STUDIO
! Date and time: Tue Mar 11 13:57:00 2025
! Project name: transverse.cst
! Parameters = {Fracture=1; B=12.5; D=160; F=15; Feed=2.85625; L=100; M=10; R=0.384908; S=2; Theta=90; length=57.125; wave=114.25}
! Header version: 2024
! Port assignment regex: !\s*Touchstone port\s*([0-9]+)\s*=\s*(CST MWS port|CST DES external port|CST DES block port)\s*(.+)\s* \(\"(.*)\"\)(\s*mode\s*([0-9]+))?.*
! Touchstone port assignment:
! Touchstone port 1 = CST MWS port 1 ("")
! Touchstone port 2 = CST MWS port 2 ("")
# GHz S MA R 50
1                      0.9978103       -10.00377     0.0003021282       -149.0969                0               0                0               0
1.00658                0.9977287       -10.09332     0.0003097381       -152.2888                0               0                0               0
1.01316                0.9976427       -10.18335     0.0003169875       -155.4193                0               0                0               0
1.01974                0.9975528       -10.27385     0.0003238954       -158.4778                0               0                0               0
1.02632                0.9974592       -10.36481     0.0003304918       -161.4538                0               0                0               0
1.03289                0.9973621       -10.45623     0.0003368193       -164.3379                0               0                0               0
1.03947                 0.997262       -10.54811     0.0003429341       -167.1213                0               0                0               0
1.04605                0.9971595       -10.64045     0.0003489064       -169.7966                0               0                0               0
1.05263                0.9970548       -10.73326     0.0003548212       -172.3575                0               0                0               0
1.05921                0.9969485       -10.82657     0.0003607783       -174.7996                0               0                0               0
1.06579                0.9968407       -10.92038     0.0003668923       -177.1207                0               0                0               0
1.07237                0.9967318       -11.01473     0.0003732919        -179.321                0               0                0               0
1.07895                0.9966224       -11.10964     0.0003801184         178.596                0               0                0               0
1.08553                0.9965123       -11.20515     0.0003875236         176.624                0               0                0               0
1.09211                 0.996402       -11.30129      0.000395667        174.7527                0               0                0               0
1.09868                0.9962915       -11.39809     0.0004047122        172.9688                0               0                0               0
1.10526                0.9961806       -11.49561     0.0004148225        171.2552                0               0                0               0
1.11184                0.9960695       -11.59387     0.0004261565        169.5925                0               0                0               0
1.11842                0.9959578       -11.69291     0.0004388632        167.9587                0               0                0               0
1.125                  0.9958453       -11.79279     0.0004530778         166.331                0               0                0               0
1.13158                0.9957317       -11.89352     0.0004689177        164.6862                0               0                0               0
1.13816                0.9956165       -11.99516     0.0004864796         163.002                0               0                0               0
1.14474                0.9954993       -12.09772     0.0005058376         161.258                0               0                0               0
1.15132                0.9953795       -12.20123     0.0005270428        159.4363                0               0                0               0
1.15789                0.9952564       -12.30572     0.0005501231        157.5221                0               0                0               0
1.16447                0.9951296       -12.41121     0.0005750851        155.5039                0               0                0               0
1.17105                0.9949982       -12.51771     0.0006019151        153.3737                0               0                0               0
1.17763                0.9948618       -12.62522     0.0006305822        151.1267                0               0                0               0
1.18421                0.9947198       -12.73376       0.00066104        148.7609                0               0                0               0
1.19079                0.9945716       -12.84332     0.0006932297        146.2767                0               0                0               0
1.19737                0.9944162       -12.95389     0.0007270815        143.6769                0               0                0               0
1.20395                0.9942537       -13.06546     0.0007625179        140.9654                0               0                0               0
1.21053                0.9940833       -13.17803     0.0007994549        138.1479                0               0                0               0
1.21711                0.9939048       -13.29158     0.0008378036        135.2306                0               0                0               0
1.22368                0.9937181       -13.40608     0.0008774717        132.2202                0               0                0               0
1.23026                0.9935227       -13.52153     0.0009183649        129.1241                0               0                0               0
1.23684                0.9933186        -13.6379     0.0009603881        125.9495                0               0                0               0
1.24342                 0.993106       -13.75517      0.001003446        122.7038                0               0                0               0
1.25                   0.9928849       -13.87334      0.001047444        119.3942                0               0                0               0
1.25658                0.9926554       -13.99239       0.00109229        116.0277                0               0                0               0
1.26316                0.9924178       -14.11231      0.001137892         112.611                0               0                0               0
1.26974                0.9921725       -14.23309      0.001184165        109.1507                0               0                0               0
1.27632                0.9919197       -14.35473      0.001231024        105.6529                0               0                0               0
1.28289                0.9916601       -14.47725       0.00127839        102.1235                0               0                0               0
1.28947                0.9913939       -14.60065      0.001326191        98.56818                0               0                0               0
1.29605                0.9911218       -14.72495      0.001374358        94.99209                0               0                0               0
1.30263                 0.990844       -14.85017      0.001422831        91.40021                0               0                0               0
1.30921                0.9905613       -14.97635      0.001471557        87.79723                0               0                0               0
1.31579                0.9902738       -15.10352       0.00152049        84.18752                0               0                0               0
1.32237                0.9899819       -15.23171      0.001569594        80.57517                0               0                0               0
1.32895                0.9896858       -15.36099      0.001618843        76.96399                0               0                0               0
1.33553                0.9893859        -15.4914      0.001668219        73.35753                0               0                0               0
1.34211                0.9890822       -15.62299      0.001717718        69.75907                0               0                0               0
1.34868                0.9887747       -15.75583      0.001767346        66.17159                0               0                0               0
1.35526                0.9884634       -15.88997       0.00181712        62.59781                0               0                0               0
1.36184                0.9881479       -16.02548      0.001867071        59.04018                0               0                0               0
1.36842                0.9878279       -16.16242      0.001917241        55.50084                0               0                0               0
1.375                  0.9875032       -16.30084      0.001967687        51.98165                0               0                0               0
1.38158                0.9871731        -16.4408      0.002018478        48.48416                0               0                0               0
1.38816                0.9868369       -16.58238      0.002069697        45.00961                0               0                0               0
1.39474                0.9864942       -16.72561      0.002121437        41.55892                0               0                0               0
1.40132                0.9861439       -16.87055      0.002173805        38.13268                0               0                0               0
1.40789                0.9857851       -17.01725      0.002226921        34.73113                0               0                0               0
1.41447                0.9854175       -17.16573      0.002280915        31.35419                0               0                0               0
1.42105                0.9850396       -17.31604      0.002335925        28.00144                0               0                0               0
1.42763                0.9846508       -17.46821        0.0023921        24.67211                0               0                0               0
1.43421                  0.98425       -17.62227      0.002449594         21.3651                0               0                0               0
1.44079                0.9838365       -17.77822      0.002508569        18.07902                0               0                0               0
1.44737                0.9834094        -17.9361      0.002569189        14.81215                0               0                0               0
1.45395                0.9829678       -18.09592      0.002631621        11.56251                0               0                0               0
1.46053                0.9825112       -18.25767      0.002696031        8.327892                0               0                0               0
1.46711                0.9820388       -18.42138      0.002762582        5.105874                0               0                0               0
1.47368                0.9815502       -18.58704      0.002831435        1.893863                0               0                0               0
1.48026                0.9810446       -18.75467      0.002902742       -1.310843                0               0                0               0
1.48684                0.9805219       -18.92427      0.002976649       -4.511028                0               0                0               0
1.49342                0.9799816       -19.09584      0.003053291       -7.709498                0               0                0               0
1.5                    0.9794235       -19.26942      0.003132789       -10.90903                0               0                0               0
1.50658                0.9788476         -19.445      0.003215256       -14.11234                0               0                0               0
1.51316                0.9782537       -19.62262      0.003300786       -17.32202                0               0                0               0
1.51974                0.9776418       -19.80229      0.003389459        -20.5405                0               0                0               0
1.52632                0.9770118       -19.98406      0.003481339       -23.77004                0               0                0               0
1.53289                0.9763639       -20.16796      0.003576476       -27.01265                0               0                0               0
1.53947                0.9756979       -20.35405        0.0036749       -30.27012                0               0                0               0
1.54605                0.9750138       -20.54238      0.003776628       -33.54394                0               0                0               0
1.55263                0.9743117       -20.73303      0.003881659       -36.83537                0               0                0               0
1.55921                0.9735914       -20.92605      0.003989982       -40.14535                0               0                0               0
1.56579                0.9728526       -21.12154      0.004101567       -43.47457                0               0                0               0
1.57237                0.9720951       -21.31958      0.004216377       -46.82342                0               0                0               0
1.57895                0.9713184       -21.52027       0.00433436       -50.19206                0               0                0               0
1.58553                0.9705219       -21.72371      0.004455458       -53.58036                0               0                0               0
1.59211                0.9697051       -21.93001      0.004579606       -56.98799                0               0                0               0
1.59868                0.9688669       -22.13927       0.00470673       -60.41437                0               0                0               0
1.60526                0.9680063       -22.35161      0.004836758       -63.85879                0               0                0               0
1.61184                 0.967122       -22.56715      0.004969614        -67.3203                0               0                0               0
1.61842                0.9662129       -22.78598      0.005105222       -70.79784                0               0                0               0
1.625                   0.965277       -23.00825      0.005243512       -74.29021                0               0                0               0
1.63158                0.9643129       -23.23404      0.005384419       -77.79612                0               0                0               0
1.63816                0.9633185       -23.46348      0.005527885       -81.31419                0               0                0               0
1.64474                0.9622918       -23.69666      0.005673863       -84.84299                0               0                0               0
1.65132                0.9612306       -23.93369      0.005822319       -88.38104                0               0                0               0
1.65789                0.9601326       -24.17465       0.00597323       -91.92685                0               0                0               0
1.66447                0.9589953       -24.41965      0.006126595       -95.47895                0               0                0               0
1.67105                0.9578163       -24.66874      0.006282428       -99.03587                0               0                0               0
1.67763                0.9565929       -24.92202      0.006440766       -102.5962                0               0                0               0
1.68421                0.9553226       -25.17954      0.006601668       -106.1586                0               0                0               0
1.69079                0.9540027       -25.44136      0.006765216       -109.7217                0               0                0               0
1.69737                0.9526305       -25.70754       0.00693152       -113.2845                0               0                0               0
1.70395                0.9512034       -25.97812      0.007100718       -116.8457                0               0                0               0
1.71053                0.9497189       -26.25315      0.007272974       -120.4045                0               0                0               0
1.71711                0.9481742       -26.53265      0.007448483       -123.9601                0               0                0               0
1.72368                0.9465666       -26.81666      0.007627466       -127.5119                0               0                0               0
1.73026                 0.944894       -27.10522      0.007810182       -131.0592                0               0                0               0
1.73684                0.9431536       -27.39835      0.007996912       -134.6019                0               0                0               0
1.74342                0.9413431       -27.69607      0.008187969       -138.1398                0               0                0               0
1.75                   0.9394603       -27.99843      0.008383695        -141.673                0               0                0               0
1.75658                0.9375026       -28.30545       0.00858446       -145.2018                0               0                0               0
1.76316                 0.935468       -28.61716      0.008790657       -148.7267                0               0                0               0
1.76974                 0.933354       -28.93361        0.0090027       -152.2482                0               0                0               0
1.77632                0.9311584       -29.25484       0.00922103       -155.7674                0               0                0               0
1.78289                0.9288787       -29.58089      0.009446096       -159.2853                0               0                0               0
1.78947                0.9265129       -29.91183      0.009678369       -162.8031                0               0                0               0
1.79605                0.9240584       -30.24771      0.009918324       -166.3222                0               0                0               0
1.80263                0.9215127       -30.58861       0.01016644       -169.8442                0               0                0               0
1.80921                0.9188731        -30.9346       0.01042321       -173.3709                0               0                0               0
1.81579                 0.916137       -31.28575       0.01068911        -176.904                0               0                0               0
1.82237                0.9133016       -31.64215        0.0109646        179.5545                0               0                0               0
1.82895                0.9103635       -32.00389       0.01125015        176.0027                0               0                0               0
1.83553                0.9073197       -32.37107        0.0115462        172.4385                0               0                0               0
1.84211                0.9041665       -32.74377       0.01185317          168.86                0               0                0               0
1.84868                0.9009004       -33.12208       0.01217143         165.265                0               0                0               0
