! TOUCHSTONE file generated by CST MICROWAVE STUDIO
! Date and time: Tue Mar 11 13:57:22 2025
! Project name: transverse.cst
! Parameters = {Fracture=5; B=10; D=160; F=25; Feed=2.85625; L=100; M=20; R=0.384908; S=2; Theta=180; length=57.125; wave=114.25}
! Header version: 2024
! Port assignment regex: !\s*Touchstone port\s*([0-9]+)\s*=\s*(CST MWS port|CST DES external port|CST DES block port)\s*(.+)\s* \(\"(.*)\"\)(\s*mode\s*([0-9]+))?.*
! Touchstone port assignment:
! Touchstone port 1 = CST MWS port 1 ("")
! Touchstone port 2 = CST MWS port 2 ("")
# GHz S MA R 50
1                      0.9976096       -9.758994     0.0004834619         174.728                0               0                0               0
1.0066                 0.9975392       -9.845852     0.0004814945        169.6746                0               0                0               0
1.0132                 0.9974697        -9.93338     0.0004779132        164.7687                0               0                0               0
1.0198                 0.9974004       -10.02162     0.0004727479        160.0264                0               0                0               0
1.0264                 0.9973312        -10.1106     0.0004660492        155.4671                0               0                0               0
1.033                  0.9972615       -10.20036      0.000457892        151.1137                0               0                0               0
1.0396                 0.9971907       -10.29092     0.0004483805        146.9935                0               0                0               0
1.0462                 0.9971183       -10.38231     0.0004376532        143.1386                0               0                0               0
1.05281                0.9970436       -10.47455     0.0004258903        139.5864                0               0                0               0
1.05941                 0.996966       -10.56765     0.0004133223          136.38                0               0                0               0
1.06601                0.9968848       -10.66162       0.00040024        133.5678                0               0                0               0
1.07261                0.9967992       -10.75646     0.0003870056        131.2021                0               0                0               0
1.07921                0.9967088       -10.85217      0.000374064        129.3357                0               0                0               0
1.08581                0.9966128       -10.94873      0.000361952        128.0161                0               0                0               0
1.09241                0.9965107       -11.04615     0.0003512991        127.2759                0               0                0               0
1.09901                 0.996402        -11.1444     0.0003428164        127.1186                0               0                0               0
1.10561                0.9962865       -11.24346     0.0003372618        127.5036                0               0                0               0
1.11221                0.9961635       -11.34332     0.0003353805        128.3335                0               0                0               0
1.11881                0.9960332       -11.44394     0.0003378224        129.4527                0               0                0               0
1.12541                0.9958952       -11.54531     0.0003450564        130.6627                0               0                0               0
1.13201                0.9957494       -11.64739     0.0003573097         131.753                0               0                0               0
1.13861                 0.995596       -11.75018     0.0003745535        132.5376                0               0                0               0
1.14521                0.9954353       -11.85364     0.0003965384        132.8807                0               0                0               0
1.15182                0.9952671       -11.95776     0.0004228604        132.7062                0               0                0               0
1.15842                 0.995092       -12.06252     0.0004530315        131.9914                0               0                0               0
1.16502                0.9949104       -12.16791     0.0004865374        130.7524                0               0                0               0
1.17162                0.9947227       -12.27394     0.0005228756        129.0292                0               0                0               0
1.17822                0.9945292        -12.3806     0.0005615754        126.8729                0               0                0               0
1.18482                0.9943304       -12.48789     0.0006022053         124.338                0               0                0               0
1.19142                0.9941269       -12.59584     0.0006443734        121.4767                0               0                0               0
1.19802                0.9939192       -12.70444     0.0006877239        118.3372                0               0                0               0
1.20462                0.9937076       -12.81374     0.0007319324        114.9621                0               0                0               0
1.21122                0.9934926       -12.92376     0.0007767012        111.3888                0               0                0               0
1.21782                0.9932744       -13.03452      0.000821755        107.6497                0               0                0               0
1.22442                0.9930536       -13.14608     0.0008668374        103.7727                0               0                0               0
1.23102                0.9928299       -13.25847     0.0009117085        99.78206                0               0                0               0
1.23762                0.9926039       -13.37173     0.0009561427        95.69865                0               0                0               0
1.24422                0.9923752       -13.48591     0.0009999271        91.54076                0               0                0               0
1.25083                 0.992144       -13.60105      0.001042862        87.32444                0               0                0               0
1.25743                  0.99191       -13.71721      0.001084757        83.06392                0               0                0               0
1.26403                0.9916729       -13.83443      0.001125438        78.77195                0               0                0               0
1.27063                0.9914324       -13.95276      0.001164737        74.46006                0               0                0               0
1.27723                 0.991188       -14.07222      0.001202505        70.13884                0               0                0               0
1.28383                0.9909391       -14.19287      0.001238603        65.81813                0               0                0               0
1.29043                0.9906854       -14.31474      0.001272906        61.50717                0               0                0               0
1.29703                 0.990426       -14.43785      0.001305309        57.21476                0               0                0               0
1.30363                0.9901604       -14.56223       0.00133572        52.94939                0               0                0               0
1.31023                0.9898878        -14.6879       0.00136407        48.71933                0               0                0               0
1.31683                0.9896076       -14.81488      0.001390309        44.53275                0               0                0               0
1.32343                0.9893193       -14.94317       0.00141441        40.39771                0               0                0               0
1.33003                0.9890221       -15.07277      0.001436375         36.3223                0               0                0               0
1.33663                0.9887154        -15.2037       0.00145623        32.31462                0               0                0               0
1.34323                0.9883991       -15.33594      0.001474033         28.3828                0               0                0               0
1.34984                0.9880723       -15.46949      0.001489878          24.535                0               0                0               0
1.35644                 0.987735       -15.60435      0.001503892        20.77933                0               0                0               0
1.36304                0.9873869        -15.7405      0.001516244        17.12384                0               0                0               0
1.36964                0.9870278       -15.87793      0.001527143        13.57632                0               0                0               0
1.37624                0.9866579       -16.01664      0.001536844        10.14418                0               0                0               0
1.38284                 0.986277       -16.15663      0.001545649        6.834217                0               0                0               0
1.38944                0.9858854       -16.29789      0.001553909        3.652343                0               0                0               0
1.39604                0.9854834       -16.44042      0.001562022       0.6032268                0               0                0               0
1.40264                0.9850714       -16.58423      0.001570436       -2.310096                0               0                0               0
1.40924                0.9846495       -16.72934      0.001579644       -5.086654                0               0                0               0
1.41584                0.9842184       -16.87577      0.001590179       -7.727992                0               0                0               0
1.42244                0.9837785       -17.02355      0.001602609        -10.2386                0               0                0               0
1.42904                0.9833302       -17.17271      0.001617524       -12.62625                0               0                0               0
1.43564                0.9828739        -17.3233      0.001635525       -14.90224                0               0                0               0
1.44224                0.9824102       -17.47538      0.001657209       -17.08137                0               0                0               0
1.44884                0.9819394         -17.629       0.00168315       -19.18176                0               0                0               0
1.45545                0.9814618       -17.78423      0.001713884       -21.22434                0               0                0               0
1.46205                0.9809776       -17.94115      0.001749891       -23.23208                0               0                0               0
1.46865                0.9804867       -18.09984      0.001791581       -25.22907                0               0                0               0
1.47525                0.9799894       -18.26039       0.00183928       -27.23945                0               0                0               0
1.48185                0.9794852       -18.42289      0.001893223       -29.28633                0               0                0               0
1.48845                0.9789739       -18.58744      0.001953555       -31.39078                0               0                0               0
1.49505                0.9784549       -18.75414      0.002020326       -33.57118                0               0                0               0
1.50165                0.9779277       -18.92308        0.0020935       -35.84259                0               0                0               0
1.50825                0.9773914       -19.09437      0.002172965       -38.21658                0               0                0               0
1.51485                 0.976845        -19.2681      0.002258539       -40.70122                0               0                0               0
1.52145                0.9762874       -19.44437      0.002349984       -43.30126                0               0                0               0
1.52805                0.9757172       -19.62327      0.002447016       -46.01854                0               0                0               0
1.53465                0.9751333       -19.80488      0.002549316       -48.85235                0               0                0               0
1.54125                0.9745341       -19.98929      0.002656539       -51.79993                0               0                0               0
1.54785                0.9739177       -20.17656      0.002768322       -54.85687                0               0                0               0
1.55446                0.9732829       -20.36676      0.002884295       -58.01759                0               0                0               0
1.56106                0.9726277       -20.55995      0.003004081       -61.27562                0               0                0               0
1.56766                0.9719505       -20.75619      0.003127304       -64.62395                0               0                0               0
1.57426                0.9712496       -20.95551      0.003253594       -68.05525                0               0                0               0
1.58086                0.9705232       -21.15795       0.00338259       -71.56207                0               0                0               0
1.58746                0.9697696       -21.36354      0.003513942       -75.13696                0               0                0               0
1.59406                0.9689873       -21.57231      0.003647314       -78.77261                0               0                0               0
1.60066                0.9681748       -21.78427      0.003782388       -82.46191                0               0                0               0
1.60726                0.9673306       -21.99945      0.003918864       -86.19799                0               0                0               0
1.61386                0.9664534       -22.21785      0.004056466       -89.97427                0               0                0               0
1.62046                0.9655419       -22.43948      0.004194935       -93.78447                0               0                0               0
1.62706                0.9645951       -22.66437      0.004334047       -97.62262                0               0                0               0
1.63366                 0.963612       -22.89252      0.004473596       -101.4831                0               0                0               0
1.64026                0.9625916       -23.12394      0.004613415       -105.3605                0               0                0               0
1.64686                0.9615333       -23.35867      0.004753362       -109.2498                0               0                0               0
1.65347                0.9604364       -23.59674      0.004893334       -113.1463                0               0                0               0
1.66007                0.9593003       -23.83817      0.005033266       -117.0455                0               0                0               0
1.66667                0.9581243       -24.08301      0.005173127       -120.9434                0               0                0               0
1.67327                0.9569081       -24.33132      0.005312933       -124.8361                0               0                0               0
1.67987                 0.955651       -24.58316      0.005452741       -128.7201                0               0                0               0
1.68647                0.9543527       -24.83861      0.005592652       -132.5922                0               0                0               0
1.69307                0.9530125       -25.09776       0.00573282       -136.4495                0               0                0               0
1.69967                0.9516299       -25.36071      0.005873442       -140.2895                0               0                0               0
1.70627                0.9502041       -25.62757      0.006014768       -144.1099                0               0                0               0
1.71287                0.9487343       -25.89846      0.006157097        -147.909                0               0                0               0
1.71947                0.9472195       -26.17353      0.006300782       -151.6853                0               0                0               0
1.72607                0.9456584       -26.45291      0.006446223       -155.4377                0               0                0               0
1.73267                  0.94405       -26.73676      0.006593872       -159.1658                0               0                0               0
1.73927                0.9423923       -27.02525      0.006744226       -162.8692                0               0                0               0
1.74587                0.9406839       -27.31855       0.00689783       -166.5482                0               0                0               0
1.75248                0.9389224       -27.61683      0.007055266       -170.2038                0               0                0               0
1.75908                0.9371057       -27.92028      0.007217159       -173.8369                0               0                0               0
1.76568                0.9352312       -28.22909      0.007384158       -177.4494                0               0                0               0
1.77228                0.9332959       -28.54344      0.007556943        178.9566                0               0                0               0
1.77888                0.9312968       -28.86352      0.007736211        175.3785                0               0                0               0
1.78548                0.9292305       -29.18954      0.007922669        171.8134                0               0                0               0
1.79208                0.9270935       -29.52165      0.008117029        168.2579                0               0                0               0
1.79868                0.9248816       -29.86007       0.00831999        164.7083                0               0                0               0
1.80528                0.9225909       -30.20496      0.008532244        161.1607                0               0                0               0
1.81188                0.9202171       -30.55649      0.008754456        157.6109                0               0                0               0
1.81848                0.9177555       -30.91485      0.008987258        154.0547                0               0                0               0
1.82508                0.9152015       -31.28018      0.009231243        150.4879                0               0                0               0
1.83168                  0.91255       -31.65266      0.009486955        146.9061                0               0                0               0
1.83828                0.9097962       -32.03243      0.009754884        143.3052                0               0                0               0
1.84488                0.9069345       -32.41963       0.01003546        139.6812                0               0                0               0
1.85149                0.9039598        -32.8144       0.01032905        136.0302                0               0                0               0
