! TOUCHSTONE file generated by CST MICROWAVE STUDIO
! Date and time: Tue Mar 11 13:58:24 2025
! Project name: transverse.cst
! Parameters = {Fracture=1; B=12.5; D=160; F=25; Feed=2.85625; L=100; M=20; R=0.384908; S=1; Theta=270; length=57.125; wave=114.25}
! Header version: 2024
! Port assignment regex: !\s*Touchstone port\s*([0-9]+)\s*=\s*(CST MWS port|CST DES external port|CST DES block port)\s*(.+)\s* \(\"(.*)\"\)(\s*mode\s*([0-9]+))?.*
! Touchstone port assignment:
! Touchstone port 1 = CST MWS port 1 ("")
! Touchstone port 2 = CST MWS port 2 ("")
# GHz S MA R 50
1                      0.9976271       -10.01929     0.0004936981        175.6481                0               0                0               0
1.00658                  0.99756       -10.10752     0.0004885459        170.5113                0               0                0               0
1.01316                0.9974934       -10.19643     0.0004815644        165.5455                0               0                0               0
1.01974                0.9974267       -10.28604     0.0004727923        160.7722                0               0                0               0
1.02632                0.9973596       -10.37637      0.000462295        156.2179                0               0                0               0
1.03289                0.9972915       -10.46747     0.0004501696        151.9152                0               0                0               0
1.03947                0.9972221       -10.55934     0.0004365526        147.9038                0               0                0               0
1.04605                0.9971506         -10.652     0.0004216294        144.2325                0               0                0               0
1.05263                0.9970766       -10.74548     0.0004056477        140.9602                0               0                0               0
1.05921                0.9969996       -10.83978     0.0003889334        138.1571                0               0                0               0
1.06579                 0.996919       -10.93491     0.0003719115        135.9046                0               0                0               0
1.07237                0.9968341       -11.03086     0.0003551299        134.2923                0               0                0               0
1.07895                0.9967445       -11.12763     0.0003392842        133.4101                0               0                0               0
1.08553                0.9966496       -11.22521     0.0003252336        133.3318                0               0                0               0
1.09211                0.9965493       -11.32359      0.000313995        134.0873                0               0                0               0
1.09868                0.9964428       -11.42276     0.0003066888        135.6259                0               0                0               0
1.10526                0.9963302        -11.5227     0.0003044232        137.7835                0               0                0               0
1.11184                 0.996211       -11.62339     0.0003081191        140.2791                0               0                0               0
1.11842                0.9960854       -11.72482     0.0003183366        142.7591                0               0                0               0
1.125                  0.9959531       -11.82696     0.0003351818        144.8795                0               0                0               0
1.13158                0.9958143       -11.92981     0.0003583428        146.3829                0               0                0               0
1.13816                0.9956691       -12.03333     0.0003872205        147.1321                0               0                0               0
1.14474                0.9955176       -12.13754     0.0004210827        147.0978                0               0                0               0
1.15132                0.9953602        -12.2424      0.000459182        146.3229                0               0                0               0
1.15789                0.9951971       -12.34792     0.0005008225        144.8875                0               0                0               0
1.16447                0.9950287       -12.45411     0.0005453863        142.8834                0               0                0               0
1.17105                0.9948554       -12.56095     0.0005923344        140.4003                0               0                0               0
1.17763                0.9946776       -12.66847     0.0006411984        137.5185                0               0                0               0
1.18421                0.9944957       -12.77668     0.0006915679        134.3071                0               0                0               0
1.19079                0.9943098        -12.8856     0.0007430787        130.8247                0               0                0               0
1.19737                0.9941208       -12.99525     0.0007954033        127.1197                0               0                0               0
1.20395                0.9939286       -13.10567     0.0008482422        123.2327                0               0                0               0
1.21053                0.9937335       -13.21688     0.0009013189        119.1973                0               0                0               0
1.21711                0.9935358       -13.32894     0.0009543746        115.0415                0               0                0               0
1.22368                0.9933355       -13.44187      0.001007166         110.789                0               0                0               0
1.23026                0.9931327       -13.55573      0.001059463          106.46                0               0                0               0
1.23684                0.9929271       -13.67055      0.001111047        102.0715                0               0                0               0
1.24342                0.9927187       -13.78639      0.001161711        97.63853                0               0                0               0
1.25                   0.9925072       -13.90328       0.00121126         93.1742                0               0                0               0
1.25658                0.9922921       -14.02128      0.001259507        88.69013                0               0                0               0
1.26316                 0.992073       -14.14043      0.001306282        84.19681                0               0                0               0
1.26974                0.9918495       -14.26075      0.001351425        79.70383                0               0                0               0
1.27632                0.9916209       -14.38229       0.00139479        75.22009                0               0                0               0
1.28289                0.9913865       -14.50509      0.001436248        70.75392                0               0                0               0
1.28947                0.9911454       -14.62916      0.001475686        66.31328                0               0                0               0
1.29605                0.9908972       -14.75452      0.001513013        61.90585                0               0                0               0
1.30263                 0.990641       -14.88119      0.001548154        57.53909                0               0                0               0
1.30921                0.9903759       -15.00919      0.001581062        53.22035                0               0                0               0
1.31579                0.9901013       -15.13851      0.001611715        48.95692                0               0                0               0
1.32237                0.9898167       -15.26915      0.001640117        44.75605                0               0                0               0
1.32895                0.9895211        -15.4011      0.001666306        40.62496                0               0                0               0
1.33553                0.9892143       -15.53437      0.001690354        36.57088                0               0                0               0
1.34211                0.9888957       -15.66893      0.001712369        32.60098                0               0                0               0
1.34868                0.9885647       -15.80476        0.0017325        28.72231                0               0                0               0
1.35526                0.9882214       -15.94187      0.001750939        24.94176                0               0                0               0
1.36184                0.9878654       -16.08021      0.001767927        21.26587                0               0                0               0
1.36842                0.9874965       -16.21978      0.001783749         17.7007                0               0                0               0
1.375                  0.9871151       -16.36057      0.001798745        14.25162                0               0                0               0
1.38158                0.9867212       -16.50255      0.001813305        10.92302                0               0                0               0
1.38816                 0.986315       -16.64573      0.001827871        7.718046                0               0                0               0
1.39474                0.9858969       -16.79011      0.001842937        4.638217                0               0                0               0
1.40132                0.9854674       -16.93567      0.001859041        1.683102                0               0                0               0
1.40789                0.9850268       -17.08244      0.001876763       -1.150049                0               0                0               0
1.41447                0.9845756       -17.23044      0.001896717       -3.866615                0               0                0               0
1.42105                0.9841145       -17.37968      0.001919538       -6.474835                0               0                0               0
1.42763                0.9836439        -17.5302      0.001945869       -8.985919                0               0                0               0
1.43421                0.9831645       -17.68205      0.001976346       -11.41398                0               0                0               0
1.44079                0.9826766       -17.83528       0.00201158       -13.77579                0               0                0               0
1.44737                0.9821808       -17.98994      0.002052142       -16.09029                0               0                0               0
1.45395                0.9816772        -18.1461      0.002098541       -18.37798                0               0                0               0
1.46053                0.9811661       -18.30384      0.002151215       -20.66006                0               0                0               0
1.46711                0.9806477       -18.46324      0.002210517       -22.95765                0               0                0               0
1.47368                0.9801219       -18.62438      0.002276706       -25.29086                0               0                0               0
1.48026                0.9795886       -18.78735      0.002349946       -27.67807                0               0                0               0
1.48684                0.9790474       -18.95224      0.002430304       -30.13535                0               0                0               0
1.49342                0.9784978       -19.11916      0.002517758       -32.67598                0               0                0               0
1.5                    0.9779391       -19.28818        0.0026122       -35.31035                0               0                0               0
1.50658                0.9773707       -19.45941      0.002713449       -38.04588                0               0                0               0
1.51316                0.9767913       -19.63294      0.002821256        -40.8872                0               0                0               0
1.51974                   0.9762       -19.80886      0.002935323       -43.83641                0               0                0               0
1.52632                0.9755955       -19.98724      0.003055305       -46.89342                0               0                0               0
1.53289                0.9749766       -20.16817      0.003180823       -50.05628                0               0                0               0
1.53947                0.9743415       -20.35172      0.003311473       -53.32159                0               0                0               0
1.54605                0.9736889       -20.53794      0.003446831       -56.68481                0               0                0               0
1.55263                0.9730172       -20.72691      0.003586461       -60.14055                0               0                0               0
1.55921                0.9723248       -20.91865      0.003729922       -63.68284                0               0                0               0
1.56579                0.9716099       -21.11323      0.003876768       -67.30538                0               0                0               0
1.57237                 0.970871       -21.31066      0.004026556       -71.00161                0               0                0               0
1.57895                0.9701067       -21.51098      0.004178847       -74.76496                0               0                0               0
1.58553                 0.969315       -21.71419      0.004333211       -78.58888                0               0                0               0
1.59211                0.9684949       -21.92033      0.004489229       -82.46691                0               0                0               0
1.59868                0.9676449        -22.1294      0.004646493       -86.39277                0               0                0               0
1.60526                0.9667638       -22.34139      0.004804613       -90.36037                0               0                0               0
1.61184                0.9658505       -22.55632      0.004963215       -94.36384                0               0                0               0
1.61842                0.9649041        -22.7742      0.005121949       -98.39751                0               0                0               0
1.625                  0.9639235       -22.99501      0.005280483        -102.456                0               0                0               0
1.63158                 0.962908       -23.21877      0.005438514        -106.534                0               0                0               0
1.63816                0.9618571       -23.44551      0.005595767       -110.6266                0               0                0               0
1.64474                0.9607704       -23.67522      0.005751998        -114.729                0               0                0               0
1.65132                0.9596473       -23.90793      0.005906994       -118.8367                0               0                0               0
1.65789                0.9584876       -24.14369      0.006060584       -122.9452                0               0                0               0
1.66447                0.9572909       -24.38253      0.006212631       -127.0505                0               0                0               0
1.67105                 0.956057        -24.6245      0.006363046       -131.1486                0               0                0               0
1.67763                0.9547857       -24.86967      0.006511783       -135.2357                0               0                0               0
1.68421                0.9534767       -25.11812      0.006658847       -139.3081                0               0                0               0
1.69079                0.9521297       -25.36994      0.006804296       -143.3626                0               0                0               0
1.69737                0.9507443       -25.62523      0.006948239        -147.396                0               0                0               0
1.70395                  0.94932        -25.8841      0.007090849       -151.4054                0               0                0               0
1.71053                0.9478562       -26.14667      0.007232355       -155.3881                0               0                0               0
1.71711                0.9463521        -26.4131      0.007373052       -159.3416                0               0                0               0
1.72368                0.9448066       -26.68351      0.007513298        -163.264                0               0                0               0
1.73026                0.9432186       -26.95807      0.007653517       -167.1535                0               0                0               0
1.73684                0.9415866       -27.23695      0.007794202       -171.0085                0               0                0               0
1.74342                0.9399089       -27.52031      0.007935906       -174.8282                0               0                0               0
1.75                   0.9381836       -27.80832      0.008079254       -178.6119                0               0                0               0
1.75658                0.9364086       -28.10118      0.008224929        177.6405                0               0                0               0
1.76316                0.9345813       -28.39905      0.008373676        173.9286                0               0                0               0
1.76974                 0.932699       -28.70213      0.008526291        170.2516                0               0                0               0
1.77632                0.9307588       -29.01058      0.008683624        166.6079                0               0                0               0
1.78289                0.9287574       -29.32459      0.008846559        162.9956                0               0                0               0
1.78947                0.9266913       -29.64432      0.009016016        159.4121                0               0                0               0
1.79605                 0.924557       -29.96995      0.009192939        155.8543                0               0                0               0
1.80263                0.9223504       -30.30164      0.009378282        152.3186                0               0                0               0
1.80921                0.9200676       -30.63954      0.009572999        148.8009                0               0                0               0
1.81579                0.9177044       -30.98381      0.009778027        145.2966                0               0                0               0
1.82237                0.9152563       -31.33458      0.009994285        141.8009                0               0                0               0
1.82895                0.9127191       -31.69198       0.01022265        138.3086                0               0                0               0
1.83553                0.9100879       -32.05615       0.01046394        134.8143                0               0                0               0
1.84211                0.9073581        -32.4272       0.01071892        131.3126                0               0                0               0
1.84868                0.9045251       -32.80525       0.01098829         127.798                0               0                0               0
