! TOUCHSTONE file generated by CST MICROWAVE STUDIO
! Date and time: Tue Mar 11 13:58:03 2025
! Project name: transverse.cst
! Parameters = {Fracture=5; B=10; D=160; F=25; Feed=2.85625; L=100; M=30; R=0.384908; S=2; Theta=270; length=57.125; wave=114.25}
! Header version: 2024
! Port assignment regex: !\s*Touchstone port\s*([0-9]+)\s*=\s*(CST MWS port|CST DES external port|CST DES block port)\s*(.+)\s* \(\"(.*)\"\)(\s*mode\s*([0-9]+))?.*
! Touchstone port assignment:
! Touchstone port 1 = CST MWS port 1 ("")
! Touchstone port 2 = CST MWS port 2 ("")
# GHz S MA R 50
1                      0.9975385       -9.750651     0.0004763372        166.0053                0               0                0               0
1.0066                 0.9974797       -9.836418     0.0004759809        160.4256                0               0                0               0
1.0132                 0.9974245       -9.922968     0.0004738863        154.9603                0               0                0               0
1.0198                 0.9973723       -10.01036     0.0004700389        149.6198                0               0                0               0
1.0264                 0.9973223       -10.09867     0.0004644379        144.4174                0               0                0               0
1.033                  0.9972734       -10.18794     0.0004570979        139.3695                0               0                0               0
1.0396                 0.9972246       -10.27821     0.0004480517        134.4962                0               0                0               0
1.0462                 0.9971747       -10.36952     0.0004373538        129.8226                0               0                0               0
1.05281                0.9971225       -10.46189     0.0004250853        125.3795                0               0                0               0
1.05941                0.9970665       -10.55533     0.0004113595        121.2049                0               0                0               0
1.06601                0.9970057       -10.64985     0.0003963299         117.346                0               0                0               0
1.07261                0.9969386       -10.74544     0.0003802016        113.8606                0               0                0               0
1.07921                0.9968641       -10.84206     0.0003632453        110.8194                0               0                0               0
1.08581                0.9967811       -10.93969     0.0003458159        108.3069                0               0                0               0
1.09241                0.9966887        -11.0383     0.0003283764        106.4214                0               0                0               0
1.09901                 0.996586       -11.13783     0.0003115246        105.2698                0               0                0               0
1.10561                0.9964723       -11.23822     0.0002960188        104.9553                0               0                0               0
1.11221                0.9963474       -11.33943     0.0002827888        105.5514                0               0                0               0
1.11881                0.9962107       -11.44138     0.0002729111        107.0608                0               0                0               0
1.12541                0.9960624       -11.54401     0.0002675185        109.3668                0               0                0               0
1.13201                0.9959025       -11.64728     0.0002676326        112.2037                0               0                0               0
1.13861                0.9957315       -11.75111      0.000273958        115.1829                0               0                0               0
1.14521                0.9955499       -11.85545     0.0002867318        117.8836                0               0                0               0
1.15182                0.9953582       -11.96027     0.0003057149        119.9625                0               0                0               0
1.15842                0.9951575       -12.06551     0.0003303182        121.2194                0               0                0               0
1.16502                0.9949488       -12.17117      0.000359781         121.595                0               0                0               0
1.17162                0.9947329       -12.27721     0.0003933167        121.1292                0               0                0               0
1.17822                0.9945112       -12.38364     0.0004301963         119.913                0               0                0               0
1.18482                0.9942848       -12.49046     0.0004697812        118.0543                0               0                0               0
1.19142                0.9940548        -12.5977     0.0005115233        115.6581                0               0                0               0
1.19802                0.9938225       -12.70538     0.0005549546        112.8183                0               0                0               0
1.20462                0.9935887       -12.81355     0.0005996711        109.6144                0               0                0               0
1.21122                0.9933545       -12.92227     0.0006453192        106.1127                0               0                0               0
1.21782                0.9931206        -13.0316     0.0006915842         102.368                0               0                0               0
1.22442                0.9928876       -13.14162     0.0007381806        98.42482                0               0                0               0
1.23102                0.9926561       -13.25239     0.0007848461        94.32011                0               0                0               0
1.23762                0.9924263       -13.36403     0.0008313367        90.08425                0               0                0               0
1.24422                0.9921981        -13.4766     0.0008774224        85.74258                0               0                0               0
1.25083                0.9919714        -13.5902     0.0009228858         81.3164                0               0                0               0
1.25743                0.9917456       -13.70492     0.0009675201        76.82379                0               0                0               0
1.26403                0.9915204       -13.82084      0.001011128         72.2803                0               0                0               0
1.27063                0.9912947       -13.93804      0.001053523        67.69947                0               0                0               0
1.27723                0.9910676        -14.0566      0.001094526        63.09327                0               0                0               0
1.28383                0.9908378       -14.17658      0.001133969        58.47243                0               0                0               0
1.29043                0.9906042       -14.29803      0.001171694         53.8467                0               0                0               0
1.29703                0.9903652       -14.42099      0.001207554        49.22513                0               0                0               0
1.30363                0.9901194       -14.54549      0.001241414        44.61622                0               0                0               0
1.31023                0.9898654       -14.67156      0.001273155        40.02808                0               0                0               0
1.31683                0.9896017       -14.79919      0.001302668        35.46861                0               0                0               0
1.32343                0.9893267       -14.92839      0.001329865        30.94558                0               0                0               0
1.33003                0.9890394       -15.05912      0.001354674        26.46671                0               0                0               0
1.33663                0.9887382       -15.19137      0.001377045        22.03984                0               0                0               0
1.34323                0.9884222       -15.32508      0.001396949        17.67292                0               0                0               0
1.34984                0.9880907       -15.46021      0.001414382        13.37411                0               0                0               0
1.35644                0.9877427       -15.59672       0.00142937        9.151849                0               0                0               0
1.36304                 0.987378       -15.73454      0.001441969        5.014833                0               0                0               0
1.36964                0.9869962       -15.87362      0.001452267       0.9720677                0               0                0               0
1.37624                0.9865974       -16.01389      0.001460392       -2.967172                0               0                0               0
1.38284                0.9861818       -16.15531      0.001466513       -6.793398                0               0                0               0
1.38944                0.9857498       -16.29782      0.001470842       -10.49701                0               0                0               0
1.39604                0.9853022       -16.44139      0.001473642       -14.06844                0               0                0               0
1.40264                0.9848397       -16.58597      0.001475226       -17.49845                0               0                0               0
1.40924                0.9843634       -16.73157      0.001475964       -20.77838                0               0                0               0
1.41584                0.9838743       -16.87815      0.001476282        -23.9006                0               0                0               0
1.42244                0.9833736       -17.02574      0.001476666       -26.85909                0               0                0               0
1.42904                0.9828627       -17.17435      0.001477656       -29.64996                0               0                0               0
1.43564                0.9823426       -17.32403      0.001479849       -32.27226                0               0                0               0
1.44224                0.9818147       -17.47482      0.001483885       -34.72865                0               0                0               0
1.44884                0.9812799       -17.62681      0.001490442       -37.02612                0               0                0               0
1.45545                0.9807394       -17.78006      0.001500218       -39.17654                0               0                0               0
1.46205                0.9801938       -17.93468      0.001513909       -41.19696                0               0                0               0
1.46865                0.9796439       -18.09078      0.001532196        -43.1095                0               0                0               0
1.47525                0.9790899       -18.24848       0.00155571       -44.94085                0               0                0               0
1.48185                0.9785321       -18.40791      0.001585017       -46.72123                0               0                0               0
1.48845                0.9779701       -18.56919       0.00162059       -48.48298                0               0                0               0
1.49505                0.9774036       -18.73247      0.001662799       -50.25885                0               0                0               0
1.50165                0.9768317       -18.89788      0.001711893       -52.08029                0               0                0               0
1.50825                0.9762535       -19.06556      0.001768006       -53.97584                0               0                0               0
1.51485                0.9756676       -19.23562      0.001831152       -55.96994                0               0                0               0
1.52145                0.9750724        -19.4082       0.00190124       -58.08212                0               0                0               0
1.52805                0.9744661        -19.5834      0.001978088       -60.32671                0               0                0               0
1.53465                0.9738466       -19.76133      0.002061433       -62.71298                0               0                0               0
1.54125                0.9732118       -19.94206      0.002150954        -65.2456                0               0                0               0
1.54785                0.9725594       -20.12566      0.002246282       -67.92523                0               0                0               0
1.55446                0.9718868        -20.3122      0.002347017       -70.74928                0               0                0               0
1.56106                0.9711917        -20.5017      0.002452737       -73.71265                0               0                0               0
1.56766                0.9704718       -20.69419      0.002563011        -76.8084                0               0                0               0
1.57426                0.9697246       -20.88966      0.002677403       -80.02831                0               0                0               0
1.58086                 0.968948        -21.0881       0.00279548       -83.36339                0               0                0               0
1.58746                0.9681399        -21.2895      0.002916815       -86.80426                0               0                0               0
1.59406                0.9672985       -21.49381      0.003040993        -90.3414                0               0                0               0
1.60066                0.9664222       -21.70098       0.00316761       -93.96543                0               0                0               0
1.60726                0.9655097       -21.91096       0.00329628       -97.66716                0               0                0               0
1.61386                0.9645598       -22.12369      0.003426631       -101.4378                0               0                0               0
1.62046                0.9635719       -22.33911      0.003558312       -105.2689                0               0                0               0
1.62706                0.9625456       -22.55716      0.003690992       -109.1525                0               0                0               0
1.63366                0.9614806       -22.77778       0.00382436        -113.081                0               0                0               0
1.64026                0.9603774       -23.00093      0.003958131       -117.0473                0               0                0               0
1.64686                 0.959236       -23.22659      0.004092043       -121.0448                0               0                0               0
1.65347                0.9580573       -23.45472      0.004225861        -125.067                0               0                0               0
1.66007                0.9568423       -23.68533      0.004359381       -129.1082                0               0                0               0
1.66667                0.9555919       -23.91844      0.004492426       -133.1627                0               0                0               0
1.67327                 0.954307       -24.15408      0.004624854       -137.2254                0               0                0               0
1.67987                 0.952989       -24.39233      0.004756558       -141.2914                0               0                0               0
1.68647                0.9516391       -24.63327      0.004887465       -145.3562                0               0                0               0
1.69307                0.9502583       -24.87701      0.005017546       -149.4155                0               0                0               0
1.69967                0.9488475       -25.12369      0.005146809       -153.4654                0               0                0               0
1.70627                0.9474075       -25.37347      0.005275308       -157.5022                0               0                0               0
1.71287                0.9459387       -25.62654      0.005403141       -161.5227                0               0                0               0
1.71947                0.9444414        -25.8831      0.005530455       -165.5238                0               0                0               0
1.72607                0.9429154       -26.14338      0.005657444       -169.5029                0               0                0               0
1.73267                0.9413599       -26.40762      0.005784354       -173.4576                0               0                0               0
1.73927                0.9397743       -26.67607       0.00591148       -177.3859                0               0                0               0
1.74587                0.9381567       -26.94898      0.006039169        178.7137                0               0                0               0
1.75248                0.9365053       -27.22664       0.00616782        174.8424                0               0                0               0
1.75908                0.9348177       -27.50932       0.00629788         171.001                0               0                0               0
1.76568                0.9330909       -27.79727      0.006429848        167.1898                0               0                0               0
1.77228                0.9313216       -28.09076      0.006564265        163.4085                0               0                0               0
1.77888                 0.929506       -28.39006      0.006701717        159.6566                0               0                0               0
1.78548                0.9276397        -28.6954      0.006842827        155.9327                0               0                0               0
1.79208                0.9257186         -29.007      0.006988253        152.2352                0               0                0               0
1.79868                0.9237372       -29.32509      0.007138675        148.5619                0               0                0               0
1.80528                0.9216906       -29.64986      0.007294797        144.9101                0               0                0               0
1.81188                0.9195737       -29.98147      0.007457333        141.2766                0               0                0               0
1.81848                0.9173806       -30.32007      0.007626998        137.6577                0               0                0               0
1.82508                0.9151061       -30.66581      0.007804505        134.0496                0               0                0               0
1.83168                0.9127444       -31.01877       0.00799055        130.4478                0               0                0               0
1.83828                0.9102899       -31.37906        0.0081858        126.8479                0               0                0               0
1.84488                0.9077371       -31.74675      0.008390896         123.245                0               0                0               0
1.85149                0.9050809       -32.12189      0.008606433        119.6343                0               0                0               0
