! TOUCHSTONE file generated by CST MICROWAVE STUDIO
! Date and time: Tue Mar 11 13:56:17 2025
! Project name: transverse.cst
! Parameters = {Fracture=1; B=12.5; D=160; F=15; Feed=2.85625; L=100; M=10; R=0.384908; S=2; Theta=0; length=57.125; wave=114.25}
! Header version: 2024
! Port assignment regex: !\s*Touchstone port\s*([0-9]+)\s*=\s*(CST MWS port|CST DES external port|CST DES block port)\s*(.+)\s* \(\"(.*)\"\)(\s*mode\s*([0-9]+))?.*
! Touchstone port assignment:
! Touchstone port 1 = CST MWS port 1 ("")
! Touchstone port 2 = CST MWS port 2 ("")
# GHz S MA R 50
1                        0.99781       -10.00378     0.0003021086       -149.0993                0               0                0               0
1.00658                0.9977284       -10.09333      0.000309718       -152.2911                0               0                0               0
1.01316                0.9976426       -10.18336      0.000316967       -155.4216                0               0                0               0
1.01974                0.9975526       -10.27386     0.0003238742         -158.48                0               0                0               0
1.02632                0.9974589       -10.36482     0.0003304699       -161.4559                0               0                0               0
1.03289                0.9973619       -10.45624     0.0003367968       -164.3399                0               0                0               0
1.03947                0.9972619       -10.54812     0.0003429109       -167.1232                0               0                0               0
1.04605                0.9971594       -10.64046     0.0003488826       -169.7983                0               0                0               0
1.05263                0.9970546       -10.73327     0.0003547967        -172.359                0               0                0               0
1.05921                0.9969482       -10.82657     0.0003607531       -174.8009                0               0                0               0
1.06579                0.9968404       -10.92039     0.0003668666       -177.1217                0               0                0               0
1.07237                0.9967317       -11.01473     0.0003732657       -179.3218                0               0                0               0
1.07895                0.9966221       -11.10964     0.0003800918        178.5956                0               0                0               0
1.08553                0.9965122       -11.20515     0.0003874968        176.6238                0               0                0               0
1.09211                0.9964019       -11.30129     0.0003956403        174.7529                0               0                0               0
1.09868                0.9962914       -11.39809     0.0004046857        172.9692                0               0                0               0
1.10526                0.9961805       -11.49561     0.0004147963         171.256                0               0                0               0
1.11184                0.9960694       -11.59387      0.000426131        169.5935                0               0                0               0
1.11842                0.9959576       -11.69292     0.0004388386          167.96                0               0                0               0
1.125                  0.9958452       -11.79279     0.0004530544        166.3326                0               0                0               0
1.13158                0.9957316       -11.89352     0.0004688956         164.688                0               0                0               0
1.13816                0.9956164       -11.99516      0.000486459         163.004                0               0                0               0
1.14474                0.9954991       -12.09772     0.0005058188        161.2601                0               0                0               0
1.15132                0.9953793       -12.20123      0.000527026        159.4385                0               0                0               0
1.15789                0.9952564       -12.30572     0.0005501085        157.5244                0               0                0               0
1.16447                0.9951295       -12.41121     0.0005750726        155.5062                0               0                0               0
1.17105                0.9949982       -12.51771      0.000601905        153.3761                0               0                0               0
1.17763                0.9948618       -12.62522     0.0006305745        151.1291                0               0                0               0
1.18421                0.9947198       -12.73376     0.0006610346        148.7632                0               0                0               0
1.19079                0.9945715       -12.84332     0.0006932266         146.279                0               0                0               0
1.19737                0.9944162       -12.95389     0.0007270807         143.679                0               0                0               0
1.20395                0.9942537       -13.06546     0.0007625195        140.9675                0               0                0               0
1.21053                0.9940833       -13.17803     0.0007994588        138.1499                0               0                0               0
1.21711                0.9939049       -13.29158     0.0008378095        135.2324                0               0                0               0
1.22368                0.9937182       -13.40608     0.0008774798         132.222                0               0                0               0
1.23026                0.9935228       -13.52153     0.0009183751        129.1258                0               0                0               0
1.23684                0.9933186        -13.6379        0.0009604        125.9511                0               0                0               0
1.24342                 0.993106       -13.75518       0.00100346        122.7053                0               0                0               0
1.25                   0.9928849       -13.87335      0.001047459        119.3956                0               0                0               0
1.25658                0.9926554       -13.99239      0.001092306        116.0289                0               0                0               0
1.26316                0.9924178       -14.11231       0.00113791        112.6121                0               0                0               0
1.26974                0.9921724       -14.23309      0.001184184        109.1517                0               0                0               0
1.27632                0.9919197       -14.35474      0.001231044        105.6539                0               0                0               0
1.28289                0.9916601       -14.47726      0.001278411        102.1244                0               0                0               0
1.28947                 0.991394       -14.60066      0.001326213        98.56898                0               0                0               0
1.29605                0.9911218       -14.72495      0.001374381        94.99281                0               0                0               0
1.30263                0.9908443       -14.85018      0.001422854        91.40086                0               0                0               0
1.30921                0.9905613       -14.97636       0.00147158        87.79782                0               0                0               0
1.31579                0.9902738       -15.10352      0.001520513        84.18804                0               0                0               0
1.32237                0.9899819       -15.23172      0.001569617        80.57563                0               0                0               0
1.32895                 0.989686         -15.361      0.001618865         76.9644                0               0                0               0
1.33553                 0.989386       -15.49141      0.001668241         73.3579                0               0                0               0
1.34211                0.9890823         -15.623       0.00171774         69.7594                0               0                0               0
1.34868                0.9887749       -15.75584      0.001767367        66.17188                0               0                0               0
1.35526                0.9884635       -15.88998       0.00181714        62.59807                0               0                0               0
1.36184                0.9881479       -16.02549      0.001867089        59.04041                0               0                0               0
1.36842                0.9878281       -16.16243      0.001917259        55.50105                0               0                0               0
1.375                  0.9875032       -16.30085      0.001967704        51.98184                0               0                0               0
1.38158                0.9871731       -16.44082      0.002018494        48.48434                0               0                0               0
1.38816                 0.986837       -16.58239      0.002069711        45.00979                0               0                0               0
1.39474                0.9864941       -16.72563      0.002121449        41.55909                0               0                0               0
1.40132                0.9861438       -16.87057      0.002173817        38.13285                0               0                0               0
1.40789                0.9857853       -17.01726      0.002226932         34.7313                0               0                0               0
1.41447                0.9854174       -17.16575      0.002280923        31.35438                0               0                0               0
1.42105                0.9850396       -17.31606      0.002335932        28.00163                0               0                0               0
1.42763                0.9846507       -17.46823      0.002392106        24.67232                0               0                0               0
1.43421                  0.98425       -17.62228      0.002449599        21.36533                0               0                0               0
1.44079                0.9838364       -17.77824      0.002508573        18.07926                0               0                0               0
1.44737                0.9834093       -17.93612      0.002569192        14.81241                0               0                0               0
1.45395                0.9829678       -18.09593      0.002631623        11.56279                0               0                0               0
1.46053                0.9825111       -18.25769      0.002696032        8.328201                0               0                0               0
1.46711                0.9820388        -18.4214      0.002762583        5.106207                0               0                0               0
1.47368                  0.98155       -18.58706      0.002831434        1.894223                0               0                0               0
1.48026                0.9810444       -18.75468      0.002902741       -1.310459                0               0                0               0
1.48684                0.9805216       -18.92428      0.002976648        -4.51062                0               0                0               0
1.49342                0.9799814       -19.09586       0.00305329       -7.709066                0               0                0               0
1.5                    0.9794233       -19.26943      0.003132789       -10.90858                0               0                0               0
1.50658                0.9788474       -19.44501      0.003215256       -14.11187                0               0                0               0
1.51316                0.9782535       -19.62263      0.003300786       -17.32153                0               0                0               0
1.51974                0.9776416        -19.8023       0.00338946          -20.54                0               0                0               0
1.52632                0.9770116       -19.98407      0.003481342       -23.76952                0               0                0               0
1.53289                0.9763636       -20.16797       0.00357648       -27.01212                0               0                0               0
1.53947                0.9756976       -20.35406      0.003674905       -30.26958                0               0                0               0
1.54605                0.9750137       -20.54239      0.003776634       -33.54339                0               0                0               0
1.55263                0.9743115       -20.73303      0.003881667       -36.83482                0               0                0               0
1.55921                0.9735911       -20.92606      0.003989992        -40.1448                0               0                0               0
1.56579                0.9728523       -21.12155      0.004101579       -43.47402                0               0                0               0
1.57237                0.9720948       -21.31959       0.00421639       -46.82288                0               0                0               0
1.57895                0.9713181       -21.52028      0.004334376       -50.19152                0               0                0               0
1.58553                0.9705216       -21.72372      0.004455476       -53.57983                0               0                0               0
1.59211                0.9697049       -21.93001      0.004579625       -56.98747                0               0                0               0
1.59868                0.9688666       -22.13927      0.004706752       -60.41388                0               0                0               0
1.60526                0.9680061       -22.35161      0.004836782       -63.85831                0               0                0               0
1.61184                0.9671219       -22.56715      0.004969639       -67.31984                0               0                0               0
1.61842                0.9662126       -22.78599      0.005105249        -70.7974                0               0                0               0
1.625                  0.9652769       -23.00825      0.005243542       -74.28979                0               0                0               0
1.63158                0.9643127       -23.23404      0.005384451       -77.79572                0               0                0               0
1.63816                0.9633183       -23.46348      0.005527919       -81.31382                0               0                0               0
1.64474                0.9622917       -23.69666      0.005673899       -84.84264                0               0                0               0
1.65132                0.9612305       -23.93369      0.005822355       -88.38072                0               0                0               0
1.65789                0.9601325       -24.17465      0.005973268       -91.92656                0               0                0               0
1.66447                0.9589952       -24.41965      0.006126635       -95.47869                0               0                0               0
1.67105                0.9578162       -24.66874      0.006282469       -99.03563                0               0                0               0
1.67763                0.9565928       -24.92202      0.006440808        -102.596                0               0                0               0
1.68421                0.9553225       -25.17954       0.00660171       -106.1584                0               0                0               0
1.69079                0.9540027       -25.44136       0.00676526       -109.7216                0               0                0               0
1.69737                0.9526304       -25.70754      0.006931565       -113.2843                0               0                0               0
1.70395                0.9512034       -25.97812      0.007100763       -116.8456                0               0                0               0
1.71053                0.9497189       -26.25315       0.00727302       -120.4044                0               0                0               0
1.71711                 0.948174       -26.53265      0.007448527       -123.9601                0               0                0               0
1.72368                0.9465666       -26.81666      0.007627512       -127.5118                0               0                0               0
1.73026                 0.944894       -27.10522      0.007810226       -131.0592                0               0                0               0
1.73684                0.9431536       -27.39834      0.007996955       -134.6019                0               0                0               0
1.74342                0.9413431       -27.69607      0.008188012       -138.1398                0               0                0               0
1.75                   0.9394602       -27.99843      0.008383737       -141.6731                0               0                0               0
1.75658                0.9375027       -28.30544      0.008584501       -145.2019                0               0                0               0
1.76316                 0.935468       -28.61716      0.008790696       -148.7267                0               0                0               0
1.76974                 0.933354       -28.93361      0.009002739       -152.2483                0               0                0               0
1.77632                0.9311584       -29.25484      0.009221067       -155.7675                0               0                0               0
1.78289                0.9288787       -29.58089      0.009446132       -159.2854                0               0                0               0
1.78947                0.9265129       -29.91183      0.009678403       -162.8032                0               0                0               0
1.79605                0.9240584       -30.24772      0.009918357       -166.3223                0               0                0               0
1.80263                0.9215127       -30.58861       0.01016648       -169.8444                0               0                0               0
1.80921                0.9188732        -30.9346       0.01042324        -173.371                0               0                0               0
1.81579                0.9161371       -31.28575       0.01068914       -176.9042                0               0                0               0
1.82237                0.9133016       -31.64216       0.01096463        179.5544                0               0                0               0
1.82895                0.9103635        -32.0039       0.01125018        176.0026                0               0                0               0
1.83553                0.9073197       -32.37107       0.01154622        172.4384                0               0                0               0
1.84211                0.9041665       -32.74377       0.01185319        168.8598                0               0                0               0
1.84868                0.9009004       -33.12209       0.01217145        165.2649                0               0                0               0
