! TOUCHSTONE file generated by CST MICROWAVE STUDIO
! Date and time: Tue Mar 11 13:56:42 2025
! Project name: transverse.cst
! Parameters = {Fracture=5; B=10; D=160; F=25; Feed=2.85625; L=100; M=20; R=0.384908; S=1; Theta=90; length=57.125; wave=114.25}
! Header version: 2024
! Port assignment regex: !\s*Touchstone port\s*([0-9]+)\s*=\s*(CST MWS port|CST DES external port|CST DES block port)\s*(.+)\s* \(\"(.*)\"\)(\s*mode\s*([0-9]+))?.*
! Touchstone port assignment:
! Touchstone port 1 = CST MWS port 1 ("")
! Touchstone port 2 = CST MWS port 2 ("")
# GHz S MA R 50
1                      0.9976231       -9.758121      0.000506621        175.8412                0               0                0               0
1.00658                0.9975608       -9.844581     0.0004992663        170.6353                0               0                0               0
1.01316                 0.997499       -9.931758     0.0004899192        165.6085                0               0                0               0
1.01974                0.9974373       -10.01968     0.0004786229        160.7853                0               0                0               0
1.02632                0.9973751       -10.10839     0.0004654494        156.1967                0               0                0               0
1.03289                0.9973118       -10.19789     0.0004505066        151.8811                0               0                0               0
1.03947                0.9972466       -10.28823      0.000433948        147.8871                0               0                0               0
1.04605                 0.997179        -10.3794      0.000415985        144.2755                0               0                0               0
1.05263                0.9971083       -10.47142     0.0003969046        141.1218                0               0                0               0
1.05921                0.9970339       -10.56429     0.0003770933        138.5192                0               0                0               0
1.06579                0.9969549         -10.658     0.0003570674        136.5787                0               0                0               0
1.07237                0.9968709       -10.75256     0.0003375118        135.4268                0               0                0               0
1.07895                0.9967812       -10.84795     0.0003193197        135.1926                0               0                0               0
1.08553                0.9966855       -10.94414     0.0003036205        135.9795                0               0                0               0
1.09211                0.9965833       -11.04113     0.0002917627        137.8147                0               0                0               0
1.09868                0.9964741       -11.13888     0.0002852075        140.5822                0               0                0               0
1.10526                 0.996358       -11.23738     0.0002853017        143.9763                0               0                0               0
1.11184                0.9962347        -11.3366      0.000292979        147.5294                0               0                0               0
1.11842                0.9961041        -11.4365      0.000308539        150.7333                0               0                0               0
1.125                  0.9959666       -11.53708     0.0003316398        153.1883                0               0                0               0
1.13158                0.9958221        -11.6383     0.0003614944        154.6824                0               0                0               0
1.13816                0.9956709       -11.74016     0.0003971267        155.1773                0               0                0               0
1.14474                0.9955136       -11.84263     0.0004375641         154.745                0               0                0               0
1.15132                0.9953503        -11.9457     0.0004819342        153.5069                0               0                0               0
1.15789                0.9951817       -12.04938     0.0005294925        151.5942                0               0                0               0
1.16447                0.9950083       -12.15367     0.0005796137        149.1281                0               0                0               0
1.17105                0.9948305       -12.25857     0.0006317707        146.2123                0               0                0               0
1.17763                0.9946489        -12.3641     0.0006855133        142.9327                0               0                0               0
1.18421                 0.994464       -12.47029     0.0007404486        139.3594                0               0                0               0
1.19079                0.9942763       -12.57716     0.0007962272        135.5488                0               0                0               0
1.19737                0.9940863       -12.68474      0.000852532        131.5468                0               0                0               0
1.20395                0.9938942       -12.79308     0.0009090704        127.3904                0               0                0               0
1.21053                0.9937002       -12.90222     0.0009655691        123.1101                0               0                0               0
1.21711                0.9935045       -13.01221       0.00102177        118.7311                0               0                0               0
1.22368                0.9933074        -13.1231      0.001077427        114.2744                0               0                0               0
1.23026                0.9931085       -13.23493      0.001132306        109.7578                0               0                0               0
1.23684                0.9929079       -13.34777      0.001186184        105.1965                0               0                0               0
1.24342                0.9927051       -13.46167      0.001238847        100.6037                0               0                0               0
1.25                   0.9924997       -13.57668      0.001290091        95.99103                0               0                0               0
1.25658                0.9922913       -13.69284      0.001339725        91.36889                0               0                0               0
1.26316                0.9920792       -13.81021      0.001387568        86.74672                0               0                0               0
1.26974                0.9918626       -13.92882      0.001433454        82.13325                0               0                0               0
1.27632                0.9916409        -14.0487      0.001477229        77.53665                0               0                0               0
1.28289                0.9914131       -14.16989      0.001518757         72.9647                0               0                0               0
1.28947                0.9911785        -14.2924       0.00155792        68.42491                0               0                0               0
1.29605                0.9909361       -14.41626      0.001594618        63.92464                0               0                0               0
1.30263                 0.990685       -14.54147      0.001628776        59.47117                0               0                0               0
1.30921                0.9904244       -14.66803      0.001660343        55.07177                0               0                0               0
1.31579                0.9901534       -14.79595      0.001689295        50.73376                0               0                0               0
1.32237                0.9898713       -14.92519      0.001715638        46.46456                0               0                0               0
1.32895                0.9895776       -15.05577      0.001739413         42.2717                0               0                0               0
1.33553                0.9892714       -15.18764      0.001760698        38.16281                0               0                0               0
1.34211                0.9889526        -15.3208      0.001779611         34.1456                0               0                0               0
1.34868                0.9886207        -15.4552      0.001796314        30.22783                0               0                0               0
1.35526                0.9882756       -15.59084       0.00181102         26.4172                0               0                0               0
1.36184                0.9879172       -15.72767      0.001823988        22.72119                0               0                0               0
1.36842                0.9875456       -15.86569      0.001835538        19.14694                0               0                0               0
1.375                  0.9871609       -16.00486      0.001846043        15.70096                0               0                0               0
1.38158                0.9867635       -16.14517      0.001855939        12.38883                0               0                0               0
1.38816                0.9863539       -16.28661      0.001865718        9.214859                0               0                0               0
1.39474                0.9859326       -16.42917      0.001875936        6.181648                0               0                0               0
1.40132                0.9855003       -16.57287        0.0018872        3.289639                0               0                0               0
1.40789                0.9850575       -16.71771      0.001900168        0.536635                0               0                0               0
1.41447                0.9846051       -16.86371       0.00191554       -2.082634                0               0                0               0
1.42105                0.9841438        -17.0109       0.00193404       -4.576867                0               0                0               0
1.42763                 0.983674       -17.15934      0.001956403       -6.958394                0               0                0               0
1.43421                0.9831968       -17.30906      0.001983357       -9.243164                0               0                0               0
1.44079                0.9827125       -17.46013      0.002015598       -11.45048                0               0                0               0
1.44737                0.9822218       -17.61263      0.002053774       -13.60242                0               0                0               0
1.45395                 0.981725       -17.76662      0.002098456       -15.72306                0               0                0               0
1.46053                0.9812224        -17.9222      0.002150126       -17.83741                0               0                0               0
1.46711                0.9807141       -18.07946      0.002209162       -19.97029                0               0                0               0
1.47368                0.9802001        -18.2385      0.002275828       -22.14528                0               0                0               0
1.48026                0.9796801       -18.39942      0.002350271       -24.38369                0               0                0               0
1.48684                0.9791538       -18.56231      0.002432525       -26.70382                0               0                0               0
1.49342                0.9786204        -18.7273      0.002522518       -29.12055                0               0                0               0
1.5                    0.9780794       -18.89448      0.002620082       -31.64507                0               0                0               0
1.50658                0.9775297       -19.06396      0.002724968       -34.28499                0               0                0               0
1.51316                0.9769701       -19.23583      0.002836854       -37.04456                0               0                0               0
1.51974                0.9763995       -19.41019      0.002955365       -39.92512                0               0                0               0
1.52632                0.9758165       -19.58713      0.003080083       -42.92548                0               0                0               0
1.53289                0.9752192       -19.76673      0.003210557       -46.04245                0               0                0               0
1.53947                0.9746065       -19.94906      0.003346313       -49.27128                0               0                0               0
1.54605                0.9739763       -20.13418      0.003486865       -52.60608                0               0                0               0
1.55263                0.9733269       -20.32216      0.003631718       -56.04014                0               0                0               0
1.55921                0.9726565       -20.51304      0.003780375       -59.56626                0               0                0               0
1.56579                0.9719636       -20.70685      0.003932344       -63.17698                0               0                0               0
1.57237                0.9712461       -20.90363      0.004087136       -66.86472                0               0                0               0
1.57895                0.9705026        -21.1034      0.004244275       -70.62196                0               0                0               0
1.58553                0.9697313       -21.30618      0.004403297       -74.44133                0               0                0               0
1.59211                 0.968931       -21.51198      0.004563753       -78.31564                0               0                0               0
1.59868                0.9680998        -21.7208      0.004725211       -82.23798                0               0                0               0
1.60526                0.9672368       -21.93264      0.004887262       -86.20168                0               0                0               0
1.61184                0.9663408       -22.14751      0.005049517       -90.20036                0               0                0               0
1.61842                0.9654105       -22.36541      0.005211612       -94.22794                0               0                0               0
1.625                  0.9644455       -22.58634      0.005373213        -98.2786                0               0                0               0
1.63158                0.9634447       -22.81031      0.005534013       -102.3468                0               0                0               0
1.63816                0.9624077       -23.03734      0.005693744       -106.4273                0               0                0               0
1.64474                0.9613337       -23.26743      0.005852167       -110.5149                0               0                0               0
1.65132                0.9602225       -23.50062      0.006009088        -114.605                0               0                0               0
1.65789                0.9590737       -23.73695      0.006164353        -118.693                0               0                0               0
1.66447                0.9578868       -23.97646      0.006317853       -122.7744                0               0                0               0
1.67105                0.9566617        -24.2192       0.00646953       -126.8452                0               0                0               0
1.67763                0.9553981       -24.46526       0.00661938       -130.9015                0               0                0               0
1.68421                0.9540953        -24.7147       0.00676745       -134.9396                0               0                0               0
1.69079                0.9527532       -24.96763      0.006913849       -138.9561                0               0                0               0
1.69737                0.9513711       -25.22414      0.007058749       -142.9477                0               0                0               0
1.70395                0.9499484       -25.48436      0.007202387       -146.9116                0               0                0               0
1.71053                0.9484842       -25.74841      0.007345066        -150.845                0               0                0               0
1.71711                0.9469777       -26.01644      0.007487162       -154.7458                0               0                0               0
1.72368                0.9454275       -26.28858      0.007629117       -158.6119                0               0                0               0
1.73026                0.9438323       -26.56499      0.007771453       -162.4417                0               0                0               0
1.73684                0.9421902       -26.84584      0.007914753       -166.2342                0               0                0               0
1.74342                0.9404997       -27.13129      0.008059683       -169.9886                0               0                0               0
1.75                   0.9387582       -27.42151      0.008206967       -173.7046                0               0                0               0
1.75658                0.9369636       -27.71666      0.008357399       -177.3828                0               0                0               0
1.76316                0.9351131       -28.01693      0.008511832         178.976                0               0                0               0
1.76974                0.9332038       -28.32248      0.008671174        175.3704                0               0                0               0
1.77632                0.9312327       -28.63347      0.008836372        171.7981                0               0                0               0
1.78289                0.9291963       -28.95007      0.009008418        168.2565                0               0                0               0
1.78947                 0.927091       -29.27245      0.009188321        164.7423                0               0                0               0
1.79605                0.9249131       -29.60074      0.009377108        161.2516                0               0                0               0
1.80263                0.9226587        -29.9351      0.009575801        157.7799                0               0                0               0
1.80921                0.9203237       -30.27567      0.009785412        154.3223                0               0                0               0
1.81579                0.9179038       -30.62257       0.01000692        150.8738                0               0                0               0
1.82237                0.9153946       -30.97594       0.01024128        147.4285                0               0                0               0
1.82895                0.9127919       -31.33589       0.01048935        143.9809                0               0                0               0
1.83553                0.9100911       -31.70253       0.01075197        140.5251                0               0                0               0
1.84211                0.9072875       -32.07597       0.01102987        137.0552                0               0                0               0
1.84868                0.9043766       -32.45632       0.01132369        133.5656                0               0                0               0
