! TOUCHSTONE file generated by CST MICROWAVE STUDIO
! Date and time: Tue Mar 11 13:55:58 2025
! Project name: transverse.cst
! Parameters = {Fracture=1; B=10; D=160; F=25; Feed=2.85625; L=100; M=20; R=0.384908; S=2; Theta=0; length=57.125; wave=114.25}
! Header version: 2024
! Port assignment regex: !\s*Touchstone port\s*([0-9]+)\s*=\s*(CST MWS port|CST DES external port|CST DES block port)\s*(.+)\s* \(\"(.*)\"\)(\s*mode\s*([0-9]+))?.*
! Touchstone port assignment:
! Touchstone port 1 = CST MWS port 1 ("")
! Touchstone port 2 = CST MWS port 2 ("")
# GHz S MA R 50
1                      0.9976032       -10.01301     0.0004849015        174.5266                0               0                0               0
1.0066                  0.997533       -10.10151     0.0004829411        169.4642                0               0                0               0
1.0132                 0.9974635       -10.19068     0.0004793626        164.5492                0               0                0               0
1.0198                 0.9973946       -10.28057     0.0004741958        159.7977                0               0                0               0
1.0264                 0.9973257        -10.3712      0.000467491        155.2289                0               0                0               0
1.033                  0.9972564       -10.46262     0.0004593232        150.8656                0               0                0               0
1.0396                 0.9971861       -10.55484      0.000449796        146.7349                0               0                0               0
1.0462                 0.9971143        -10.6479     0.0004390477        142.8689                0               0                0               0
1.05281                0.9970401        -10.7418     0.0004272582        139.3048                0               0                0               0
1.05941                 0.996963       -10.83658     0.0004146574        136.0856                0               0                0               0
1.06601                0.9968823       -10.93223     0.0004015353        133.2596                0               0                0               0
1.07261                0.9967973       -11.02876     0.0003882535        130.8788                0               0                0               0
1.07921                0.9967073       -11.12616      0.000375256        128.9962                0               0                0               0
1.08581                0.9966116       -11.22442     0.0003630784        127.6595                0               0                0               0
1.09241                0.9965099       -11.32354     0.0003523497        126.9016                0               0                0               0
1.09901                0.9964015       -11.42349     0.0003437802        126.7267                0               0                0               0
1.10561                 0.996286       -11.52426     0.0003381287        127.0955                0               0                0               0
1.11221                0.9961632       -11.62582     0.0003361422        127.9118                0               0                0               0
1.11881                0.9960327       -11.72815     0.0003384743        129.0213                0               0                0               0
1.12541                0.9958946       -11.83122     0.0003455988        130.2262                0               0                0               0
1.13201                0.9957486       -11.93501     0.0003577483        131.3161                0               0                0               0
1.13861                0.9955949       -12.03949     0.0003748987        132.1041                0               0                0               0
1.14521                0.9954337       -12.14465     0.0003968037        132.4533                0               0                0               0
1.15182                0.9952651       -12.25046     0.0004230608        132.2862                0               0                0               0
1.15842                0.9950895       -12.35692     0.0004531817        131.5792                0               0                0               0
1.16502                0.9949073         -12.464      0.000486651        130.3475                0               0                0               0
1.17162                0.9947189        -12.5717     0.0005229644        128.6307                0               0                0               0
1.17822                0.9945248       -12.68003      0.000561649        126.4799                0               0                0               0
1.18482                0.9943255       -12.78899     0.0006022715        123.9493                0               0                0               0
1.19142                0.9941214       -12.89859     0.0006444379        121.0914                0               0                0               0
1.19802                0.9939131       -13.00885      0.000687791        117.9543                0               0                0               0
1.20462                0.9937011        -13.1198      0.000732005        114.5809                0               0                0               0
1.21122                0.9934856       -13.23146     0.0007767807        111.0085                0               0                0               0
1.21782                0.9932672       -13.34387     0.0008218417        107.2697                0               0                0               0
1.22442                0.9930461       -13.45706     0.0008669309        103.3926                0               0                0               0
1.23102                0.9928223       -13.57109     0.0009118073        99.40126                0               0                0               0
1.23762                0.9925962       -13.68598     0.0009562445        95.31683                0               0                0               0
1.24422                0.9923677        -13.8018      0.001000029         91.1576                0               0                0               0
1.25083                0.9921366       -13.91858       0.00104296        86.93967                0               0                0               0
1.25743                0.9919029       -14.03638      0.001084848         82.6773                0               0                0               0
1.26403                0.9916662       -14.15525      0.001125515        78.38328                0               0                0               0
1.27063                0.9914261       -14.27522      0.001164798        74.06919                0               0                0               0
1.27723                0.9911823       -14.39633      0.001202542        69.74563                0               0                0               0
1.28383                0.9909341       -14.51864      0.001238609        65.42246                0               0                0               0
1.29043                0.9906809       -14.64217      0.001272876        61.10896                0               0                0               0
1.29703                0.9904221       -14.76695      0.001305234        56.81393                0               0                0               0
1.30363                0.9901571       -14.89301      0.001335594         52.5459                0               0                0               0
1.31023                0.9898852       -15.02036      0.001363884        48.31317                0               0                0               0
1.31683                0.9896056       -15.14902      0.001390054         44.1239                0               0                0               0
1.32343                0.9893178         -15.279      0.001414079         39.9862                0               0                0               0
1.33003                 0.989021       -15.41031      0.001435957         35.9082                0               0                0               0
1.33663                0.9887148       -15.54293      0.001455716        31.89801                0               0                0               0
1.34323                0.9883986       -15.67688      0.001473415         27.9638                0               0                0               0
1.34984                 0.988072       -15.81214      0.001489145        24.11376                0               0                0               0
1.35644                0.9877347        -15.9487      0.001503034        20.35609                0               0                0               0
1.36304                0.9873865       -16.08656      0.001515251        16.69884                0               0                0               0
1.36964                0.9870272        -16.2257      0.001526005        13.14988                0               0                0               0
1.37624                0.9866569       -16.36612      0.001535552        9.716681                0               0                0               0
1.38284                0.9862756       -16.50781      0.001544193        6.406126                0               0                0               0
1.38944                0.9858834       -16.65077      0.001552281        3.224186                0               0                0               0
1.39604                0.9854807       -16.79499      0.001560215       0.1756084                0               0                0               0
1.40264                0.9850678       -16.94049      0.001568444       -2.736494                0               0                0               0
1.40924                0.9846452       -17.08728      0.001577463       -5.511081                0               0                0               0
1.41584                0.9842131       -17.23539      0.001587807       -8.149642                0               0                0               0
1.42244                0.9837723       -17.38482      0.001600045       -10.65663                0               0                0               0
1.42904                 0.983323       -17.53564       0.00161477       -13.03981                0               0                0               0
1.43564                0.9828659       -17.68787      0.001632588       -15.31049                0               0                0               0
1.44224                0.9824013       -17.84158      0.001654096       -17.48354                0               0                0               0
1.44884                0.9819297       -17.99683      0.001679874       -19.57717                0               0                0               0
1.45545                0.9814513       -18.15368       0.00171046       -21.61245                0               0                0               0
1.46205                0.9809664       -18.31221      0.001746337       -23.61252                0               0                0               0
1.46865                0.9804751        -18.4725      0.001787916       -25.60167                0               0                0               0
1.47525                0.9799773       -18.63465      0.001835525       -27.60422                0               0                0               0
1.48185                0.9794728       -18.79875      0.001889402       -29.64344                0               0                0               0
1.48845                0.9789614        -18.9649       0.00194969       -31.74063                0               0                0               0
1.49505                0.9784425       -19.13318      0.002016441       -33.91426                0               0                0               0
1.50165                0.9779155       -19.30372      0.002089617       -36.17951                0               0                0               0
1.50825                0.9773796        -19.4766      0.002169106       -38.54802                0               0                0               0
1.51485                0.9768336       -19.65193      0.002254724       -41.02788                0               0                0               0
1.52145                0.9762767       -19.82979      0.002346232       -43.62388                0               0                0               0
1.52805                0.9757072       -20.01029      0.002443344        -46.3378                0               0                0               0
1.53465                0.9751242       -20.19351       0.00254574       -49.16891                0               0                0               0
1.54125                0.9745258       -20.37953      0.002653075       -52.11438                0               0                0               0
1.54785                0.9739106       -20.56842      0.002764985       -55.16979                0               0                0               0
1.55446                0.9732768       -20.76025      0.002881097       -58.32945                0               0                0               0
1.56106                0.9726228       -20.95508      0.003001034       -61.58687                0               0                0               0
1.56766                0.9719467       -21.15296      0.003124421       -64.93497                0               0                0               0
1.57426                0.9712467       -21.35393      0.003250887       -68.36636                0               0                0               0
1.58086                0.9705214       -21.55803       0.00338007       -71.87356                0               0                0               0
1.58746                0.9697688       -21.76529      0.003511622       -75.44908                0               0                0               0
1.59406                0.9689874       -21.97573      0.003645206       -79.08558                0               0                0               0
1.60066                0.9681755       -22.18938      0.003780505       -82.77591                0               0                0               0
1.60726                 0.967332       -22.40623      0.003917219       -86.51318                0               0                0               0
1.61386                0.9664552       -22.62632      0.004055072       -90.29079                0               0                0               0
1.62046                0.9655441       -22.84964      0.004193808       -94.10246                0               0                0               0
1.62706                0.9645975       -23.07621      0.004333199       -97.94219                0               0                0               0
1.63366                0.9636144       -23.30604      0.004473046       -101.8043                0               0                0               0
1.64026                0.9625939       -23.53915      0.004613177       -105.6835                0               0                0               0
1.64686                0.9615354       -23.77555      0.004753454       -109.5748                0               0                0               0
1.65347                 0.960438       -24.01529      0.004893775       -113.4733                0               0                0               0
1.66007                0.9593014       -24.25838      0.005034072       -117.3747                0               0                0               0
1.66667                0.9581248       -24.50487      0.005174319       -121.2749                0               0                0               0
1.67327                0.9569078       -24.75483       0.00531453         -125.17                0               0                0               0
1.67987                0.9556501        -25.0083      0.005454763       -129.0566                0               0                0               0
1.68647                 0.954351       -25.26538       0.00559512       -132.9314                0               0                0               0
1.69307                0.9530099       -25.52614      0.005735752       -136.7916                0               0                0               0
1.69967                0.9516264       -25.79068      0.005876859       -140.6347                0               0                0               0
1.70627                0.9501998       -26.05913      0.006018689       -144.4584                0               0                0               0
1.71287                0.9487292        -26.3316      0.006161541        -148.261                0               0                0               0
1.71947                0.9472137       -26.60822      0.006305766        -152.041                0               0                0               0
1.72607                0.9456521       -26.88915      0.006451763       -155.7975                0               0                0               0
1.73267                0.9440432       -27.17454      0.006599983       -159.5297                0               0                0               0
1.73927                0.9423853       -27.46456      0.006750919       -163.2376                0               0                0               0
1.74587                0.9406767       -27.75937      0.006905114       -166.9215                0               0                0               0
1.75248                0.9389153       -28.05917      0.007063149        -170.582                0               0                0               0
1.75908                0.9370988       -28.36412      0.007225642       -174.2205                0               0                0               0
1.76568                0.9352246       -28.67443      0.007393241       -177.8385                0               0                0               0
1.77228                0.9332899       -28.99028      0.007566623        178.5617                0               0                0               0
1.77888                0.9312915       -29.31186      0.007746477        174.9776                0               0                0               0
1.78548                0.9292261       -29.63936      0.007933508        171.4062                0               0                0               0
1.79208                0.9270901       -29.97297      0.008128419        167.8442                0               0                0               0
1.79868                0.9248796       -30.31288      0.008331912        164.2879                0               0                0               0
1.80528                0.9225903       -30.65926      0.008544668        160.7335                0               0                0               0
1.81188                0.9202179       -31.01229      0.008767348        157.1769                0               0                0               0
1.81848                0.9177581       -31.37214      0.009000581        153.6138                0               0                0               0
1.82508                0.9152058       -31.73898      0.009244953          150.04                0               0                0               0
1.83168                0.9125562       -32.11296      0.009501005        146.4512                0               0                0               0
1.83828                0.9098042       -32.49424      0.009769225        142.8434                0               0                0               0
1.84488                0.9069444       -32.88295       0.01005004        139.2125                0               0                0               0
1.85149                0.9039716       -33.27924        0.0103438        135.5548                0               0                0               0
