! TOUCHSTONE file generated by CST MICROWAVE STUDIO
! Date and time: Tue Mar 11 13:57:55 2025
! Project name: transverse.cst
! Parameters = {Fracture=5; B=10; D=160; F=15; Feed=2.85625; L=100; M=10; R=0.384908; S=2; Theta=270; length=57.125; wave=114.25}
! Header version: 2024
! Port assignment regex: !\s*Touchstone port\s*([0-9]+)\s*=\s*(CST MWS port|CST DES external port|CST DES block port)\s*(.+)\s* \(\"(.*)\"\)(\s*mode\s*([0-9]+))?.*
! Touchstone port assignment:
! Touchstone port 1 = CST MWS port 1 ("")
! Touchstone port 2 = CST MWS port 2 ("")
# GHz S MA R 50
1                      0.9978171       -9.752876     0.0003013271       -143.5231                0               0                0               0
1.00658                0.9977343       -9.840862     0.0003111215       -146.7399                0               0                0               0
1.01316                0.9976472       -9.929318      0.000320584       -149.9359                0               0                0               0
1.01974                 0.997556       -10.01823     0.0003297061       -153.0988                0               0                0               0
1.02632                0.9974614        -10.1076     0.0003384894       -156.2166                0               0                0               0
1.03289                0.9973637       -10.19741      0.000346946       -159.2785                0               0                0               0
1.03947                 0.997263       -10.28768     0.0003550996        -162.274                0               0                0               0
1.04605                0.9971602       -10.37841     0.0003629869       -165.1938                0               0                0               0
1.05263                0.9970555       -10.46961     0.0003706572       -168.0292                0               0                0               0
1.05921                0.9969494        -10.5613     0.0003781742       -170.7728                0               0                0               0
1.06579                0.9968421       -10.65351     0.0003856163       -173.4184                0               0                0               0
1.07237                0.9967342       -10.74626     0.0003930762       -175.9614                0               0                0               0
1.07895                0.9966257       -10.83958     0.0004006614       -178.3992                0               0                0               0
1.08553                0.9965172       -10.93351     0.0004084936        179.2689                0               0                0               0
1.09211                0.9964086       -11.02808      0.000416707        177.0408                0               0                0               0
1.09868                0.9962999       -11.12334     0.0004254469        174.9118                0               0                0               0
1.10526                0.9961911       -11.21933     0.0004348674        172.8743                0               0                0               0
1.11184                0.9960821       -11.31609     0.0004451277        170.9178                0               0                0               0
1.11842                0.9959728       -11.41365     0.0004563889        169.0289                0               0                0               0
1.125                  0.9958626       -11.51206     0.0004688096        167.1918                0               0                0               0
1.13158                0.9957513       -11.61136     0.0004825415        165.3886                0               0                0               0
1.13816                0.9956385       -11.71158     0.0004977255        163.6002                0               0                0               0
1.14474                0.9955235       -11.81274     0.0005144875        161.8068                0               0                0               0
1.15132                0.9954058       -11.91488     0.0005329355         159.989                0               0                0               0
1.15789                0.9952846       -12.01802      0.000553157        158.1285                0               0                0               0
1.16447                0.9951597       -12.12217      0.000575218        156.2085                0               0                0               0
1.17105                  0.99503       -12.22734     0.0005991618        154.2149                0               0                0               0
1.17763                 0.994895       -12.33355     0.0006250106        152.1358                0               0                0               0
1.18421                0.9947541       -12.44079     0.0006527657        149.9624                0               0                0               0
1.19079                0.9946067       -12.54907     0.0006824095        147.6885                0               0                0               0
1.19737                0.9944523       -12.65836     0.0007139081        145.3106                0               0                0               0
1.20395                0.9942902       -12.76866     0.0007472126        142.8274                0               0                0               0
1.21053                0.9941202       -12.87996     0.0007822618        140.2397                0               0                0               0
1.21711                 0.993942       -12.99224     0.0008189846          137.55                0               0                0               0
1.22368                0.9937552       -13.10548     0.0008573015         134.762                0               0                0               0
1.23026                0.9935598       -13.21966     0.0008971268        131.8807                0               0                0               0
1.23684                0.9933558       -13.33477     0.0009383701        128.9115                0               0                0               0
1.24342                 0.993143       -13.45079     0.0009809377        125.8607                0               0                0               0
1.25                   0.9929219        -13.5677      0.001024734        122.7344                0               0                0               0
1.25658                0.9926924       -13.68549      0.001069663        119.5394                0               0                0               0
1.26316                0.9924551       -13.80416      0.001115629        116.2821                0               0                0               0
1.26974                  0.99221        -13.9237      0.001162538         112.969                0               0                0               0
1.27632                0.9919578       -14.04411      0.001210296        109.6065                0               0                0               0
1.28289                0.9916988       -14.16541      0.001258816        106.2008                0               0                0               0
1.28947                0.9914333       -14.28761      0.001308012        102.7578                0               0                0               0
1.29605                0.9911623       -14.41072      0.001357805        99.28306                0               0                0               0
1.30263                0.9908858       -14.53479      0.001408121        95.78214                0               0                0               0
1.30921                0.9906043       -14.65983      0.001458891        92.26014                0               0                0               0
1.31579                0.9903182       -14.78589      0.001510056        88.72194                0               0                0               0
1.32237                0.9900278       -14.91301      0.001561564        85.17211                0               0                0               0
1.32895                0.9897333       -15.04125      0.001613373        81.61498                0               0                0               0
1.33553                0.9894349       -15.17065      0.001665448        78.05458                0               0                0               0
1.34211                0.9891326       -15.30128      0.001717768        74.49467                0               0                0               0
1.34868                0.9888263       -15.43319      0.001770321        70.93874                0               0                0               0
1.35526                 0.988516       -15.56645      0.001823109           67.39                0               0                0               0
1.36184                0.9882012       -15.70111      0.001876143        63.85136                0               0                0               0
1.36842                0.9878817       -15.83723      0.001929451        60.32545                0               0                0               0
1.375                  0.9875568       -15.97488      0.001983071        56.81462                0               0                0               0
1.38158                0.9872261       -16.11412      0.002037057         53.3209                0               0                0               0
1.38816                 0.986889       -16.25499      0.002091476        49.84601                0               0                0               0
1.39474                0.9865444       -16.39756      0.002146408        46.39136                0               0                0               0
1.40132                0.9861918       -16.54185      0.002201948        42.95805                0               0                0               0
1.40789                0.9858303       -16.68793      0.002258203         39.5468                0               0                0               0
1.41447                 0.985459       -16.83582      0.002315292        36.15803                0               0                0               0
1.42105                0.9850769       -16.98555      0.002373349        32.79179                0               0                0               0
1.42763                0.9846832       -17.13716      0.002432514        29.44781                0               0                0               0
1.43421                0.9842769       -17.29066      0.002492942        26.12547                0               0                0               0
1.44079                0.9838573       -17.44607       0.00255479        22.82382                0               0                0               0
1.44737                0.9834235       -17.60341      0.002618226        19.54157                0               0                0               0
1.45395                0.9829749       -17.76269      0.002683423        16.27716                0               0                0               0
1.46053                0.9825106       -17.92391      0.002750552        13.02875                0               0                0               0
1.46711                0.9820301       -18.08709       0.00281979        9.794226                0               0                0               0
1.47368                 0.981533       -18.25223      0.002891308          6.5713                0               0                0               0
1.48026                0.9810188       -18.41933      0.002965276        3.357492                0               0                0               0
1.48684                0.9804871       -18.58842      0.003041858       0.1501951                0               0                0               0
1.49342                0.9799378        -18.7595       0.00312121       -3.053275                0               0                0               0
1.5                    0.9793705       -18.93258      0.003203475       -6.255638                0               0                0               0
1.50658                0.9787853       -19.10769       0.00328879       -9.459599                0               0                0               0
1.51316                0.9781818       -19.28486      0.003377275        -12.6678                0               0                0               0
1.51974                0.9775603       -19.46412      0.003469035       -15.88279                0               0                0               0
1.52632                0.9769207        -19.6455      0.003564162       -19.10695                0               0                0               0
1.53289                0.9762627       -19.82906       0.00366273       -22.34251                0               0                0               0
1.53947                0.9755866       -20.01486      0.003764799       -25.59145                0               0                0               0
1.54605                0.9748921       -20.20294      0.003870408       -28.85556                0               0                0               0
1.55263                0.9741791        -20.3934      0.003979583       -32.13634                0               0                0               0
1.55921                0.9734474       -20.58629      0.004092332       -35.43503                0               0                0               0
1.56579                0.9726965       -20.78172       0.00420865       -38.75262                0               0                0               0
1.57237                0.9719261       -20.97977      0.004328516       -42.08981                0               0                0               0
1.57895                0.9711356       -21.18053      0.004451896       -45.44703                0               0                0               0
1.58553                0.9703242       -21.38411      0.004578746       -48.82447                0               0                0               0
1.59211                0.9694911       -21.59061      0.004709011       -52.22205                0               0                0               0
1.59868                0.9686352       -21.80013      0.004842628       -55.63949                0               0                0               0
1.60526                0.9677553        -22.0128       0.00497953       -59.07629                0               0                0               0
1.61184                0.9668499       -22.22871      0.005119643       -62.53175                0               0                0               0
1.61842                0.9659176       -22.44797      0.005262894       -66.00501                0               0                0               0
1.625                  0.9649566       -22.67068      0.005409209       -69.49508                0               0                0               0
1.63158                0.9639652       -22.89696      0.005558517       -73.00081                0               0                0               0
1.63816                0.9629411       -23.12688      0.005710753       -76.52098                0               0                0               0
1.64474                0.9618825       -23.36055      0.005865857       -80.05427                0               0                0               0
1.65132                0.9607871       -23.59805       0.00602378       -83.59933                0               0                0               0
1.65789                0.9596525       -23.83946      0.006184487       -87.15473                0               0                0               0
1.66447                0.9584765       -24.08486      0.006347954       -90.71907                0               0                0               0
1.67105                0.9572564        -24.3343      0.006514174       -94.29092                0               0                0               0
1.67763                  0.95599       -24.58785      0.006683161       -97.86889                0               0                0               0
1.68421                0.9546747       -24.84556      0.006854944       -101.4516                0               0                0               0
1.69079                 0.953308       -25.10749      0.007029579       -105.0378                0               0                0               0
1.69737                0.9518876       -25.37366      0.007207146       -108.6262                0               0                0               0
1.70395                0.9504109       -25.64413      0.007387748       -112.2156                0               0                0               0
1.71053                0.9488758       -25.91892      0.007571516       -115.8052                0               0                0               0
1.71711                0.9472796       -26.19807       0.00775861       -119.3938                0               0                0               0
1.72368                0.9456203        -26.4816      0.007949217       -122.9808                0               0                0               0
1.73026                0.9438957       -26.76956      0.008143554       -126.5655                0               0                0               0
1.73684                0.9421035       -27.06197      0.008341868       -130.1474                0               0                0               0
1.74342                0.9402415       -27.35887      0.008544435       -133.7263                0               0                0               0
1.75                   0.9383078        -27.6603      0.008751561       -137.3018                0               0                0               0
1.75658                0.9363002        -27.9663      0.008963576       -140.8742                0               0                0               0
1.76316                0.9342167       -28.27692      0.009180842       -144.4435                0               0                0               0
1.76974                0.9320551       -28.59222      0.009403741       -148.0102                0               0                0               0
1.77632                0.9298133       -28.91225      0.009632679       -151.5749                0               0                0               0
1.78289                0.9274892        -29.2371      0.009868085       -155.1383                0               0                0               0
1.78947                0.9250802       -29.56683        0.0101104       -158.7014                0               0                0               0
1.79605                 0.922584       -29.90153       0.01036008       -162.2653                0               0                0               0
1.80263                0.9199981        -30.2413       0.01061759       -165.8312                0               0                0               0
1.80921                0.9173196       -30.58621       0.01088341       -169.4005                0               0                0               0
1.81579                0.9145458       -30.93639         0.011158       -172.9748                0               0                0               0
1.82237                0.9116733       -31.29193       0.01144183       -176.5557                0               0                0               0
1.82895                0.9086988       -31.65294       0.01173537        179.8551                0               0                0               0
1.83553                0.9056188       -32.01952       0.01203906        176.2557                0               0                0               0
1.84211                0.9024293       -32.39179       0.01235334        172.6445                0               0                0               0
1.84868                0.8991262       -32.76985        0.0126786        169.0195                0               0                0               0
