! TOUCHSTONE file generated by CST MICROWAVE STUDIO
! Date and time: Tue Mar 11 13:55:57 2025
! Project name: transverse.cst
! Parameters = {Fracture=1; B=10; D=160; F=25; Feed=2.85625; L=100; M=20; R=0.384908; S=1; Theta=0; length=57.125; wave=114.25}
! Header version: 2024
! Port assignment regex: !\s*Touchstone port\s*([0-9]+)\s*=\s*(CST MWS port|CST DES external port|CST DES block port)\s*(.+)\s* \(\"(.*)\"\)(\s*mode\s*([0-9]+))?.*
! Touchstone port assignment:
! Touchstone port 1 = CST MWS port 1 ("")
! Touchstone port 2 = CST MWS port 2 ("")
# GHz S MA R 50
1                      0.9976129       -10.02009     0.0005206745        174.4216                0               0                0               0
1.0066                 0.9975509       -10.10855     0.0005123489        169.0668                0               0                0               0
1.0132                 0.9974896       -10.19773     0.0005018984        163.8874                0               0                0               0
1.0198                 0.9974285       -10.28768     0.0004893597        158.9076                0               0                0               0
1.0264                 0.9973669       -10.37842     0.0004747976        154.1584                0               0                0               0
1.033                  0.9973044       -10.46998     0.0004583122        149.6792                0               0                0               0
1.0396                   0.99724       -10.56239      0.000440049        145.5202                0               0                0               0
1.0462                 0.9971732       -10.65565     0.0004202116        141.7457                0               0                0               0
1.05281                0.9971033       -10.74978      0.000399081        138.4377                0               0                0               0
1.05941                0.9970294       -10.84478     0.0003770416        135.6999                0               0                0               0
1.06601                0.9969509       -10.94065     0.0003546187        133.6613                0               0                0               0
1.07261                0.9968672       -11.03737     0.0003325258        132.4762                0               0                0               0
1.07921                0.9967776       -11.13493     0.0003117226        132.3139                0               0                0               0
1.08581                0.9966818       -11.23332     0.0002934659        133.3283                0               0                0               0
1.09241                0.9965791        -11.3325     0.0002793143         135.593                0               0                0               0
1.09901                0.9964693       -11.43247     0.0002710162         139.004                0               0                0               0
1.10561                0.9963522       -11.53318     0.0002702156        143.1954                0               0                0               0
1.11221                0.9962278       -11.63462     0.0002780295        147.5664                0               0                0               0
1.11881                0.9960958       -11.73675     0.0002947305        151.4616                0               0                0               0
1.12541                0.9959565       -11.83954     0.0003197643        154.3941                0               0                0               0
1.13201                0.9958101       -11.94299     0.0003520616        156.1461                0               0                0               0
1.13861                0.9956569       -12.04706     0.0003903984        156.7232                0               0                0               0
1.14521                0.9954973       -12.15174     0.0004336284        156.2535                0               0                0               0
1.15182                0.9953317       -12.25702     0.0004807746        154.9056                0               0                0               0
1.15842                0.9951607        -12.3629      0.000531035        152.8439                0               0                0               0
1.16502                0.9949848       -12.46938      0.000583755        150.2106                0               0                0               0
1.17162                0.9948046       -12.57647      0.000638394        147.1222                0               0                0               0
1.17822                0.9946207       -12.68418     0.0006944949        143.6719                0               0                0               0
1.18482                0.9944335       -12.79255     0.0007516618        139.9333                0               0                0               0
1.19142                0.9942437        -12.9016     0.0008095427        135.9647                0               0                0               0
1.19802                0.9940517       -13.01136     0.0008678181        131.8127                0               0                0               0
1.20462                0.9938577       -13.12189     0.0009261925        127.5145                0               0                0               0
1.21122                0.9936621       -13.23321     0.0009843887        123.1003                0               0                0               0
1.21782                 0.993465        -13.3454      0.001042144        118.5947                0               0                0               0
1.22442                0.9932667       -13.45849      0.001099209        114.0183                0               0                0               0
1.23102                0.9930668       -13.57255      0.001155343        109.3883                0               0                0               0
1.23762                0.9928651       -13.68764      0.001210318        104.7196                0               0                0               0
1.24422                0.9926618       -13.80379      0.001263913        100.0249                0               0                0               0
1.25083                0.9924557       -13.92108      0.001315921        95.31536                0               0                0               0
1.25743                0.9922468       -14.03955      0.001366145        90.60116                0               0                0               0
1.26403                0.9920341       -14.15925      0.001414398        85.89145                0               0                0               0
1.27063                 0.991817       -14.28021      0.001460508        81.19474                0               0                0               0
1.27723                0.9915947       -14.40248      0.001504321        76.51906                0               0                0               0
1.28383                0.9913663       -14.52609      0.001545694        71.87209                0               0                0               0
1.29043                0.9911307       -14.65104      0.001584509         67.2613                0               0                0               0
1.29703                0.9908872       -14.77737      0.001620663        62.69405                0               0                0               0
1.30363                0.9906346       -14.90508      0.001654082         58.1777                0               0                0               0
1.31023                0.9903723       -15.03416      0.001684715        53.71965                0               0                0               0
1.31683                0.9900993       -15.16461      0.001712541         49.3274                0               0                0               0
1.32343                0.9898148       -15.29642      0.001737572        45.00864                0               0                0               0
1.33003                0.9895182       -15.42957      0.001759854         40.7712                0               0                0               0
1.33663                0.9892089       -15.56405      0.001779475        36.62309                0               0                0               0
1.34323                0.9888864        -15.6998      0.001796566        32.57249                0               0                0               0
1.34984                0.9885504       -15.83683      0.001811305        28.62764                0               0                0               0
1.35644                0.9882009       -15.97508       0.00182392        24.79681                0               0                0               0
1.36304                0.9878376       -16.11455      0.001834699        21.08809                0               0                0               0
1.36964                0.9874608       -16.25519      0.001843985        17.50923                0               0                0               0
1.37624                0.9870707       -16.39699      0.001852186        14.06735                0               0                0               0
1.38284                0.9866676       -16.53993      0.001859776        10.76859                0               0                0               0
1.38944                0.9862521         -16.684       0.00186729          7.6177                0               0                0               0
1.39604                0.9858248       -16.82919      0.001875333        4.617558                0               0                0               0
1.40264                0.9853863       -16.97552      0.001884566        1.768614                0               0                0               0
1.40924                0.9849374       -17.12298      0.001895704      -0.9316507                0               0                0               0
1.41584                0.9844788       -17.27161      0.001909506       -3.489246                0               0                0               0
1.42244                0.9840112       -17.42144      0.001926756       -5.914076                0               0                0               0
1.42904                0.9835355       -17.57252      0.001948247       -8.220169                0               0                0               0
1.43564                0.9830524        -17.7249      0.001974759       -10.42564                0               0                0               0
1.44224                0.9825623       -17.87864       0.00200703       -12.55232                0               0                0               0
1.44884                 0.982066       -18.03382      0.002045739       -14.62508                0               0                0               0
1.45545                0.9815638       -18.19052      0.002091475       -16.67076                0               0                0               0
1.46205                0.9810558       -18.34883      0.002144721       -18.71702                0               0                0               0
1.46865                0.9805424       -18.50885       0.00220584       -20.79097                0               0                0               0
1.47525                0.9800234       -18.67069      0.002275068       -22.91789                0               0                0               0
1.48185                0.9794984       -18.83445      0.002352512       -25.12021                0               0                0               0
1.48845                0.9789671       -19.00023      0.002438155       -27.41674                0               0                0               0
1.49505                0.9784288       -19.16814      0.002531869       -29.82223                0               0                0               0
1.50165                0.9778827        -19.3383      0.002633427       -32.34729                0               0                0               0
1.50825                0.9773277       -19.51081      0.002742517       -34.99855                0               0                0               0
1.51485                0.9767626       -19.68577      0.002858762       -37.77907                0               0                0               0
1.52145                0.9761862       -19.86327      0.002981729       -40.68885                0               0                0               0
1.52805                0.9755968        -20.0434      0.003110949       -43.72532                0               0                0               0
1.53465                0.9749929       -20.22625      0.003245924       -46.88397                0               0                0               0
1.54125                0.9743726       -20.41188      0.003386139       -50.15884                0               0                0               0
1.54785                0.9737344       -20.60036      0.003531069       -53.54289                0               0                0               0
1.55446                0.9730763       -20.79174      0.003680186       -57.02844                0               0                0               0
1.56106                0.9723966       -20.98607      0.003832966       -60.60744                0               0                0               0
1.56766                0.9716932       -21.18339      0.003988889       -64.27169                0               0                0               0
1.57426                0.9709647       -21.38371      0.004147447       -68.01303                0               0                0               0
1.58086                0.9702091       -21.58706      0.004308145       -71.82342                0               0                0               0
1.58746                 0.969425       -21.79346      0.004470503       -75.69506                0               0                0               0
1.59406                0.9686108        -22.0029       0.00463406       -79.62044                0               0                0               0
1.60066                 0.967765        -22.2154      0.004798374       -83.59235                0               0                0               0
1.60726                0.9668865       -22.43096       0.00496303        -87.6039                0               0                0               0
1.61386                0.9659741       -22.64956      0.005127633       -91.64853                0               0                0               0
1.62046                 0.965027       -22.87122      0.005291819          -95.72                0               0                0               0
1.62706                0.9640441       -23.09593      0.005455255       -99.81238                0               0                0               0
1.63366                0.9630249       -23.32371      0.005617641         -103.92                0               0                0               0
1.64026                0.9619687       -23.55457      0.005778708       -108.0375                0               0                0               0
1.64686                0.9608751       -23.78852      0.005938233       -112.1599                0               0                0               0
1.65347                0.9597436       -24.02561      0.006096034       -116.2821                0               0                0               0
1.66007                0.9585741       -24.26586      0.006251972       -120.3997                0               0                0               0
1.66667                0.9573661       -24.50933      0.006405959       -124.5083                0               0                0               0
1.67327                0.9561194       -24.75608      0.006557961       -128.6036                0               0                0               0
1.67987                0.9548336       -25.00618      0.006707998       -132.6819                0               0                0               0
1.68647                0.9535085       -25.25973       0.00685615       -136.7393                0               0                0               0
1.69307                0.9521435       -25.51683      0.007002561       -140.7726                0               0                0               0
1.69967                0.9507382       -25.77758       0.00714744       -144.7786                0               0                0               0
1.70627                0.9492917       -26.04211      0.007291067       -148.7543                0               0                0               0
1.71287                0.9478032       -26.31057      0.007433791       -152.6973                0               0                0               0
1.71947                0.9462716       -26.58308      0.007576034       -156.6053                0               0                0               0
1.72607                0.9446956       -26.85981      0.007718294       -160.4765                0               0                0               0
1.73267                0.9430737       -27.14092      0.007861145       -164.3095                0               0                0               0
1.73927                 0.941404       -27.42658      0.008005231       -168.1034                0               0                0               0
1.74587                0.9396846       -27.71695      0.008151269       -171.8576                0               0                0               0
1.75248                0.9379131       -28.01222      0.008300047       -175.5723                0               0                0               0
1.75908                0.9360869       -28.31255       0.00845242       -179.2482                0               0                0               0
1.76568                0.9342032       -28.61812      0.008609294        177.1135                0               0                0               0
1.77228                0.9322589        -28.9291      0.008771634        173.5109                0               0                0               0
1.77888                0.9302509       -29.24567      0.008940441        169.9416                0               0                0               0
1.78548                0.9281753       -29.56798      0.009116748        166.4022                0               0                0               0
1.79208                0.9260285       -29.89619      0.009301607        162.8891                0               0                0               0
1.79868                0.9238066       -30.23046      0.009496076         159.398                0               0                0               0
1.80528                0.9215056       -30.57092      0.009701205        155.9239                0               0                0               0
1.81188                0.9191209       -30.91773      0.009918015        152.4617                0               0                0               0
1.81848                0.9166485       -31.27099        0.0101475        149.0057                0               0                0               0
1.82508                0.9140838       -31.63084       0.01039058          145.55                0               0                0               0
1.83168                0.9114223       -31.99739       0.01064814        142.0886                0               0                0               0
1.83828                0.9086593       -32.37075       0.01092096        138.6156                0               0                0               0
1.84488                0.9057903       -32.75101       0.01120974        135.1249                0               0                0               0
1.85149                0.9028102       -33.13829       0.01151508        131.6108                0               0                0               0
