! TOUCHSTONE file generated by CST MICROWAVE STUDIO
! Date and time: Tue Mar 11 13:56:01 2025
! Project name: transverse.cst
! Parameters = {Fracture=1; B=12.5; D=160; F=5; Feed=2.85625; L=100; M=10; R=0.384908; S=1; Theta=0; length=57.125; wave=114.25}
! Header version: 2024
! Port assignment regex: !\s*Touchstone port\s*([0-9]+)\s*=\s*(CST MWS port|CST DES external port|CST DES block port)\s*(.+)\s* \(\"(.*)\"\)(\s*mode\s*([0-9]+))?.*
! Touchstone port assignment:
! Touchstone port 1 = CST MWS port 1 ("")
! Touchstone port 2 = CST MWS port 2 ("")
# GHz S MA R 50
1                      0.9978914       -10.00566     0.0002853049       -122.0682                0               0                0               0
1.00658                0.9978045       -10.09617     0.0003080453       -126.9005                0               0                0               0
1.01316                  0.99771       -10.18707     0.0003300452       -131.8164                0               0                0               0
1.01974                0.9976086       -10.27831     0.0003511746       -136.7893                0               0                0               0
1.02632                0.9975009       -10.36985      0.000371308       -141.7983                0               0                0               0
1.03289                0.9973879       -10.46167     0.0003903239       -146.8267                0               0                0               0
1.03947                0.9972705       -10.55373     0.0004081057       -151.8605                0               0                0               0
1.04605                0.9971499       -10.64604     0.0004245413       -156.8877                0               0                0               0
1.05263                 0.997027       -10.73858     0.0004395241       -161.8974                0               0                0               0
1.05921                 0.996903       -10.83137     0.0004529537       -166.8794                0               0                0               0
1.06579                0.9967791       -10.92444     0.0004647367       -171.8241                0               0                0               0
1.07237                0.9966564       -11.01782     0.0004747877       -176.7214                0               0                0               0
1.07895                0.9965358       -11.11156       0.00048303        178.4386                0               0                0               0
1.08553                0.9964182       -11.20572     0.0004893974         173.667                0               0                0               0
1.09211                0.9963044       -11.30036     0.0004938354        168.9754                0               0                0               0
1.09868                0.9961948       -11.39555     0.0004963029         164.377                0               0                0               0
1.10526                0.9960901       -11.49137     0.0004967737        159.8867                0               0                0               0
1.11184                0.9959902       -11.58791     0.0004952399        155.5216                0               0                0               0
1.11842                0.9958951       -11.68526     0.0004917138        151.3015                0               0                0               0
1.125                  0.9958046        -11.7835     0.0004862323        147.2495                0               0                0               0
1.13158                0.9957184       -11.88271     0.0004788613         143.393                0               0                0               0
1.13816                0.9956356       -11.98298      0.000469701        139.7642                0               0                0               0
1.14474                0.9955555       -12.08438     0.0004588941        136.4017                0               0                0               0
1.15132                0.9954769       -12.18699      0.000446635        133.3505                0               0                0               0
1.15789                0.9953987       -12.29085     0.0004331815        130.6637                0               0                0               0
1.16447                0.9953198       -12.39602     0.0004188705        128.4025                0               0                0               0
1.17105                0.9952385       -12.50254     0.0004041351        126.6348                0               0                0               0
1.17763                0.9951535       -12.61043     0.0003895246        125.4327                0               0                0               0
1.18421                0.9950632       -12.71971      0.000375722        124.8645                0               0                0               0
1.19079                0.9949663       -12.83037     0.0003635539        124.9819                0               0                0               0
1.19737                0.9948612       -12.94241     0.0003539792        125.7994                0               0                0               0
1.20395                0.9947466       -13.05581     0.0003480423        127.2703                0               0                0               0
1.21053                0.9946214       -13.17052     0.0003467788        129.2653                0               0                0               0
1.21711                0.9944846       -13.28651     0.0003510811        131.5711                0               0                0               0
1.22368                0.9943351       -13.40372     0.0003615593        133.9179                0               0                0               0
1.23026                0.9941722       -13.52211     0.0003784537         136.032                0               0                0               0
1.23684                0.9939955        -13.6416     0.0004016352        137.6905                0               0                0               0
1.24342                0.9938047       -13.76215      0.000430686        138.7528                0               0                0               0
1.25                   0.9935998       -13.88367     0.0004650161        139.1624                0               0                0               0
1.25658                0.9933808       -14.00613     0.0005039681        138.9276                0               0                0               0
1.26316                0.9931483       -14.12945     0.0005468915        138.0969                0               0                0               0
1.26974                0.9929028       -14.25359      0.000593181        136.7379                0               0                0               0
1.27632                 0.992645       -14.37851     0.0006422917        134.9232                0               0                0               0
1.28289                0.9923759       -14.50418     0.0006937401        132.7225                0               0                0               0
1.28947                0.9920965       -14.63058     0.0007470981        130.1986                0               0                0               0
1.29605                0.9918079       -14.75771     0.0008019852        127.4065                0               0                0               0
1.30263                0.9915113       -14.88556     0.0008580614        124.3932                0               0                0               0
1.30921                0.9912079       -15.01418     0.0009150203         121.199                0               0                0               0
1.31579                0.9908988       -15.14358     0.0009725842         117.858                0               0                0               0
1.32237                0.9905853       -15.27382      0.001030501        114.3991                0               0                0               0
1.32895                0.9902681       -15.40497       0.00108854        110.8472                0               0                0               0
1.33553                0.9899482       -15.53709      0.001146492        107.2234                0               0                0               0
1.34211                0.9896262       -15.67027       0.00120417        103.5462                0               0                0               0
1.34868                0.9893027        -15.8046      0.001261405        99.83172                0               0                0               0
1.35526                0.9889778        -15.9402       0.00131805        96.09401                0               0                0               0
1.36184                0.9886516       -16.07715      0.001373978        92.34567                0               0                0               0
1.36842                0.9883239       -16.21558      0.001429089        88.59795                0               0                0               0
1.375                   0.987994       -16.35559      0.001483303        84.86097                0               0                0               0
1.38158                0.9876613       -16.49729      0.001536571        81.14392                0               0                0               0
1.38816                0.9873247       -16.64077      0.001588869        77.45517                0               0                0               0
1.39474                0.9869831       -16.78614      0.001640206        73.80233                0               0                0               0
1.40132                0.9866349       -16.93349      0.001690622        70.19232                0               0                0               0
1.40789                0.9862786       -17.08288      0.001740194        66.63139                0               0                0               0
1.41447                0.9859125       -17.23439      0.001789034         63.1251                0               0                0               0
1.42105                0.9855345       -17.38806      0.001837292        59.67833                0               0                0               0
1.42763                0.9851429       -17.54393      0.001885161        56.29517                0               0                0               0
1.43421                0.9847355       -17.70203      0.001932873        52.97891                0               0                0               0
1.44079                0.9843107       -17.86235        0.0019807        49.73192                0               0                0               0
1.44737                0.9838663        -18.0249      0.002028956        46.55557                0               0                0               0
1.45395                0.9834007       -18.18965      0.002077996        43.45013                0               0                0               0
1.46053                0.9829123       -18.35658      0.002128209        40.41469                0               0                0               0
1.46711                0.9823995       -18.52563      0.002180019        37.44709                0               0                0               0
1.47368                0.9818613       -18.69676      0.002233878        34.54386                0               0                0               0
1.48026                0.9812965       -18.86991      0.002290263        31.70021                0               0                0               0
1.48684                0.9807045       -19.04502      0.002349662        28.91005                0               0                0               0
1.49342                0.9800846       -19.22202      0.002412575        26.16609                0               0                0               0
1.5                    0.9794368       -19.40085      0.002479498        23.45998                0               0                0               0
1.50658                 0.978761       -19.58146      0.002550917        20.78245                0               0                0               0
1.51316                0.9780575       -19.76379      0.002627297         18.1236                0               0                0               0
1.51974                0.9773269        -19.9478      0.002709076        15.47316                0               0                0               0
1.52632                0.9765698       -20.13346      0.002796653        12.82077                0               0                0               0
1.53289                0.9757872       -20.32075      0.002890385        10.15625                0               0                0               0
1.53947                0.9749801       -20.50968      0.002990578        7.469949                0               0                0               0
1.54605                0.9741495       -20.70026      0.003097486        4.752911                0               0                0               0
1.55263                0.9732967       -20.89252      0.003211307        1.997136                0               0                0               0
1.55921                0.9724227       -21.08652      0.003332185      -0.8042957                0               0                0               0
1.56579                0.9715288       -21.28233      0.003460206       -3.657126                0               0                0               0
1.57237                0.9706156       -21.48005      0.003595405       -6.565879                0               0                0               0
1.57895                0.9696842       -21.67978       0.00373777       -9.533873                0               0                0               0
1.58553                 0.968735       -21.88164       0.00388724       -12.56327                0               0                0               0
1.59211                0.9677683       -22.08578      0.004043715       -15.65517                0               0                0               0
1.59868                0.9667843       -22.29236       0.00420706       -18.80968                0               0                0               0
1.60526                0.9657826       -22.50152      0.004377107       -22.02609                0               0                0               0
1.61184                0.9647625       -22.71346      0.004553667       -25.30294                0               0                0               0
1.61842                 0.963723       -22.92833      0.004736525       -28.63817                0               0                0               0
1.625                  0.9626627       -23.14632      0.004925453       -32.02923                0               0                0               0
1.63158                  0.96158        -23.3676      0.005120214        -35.4732                0               0                0               0
1.63816                0.9604727       -23.59234      0.005320562       -38.96684                0               0                0               0
1.64474                0.9593382       -23.82069      0.005526246       -42.50673                0               0                0               0
1.65132                0.9581739       -24.05281      0.005737021       -46.08932                0               0                0               0
1.65789                0.9569765       -24.28883      0.005952647       -49.71097                0               0                0               0
1.66447                 0.955743       -24.52886       0.00617289       -53.36805                0               0                0               0
1.67105                0.9544698       -24.77301      0.006397532       -57.05694                0               0                0               0
1.67763                0.9531533       -25.02135      0.006626369       -60.77409                0               0                0               0
1.68421                0.9517898       -25.27394       0.00685922       -64.51604                0               0                0               0
1.69079                0.9503755       -25.53082      0.007095922       -68.27943                0               0                0               0
1.69737                 0.948907       -25.79201      0.007336343       -72.06106                0               0                0               0
1.70395                0.9473804       -26.05749      0.007580376       -75.85788                0               0                0               0
1.71053                0.9457925       -26.32725      0.007827948       -79.66698                0               0                0               0
1.71711                0.9441399       -26.60125      0.008079021       -83.48565                0               0                0               0
1.72368                  0.94242       -26.87943      0.008333593       -87.31137                0               0                0               0
1.73026                0.9406297       -27.16172      0.008591701       -91.14181                0               0                0               0
1.73684                0.9387668       -27.44806      0.008853425       -94.97483                0               0                0               0
1.74342                0.9368292       -27.73835      0.009118891       -98.80851                0               0                0               0
1.75                   0.9348153       -28.03252      0.009388263       -102.6412                0               0                0               0
1.75658                0.9327237       -28.33049      0.009661757       -106.4714                0               0                0               0
1.76316                0.9305535       -28.63218      0.009939637       -110.2978                0               0                0               0
1.76974                 0.928304       -28.93754       0.01022221       -114.1195                0               0                0               0
1.77632                0.9259748       -29.24651       0.01050983       -117.9357                0               0                0               0
1.78289                0.9235656       -29.55907       0.01080289       -121.7459                0               0                0               0
1.78947                0.9210766        -29.8752       0.01110185       -125.5499                0               0                0               0
1.79605                0.9185078       -30.19492       0.01140719       -129.3475                0               0                0               0
1.80263                0.9158597       -30.51827       0.01171943       -133.1391                0               0                0               0
1.80921                0.9131324       -30.84532       0.01203914        -136.925                0               0                0               0
1.81579                 0.910326       -31.17617       0.01236692       -140.7061                0               0                0               0
1.82237                0.9074408       -31.51093       0.01270338       -144.4831                0               0                0               0
1.82895                0.9044762       -31.84978       0.01304917       -148.2573                0               0                0               0
1.83553                 0.901432       -32.19289       0.01340495       -152.0299                0               0                0               0
1.84211                 0.898307       -32.54048       0.01377138       -155.8025                0               0                0               0
1.84868                0.8951002       -32.89278       0.01414913       -159.5767                0               0                0               0
