! TOUCHSTONE file generated by CST MICROWAVE STUDIO
! Date and time: Tue Mar 11 13:56:57 2025
! Project name: transverse.cst
! Parameters = {Fracture=1; B=12.5; D=160; F=5; Feed=2.85625; L=100; M=30; R=0.384908; S=1; Theta=90; length=57.125; wave=114.25}
! Header version: 2024
! Port assignment regex: !\s*Touchstone port\s*([0-9]+)\s*=\s*(CST MWS port|CST DES external port|CST DES block port)\s*(.+)\s* \(\"(.*)\"\)(\s*mode\s*([0-9]+))?.*
! Touchstone port assignment:
! Touchstone port 1 = CST MWS port 1 ("")
! Touchstone port 2 = CST MWS port 2 ("")
# GHz S MA R 50
1                      0.9976265       -10.11586     0.0003896759       -170.5528                0               0                0               0
1.00658                0.9975276        -10.2065     0.0003940552       -175.0587                0               0                0               0
1.01316                0.9974244       -10.29753     0.0003972942       -179.4769                0               0                0               0
1.01974                0.9973178       -10.38893     0.0003993823        176.2039                0               0                0               0
1.02632                0.9972082       -10.48071     0.0004003206        171.9968                0               0                0               0
1.03289                0.9970963       -10.57288     0.0004001232        167.9162                0               0                0               0
1.03947                0.9969826       -10.66544     0.0003988199        163.9782                0               0                0               0
1.04605                0.9968678        -10.7584      0.000396458        160.2009                0               0                0               0
1.05263                0.9967525       -10.85181     0.0003931056        156.6045                0               0                0               0
1.05921                0.9966373       -10.94568     0.0003888545        153.2116                0               0                0               0
1.06579                0.9965224       -11.04005     0.0003838244        150.0468                0               0                0               0
1.07237                0.9964084       -11.13498     0.0003781668        147.1367                0               0                0               0
1.07895                0.9962954       -11.23049     0.0003720697        144.5093                0               0                0               0
1.08553                0.9961837       -11.32664     0.0003657622        142.1927                0               0                0               0
1.09211                0.9960732       -11.42348     0.0003595184        140.2134                0               0                0               0
1.09868                0.9959639       -11.52107     0.0003536596        138.5931                0               0                0               0
1.10526                0.9958555       -11.61945     0.0003485539         137.345                0               0                0               0
1.11184                0.9957479       -11.71867     0.0003446102        136.4688                0               0                0               0
1.11842                0.9956403       -11.81878     0.0003422663        135.9455                0               0                0               0
1.125                  0.9955325       -11.91983      0.000341968        135.7331                0               0                0               0
1.13158                0.9954238       -12.02185     0.0003441409        135.7644                0               0                0               0
1.13816                0.9953133       -12.12487      0.000349158        135.9502                0               0                0               0
1.14474                0.9952004       -12.22893     0.0003573083        136.1861                0               0                0               0
1.15132                0.9950844       -12.33403     0.0003687741        136.3638                0               0                0               0
1.15789                0.9949642       -12.44021     0.0003836217        136.3834                0               0                0               0
1.16447                0.9948392       -12.54745      0.000401807        136.1634                0               0                0               0
1.17105                0.9947086       -12.65577     0.0004231938         135.646                0               0                0               0
1.17763                0.9945715       -12.76516     0.0004475768        134.7985                0               0                0               0
1.18421                0.9944274       -12.87559     0.0004747065        133.6096                0               0                0               0
1.19079                0.9942757       -12.98706       0.00050431         132.085                0               0                0               0
1.19737                0.9941158       -13.09955     0.0005361066         130.242                0               0                0               0
1.20395                0.9939473       -13.21302     0.0005698185        128.1051                0               0                0               0
1.21053                0.9937702       -13.32745     0.0006051768        125.7023                0               0                0               0
1.21711                0.9935841       -13.44281     0.0006419253        123.0624                0               0                0               0
1.22368                0.9933892       -13.55908     0.0006798207        120.2137                0               0                0               0
1.23026                0.9931855       -13.67622      0.000718634         117.183                0               0                0               0
1.23684                0.9929732       -13.79421     0.0007581489        113.9951                0               0                0               0
1.24342                0.9927529       -13.91304     0.0007981612        110.6724                0               0                0               0
1.25                   0.9925247       -14.03269     0.0008384788        107.2355                0               0                0               0
1.25658                0.9922896       -14.15316     0.0008789201        103.7027                0               0                0               0
1.26316                 0.992048       -14.27443     0.0009193142        100.0906                0               0                0               0
1.26974                0.9918005       -14.39653     0.0009595011        96.41423                0               0                0               0
1.27632                0.9915481       -14.51947      0.000999331        92.68702                0               0                0               0
1.28289                0.9912911       -14.64328      0.001038665        88.92134                0               0                0               0
1.28947                0.9910304       -14.76798      0.001077376        85.12845                0               0                0               0
1.29605                0.9907666       -14.89362      0.001115349        81.31873                0               0                0               0
1.30263                0.9905003       -15.02025      0.001152482        77.50178                0               0                0               0
1.30921                 0.990232       -15.14792      0.001188686        73.68655                0               0                0               0
1.31579                0.9899619       -15.27672       0.00122389        69.88147                0               0                0               0
1.32237                0.9896904       -15.40669      0.001258036        66.09445                0               0                0               0
1.32895                0.9894176       -15.53792      0.001291088        62.33305                0               0                0               0
1.33553                0.9891433       -15.67049      0.001323027        58.60439                0               0                0               0
1.34211                0.9888675       -15.80447      0.001353857         54.9153                0               0                0               0
1.34868                0.9885897       -15.93994      0.001383602        51.27223                0               0                0               0
1.35526                0.9883094       -16.07699      0.001412315         47.6813                0               0                0               0
1.36184                0.9880261       -16.21568      0.001440072        44.14824                0               0                0               0
1.36842                0.9877387       -16.35609      0.001466977        40.67839                0               0                0               0
1.375                  0.9874466       -16.49829      0.001493165        37.27654                0               0                0               0
1.38158                0.9871485       -16.64235      0.001518799        33.94693                0               0                0               0
1.38816                0.9868436        -16.7883      0.001544074        30.69311                0               0                0               0
1.39474                0.9865303        -16.9362      0.001569216        27.51779                0               0                0               0
1.40132                0.9862078        -17.0861      0.001594481        24.42275                0               0                0               0
1.40789                0.9858747       -17.23802      0.001620155        21.40869                0               0                0               0
1.41447                0.9855298       -17.39198      0.001646551        18.47505                0               0                0               0
1.42105                0.9851719       -17.54801      0.001674006        15.61994                0               0                0               0
1.42763                0.9847998       -17.70611      0.001702878        12.83997                0               0                0               0
1.43421                0.9844127       -17.86629      0.001733541        10.13026                0               0                0               0
1.44079                0.9840094       -18.02854      0.001766375        7.484379                0               0                0               0
1.44737                0.9835892       -18.19287      0.001801765        4.894411                0               0                0               0
1.45395                0.9831514       -18.35926      0.001840089        2.351083                0               0                0               0
1.46053                0.9826954       -18.52771      0.001881712      -0.1560405                0               0                0               0
1.46711                0.9822207        -18.6982      0.001926976       -2.638292                0               0                0               0
1.47368                0.9817271       -18.87074      0.001976196        -5.10757                0               0                0               0
1.48026                0.9812143       -19.04533      0.002029648       -7.575985                0               0                0               0
1.48684                0.9806825       -19.22196      0.002087568       -10.05548                0               0                0               0
1.49342                0.9801314       -19.40066      0.002150147       -12.55748                0               0                0               0
1.5                    0.9795612       -19.58144      0.002217525       -15.09254                0               0                0               0
1.50658                0.9789723       -19.76432      0.002289795       -17.67011                0               0                0               0
1.51316                0.9783646       -19.94935      0.002366999       -20.29831                0               0                0               0
1.51974                0.9777385       -20.13658      0.002449134       -22.98383                0               0                0               0
1.52632                 0.977094       -20.32607       0.00253615       -25.73183                0               0                0               0
1.53289                0.9764313       -20.51789      0.002627959         -28.546                0               0                0               0
1.53947                0.9757506       -20.71212      0.002724434       -31.42861                0               0                0               0
1.54605                0.9750516       -20.90885       0.00282542       -34.38062                0               0                0               0
1.55263                0.9743341       -21.10819      0.002930733        -37.4018                0               0                0               0
1.55921                0.9735977       -21.31024      0.003040167       -40.49094                0               0                0               0
1.56579                0.9728418       -21.51512        0.0031535        -43.6459                0               0                0               0
1.57237                0.9720657       -21.72296      0.003270496       -46.86386                0               0                0               0
1.57895                0.9712682       -21.93388      0.003390912       -50.14142                0               0                0               0
1.58553                 0.970448       -22.14801      0.003514499       -53.47474                0               0                0               0
1.59211                0.9696037       -22.36548      0.003641009       -56.85965                0               0                0               0
1.59868                0.9687335        -22.5864      0.003770194       -60.29172                0               0                0               0
1.60526                0.9678355       -22.81092      0.003901819       -63.76641                0               0                0               0
1.61184                0.9669074       -23.03913      0.004035652       -67.27908                0               0                0               0
1.61842                0.9659467       -23.27115      0.004171477       -70.82509                0               0                0               0
1.625                  0.9649511       -23.50708      0.004309097        -74.3998                0               0                0               0
1.63158                0.9639176       -23.74702      0.004448331       -77.99866                0               0                0               0
1.63816                0.9628436       -23.99102      0.004589021       -81.61723                0               0                0               0
1.64474                 0.961726       -24.23917      0.004731038       -85.25117                0               0                0               0
1.65132                0.9605617       -24.49151      0.004874282       -88.89632                0               0                0               0
1.65789                0.9593479       -24.74809      0.005018681       -92.54868                0               0                0               0
1.66447                0.9580816       -25.00892      0.005164206       -96.20444                0               0                0               0
1.67105                0.9567599       -25.27403      0.005310859          -99.86                0               0                0               0
1.67763                0.9553798       -25.54343      0.005458691        -103.512                0               0                0               0
1.68421                0.9539386        -25.8171      0.005607792       -107.1573                0               0                0               0
1.69079                0.9524337       -26.09504      0.005758302       -110.7931                0               0                0               0
1.69737                0.9508628       -26.37722      0.005910409       -114.4168                0               0                0               0
1.70395                0.9492235       -26.66363      0.006064357       -118.0262                0               0                0               0
1.71053                0.9475138       -26.95422      0.006220438       -121.6193                0               0                0               0
1.71711                0.9457318       -27.24898      0.006379002       -125.1947                0               0                0               0
1.72368                0.9438759       -27.54788      0.006540453       -128.7511                0               0                0               0
1.73026                0.9419443       -27.85089       0.00670525       -132.2879                0               0                0               0
1.73684                0.9399362       -28.15802      0.006873908       -135.8047                0               0                0               0
1.74342                0.9378498       -28.46926      0.007046991       -139.3016                0               0                0               0
1.75                   0.9356845       -28.78461      0.007225116       -142.7792                0               0                0               0
1.75658                 0.933439       -29.10409      0.007408944       -146.2386                0               0                0               0
1.76316                0.9311125       -29.42775      0.007599179       -149.6814                0               0                0               0
1.76974                0.9287042       -29.75563      0.007796561       -153.1094                0               0                0               0
1.77632                0.9262127        -30.0878      0.008001854       -156.5252                0               0                0               0
1.78289                0.9236372       -30.42435       0.00821585       -159.9316                0               0                0               0
1.78947                0.9209765       -30.76539      0.008439351       -163.3317                0               0                0               0
1.79605                0.9182291       -31.11103      0.008673166       -166.7292                0               0                0               0
1.80263                0.9153934       -31.46141      0.008918094       -170.1279                0               0                0               0
1.80921                0.9124675       -31.81669      0.009174925       -173.5318                0               0                0               0
1.81579                0.9094492       -32.17702      0.009444423        -176.945                0               0                0               0
1.82237                0.9063359       -32.54259      0.009727321        179.6282                0               0                0               0
1.82895                0.9031247       -32.91359       0.01002431        176.1837                0               0                0               0
1.83553                0.8998122       -33.29019       0.01033603        172.7172                0               0                0               0
1.84211                0.8963946       -33.67261       0.01066307        169.2248                0               0                0               0
1.84868                0.8928676       -34.06102       0.01100595        165.7027                0               0                0               0
