! TOUCHSTONE file generated by CST MICROWAVE STUDIO
! Date and time: Tue Mar 11 13:56:40 2025
! Project name: transverse.cst
! Parameters = {Fracture=5; B=10; D=160; F=15; Feed=2.85625; L=100; M=30; R=0.384908; S=2; Theta=90; length=57.125; wave=114.25}
! Header version: 2024
! Port assignment regex: !\s*Touchstone port\s*([0-9]+)\s*=\s*(CST MWS port|CST DES external port|CST DES block port)\s*(.+)\s* \(\"(.*)\"\)(\s*mode\s*([0-9]+))?.*
! Touchstone port assignment:
! Touchstone port 1 = CST MWS port 1 ("")
! Touchstone port 2 = CST MWS port 2 ("")
# GHz S MA R 50
1                      0.9975435       -9.752659     0.0004954655        171.6004                0               0                0               0
1.00658                0.9974731       -9.838831     0.0004905097        165.8864                0               0                0               0
1.01316                0.9974041       -9.925656     0.0004834411        160.2899                0               0                0               0
1.01974                0.9973359       -10.01318     0.0004742406        154.8239                0               0                0               0
1.02632                0.9972686       -10.10144     0.0004629039        149.5054                0               0                0               0
1.03289                0.9972015       -10.19047      0.000449444        144.3565                0               0                0               0
1.03947                0.9971338       -10.28031     0.0004338947         139.406                0               0                0               0
1.04605                0.9970651       -10.37099     0.0004163163        134.6915                0               0                0               0
1.05263                0.9969948       -10.46252     0.0003968022        130.2631                0               0                0               0
1.05921                0.9969221       -10.55493     0.0003754902        126.1874                0               0                0               0
1.06579                0.9968462       -10.64823     0.0003525786        122.5546                0               0                0               0
1.07237                0.9967664       -10.74242     0.0003283519        119.4875                0               0                0               0
1.07895                0.9966821        -10.8375     0.0003032205        117.1549                0               0                0               0
1.08553                0.9965925       -10.93346     0.0002777831        115.7864                0               0                0               0
1.09211                0.9964968        -11.0303     0.0002529232        115.6862                0               0                0               0
1.09868                0.9963949       -11.12799     0.0002299433        117.2246                0               0                0               0
1.10526                0.9962859       -11.22652     0.0002107078        120.7599                0               0                0               0
1.11184                0.9961694       -11.32585     0.0001976619        126.4122                0               0                0               0
1.11842                0.9960455       -11.42597     0.0001934368        133.7019                0               0                0               0
1.125                  0.9959137       -11.52685     0.0001998934        141.4066                0               0                0               0
1.13158                0.9957739       -11.62844      0.000217229        148.0849                0               0                0               0
1.13816                0.9956264       -11.73074     0.0002441003        152.8474                0               0                0               0
1.14474                0.9954711       -11.83371     0.0002785447        155.5443                0               0                0               0
1.15132                0.9953082       -11.93732     0.0003187372        156.4492                0               0                0               0
1.15789                0.9951384       -12.04157     0.0003632528        155.9439                0               0                0               0
1.16447                0.9949618       -12.14643     0.0004110428        154.3718                0               0                0               0
1.17105                 0.994779        -12.2519     0.0004613363        152.0019                0               0                0               0
1.17763                0.9945907       -12.35796     0.0005135501        149.0337                0               0                0               0
1.18421                0.9943971       -12.46463     0.0005672239        145.6136                0               0                0               0
1.19079                0.9941992       -12.57192     0.0006219778        141.8489                0               0                0               0
1.19737                0.9939975       -12.67984     0.0006774848        137.8195                0               0                0               0
1.20395                0.9937924       -12.78842      0.000733453         133.585                0               0                0               0
1.21053                0.9935846       -12.89768     0.0007896147        129.1912                0               0                0               0
1.21711                0.9933746       -13.00768     0.0008457198        124.6737                0               0                0               0
1.22368                0.9931626       -13.11844     0.0009015296        120.0603                0               0                0               0
1.23026                0.9929491       -13.23002     0.0009568156        115.3735                0               0                0               0
1.23684                0.9927343       -13.34246      0.001011357        110.6317                0               0                0               0
1.24342                0.9925182       -13.45583      0.001064942          105.85                0               0                0               0
1.25                   0.9923008       -13.57019      0.001117361        101.0413                0               0                0               0
1.25658                0.9920819       -13.68558      0.001168418        96.21674                0               0                0               0
1.26316                0.9918613       -13.80207      0.001217919        91.38595                0               0                0               0
1.26974                0.9916386       -13.91971      0.001265681        86.55765                0               0                0               0
1.27632                0.9914131       -14.03856      0.001311531        81.73977                0               0                0               0
1.28289                0.9911845       -14.15866      0.001355306        76.93967                0               0                0               0
1.28947                0.9909518       -14.28007      0.001396855        72.16434                0               0                0               0
1.29605                0.9907143       -14.40282       0.00143604        67.42052                0               0                0               0
1.30263                0.9904713       -14.52695      0.001472741         62.7148                0               0                0               0
1.30921                0.9902217       -14.65248      0.001506852        58.05376                0               0                0               0
1.31579                0.9899647       -14.77943       0.00153829        53.44402                0               0                0               0
1.32237                0.9896992       -14.90783      0.001566991         48.8923                0               0                0               0
1.32895                0.9894245       -15.03766      0.001592916        44.40553                0               0                0               0
1.33553                0.9891399       -15.16894      0.001616057        39.99085                0               0                0               0
1.34211                0.9888443       -15.30166       0.00163643        35.65568                0               0                0               0
1.34868                0.9885371       -15.43581       0.00165409        31.40771                0               0                0               0
1.35526                0.9882178       -15.57137      0.001669127        27.25492                0               0                0               0
1.36184                0.9878858       -15.70833       0.00168167        23.20553                0               0                0               0
1.36842                0.9875409       -15.84665      0.001691896        19.26797                0               0                0               0
1.375                  0.9871826       -15.98634      0.001700029        15.45079                0               0                0               0
1.38158                0.9868109       -16.12735      0.001706344        11.76247                0               0                0               0
1.38816                 0.986426       -16.26968      0.001711174         8.21123                0               0                0               0
1.39474                0.9860281        -16.4133      0.001714912        4.804769                0               0                0               0
1.40132                 0.985617       -16.55822       0.00171801        1.549866                0               0                0               0
1.40789                0.9851935       -16.70442      0.001720984       -1.548058                0               0                0               0
1.41447                0.9847579       -16.85189      0.001724412       -4.485476                0               0                0               0
1.42105                0.9843108       -17.00067      0.001728928       -7.261355                0               0                0               0
1.42763                0.9838528       -17.15075      0.001735216       -9.877789                0               0                0               0
1.43421                0.9833844       -17.30218      0.001744004        -12.3406                0               0                0               0
1.44079                0.9829063       -17.45499      0.001756041       -14.65983                0               0                0               0
1.44737                0.9824192       -17.60922      0.001772086       -16.85005                0               0                0               0
1.45395                0.9819235       -17.76494      0.001792879       -18.93036                0               0                0               0
1.46053                0.9814196       -17.92221      0.001819122         -20.924                0               0                0               0
1.46711                 0.980908        -18.0811      0.001851449       -22.85765                0               0                0               0
1.47368                 0.980389       -18.24172       0.00189041       -24.76025                0               0                0               0
1.48026                0.9798625       -18.40413      0.001936442       -26.66164                0               0                0               0
1.48684                0.9793287       -18.56845      0.001989864       -28.59104                0               0                0               0
1.49342                 0.978787       -18.73477      0.002050867       -30.57567                0               0                0               0
1.5                    0.9782375        -18.9032      0.002119516        -32.6395                0               0                0               0
1.50658                0.9776791       -19.07384      0.002195753       -34.80245                0               0                0               0
1.51316                0.9771112       -19.24682      0.002279415       -37.07993                0               0                0               0
1.51974                0.9765328       -19.42222      0.002370244       -39.48274                0               0                0               0
1.52632                0.9759428       -19.60016      0.002467907       -42.01738                0               0                0               0
1.53289                0.9753396       -19.78073      0.002572008       -44.68642                0               0                0               0
1.53947                0.9747221       -19.96402      0.002682108       -47.48919                0               0                0               0
1.54605                0.9740883       -20.15012      0.002797735       -50.42232                0               0                0               0
1.55263                0.9734367        -20.3391      0.002918398       -53.48042                0               0                0               0
1.55921                0.9727652       -20.53104      0.003043593        -56.6566                0               0                0               0
1.56579                0.9720722         -20.726      0.003172815       -59.94295                0               0                0               0
1.57237                0.9713555       -20.92401      0.003305561       -63.33092                0               0                0               0
1.57895                0.9706134       -21.12513      0.003441339       -66.81166                0               0                0               0
1.58553                0.9698439       -21.32938      0.003579663       -70.37622                0               0                0               0
1.59211                0.9690451       -21.53678      0.003720069       -74.01574                0               0                0               0
1.59868                0.9682153       -21.74735      0.003862107       -77.72154                0               0                0               0
1.60526                0.9673529       -21.96109      0.004005348       -81.48523                0               0                0               0
1.61184                 0.966456       -22.17801      0.004149391       -85.29875                0               0                0               0
1.61842                0.9655237        -22.3981      0.004293854       -89.15438                0               0                0               0
1.625                  0.9645543       -22.62135      0.004438388       -93.04477                0               0                0               0
1.63158                0.9635469       -22.84776      0.004582674       -96.96292                0               0                0               0
1.63816                0.9625006       -23.07733      0.004726426       -100.9022                0               0                0               0
1.64474                0.9614145       -23.31005      0.004869395       -104.8562                0               0                0               0
1.65132                0.9602879       -23.54594      0.005011371       -108.8191                0               0                0               0
1.65789                0.9591204       -23.78498      0.005152189        -112.785                0               0                0               0
1.66447                0.9579116       -24.02722      0.005291728       -116.7487                0               0                0               0
1.67105                0.9566612       -24.27267      0.005429918       -120.7051                0               0                0               0
1.67763                 0.955369       -24.52138      0.005566744       -124.6494                0               0                0               0
1.68421                0.9540348        -24.7734      0.005702244        -128.577                0               0                0               0
1.69079                0.9526583        -25.0288      0.005836523       -132.4838                0               0                0               0
1.69737                0.9512396       -25.28766      0.005969745       -136.3659                0               0                0               0
1.70395                0.9497781       -25.55009      0.006102143       -140.2198                0               0                0               0
1.71053                0.9482736       -25.81617       0.00623402       -144.0423                0               0                0               0
1.71711                0.9467257       -26.08606      0.006365756       -147.8306                0               0                0               0
1.72368                0.9451336       -26.35987      0.006497799       -151.5825                0               0                0               0
1.73026                0.9434965       -26.63778      0.006630677       -155.2961                0               0                0               0
1.73684                0.9418134       -26.91994      0.006764994       -158.9701                0               0                0               0
1.74342                0.9400828       -27.20653      0.006901428       -162.6038                0               0                0               0
1.75                   0.9383033       -27.49772      0.007040728        -166.197                0               0                0               0
1.75658                0.9364728       -27.79373      0.007183713       -169.7504                0               0                0               0
1.76316                0.9345893       -28.09474      0.007331264       -173.2652                0               0                0               0
1.76974                0.9326502       -28.40094      0.007484319       -176.7434                0               0                0               0
1.77632                0.9306525       -28.71256      0.007643862        179.8123                0               0                0               0
1.78289                0.9285933       -29.02978      0.007810911        176.3983                0               0                0               0
1.78947                0.9264691        -29.3528      0.007986516        173.0106                0               0                0               0
1.79605                0.9242761       -29.68183      0.008171726        169.6442                0               0                0               0
1.80263                0.9220104       -30.01705      0.008367596        166.2938                0               0                0               0
1.80921                0.9196677       -30.35864      0.008575158        162.9535                0               0                0               0
1.81579                0.9172435       -30.70678      0.008795412        159.6169                0               0                0               0
1.82237                0.9147331       -31.06163       0.00902931        156.2774                0               0                0               0
1.82895                0.9121316       -31.42335      0.009277738        152.9285                0               0                0               0
1.83553                 0.909434       -31.79209      0.009541514        149.5634                0               0                0               0
1.84211                0.9066352       -32.16798      0.009821361        146.1757                0               0                0               0
1.84868                0.9037299       -32.55113       0.01011791         142.759                0               0                0               0
