! TOUCHSTONE file generated by CST MICROWAVE STUDIO
! Date and time: Tue Mar 11 13:56:02 2025
! Project name: transverse.cst
! Parameters = {Fracture=5; B=12.5; D=160; F=5; Feed=2.85625; L=100; M=10; R=0.384908; S=2; Theta=0; length=57.125; wave=114.25}
! Header version: 2024
! Port assignment regex: !\s*Touchstone port\s*([0-9]+)\s*=\s*(CST MWS port|CST DES external port|CST DES block port)\s*(.+)\s* \(\"(.*)\"\)(\s*mode\s*([0-9]+))?.*
! Touchstone port assignment:
! Touchstone port 1 = CST MWS port 1 ("")
! Touchstone port 2 = CST MWS port 2 ("")
# GHz S MA R 50
1                       0.997851       -9.751874     0.0002735244       -125.5921                0               0                0               0
1.0066                 0.9977662       -9.840825     0.0002937822       -129.8325                0               0                0               0
1.0132                  0.997675       -9.930205     0.0003134475       -134.1941                0               0                0               0
1.0198                 0.9975777       -10.01998     0.0003323949       -138.6424                0               0                0               0
1.0264                 0.9974751       -10.11012     0.0003505058       -143.1497                0               0                0               0
1.033                  0.9973675        -10.2006     0.0003676688       -147.6932                0               0                0               0
1.0396                 0.9972562       -10.29141     0.0003837786        -152.254                0               0                0               0
1.0462                 0.9971419       -10.38254     0.0003987367       -156.8152                0               0                0               0
1.05281                0.9970252         -10.474     0.0004124519       -161.3618                0               0                0               0
1.05941                0.9969074        -10.5658      0.000424841       -165.8798                0               0                0               0
1.06601                0.9967892       -10.65796     0.0004358295       -170.3557                0               0                0               0
1.07261                0.9966714       -10.75052     0.0004453533       -174.7761                0               0                0               0
1.07921                 0.996555       -10.84351     0.0004533596       -179.1275                0               0                0               0
1.08581                0.9964403       -10.93699      0.000459809        176.6045                0               0                0               0
1.09241                0.9963282       -11.03102     0.0004646766         172.435                0               0                0               0
1.09901                 0.996219       -11.12565     0.0004679555        168.3806                0               0                0               0
1.10561                0.9961128       -11.22095     0.0004696584        164.4591                0               0                0               0
1.11221                  0.99601       -11.31699     0.0004698216        160.6907                0               0                0               0
1.11881                0.9959103       -11.41385     0.0004685083        157.0974                0               0                0               0
1.12541                0.9958134        -11.5116     0.0004658135        153.7039                0               0                0               0
1.13201                0.9957192       -11.61031     0.0004618697        150.5374                0               0                0               0
1.13861                0.9956266       -11.71004     0.0004568521        147.6276                0               0                0               0
1.14521                0.9955354       -11.81086     0.0004509867        145.0064                0               0                0               0
1.15182                0.9954443       -11.91282     0.0004445573        142.7068                0               0                0               0
1.15842                0.9953524       -12.01596     0.0004379127         140.761                0               0                0               0
1.16502                0.9952587       -12.12034      0.000431473        139.1979                0               0                0               0
1.17162                0.9951619       -12.22598     0.0004257318        138.0385                0               0                0               0
1.17822                0.9950609        -12.3329     0.0004212525          137.29                0               0                0               0
1.18482                0.9949545       -12.44111     0.0004186548        136.9401                0               0                0               0
1.19142                0.9948414       -12.55061     0.0004185886        136.9499                0               0                0               0
1.19802                0.9947205       -12.66139     0.0004216946        137.2507                0               0                0               0
1.20462                0.9945907       -12.77343     0.0004285546        137.7458                0               0                0               0
1.21122                0.9944511       -12.88671     0.0004396408        138.3175                0               0                0               0
1.21782                 0.994301       -13.00118     0.0004552765        138.8413                0               0                0               0
1.22442                0.9941394       -13.11682     0.0004756152        139.2006                0               0                0               0
1.23102                 0.993966       -13.23358      0.000500647        139.3003                0               0                0               0
1.23762                0.9937803       -13.35141     0.0005302228         139.074                0               0                0               0
1.24422                0.9935824       -13.47026     0.0005640911        138.4849                0               0                0               0
1.25083                 0.993372       -13.59009     0.0006019346        137.5221                0               0                0               0
1.25743                0.9931495       -13.71085     0.0006434029        136.1943                0               0                0               0
1.26403                0.9929152        -13.8325     0.0006881354        134.5232                0               0                0               0
1.27063                0.9926695       -13.95501     0.0007357774        132.5383                0               0                0               0
1.27723                0.9924134       -14.07836     0.0007859888        130.2719                0               0                0               0
1.28383                0.9921473       -14.20253     0.0008384484        127.7572                0               0                0               0
1.29043                0.9918723       -14.32751     0.0008928554        125.0259                0               0                0               0
1.29703                0.9915891       -14.45331     0.0009489295        122.1076                0               0                0               0
1.30363                0.9912988       -14.57994       0.00100641        119.0293                0               0                0               0
1.31023                0.9910025       -14.70743      0.001065055        115.8151                0               0                0               0
1.31683                0.9907007       -14.83582      0.001124638        112.4869                0               0                0               0
1.32343                0.9903946       -14.96516      0.001184953        109.0638                0               0                0               0
1.33003                0.9900847       -15.09551      0.001245807         105.563                0               0                0               0
1.33663                0.9897716       -15.22694      0.001307024        101.9998                0               0                0               0
1.34323                 0.989456       -15.35954      0.001368445        98.38774                0               0                0               0
1.34984                 0.989138       -15.49338      0.001429928          94.739                0               0                0               0
1.35644                0.9888176       -15.62857      0.001491348        91.06447                0               0                0               0
1.36304                0.9884946       -15.76518      0.001552599        87.37396                0               0                0               0
1.36964                 0.988169       -15.90333      0.001613594        83.67633                0               0                0               0
1.37624                0.9878398        -16.0431      0.001674266        79.97958                0               0                0               0
1.38284                0.9875066       -16.18459      0.001734574        76.29097                0               0                0               0
1.38944                0.9871682       -16.32789      0.001794495        72.61703                0               0                0               0
1.39604                0.9868235       -16.47307      0.001854036         68.9637                0               0                0               0
1.40264                0.9864711       -16.62022      0.001913227        65.33627                0               0                0               0
1.40924                0.9861096        -16.7694      0.001972126        61.73947                0               0                0               0
1.41584                0.9857377       -16.92066      0.002030822        58.17743                0               0                0               0
1.42244                0.9853532       -17.07405       0.00208943        54.65369                0               0                0               0
1.42904                0.9849549        -17.2296      0.002148098        51.17119                0               0                0               0
1.43564                 0.984541       -17.38732      0.002207003        47.73223                0               0                0               0
1.44224                0.9841097       -17.54724      0.002266352        44.33847                0               0                0               0
1.44884                0.9836595       -17.70933      0.002326383        40.99083                0               0                0               0
1.45545                0.9831889        -17.8736       0.00238736        37.68957                0               0                0               0
1.46205                0.9826967       -18.04001      0.002449575        34.43417                0               0                0               0
1.46865                0.9821814       -18.20855      0.002513345        31.22335                0               0                0               0
1.47525                0.9816422       -18.37915      0.002579005        28.05507                0               0                0               0
1.48185                0.9810782        -18.5518      0.002646908        24.92652                0               0                0               0
1.48845                0.9804887       -18.72643      0.002717422        21.83416                0               0                0               0
1.49505                0.9798734       -18.90302      0.002790919        18.77378                0               0                0               0
1.50165                0.9792322       -19.08152      0.002867776        15.74055                0               0                0               0
1.50825                 0.978565        -19.2619      0.002948364        12.72912                0               0                0               0
1.51485                 0.977872       -19.44412      0.003033047        9.733722                0               0                0               0
1.52145                0.9771538       -19.62816      0.003122173        6.748313                0               0                0               0
1.52805                0.9764107       -19.81402      0.003216069        3.766693                0               0                0               0
1.53465                0.9756435        -20.0017      0.003315039       0.7826523                0               0                0               0
1.54125                 0.974853       -20.19122      0.003419355       -2.209891                0               0                0               0
1.54785                0.9740399       -20.38261      0.003529257       -5.216757                0               0                0               0
1.55446                0.9732049       -20.57591      0.003644949       -8.243392                0               0                0               0
1.56106                 0.972349       -20.77121      0.003766598       -11.29476                0               0                0               0
1.56766                0.9714727       -20.96856      0.003894332       -14.37528                0               0                0               0
1.57426                0.9705766       -21.16808      0.004028239       -17.48875                0               0                0               0
1.58086                0.9696609       -21.36988       0.00416837       -20.63831                0               0                0               0
1.58746                0.9687262       -21.57407      0.004314741       -23.82648                0               0                0               0
1.59406                 0.967772       -21.78079      0.004467331       -27.05509                0               0                0               0
1.60066                0.9667983       -21.99019      0.004626089       -30.32536                0               0                0               0
1.60726                0.9658043       -22.20243      0.004790933       -33.63791                0               0                0               0
1.61386                0.9647891       -22.41765      0.004961756       -36.99284                0               0                0               0
1.62046                0.9637514       -22.63603      0.005138429       -40.38973                0               0                0               0
1.62706                0.9626897       -22.85771      0.005320802       -43.82775                0               0                0               0
1.63366                 0.961602       -23.08287      0.005508712       -47.30569                0               0                0               0
1.64026                0.9604861       -23.31165      0.005701982       -50.82199                0               0                0               0
1.64686                0.9593396        -23.5442      0.005900428       -54.37488                0               0                0               0
1.65347                0.9581598       -23.78064      0.006103861       -57.96234                0               0                0               0
1.66007                0.9569435       -24.02109      0.006312089       -61.58219                0               0                0               0
1.66667                0.9556876       -24.26567      0.006524924       -65.23216                0               0                0               0
1.67327                0.9543889       -24.51447      0.006742183       -68.90985                0               0                0               0
1.67987                0.9530439       -24.76755       0.00696369       -72.61286                0               0                0               0
1.68647                0.9516491       -25.02497      0.007189283       -76.33875                0               0                0               0
1.69307                 0.950201       -25.28678      0.007418812       -80.08509                0               0                0               0
1.69967                0.9486961       -25.55298      0.007652148        -83.8495                0               0                0               0
1.70627                0.9471311       -25.82359      0.007889179       -87.62964                0               0                0               0
1.71287                0.9455028        -26.0986      0.008129818       -91.42327                0               0                0               0
1.71947                0.9438081       -26.37797      0.008374003       -95.22821                0               0                0               0
1.72607                0.9420441       -26.66169      0.008621701        -99.0424                0               0                0               0
1.73267                0.9402082        -26.9497       0.00887291       -102.8639                0               0                0               0
1.73927                 0.938298       -27.24196      0.009127658       -106.6909                0               0                0               0
1.74587                0.9363113       -27.53841      0.009386005       -110.5218                0               0                0               0
1.75248                0.9342464         -27.839      0.009648052        -114.355                0               0                0               0
1.75908                0.9321016       -28.14368      0.009913937       -118.1891                0               0                0               0
1.76568                0.9298757       -28.45241       0.01018383       -122.0231                0               0                0               0
1.77228                0.9275675       -28.76517       0.01045794       -125.8558                0               0                0               0
1.77888                 0.925176       -29.08192       0.01073652       -129.6864                0               0                0               0
1.78548                0.9227005       -29.40267       0.01101986       -133.5143                0               0                0               0
1.79208                0.9201405       -29.72742       0.01130827        -137.339                0               0                0               0
1.79868                0.9174952       -30.05622       0.01160212       -141.1603                0               0                0               0
1.80528                0.9147643       -30.38911       0.01190181       -144.9781                0               0                0               0
1.81188                0.9119469       -30.72618       0.01220775       -148.7925                0               0                0               0
1.81848                0.9090426       -31.06752       0.01252041       -152.6037                0               0                0               0
1.82508                0.9060501       -31.41325       0.01284026       -156.4124                0               0                0               0
1.83168                0.9029685       -31.76353       0.01316779       -160.2191                0               0                0               0
1.83828                0.8997964       -32.11851       0.01350355       -164.0248                0               0                0               0
1.84488                0.8965318       -32.47838       0.01384804       -167.8303                0               0                0               0
1.85149                0.8931725       -32.84335       0.01420181       -171.6369                0               0                0               0
