! TOUCHSTONE file generated by CST MICROWAVE STUDIO
! Date and time: Tue Mar 11 13:57:16 2025
! Project name: transverse.cst
! Parameters = {Fracture=1; B=10; D=160; F=15; Feed=2.85625; L=100; M=20; R=0.384908; S=1; Theta=180; length=57.125; wave=114.25}
! Header version: 2024
! Port assignment regex: !\s*Touchstone port\s*([0-9]+)\s*=\s*(CST MWS port|CST DES external port|CST DES block port)\s*(.+)\s* \(\"(.*)\"\)(\s*mode\s*([0-9]+))?.*
! Touchstone port assignment:
! Touchstone port 1 = CST MWS port 1 ("")
! Touchstone port 2 = CST MWS port 2 ("")
# GHz S MA R 50
1                      0.9976926       -10.01195     0.0004518457       -167.4539                0               0                0               0
1.0066                 0.9975976       -10.10091      0.000449834       -172.5317                0               0                0               0
1.0132                 0.9975007       -10.19023     0.0004460781       -177.4606                0               0                0               0
1.0198                 0.9974027       -10.27994     0.0004405868        177.7772                0               0                0               0
1.0264                 0.9973039       -10.37005     0.0004333894        173.2034                0               0                0               0
1.033                  0.9972051       -10.46058     0.0004245397        168.8448                0               0                0               0
1.0396                 0.9971065       -10.55156     0.0004141214        164.7342                0               0                0               0
1.0462                 0.9970088       -10.64305     0.0004022553         160.912                0               0                0               0
1.05281                0.9969121       -10.73506     0.0003891085        157.4273                0               0                0               0
1.05941                0.9968167       -10.82766     0.0003749068        154.3398                0               0                0               0
1.06601                0.9967227       -10.92088     0.0003599505        151.7204                0               0                0               0
1.07261                  0.99663       -11.01478     0.0003446345        149.6515                0               0                0               0
1.07921                0.9965386        -11.1094     0.0003294716        148.2245                0               0                0               0
1.08581                0.9964482        -11.2048     0.0003151164         147.531                0               0                0               0
1.09241                0.9963585       -11.30102     0.0003023823        147.6467                0               0                0               0
1.09901                0.9962689       -11.39811     0.0002922371        148.6033                0               0                0               0
1.10561                 0.996179       -11.49611     0.0002857534        150.3504                0               0                0               0
1.11221                0.9960881       -11.59505      0.000283998        152.7222                0               0                0               0
1.11881                0.9959953       -11.69496     0.0002878649        155.4331                0               0                0               0
1.12541                0.9959001       -11.79588     0.0002979064        158.1235                0               0                0               0
1.13201                0.9958016       -11.89781     0.0003142421        160.4444                0               0                0               0
1.13861                0.9956988       -12.00077     0.0003365922        162.1359                0               0                0               0
1.14521                0.9955911       -12.10475      0.000364402        163.0614                0               0                0               0
1.15182                0.9954775       -12.20977     0.0003969884        163.1935                0               0                0               0
1.15842                0.9953576        -12.3158      0.000433653        162.5777                0               0                0               0
1.16502                0.9952304       -12.42284     0.0004737441        161.2963                0               0                0               0
1.17162                0.9950954       -12.53086     0.0005166821         159.443                0               0                0               0
1.17822                0.9949524       -12.63983     0.0005619607        157.1086                0               0                0               0
1.18482                0.9948006       -12.74974     0.0006091383        154.3742                0               0                0               0
1.19142                0.9946399       -12.86054     0.0006578263        151.3097                0               0                0               0
1.19802                0.9944704       -12.97222     0.0007076789        147.9739                0               0                0               0
1.20462                0.9942918       -13.08473     0.0007583823        144.4155                0               0                0               0
1.21122                0.9941045       -13.19806      0.000809649        140.6752                0               0                0               0
1.21782                0.9939087       -13.31217      0.000861211        136.7868                0               0                0               0
1.22442                0.9937048       -13.42705     0.0009128168        132.7784                0               0                0               0
1.23102                0.9934932       -13.54269     0.0009642275         128.674                0               0                0               0
1.23762                0.9932744       -13.65907      0.001015216        124.4937                0               0                0               0
1.24422                0.9930493       -13.77619      0.001065566        120.2547                0               0                0               0
1.25083                0.9928182       -13.89406       0.00111507        115.9723                0               0                0               0
1.25743                0.9925822        -14.0127      0.001163531        111.6597                0               0                0               0
1.26403                0.9923416       -14.13214      0.001210764        107.3287                0               0                0               0
1.27063                0.9920973        -14.2524      0.001256592        102.9901                0               0                0               0
1.27723                0.9918497       -14.37353      0.001300852        98.65361                0               0                0               0
1.28383                0.9915995       -14.49558      0.001343396        94.32847                0               0                0               0
1.29043                0.9913471       -14.61861      0.001384088        90.02334                0               0                0               0
1.29703                0.9910925       -14.74267      0.001422811        85.74653                0               0                0               0
1.30363                0.9908362       -14.86783      0.001459467        81.50611                0               0                0               0
1.31023                 0.990578       -14.99418      0.001493978           77.31                0               0                0               0
1.31683                0.9903178       -15.12177      0.001526293        73.16605                0               0                0               0
1.32343                0.9900554       -15.25069      0.001556385        69.08209                0               0                0               0
1.33003                0.9897901       -15.38101      0.001584257        65.06597                0               0                0               0
1.33663                0.9895213        -15.5128      0.001609947        61.12561                0               0                0               0
1.34323                0.9892482       -15.64612      0.001633529        57.26892                0               0                0               0
1.34984                  0.98897       -15.78104      0.001655116        53.50384                0               0                0               0
1.35644                0.9886857        -15.9176      0.001674868        49.83822                0               0                0               0
1.36304                 0.988394       -16.05587      0.001692989        46.27975                0               0                0               0
1.36964                0.9880936       -16.19588      0.001709739        42.83579                0               0                0               0
1.37624                0.9877835       -16.33766      0.001725429        39.51313                0               0                0               0
1.38284                0.9874622       -16.48123       0.00174043         36.3178                0               0                0               0
1.38944                0.9871285       -16.62659      0.001755172        33.25469                0               0                0               0
1.39604                0.9867814       -16.77376      0.001770144        30.32717                0               0                0               0
1.40264                0.9864193       -16.92273      0.001785893        27.53671                0               0                0               0
1.40924                0.9860415       -17.07347      0.001803021        24.88239                0               0                0               0
1.41584                 0.985647       -17.22598      0.001822177        22.36051                0               0                0               0
1.42244                0.9852348       -17.38021      0.001844047        19.96418                0               0                0               0
1.42904                0.9848045       -17.53615      0.001869343        17.68306                0               0                0               0
1.43564                0.9843554       -17.69376      0.001898783        15.50334                0               0                0               0
1.44224                0.9838875       -17.85301      0.001933078        13.40783                0               0                0               0
1.44884                0.9834006       -18.01386      0.001972903        11.37639                0               0                0               0
1.45545                0.9828945       -18.17627      0.002018887        9.386608                0               0                0               0
1.46205                0.9823697       -18.34024      0.002071586        7.414693                0               0                0               0
1.46865                0.9818265       -18.50575      0.002131471        5.436503                0               0                0               0
1.47525                0.9812656       -18.67278      0.002198916        3.428611                0               0                0               0
1.48185                0.9806873       -18.84134       0.00227419        1.369312                0               0                0               0
1.48845                0.9800927       -19.01145      0.002357458      -0.7605668                0               0                0               0
1.49505                0.9794823       -19.18311      0.002448783       -2.977079                0               0                0               0
1.50165                0.9788571        -19.3564      0.002548135       -5.292848                0               0                0               0
1.50825                0.9782177       -19.53133      0.002655397       -7.716996                0               0                0               0
1.51485                0.9775649       -19.70801      0.002770381        -10.2553                0               0                0               0
1.52145                0.9768993       -19.88649      0.002892838       -12.91052                0               0                0               0
1.52805                0.9762215       -20.06687      0.003022473       -15.68275                0               0                0               0
1.53465                0.9755318       -20.24927       0.00315895       -18.56992                0               0                0               0
1.54125                0.9748302       -20.43378      0.003301908       -21.56823                0               0                0               0
1.54785                 0.974117       -20.62055      0.003450968       -24.67253                0               0                0               0
1.55446                0.9733914        -20.8097      0.003605735       -27.87676                0               0                0               0
1.56106                0.9726533       -21.00137      0.003765814       -31.17419                0               0                0               0
1.56766                0.9719016        -21.1957      0.003930809       -34.55774                0               0                0               0
1.57426                0.9711352       -21.39283      0.004100326       -38.02014                0               0                0               0
1.58086                0.9703527        -21.5929       0.00427398       -41.55411                0               0                0               0
1.58746                0.9695524       -21.79604        0.0044514       -45.15246                0               0                0               0
1.59406                0.9687325       -22.00238      0.004632229       -48.80821                0               0                0               0
1.60066                0.9678911       -22.21204      0.004816127       -52.51458                0               0                0               0
1.60726                0.9670254       -22.42513      0.005002773       -56.26512                0               0                0               0
1.61386                 0.966133       -22.64175      0.005191873       -60.05365                0               0                0               0
1.62046                0.9652116       -22.86198      0.005383157        -63.8743                0               0                0               0
1.62706                0.9642581       -23.08589      0.005576384       -67.72155                0               0                0               0
1.63366                  0.96327       -23.31353      0.005771342       -71.59018                0               0                0               0
1.64026                0.9622445       -23.54495       0.00596786       -75.47527                0               0                0               0
1.64686                0.9611785       -23.78017      0.006165798       -79.37225                0               0                0               0
1.65347                0.9600698       -24.01921       0.00636506       -83.27682                0               0                0               0
1.66007                0.9589155       -24.26207      0.006565593       -87.18501                0               0                0               0
1.66667                0.9577135       -24.50872      0.006767389       -91.09313                0               0                0               0
1.67327                0.9564614       -24.75917       0.00697049       -94.99779                0               0                0               0
1.67987                0.9551572       -25.01336      0.007174992       -98.89593                0               0                0               0
1.68647                0.9537993       -25.27129       0.00738104       -102.7848                0               0                0               0
1.69307                0.9523858       -25.53291      0.007588843       -106.6619                0               0                0               0
1.69967                0.9509158       -25.79819      0.007798663       -110.5251                0               0                0               0
1.70627                 0.949388       -26.06711      0.008010824       -114.3726                0               0                0               0
1.71287                0.9478017       -26.33964      0.008225711        -118.203                0               0                0               0
1.71947                0.9461561       -26.61578      0.008443769       -122.0151                0               0                0               0
1.72607                 0.944451       -26.89553      0.008665507       -125.8083                0               0                0               0
1.73267                0.9426859       -27.17891       0.00889149       -129.5821                0               0                0               0
1.73927                0.9408606       -27.46596      0.009122343       -133.3367                0               0                0               0
1.74587                0.9389752       -27.75672      0.009358744       -137.0724                0               0                0               0
1.75248                0.9370294       -28.05127      0.009601423         -140.79                0               0                0               0
1.75908                0.9350231       -28.34972      0.009851155       -144.4909                0               0                0               0
1.76568                0.9329559       -28.65219       0.01010875       -148.1765                0               0                0               0
1.77228                0.9308274       -28.95881       0.01037507       -151.8489                0               0                0               0
1.77888                0.9286371       -29.26975       0.01065096       -155.5103                0               0                0               0
1.78548                0.9263836        -29.5852       0.01093734       -159.1635                0               0                0               0
1.79208                 0.924066       -29.90536       0.01123508       -162.8113                0               0                0               0
1.79868                0.9216822       -30.23045       0.01154508        -166.457                0               0                0               0
1.80528                0.9192306       -30.56071       0.01186822       -170.1037                0               0                0               0
1.81188                0.9167082       -30.89638       0.01220536       -173.7552                0               0                0               0
1.81848                0.9141121       -31.23772       0.01255731       -177.4148                0               0                0               0
1.82508                0.9114386       -31.58499       0.01292487        178.9137                0               0                0               0
1.83168                0.9086838       -31.93844       0.01330876        175.2268                0               0                0               0
1.83828                0.9058428       -32.29835       0.01370965         171.521                0               0                0               0
1.84488                0.9029106       -32.66494       0.01412815        167.7929                0               0                0               0
1.85149                0.8998816       -33.03846       0.01456478        164.0394                0               0                0               0
