! TOUCHSTONE file generated by CST MICROWAVE STUDIO
! Date and time: Tue Mar 11 13:57:42 2025
! Project name: transverse.cst
! Parameters = {Fracture=5; B=12.5; D=160; F=15; Feed=2.85625; L=100; M=20; R=0.384908; S=2; Theta=180; length=57.125; wave=114.25}
! Header version: 2024
! Port assignment regex: !\s*Touchstone port\s*([0-9]+)\s*=\s*(CST MWS port|CST DES external port|CST DES block port)\s*(.+)\s* \(\"(.*)\"\)(\s*mode\s*([0-9]+))?.*
! Touchstone port assignment:
! Touchstone port 1 = CST MWS port 1 ("")
! Touchstone port 2 = CST MWS port 2 ("")
# GHz S MA R 50
1                      0.9976766       -9.760835     0.0004345333       -173.0999                0               0                0               0
1.0066                 0.9975932        -9.84829     0.0004338326       -177.7926                0               0                0               0
1.0132                 0.9975078       -9.936253     0.0004317282        177.6694                0               0                0               0
1.0198                 0.9974208       -10.02474     0.0004282573        173.3035                0               0                0               0
1.0264                 0.9973319       -10.11376     0.0004234781        169.1302                0               0                0               0
1.033                  0.9972417       -10.20333     0.0004174744        165.1733                0               0                0               0
1.0396                 0.9971499       -10.29348     0.0004103601        161.4602                0               0                0               0
1.0462                  0.997057       -10.38421     0.0004022842        158.0223                0               0                0               0
1.05281                0.9969625       -10.47555      0.000393438         154.895                0               0                0               0
1.05941                0.9968669       -10.56753     0.0003840624        152.1169                0               0                0               0
1.06601                0.9967698       -10.66016     0.0003744556        149.7286                0               0                0               0
1.07261                0.9966713       -10.75347     0.0003649815        147.7701                0               0                0               0
1.07921                0.9965713       -10.84748     0.0003560743        146.2763                0               0                0               0
1.08581                0.9964694       -10.94222     0.0003482403        145.2701                0               0                0               0
1.09241                0.9963656       -11.03771     0.0003420487        144.7537                0               0                0               0
1.09901                0.9962597       -11.13397     0.0003381106        144.6981                0               0                0               0
1.10561                0.9961513       -11.23101     0.0003370405        145.0352                0               0                0               0
1.11221                0.9960402       -11.32887     0.0003394035        145.6553                0               0                0               0
1.11881                0.9959259       -11.42754     0.0003456562        146.4143                0               0                0               0
1.12541                0.9958083       -11.52706      0.000356097        147.1515                0               0                0               0
1.13201                0.9956869       -11.62742     0.0003708402        147.7123                0               0                0               0
1.13861                0.9955614       -11.72864     0.0003898213        147.9696                0               0                0               0
1.14521                0.9954315       -11.83072     0.0004128292        147.8357                0               0                0               0
1.15182                0.9952966       -11.93368     0.0004395507        147.2648                0               0                0               0
1.15842                0.9951568       -12.03751     0.0004696154        146.2462                0               0                0               0
1.16502                0.9950117       -12.14221     0.0005026319         144.795                0               0                0               0
1.17162                0.9948608       -12.24779     0.0005382115        142.9421                0               0                0               0
1.17822                0.9947041       -12.35424     0.0005759828         140.727                0               0                0               0
1.18482                0.9945415       -12.46157     0.0006155978        138.1913                0               0                0               0
1.19142                0.9943725       -12.56976     0.0006567329        135.3762                0               0                0               0
1.19802                0.9941974       -12.67882     0.0006990893          132.32                0               0                0               0
1.20462                 0.994016       -12.78875     0.0007423893        129.0575                0               0                0               0
1.21122                0.9938281       -12.89954     0.0007863744        125.6198                0               0                0               0
1.21782                0.9936341       -13.01119     0.0008308032        122.0341                0               0                0               0
1.22442                0.9934338       -13.12372     0.0008754489        118.3248                0               0                0               0
1.23102                0.9932272       -13.23711     0.0009200977        114.5129                0               0                0               0
1.23762                0.9930148       -13.35139     0.0009645485        110.6171                0               0                0               0
1.24422                0.9927964       -13.46655      0.001008611        106.6539                0               0                0               0
1.25083                0.9925722       -13.58262      0.001052106         102.638                0               0                0               0
1.25743                0.9923422        -13.6996      0.001094865        98.58244                0               0                0               0
1.26403                 0.992107       -13.81752      0.001136734        94.49918                0               0                0               0
1.27063                0.9918663        -13.9364      0.001177565        90.39903                0               0                0               0
1.27723                0.9916205       -14.05627      0.001217229        86.29197                0               0                0               0
1.28383                0.9913693       -14.17713      0.001255606        82.18728                0               0                0               0
1.29043                0.9911131       -14.29904      0.001292595        78.09367                0               0                0               0
1.29703                0.9908518       -14.42202      0.001328109        74.01939                0               0                0               0
1.30363                0.9905852       -14.54611      0.001362079        69.97236                0               0                0               0
1.31023                0.9903134       -14.67133      0.001394457        65.96019                0               0                0               0
1.31683                0.9900363       -14.79772      0.001425216        61.99025                0               0                0               0
1.32343                0.9897535       -14.92532      0.001454353        58.06972                0               0                0               0
1.33003                0.9894648       -15.05417       0.00148189         54.2056                0               0                0               0
1.33663                0.9891701        -15.1843      0.001507878        50.40469                0               0                0               0
1.34323                0.9888689       -15.31574      0.001532398        46.67359                0               0                0               0
1.34984                0.9885609       -15.44853      0.001555563        43.01864                0               0                0               0
1.35644                0.9882456        -15.5827       0.00157752        39.44585                0               0                0               0
1.36304                0.9879228       -15.71828      0.001598456         35.9608                0               0                0               0
1.36964                0.9875918        -15.8553      0.001618591        32.56848                0               0                0               0
1.37624                0.9872523       -15.99378      0.001638188        29.27318                0               0                0               0
1.38284                0.9869037       -16.13374      0.001657548        26.07827                0               0                0               0
1.38944                0.9865457       -16.27522      0.001677013        22.98595                0               0                0               0
1.39604                0.9861778       -16.41822       0.00169696         19.9971                0               0                0               0
1.40264                0.9857996       -16.56278      0.001717805        17.11095                0               0                0               0
1.40924                0.9854108       -16.70889      0.001739992        14.32496                0               0                0               0
1.41584                0.9850108       -16.85659       0.00176399        11.63452                0               0                0               0
1.42244                0.9845996       -17.00589      0.001790287        9.032921                0               0                0               0
1.42904                0.9841765        -17.1568      0.001819377        6.511251                0               0                0               0
1.43564                0.9837417       -17.30935      0.001851755        4.058495                0               0                0               0
1.44224                0.9832949       -17.46355      0.001887898        1.661713                0               0                0               0
1.44884                0.9828358       -17.61942      0.001928261      -0.6936298                0               0                0               0
1.45545                0.9823644         -17.777       0.00197326       -3.023236                0               0                0               0
1.46205                0.9818806        -17.9363      0.002023264        -5.34344                0               0                0               0
1.46865                0.9813844       -18.09735      0.002078586       -7.670634                0               0                0               0
1.47525                0.9808757       -18.26019      0.002139477       -10.02068                0               0                0               0
1.48185                0.9803546       -18.42487       0.00220612       -12.40839                0               0                0               0
1.48845                0.9798209       -18.59142      0.002278632       -14.84705                0               0                0               0
1.49505                0.9792747       -18.75991       0.00235706       -17.34808                0               0                0               0
1.50165                0.9787158       -18.93037      0.002441389       -19.92084                0               0                0               0
1.50825                 0.978144       -19.10288      0.002531546       -22.57254                0               0                0               0
1.51485                0.9775594        -19.2775      0.002627405       -25.30827                0               0                0               0
1.52145                0.9769616       -19.45429      0.002728791       -28.13109                0               0                0               0
1.52805                0.9763503       -19.63335      0.002835493       -31.04225                0               0                0               0
1.53465                 0.975725       -19.81474      0.002947266        -34.0414                0               0                0               0
1.54125                0.9750854       -19.99854      0.003063841       -37.12685                0               0                0               0
1.54785                0.9744308       -20.18486      0.003184925       -40.29579                0               0                0               0
1.55446                0.9737603       -20.37376      0.003310216       -43.54453                0               0                0               0
1.56106                0.9730733       -20.56536      0.003439398       -46.86869                0               0                0               0
1.56766                0.9723688       -20.75972      0.003572155       -50.26344                0               0                0               0
1.57426                0.9716456       -20.95696      0.003708165        -53.7236                0               0                0               0
1.58086                0.9709026       -21.15715      0.003847113        -57.2438                0               0                0               0
1.58746                0.9701387       -21.36038      0.003988688       -60.81854                0               0                0               0
1.59406                0.9693521       -21.56675      0.004132587       -64.44234                0               0                0               0
1.60066                0.9685414       -21.77634      0.004278521       -68.10976                0               0                0               0
1.60726                0.9677052       -21.98923      0.004426216       -71.81546                0               0                0               0
1.61386                0.9668417       -22.20549      0.004575415       -75.55423                0               0                0               0
1.62046                0.9659489        -22.4252      0.004725877       -79.32101                0               0                0               0
1.62706                0.9650255       -22.64844      0.004877393       -83.11095                0               0                0               0
1.63366                0.9640694       -22.87525       0.00502977       -86.91937                0               0                0               0
1.64026                0.9630788       -23.10572       0.00518285       -90.74181                0               0                0               0
1.64686                0.9620517       -23.33988        0.0053365         -94.574                0               0                0               0
1.65347                0.9609863       -23.57779      0.005490625       -98.41192                0               0                0               0
1.66007                0.9598808       -23.81952      0.005645166       -102.2517                0               0                0               0
1.66667                0.9587333       -24.06509        0.0058001       -106.0899                0               0                0               0
1.67327                0.9575419       -24.31457      0.005955447        -109.923                0               0                0               0
1.67987                0.9563049       -24.56798      0.006111271       -113.7481                0               0                0               0
1.68647                0.9550206       -24.82539      0.006267683       -117.5621                0               0                0               0
1.69307                0.9536872       -25.08682       0.00642484       -121.3627                0               0                0               0
1.69967                 0.952303       -25.35233       0.00658295       -125.1475                0               0                0               0
1.70627                0.9508664       -25.62197      0.006742274       -128.9146                0               0                0               0
1.71287                0.9493758        -25.8958      0.006903123       -132.6623                0               0                0               0
1.71947                0.9478296       -26.17386      0.007065864       -136.3893                0               0                0               0
1.72607                 0.946226       -26.45622      0.007230911       -140.0947                0               0                0               0
1.73267                0.9445638       -26.74295      0.007398738       -143.7779                0               0                0               0
1.73927                 0.942841       -27.03413      0.007569862       -147.4388                0               0                0               0
1.74587                0.9410562       -27.32983      0.007744854       -151.0776                0               0                0               0
1.75248                0.9392073       -27.63015      0.007924325        -154.695                0               0                0               0
1.75908                0.9372928       -27.93519      0.008108928       -158.2921                0               0                0               0
1.76568                0.9353108       -28.24505      0.008299353       -161.8704                0               0                0               0
1.77228                 0.933259       -28.55985      0.008496319       -165.4318                0               0                0               0
1.77888                0.9311356       -28.87971      0.008700567       -168.9786                0               0                0               0
1.78548                0.9289378       -29.20476      0.008912853       -172.5136                0               0                0               0
1.79208                0.9266634       -29.53514       0.00913394       -176.0399                0               0                0               0
1.79868                0.9243096       -29.87097      0.009364589       -179.5607                0               0                0               0
1.80528                0.9218734       -30.21243       0.00960555        176.9203                0               0                0               0
1.81188                0.9193517       -30.55965      0.009857558        173.3993                0               0                0               0
1.81848                0.9167411        -30.9128       0.01012131        169.8725                0               0                0               0
1.82508                0.9140379       -31.27202       0.01039748        166.3358                0               0                0               0
1.83168                0.9112381       -31.63748       0.01068667        162.7853                0               0                0               0
1.83828                0.9083375       -32.00932       0.01098947         159.217                0               0                0               0
1.84488                0.9053319       -32.38771       0.01130637        155.6272                0               0                0               0
1.85149                0.9022164       -32.77279       0.01163782        152.0122                0               0                0               0
