! TOUCHSTONE file generated by CST MICROWAVE STUDIO
! Date and time: Tue Mar 11 13:56:11 2025
! Project name: transverse.cst
! Parameters = {Fracture=5; B=12.5; D=160; F=5; Feed=2.85625; L=100; M=30; R=0.384908; S=2; Theta=0; length=57.125; wave=114.25}
! Header version: 2024
! Port assignment regex: !\s*Touchstone port\s*([0-9]+)\s*=\s*(CST MWS port|CST DES external port|CST DES block port)\s*(.+)\s* \(\"(.*)\"\)(\s*mode\s*([0-9]+))?.*
! Touchstone port assignment:
! Touchstone port 1 = CST MWS port 1 ("")
! Touchstone port 2 = CST MWS port 2 ("")
# GHz S MA R 50
1                      0.9976369       -9.766308     0.0004021466        -173.694                0               0                0               0
1.0066                 0.9975408        -9.85399      0.000404231       -178.3901                0               0                0               0
1.0132                 0.9974416       -9.942068     0.0004050033        177.0235                0               0                0               0
1.0198                   0.99734       -10.03054     0.0004044624          172.56                0               0                0               0
1.0264                 0.9972365       -10.11942      0.000402621        168.2349                0               0                0               0
1.033                  0.9971313       -10.20872     0.0003995076         164.066                0               0                0               0
1.0396                 0.9970253       -10.29845     0.0003951701         160.074                0               0                0               0
1.0462                 0.9969187       -10.38864     0.0003896784        156.2828                0               0                0               0
1.05281                0.9968118       -10.47933     0.0003831289        152.7198                0               0                0               0
1.05941                0.9967051       -10.57053     0.0003756498        149.4164                0               0                0               0
1.06601                0.9965988        -10.6623     0.0003674065        146.4082                0               0                0               0
1.07261                0.9964929       -10.75467     0.0003586089        143.7343                0               0                0               0
1.07921                0.9963876       -10.84768     0.0003495191        141.4364                0               0                0               0
1.08581                 0.996283       -10.94138     0.0003404591        139.5568                0               0                0               0
1.09241                0.9961786       -11.03581     0.0003318169        138.1343                0               0                0               0
1.09901                0.9960746       -11.13101     0.0003240499        137.1976                0               0                0               0
1.10561                0.9959703       -11.22703     0.0003176795         136.757                0               0                0               0
1.11221                0.9958654        -11.3239     0.0003132754        136.7939                0               0                0               0
1.11881                0.9957594       -11.42166     0.0003114234        137.2511                0               0                0               0
1.12541                0.9956517       -11.52033     0.0003126786        138.0278                0               0                0               0
1.13201                0.9955417       -11.61995     0.0003175082        138.9845                0               0                0               0
1.13861                0.9954286       -11.72053       0.00032624        139.9583                0               0                0               0
1.14521                 0.995312       -11.82208       0.00033903        140.7866                0               0                0               0
1.15182                 0.995191       -11.92462     0.0003558601          141.33                0               0                0               0
1.15842                0.9950647       -12.02815     0.0003765629        141.4886                0               0                0               0
1.16502                0.9949329       -12.13267      0.000400864        141.2056                0               0                0               0
1.17162                0.9947948       -12.23815     0.0004284255        140.4629                0               0                0               0
1.17822                0.9946497       -12.34461     0.0004588833        139.2715                0               0                0               0
1.18482                0.9944974         -12.452      0.000491873        137.6609                0               0                0               0
1.19142                0.9943374       -12.56033     0.0005270445        135.6705                0               0                0               0
1.19802                0.9941695       -12.66955     0.0005640699        133.3431                0               0                0               0
1.20462                0.9939936       -12.77966     0.0006026453        130.7214                0               0                0               0
1.21122                0.9938095       -12.89062     0.0006424903        127.8454                0               0                0               0
1.21782                0.9936174       -13.00242     0.0006833457        124.7516                0               0                0               0
1.22442                0.9934175       -13.11503     0.0007249711        121.4723                0               0                0               0
1.23102                  0.99321       -13.22843     0.0007671425        118.0364                0               0                0               0
1.23762                0.9929953       -13.34263       0.00080965        114.4689                0               0                0               0
1.24422                0.9927739        -13.4576     0.0008522971         110.792                0               0                0               0
1.25083                0.9925463       -13.57334     0.0008948981         107.025                0               0                0               0
1.25743                 0.992313       -13.68987     0.0009372786         103.185                0               0                0               0
1.26403                0.9920746        -13.8072     0.0009792743         99.2871                0               0                0               0
1.27063                0.9918319       -13.92534      0.001020731         95.3448                0               0                0               0
1.27723                0.9915852       -14.04432      0.001061506        91.37021                0               0                0               0
1.28383                0.9913352       -14.16418      0.001101465        87.37429                0               0                0               0
1.29043                0.9910824       -14.28496      0.001140489        83.36709                0               0                0               0
1.29703                0.9908273       -14.40672      0.001178469        79.35787                0               0                0               0
1.30363                  0.99057        -14.5295      0.001215309        75.35525                0               0                0               0
1.31023                0.9903111       -14.65336      0.001250929        71.36734                0               0                0               0
1.31683                0.9900504       -14.77837      0.001285266        67.40179                0               0                0               0
1.32343                 0.989788        -14.9046      0.001318272        63.46591                0               0                0               0
1.33003                0.9895238       -15.03211      0.001349919        59.56671                0               0                0               0
1.33663                0.9892574       -15.16097      0.001380201        55.71092                0               0                0               0
1.34323                0.9889884       -15.29126      0.001409134          51.905                0               0                0               0
1.34984                0.9887165       -15.42304      0.001436756         48.1552                0               0                0               0
1.35644                0.9884407       -15.55636      0.001463134        44.46746                0               0                0               0
1.36304                0.9881605       -15.69131      0.001488361        40.84742                0               0                0               0
1.36964                0.9878749       -15.82792       0.00151256        37.30037                0               0                0               0
1.37624                0.9875829       -15.96624      0.001535885        33.83114                0               0                0               0
1.38284                0.9872835       -16.10632      0.001558521        30.44401                0               0                0               0
1.38944                0.9869759        -16.2482      0.001580687        27.14258                0               0                0               0
1.39604                0.9866588        -16.3919      0.001602633        23.92963                0               0                0               0
1.40264                0.9863313       -16.53745      0.001624642        20.80695                0               0                0               0
1.40924                0.9859923       -16.68486      0.001647029        17.77519                0               0                0               0
1.41584                0.9856408       -16.83414      0.001670137        14.83369                0               0                0               0
1.42244                0.9852761       -16.98529      0.001694334        11.98029                0               0                0               0
1.42904                0.9848972       -17.13832      0.001720007        9.211225                0               0                0               0
1.43564                0.9845035       -17.29322      0.001747561        6.521056                0               0                0               0
1.44224                0.9840944       -17.44998      0.001777407        3.902619                0               0                0               0
1.44884                0.9836693        -17.6086      0.001809956        1.347091                0               0                0               0
1.45545                 0.983228       -17.76908      0.001845609       -1.155876                0               0                0               0
1.46205                0.9827703       -17.93141      0.001884753       -3.617929                0               0                0               0
1.46865                 0.982296       -18.09559      0.001927744       -6.051698                0               0                0               0
1.47525                 0.981805       -18.26163      0.001974906       -8.470427                0               0                0               0
1.48185                0.9812975       -18.42953      0.002026521       -10.88755                0               0                0               0
1.48845                0.9807737       -18.59931      0.002082822       -13.31624                0               0                0               0
1.49505                0.9802337       -18.77101      0.002143992       -15.76905                0               0                0               0
1.50165                0.9796777       -18.94466      0.002210157       -18.25747                0               0                0               0
1.50825                 0.979106        -19.1203      0.002281392       -20.79169                0               0                0               0
1.51485                0.9785189       -19.29799      0.002357719       -23.38033                0               0                0               0
1.52145                0.9779165       -19.47779      0.002439108       -26.03039                0               0                0               0
1.52805                0.9772989       -19.65979      0.002525485       -28.74715                0               0                0               0
1.53465                0.9766661       -19.84405      0.002616735       -31.53423                0               0                0               0
1.54125                0.9760179       -20.03069      0.002712706        -34.3937                0               0                0               0
1.54785                 0.975354       -20.21978      0.002813216       -37.32619                0               0                0               0
1.55446                0.9746741       -20.41146      0.002918061        -40.3311                0               0                0               0
1.56106                0.9739772       -20.60582      0.003027012       -43.40673                0               0                0               0
1.56766                0.9732628       -20.80299      0.003139833       -46.55051                0               0                0               0
1.57426                0.9725296       -21.00307      0.003256273       -49.75914                0               0                0               0
1.58086                0.9717763        -21.2062      0.003376079       -53.02875                0               0                0               0
1.58746                0.9710015       -21.41247      0.003498997       -56.35506                0               0                0               0
1.59406                0.9702034       -21.62201      0.003624777       -59.73348                0               0                0               0
1.60066                0.9693801       -21.83493      0.003753173       -63.15924                0               0                0               0
1.60726                0.9685296       -22.05131      0.003883954       -66.62746                0               0                0               0
1.61386                0.9676496       -22.27126      0.004016901       -70.13321                0               0                0               0
1.62046                0.9667377       -22.49486      0.004151811       -73.67161                0               0                0               0
1.62706                0.9657915       -22.72218      0.004288503       -77.23784                0               0                0               0
1.63366                0.9648084       -22.95328      0.004426821       -80.82721                0               0                0               0
1.64026                0.9637858       -23.18822      0.004566633       -84.43514                0               0                0               0
1.64686                 0.962721       -23.42702      0.004707836       -88.05725                0               0                0               0
1.65347                0.9616115       -23.66973      0.004850363       -91.68935                0               0                0               0
1.66007                0.9604548       -23.91635      0.004994183       -95.32746                0               0                0               0
1.66667                0.9592484        -24.1669      0.005139299       -98.96784                0               0                0               0
1.67327                  0.95799       -24.42137      0.005285759        -102.607                0               0                0               0
1.67987                0.9566774       -24.67977      0.005433657       -106.2417                0               0                0               0
1.68647                0.9553085       -24.94206      0.005583128        -109.869                0               0                0               0
1.69307                0.9538813       -25.20825       0.00573436       -113.4864                0               0                0               0
1.69967                0.9523944       -25.47831       0.00588759       -117.0915                0               0                0               0
1.70627                 0.950846       -25.75223      0.006043108       -120.6825                0               0                0               0
1.71287                0.9492348          -26.03      0.006201256       -124.2577                0               0                0               0
1.71947                0.9475596        -26.3116      0.006362427        -127.816                0               0                0               0
1.72607                0.9458192       -26.59705      0.006527071       -131.3567                0               0                0               0
1.73267                0.9440129       -26.88634      0.006695689       -134.8795                0               0                0               0
1.73927                0.9421397       -27.17951      0.006868827       -138.3846                0               0                0               0
1.74587                 0.940199       -27.47658      0.007047084       -141.8726                0               0                0               0
1.75248                0.9381899        -27.7776      0.007231099       -145.3445                0               0                0               0
1.75908                0.9361118       -28.08265       0.00742155       -148.8019                0               0                0               0
1.76568                 0.933964        -28.3918      0.007619148       -152.2468                0               0                0               0
1.77228                0.9317451       -28.70515      0.007824629       -155.6816                0               0                0               0
1.77888                0.9294547       -29.02282      0.008038752       -159.1091                0               0                0               0
1.78548                0.9270912       -29.34494      0.008262283       -162.5324                0               0                0               0
1.79208                0.9246532       -29.67165      0.008495992       -165.9551                0               0                0               0
1.79868                 0.922139       -30.00312      0.008740646       -169.3807                0               0                0               0
1.80528                0.9195467       -30.33952      0.008996991       -172.8133                0               0                0               0
1.81188                0.9168738       -30.68103      0.009265756       -176.2569                0               0                0               0
1.81848                0.9141176       -31.02786      0.009547632       -179.7154                0               0                0               0
1.82508                0.9112749       -31.38019      0.009843274        176.8071                0               0                0               0
1.83168                0.9083423       -31.73824       0.01015329        173.3066                0               0                0               0
1.83828                0.9053157       -32.10219       0.01047823        169.7794                0               0                0               0
1.84488                0.9021909       -32.47224       0.01081858        166.2219                0               0                0               0
1.85149                0.8989631        -32.8486       0.01117478        162.6308                0               0                0               0
