! TOUCHSTONE file generated by CST MICROWAVE STUDIO
! Date and time: Tue Mar 11 13:57:44 2025
! Project name: transverse.cst
! Parameters = {Fracture=5; B=12.5; D=160; F=15; Feed=2.85625; L=100; M=30; R=0.384908; S=2; Theta=180; length=57.125; wave=114.25}
! Header version: 2024
! Port assignment regex: !\s*Touchstone port\s*([0-9]+)\s*=\s*(CST MWS port|CST DES external port|CST DES block port)\s*(.+)\s* \(\"(.*)\"\)(\s*mode\s*([0-9]+))?.*
! Touchstone port assignment:
! Touchstone port 1 = CST MWS port 1 ("")
! Touchstone port 2 = CST MWS port 2 ("")
# GHz S MA R 50
1                      0.9975023       -9.737764     0.0005126431        170.5503                0               0                0               0
1.0066                 0.9974343       -9.823457     0.0005086364        164.6233                0               0                0               0
1.0132                 0.9973689       -9.909833     0.0005024678        158.8024                0               0                0               0
1.0198                 0.9973057       -9.996947      0.000494106        153.0972                0               0                0               0
1.0264                 0.9972442       -10.08485     0.0004835325        147.5206                0               0                0               0
1.033                  0.9971837       -10.17358     0.0004707433        142.0896                0               0                0               0
1.0396                 0.9971235       -10.26319     0.0004557518        136.8262                0               0                0               0
1.0462                 0.9970626       -10.35371     0.0004385925        131.7597                0               0                0               0
1.05281                0.9970002       -10.44516     0.0004193254        126.9288                0               0                0               0
1.05941                0.9969354       -10.53757     0.0003980441        122.3853                0               0                0               0
1.06601                0.9968672       -10.63094     0.0003748865        118.1998                0               0                0               0
1.07261                0.9967946       -10.72527     0.0003500525        114.4692                0               0                0               0
1.07921                0.9967165       -10.82056     0.0003238315        111.3289                0               0                0               0
1.08581                0.9966324        -10.9168     0.0002966477        108.9696                0               0                0               0
1.09241                0.9965411       -11.01395     0.0002691341        107.6604                0               0                0               0
1.09901                0.9964422         -11.112     0.0002422523        107.7723                0               0                0               0
1.10561                0.9963349       -11.21091     0.0002174726        109.7787                0               0                0               0
1.11221                0.9962188       -11.31064     0.0001969828        114.1585                0               0                0               0
1.11881                0.9960937       -11.41115     0.0001837291        121.0654                0               0                0               0
1.12541                0.9959592       -11.51239     0.0001808244        129.7769                0               0                0               0
1.13201                0.9958154       -11.61434     0.0001901377        138.5725                0               0                0               0
1.13861                0.9956624       -11.71693     0.0002112477        145.6919                0               0                0               0
1.14521                0.9955005       -11.82014     0.0002420563        150.3442                0               0                0               0
1.15182                0.9953301       -11.92394     0.0002801505        152.6455                0               0                0               0
1.15842                0.9951518       -12.02828     0.0003235621        153.0678                0               0                0               0
1.16502                0.9949661       -12.13316     0.0003708743        152.0898                0               0                0               0
1.17162                0.9947737       -12.23855     0.0004210933        150.0904                0               0                0               0
1.17822                0.9945757       -12.34445     0.0004735047        147.3452                0               0                0               0
1.18482                0.9943727       -12.45087     0.0005275714        144.0502                0               0                0               0
1.19142                0.9941655        -12.5578     0.0005828672        140.3449                0               0                0               0
1.19802                 0.993955       -12.66529     0.0006390364          136.33                0               0                0               0
1.20462                0.9937421       -12.77335     0.0006957685        132.0788                0               0                0               0
1.21122                0.9935275       -12.88203      0.000752783        127.6463                0               0                0               0
1.21782                0.9933117       -12.99137     0.0008098194         123.074                0               0                0               0
1.22442                0.9930955       -13.10143     0.0008666316         118.394                0               0                0               0
1.23102                 0.992879       -13.21227     0.0009229837        113.6318                0               0                0               0
1.23762                0.9926629       -13.32396      0.000978648        108.8075                0               0                0               0
1.24422                0.9924469       -13.43656      0.001033404        103.9379                0               0                0               0
1.25083                 0.992231       -13.55015      0.001087037        99.03666                0               0                0               0
1.25743                0.9920153       -13.66481       0.00113934        94.11559                0               0                0               0
1.26403                0.9917991       -13.78059      0.001190112         89.1848                0               0                0               0
1.27063                 0.991582       -13.89757      0.001239159        84.25325                0               0                0               0
1.27723                0.9913633       -14.01582      0.001286297        79.32902                0               0                0               0
1.28383                0.9911421       -14.13539      0.001331351        74.41955                0               0                0               0
1.29043                0.9909174       -14.25634      0.001374156         69.5318                0               0                0               0
1.29703                0.9906884       -14.37871      0.001414561        64.67245                0               0                0               0
1.30363                0.9904538       -14.50253      0.001452427        59.84803                0               0                0               0
1.31023                0.9902125       -14.62785      0.001487632        55.06497                0               0                0               0
1.31683                0.9899633       -14.75465      0.001520072        50.32979                0               0                0               0
1.32343                0.9897051       -14.88298      0.001549663        45.64908                0               0                0               0
1.33003                0.9894367       -15.01281      0.001576343        41.02965                0               0                0               0
1.33663                0.9891572       -15.14414      0.001600075        36.47858                0               0                0               0
1.34323                0.9888654       -15.27695      0.001620852        32.00323                0               0                0               0
1.34984                0.9885606       -15.41122      0.001638696        27.61132                0               0                0               0
1.35644                0.9882422       -15.54692      0.001653665        23.31097                0               0                0               0
1.36304                0.9879095       -15.68402      0.001665854        19.11065                0               0                0               0
1.36964                0.9875621       -15.82248      0.001675403        15.01921                0               0                0               0
1.37624                   0.9872       -15.96226      0.001682496        11.04583                0               0                0               0
1.38284                0.9868228       -16.10332      0.001687372         7.19989                0               0                0               0
1.38944                 0.986431       -16.24564      0.001690321        3.490839                0               0                0               0
1.39604                0.9860247       -16.38919      0.001691697     -0.07202941                0               0                0               0
1.40264                0.9856045       -16.53394      0.001691915       -3.479889                0               0                0               0
1.40924                0.9851707       -16.67987      0.001691457       -6.724798                0               0                0               0
1.41584                0.9847243       -16.82699      0.001690875       -9.800217                0               0                0               0
1.42244                 0.984266        -16.9753      0.001690787       -12.70163                0               0                0               0
1.42904                0.9837966       -17.12481      0.001691873        -15.4273                0               0                0               0
1.43564                0.9833169       -17.27556      0.001694872       -17.97898                0               0                0               0
1.44224                0.9828279       -17.42759      0.001700566       -20.36273                0               0                0               0
1.44884                0.9823305       -17.58093      0.001709766       -22.58953                0               0                0               0
1.45545                0.9818252       -17.73567      0.001723288       -24.67567                0               0                0               0
1.46205                0.9813129       -17.89188      0.001741929        -26.6428                0               0                0               0
1.46865                0.9807939       -18.04965      0.001766437       -28.51747                0               0                0               0
1.47525                0.9802688       -18.20907      0.001797482       -30.33022                0               0                0               0
1.48185                0.9797375       -18.37024      0.001835634       -32.11412                0               0                0               0
1.48845                0.9792002       -18.53329      0.001881334       -33.90313                0               0                0               0
1.49505                0.9786564       -18.69833      0.001934887       -35.73014                0               0                0               0
1.50165                0.9781057       -18.86547      0.001996454       -37.62538                0               0                0               0
1.50825                0.9775476       -19.03484      0.002066057       -39.61493                0               0                0               0
1.51485                0.9769807       -19.20655      0.002143585       -41.71994                0               0                0               0
1.52145                0.9764042       -19.38073      0.002228818        -43.9561                0               0                0               0
1.52805                0.9758164       -19.55747      0.002321435       -46.33379                0               0                0               0
1.53465                0.9752159       -19.73688      0.002421046       -48.85848                0               0                0               0
1.54125                0.9746008       -19.91907      0.002527197       -51.53138                0               0                0               0
1.54785                0.9739694        -20.1041        0.0026394       -54.35019                0               0                0               0
1.55446                0.9733193       -20.29205      0.002757138       -57.30989                0               0                0               0
1.56106                0.9726487       -20.48298      0.002879878       -60.40344                0               0                0               0
1.56766                0.9719553       -20.67695      0.003007086       -63.62243                0               0                0               0
1.57426                0.9712369       -20.87398      0.003138228       -66.95758                0               0                0               0
1.58086                0.9704915        -21.0741      0.003272779       -70.39912                0               0                0               0
1.58746                0.9697169       -21.27732      0.003410225       -73.93716                0               0                0               0
1.59406                0.9689113       -21.48363      0.003550068       -77.56188                0               0                0               0
1.60066                0.9680728       -21.69303       0.00369183       -81.26368                0               0                0               0
1.60726                0.9671996       -21.90551      0.003835052       -85.03328                0               0                0               0
1.61386                0.9662904       -22.12103      0.003979298       -88.86182                0               0                0               0
1.62046                 0.965344       -22.33957      0.004124157       -92.74084                0               0                0               0
1.62706                0.9643591        -22.5611      0.004269245       -96.66231                0               0                0               0
1.63366                0.9633349        -22.7856      0.004414208       -100.6186                0               0                0               0
1.64026                 0.962271       -23.01302      0.004558722       -104.6026                0               0                0               0
1.64686                0.9611667       -23.24337      0.004702498       -108.6075                0               0                0               0
1.65347                0.9600219       -23.47661      0.004845284       -112.6269                0               0                0               0
1.66007                0.9588365       -23.71276      0.004986866       -116.6546                0               0                0               0
1.66667                0.9576107       -23.95182      0.005127075        -120.685                0               0                0               0
1.67327                0.9563446       -24.19381      0.005265786       -124.7127                0               0                0               0
1.67987                0.9550386       -24.43878      0.005402926       -128.7325                0               0                0               0
1.68647                 0.953693       -24.68678       0.00553847       -132.7396                0               0                0               0
1.69307                0.9523081       -24.93788      0.005672454       -136.7295                0               0                0               0
1.69967                0.9508842       -25.19218      0.005804972       -140.6979                0               0                0               0
1.70627                0.9494216       -25.44979      0.005936183       -144.6411                0               0                0               0
1.71287                0.9479201       -25.71085      0.006066306       -148.5554                0               0                0               0
1.71947                0.9463798       -25.97549      0.006195638       -152.4376                0               0                0               0
1.72607                0.9448001       -26.24388      0.006324542        -156.285                0               0                0               0
1.73267                0.9431806       -26.51621      0.006453454        -160.095                0               0                0               0
1.73927                0.9415203       -26.79266      0.006582889       -163.8659                0               0                0               0
1.74587                0.9398179       -27.07343      0.006713432       -167.5963                0               0                0               0
1.75248                0.9380718       -27.35874      0.006845745       -171.2852                0               0                0               0
1.75908                0.9362801       -27.64881       0.00698056       -174.9326                0               0                0               0
1.76568                0.9344406       -27.94386      0.007118677       -178.5388                0               0                0               0
1.77228                0.9325503       -28.24411      0.007260959         177.895                0               0                0               0
1.77888                0.9306063       -28.54979      0.007408322        174.3669                0               0                0               0
1.78548                0.9286051       -28.86111      0.007561733        170.8745                0               0                0               0
1.79208                 0.926543       -29.17829      0.007722194        167.4142                0               0                0               0
1.79868                0.9244159       -29.50153      0.007890733        163.9821                0               0                0               0
1.80528                0.9222194       -29.83101      0.008068389        160.5735                0               0                0               0
1.81188                0.9199489       -30.16693      0.008256198         157.183                0               0                0               0
1.81848                0.9175996       -30.50945       0.00845518        153.8047                0               0                0               0
1.82508                0.9151664       -30.85872      0.008666326        150.4325                0               0                0               0
1.83168                0.9126442       -31.21489      0.008890576        147.0597                0               0                0               0
1.83828                0.9100279       -31.57807      0.009128811        143.6797                0               0                0               0
1.84488                0.9073119       -31.94838       0.00938184        140.2858                0               0                0               0
1.85149                0.9044911       -32.32591      0.009650386        136.8713                0               0                0               0
