! TOUCHSTONE file generated by CST MICROWAVE STUDIO
! Date and time: Tue Mar 11 13:57:23 2025
! Project name: transverse.cst
! Parameters = {Fracture=5; B=10; D=160; F=25; Feed=2.85625; L=100; M=30; R=0.384908; S=1; Theta=180; length=57.125; wave=114.25}
! Header version: 2024
! Port assignment regex: !\s*Touchstone port\s*([0-9]+)\s*=\s*(CST MWS port|CST DES external port|CST DES block port)\s*(.+)\s* \(\"(.*)\"\)(\s*mode\s*([0-9]+))?.*
! Touchstone port assignment:
! Touchstone port 1 = CST MWS port 1 ("")
! Touchstone port 2 = CST MWS port 2 ("")
# GHz S MA R 50
1                      0.9975472       -9.743517     0.0005218632        167.4719                0               0                0               0
1.00658                0.9974846       -9.829033     0.0005177146        161.5982                0               0                0               0
1.01316                0.9974245       -9.915255     0.0005114091         155.842                0               0                0               0
1.01974                0.9973667       -10.00224     0.0005029196        150.2148                0               0                0               0
1.02632                0.9973105       -10.09003     0.0004922335        144.7315                0               0                0               0
1.03289                 0.997255       -10.17869     0.0004793549        139.4117                0               0                0               0
1.03947                0.9971997       -10.26823     0.0004643087        134.2809                0               0                0               0
1.04605                0.9971434       -10.35871     0.0004471445        129.3724                0               0                0               0
1.05263                0.9970854       -10.45013     0.0004279435        124.7296                0               0                0               0
1.05921                0.9970248       -10.54252     0.0004068281        120.4105                0               0                0               0
1.06579                0.9969602       -10.63588     0.0003839763        116.4924                0               0                0               0
1.07237                 0.996891       -10.73021     0.0003596434        113.0797                0               0                0               0
1.07895                0.9968161        -10.8255     0.0003341959        110.3139                0               0                0               0
1.08553                0.9967346       -10.92173      0.000308163        108.3868                0               0                0               0
1.09211                 0.996646       -11.01888     0.0002823171        107.5526                0               0                0               0
1.09868                0.9965492       -11.11691     0.0002577875        108.1293                0               0                0               0
1.10526                 0.996444        -11.2158     0.0002361984        110.4592                0               0                0               0
1.11184                0.9963299       -11.31549     0.0002197546        114.7699                0               0                0               0
1.11842                0.9962065       -11.41596     0.0002110684         120.897                0               0                0               0
1.125                  0.9960737       -11.51715     0.0002124818        128.0227                0               0                0               0
1.13158                0.9959316       -11.61902     0.0002250835        134.8448                0               0                0               0
1.13816                0.9957805       -11.72154     0.0002482886        140.2337                0               0                0               0
1.14474                0.9956204       -11.82467     0.0002804098        143.7033                0               0                0               0
1.15132                0.9954522       -11.92837     0.0003195316        145.3201                0               0                0               0
1.15789                 0.995276       -12.03261     0.0003640122        145.3938                0               0                0               0
1.16447                 0.995093       -12.13739     0.0004125949        144.2652                0               0                0               0
1.17105                0.9949035       -12.24268     0.0004643483        142.2238                0               0                0               0
1.17763                0.9947087       -12.34849      0.000518575        139.4933                0               0                0               0
1.18421                0.9945091       -12.45482     0.0005747351        136.2406                0               0                0               0
1.19079                0.9943057        -12.5617     0.0006323941        132.5893                0               0                0               0
1.19737                0.9940994       -12.66914     0.0006911869         128.631                0               0                0               0
1.20395                0.9938908       -12.77719     0.0007507949        124.4346                0               0                0               0
1.21053                0.9936807       -12.88589     0.0008109311        120.0525                0               0                0               0
1.21711                0.9934695       -12.99528       0.00087133         115.525                0               0                0               0
1.22368                0.9932579       -13.10544     0.0009317423        110.8839                0               0                0               0
1.23026                 0.993046       -13.21642     0.0009919301        106.1543                0               0                0               0
1.23684                0.9928342       -13.32829      0.001051665        101.3565                0               0                0               0
1.24342                0.9926224       -13.44113      0.001110726        96.50729                0               0                0               0
1.25                   0.9924103         -13.555      0.001168898        91.62052                0               0                0               0
1.25658                0.9921976       -13.66998      0.001225976        86.70803                0               0                0               0
1.26316                0.9919836       -13.78614      0.001281758        81.78001                0               0                0               0
1.26974                0.9917681       -13.90355      0.001336054         76.8454                0               0                0               0
1.27632                0.9915499       -14.02226      0.001388678        71.91218                0               0                0               0
1.28289                 0.991328       -14.14234      0.001439457        66.98761                0               0                0               0
1.28947                0.9911017       -14.26382      0.001488226        62.07842                0               0                0               0
1.29605                0.9908694       -14.38675      0.001534832        57.19093                0               0                0               0
1.30263                0.9906303       -14.51115      0.001579138        52.33118                0               0                0               0
1.30921                 0.990383       -14.63704      0.001621019        47.50505                0               0                0               0
1.31579                0.9901262       -14.76444      0.001660368        42.71833                0               0                0               0
1.32237                0.9898588       -14.89333      0.001697097        37.97677                0               0                0               0
1.32895                0.9895795       -15.02372      0.001731138        33.28619                0               0                0               0
1.33553                0.9892874       -15.15558      0.001762446        28.65245                0               0                0               0
1.34211                0.9889818       -15.28888      0.001791001        24.08157                0               0                0               0
1.34868                0.9886613       -15.42359      0.001816814        19.57969                0               0                0               0
1.35526                0.9883259       -15.55968      0.001839922        15.15313                0               0                0               0
1.36184                0.9879749        -15.6971        0.0018604        10.80833                0               0                0               0
1.36842                0.9876078       -15.83581      0.001878356         6.55191                0               0                0               0
1.375                  0.9872247       -15.97577      0.001893939         2.39054                0               0                0               0
1.38158                0.9868258       -16.11693      0.001907344       -1.669066                0               0                0               0
1.38816                0.9864112       -16.25926      0.001918806       -5.620284                0               0                0               0
1.39474                0.9859814       -16.40274      0.001928613       -9.456709                0               0                0               0
1.40132                0.9855369       -16.54732      0.001937101       -13.17235                0               0                0               0
1.40789                0.9850786       -16.69301       0.00194466       -16.76185                0               0                0               0
1.41447                 0.984607        -16.8398      0.001951735        -20.2208                0               0                0               0
1.42105                0.9841233       -16.98769      0.001958819       -23.54605                0               0                0               0
1.42763                0.9836283       -17.13672       0.00196646       -26.73608                0               0                0               0
1.43421                0.9831228        -17.2869       0.00197525       -29.79146                0               0                0               0
1.44079                 0.982608       -17.43829      0.001985818       -32.71516                0               0                0               0
1.44737                0.9820845       -17.59094      0.001998824       -35.51299                0               0                0               0
1.45395                 0.981553       -17.74493      0.002014943       -38.19383                0               0                0               0
1.46053                0.9810143       -17.90035      0.002034851       -40.76979                0               0                0               0
1.46711                0.9804687       -18.05727      0.002059205       -43.25611                0               0                0               0
1.47368                0.9799165       -18.21581      0.002088626       -45.67092                0               0                0               0
1.48026                0.9793576       -18.37606      0.002123678        -48.0347                0               0                0               0
1.48684                 0.978792       -18.53816      0.002164852       -50.36955                0               0                0               0
1.49342                0.9782191        -18.7022      0.002212548       -52.69833                0               0                0               0
1.5                    0.9776382       -18.86831      0.002267065       -55.04365                0               0                0               0
1.50658                0.9770483       -19.03661      0.002328597       -57.42694                0               0                0               0
1.51316                0.9764484        -19.2072      0.002397226       -59.86766                0               0                0               0
1.51974                 0.975837       -19.38019      0.002472929       -62.38261                0               0                0               0
1.52632                0.9752125       -19.55567      0.002555584       -64.98552                0               0                0               0
1.53289                 0.974573       -19.73374      0.002644981       -67.68692                0               0                0               0
1.53947                0.9739166       -19.91447      0.002740833       -70.49409                0               0                0               0
1.54605                0.9732413       -20.09791      0.002842788       -73.41136                0               0                0               0
1.55263                0.9725449       -20.28413      0.002950442       -76.44032                0               0                0               0
1.55921                0.9718253       -20.47315      0.003063353        -79.5803                0               0                0               0
1.56579                0.9710802       -20.66499      0.003181047        -82.8287                0               0                0               0
1.57237                0.9703076       -20.85966       0.00330303       -86.18145                0               0                0               0
1.57895                0.9695054       -21.05715      0.003428797       -89.63333                0               0                0               0
1.58553                 0.968672       -21.25744      0.003557835        -93.1783                0               0                0               0
1.59211                0.9678054        -21.4605      0.003689632       -96.80976                0               0                0               0
1.59868                0.9669042       -21.66629      0.003823677       -100.5208                0               0                0               0
1.60526                0.9659671       -21.87475      0.003959472       -104.3043                0               0                0               0
1.61184                0.9649932       -22.08584      0.004096524       -108.1532                0               0                0               0
1.61842                0.9639816       -22.29951      0.004234359       -112.0603                0               0                0               0
1.625                  0.9629321        -22.5157      0.004372517       -116.0188                0               0                0               0
1.63158                0.9618443       -22.73436      0.004510557       -120.0219                0               0                0               0
1.63816                0.9607184       -22.95546      0.004648063        -124.063                0               0                0               0
1.64474                0.9595545       -23.17895      0.004784638       -128.1357                0               0                0               0
1.65132                0.9583534       -23.40482      0.004919916       -132.2339                0               0                0               0
1.65789                0.9571157       -23.63307      0.005053558       -136.3517                0               0                0               0
1.66447                0.9558425       -23.86371      0.005185257       -140.4834                0               0                0               0
1.67105                0.9545346       -24.09677      0.005314746       -144.6234                0               0                0               0
1.67763                 0.953193       -24.33232      0.005441787       -148.7663                0               0                0               0
1.68421                0.9518192       -24.57041      0.005566192       -152.9071                0               0                0               0
1.69079                0.9504136       -24.81117      0.005687813       -157.0408                0               0                0               0
1.69737                0.9489776        -25.0547      0.005806555       -161.1624                0               0                0               0
1.70395                0.9475119       -25.30116      0.005922371       -165.2674                0               0                0               0
1.71053                0.9460168       -25.55072      0.006035272       -169.3513                0               0                0               0
1.71711                0.9444927       -25.80356      0.006145329       -173.4098                0               0                0               0
1.72368                0.9429395       -26.05989      0.006252677       -177.4388                0               0                0               0
1.73026                0.9413567       -26.31993      0.006357519        178.5656                0               0                0               0
1.73684                0.9397436       -26.58393      0.006460129        174.6071                0               0                0               0
1.74342                0.9380989       -26.85213      0.006560853        170.6888                0               0                0               0
1.75                   0.9364207       -27.12479      0.006660118         166.814                0               0                0               0
1.75658                 0.934707       -27.40216      0.006758426        162.9852                0               0                0               0
1.76316                 0.932955       -27.68452      0.006856365        159.2046                0               0                0               0
1.76974                0.9311617       -27.97211      0.006954597        155.4739                0               0                0               0
1.77632                0.9293235       -28.26518      0.007053871        151.7942                0               0                0               0
1.78289                0.9274365       -28.56397      0.007155008        148.1659                0               0                0               0
1.78947                0.9254963       -28.86871      0.007258904        144.5888                0               0                0               0
1.79605                0.9234981       -29.17961      0.007366523        141.0617                0               0                0               0
1.80263                0.9214371       -29.49686      0.007478886        137.5829                0               0                0               0
1.80921                 0.919308       -29.82062      0.007597065        134.1495                0               0                0               0
1.81579                0.9171055       -30.15106      0.007722167        130.7578                0               0                0               0
1.82237                0.9148241        -30.4883      0.007855323        127.4033                0               0                0               0
1.82895                0.9124582       -30.83244      0.007997671        124.0804                0               0                0               0
1.83553                0.9100022       -31.18357      0.008150336         120.783                0               0                0               0
1.84211                0.9074506       -31.54175      0.008314414        117.5041                0               0                0               0
1.84868                0.9047981       -31.90704       0.00849096        114.2361                0               0                0               0
