! TOUCHSTONE file generated by CST MICROWAVE STUDIO
! Date and time: Tue Mar 11 13:56:34 2025
! Project name: transverse.cst
! Parameters = {Fracture=1; B=10; D=160; F=5; Feed=2.85625; L=100; M=30; R=0.384908; S=2; Theta=90; length=57.125; wave=114.25}
! Header version: 2024
! Port assignment regex: !\s*Touchstone port\s*([0-9]+)\s*=\s*(CST MWS port|CST DES external port|CST DES block port)\s*(.+)\s* \(\"(.*)\"\)(\s*mode\s*([0-9]+))?.*
! Touchstone port assignment:
! Touchstone port 1 = CST MWS port 1 ("")
! Touchstone port 2 = CST MWS port 2 ("")
# GHz S MA R 50
1                      0.9977232       -9.996921     0.0003684971       -162.3819                0               0                0               0
1.00658                0.9976218       -10.08626     0.0003765044       -166.7416                0               0                0               0
1.01316                0.9975158       -10.17592     0.0003835555       -171.0492                0               0                0               0
1.01974                0.9974058       -10.26588     0.0003896178       -175.2939                0               0                0               0
1.02632                0.9972928       -10.35613     0.0003946678       -179.4644                0               0                0               0
1.03289                0.9971774       -10.44668     0.0003986922        176.4513                0               0                0               0
1.03947                0.9970605       -10.53754     0.0004016896        172.4661                0               0                0               0
1.04605                 0.996943       -10.62872     0.0004036718        168.5938                0               0                0               0
1.05263                0.9968254       -10.72026     0.0004046661        164.8496                0               0                0               0
1.05921                0.9967086       -10.81219     0.0004047174        161.2496                0               0                0               0
1.06579                0.9965932       -10.90456     0.0004038908        157.8114                0               0                0               0
1.07237                0.9964796       -10.99741     0.0004022744        154.5537                0               0                0               0
1.07895                0.9963683        -11.0908     0.0003999821        151.4963                0               0                0               0
1.08553                0.9962594       -11.18479     0.0003971572        148.6593                0               0                0               0
1.09211                0.9961529       -11.27945     0.0003939753        146.0631                0               0                0               0
1.09868                 0.996049       -11.37482     0.0003906472        143.7265                0               0                0               0
1.10526                0.9959472       -11.47098     0.0003874209        141.6656                0               0                0               0
1.11184                0.9958473       -11.56799     0.0003845817        139.8918                0               0                0               0
1.11842                0.9957486        -11.6659       0.00038245        138.4088                0               0                0               0
1.125                  0.9956506       -11.76476     0.0003813755        137.2099                0               0                0               0
1.13158                0.9955524       -11.86462     0.0003817267        136.2756                0               0                0               0
1.13816                0.9954531       -11.96553     0.0003838756        135.5711                0               0                0               0
1.14474                0.9953519        -12.0675     0.0003881787        135.0466                0               0                0               0
1.15132                0.9952477       -12.17057     0.0003949546         134.639                0               0                0               0
1.15789                0.9951395       -12.27474     0.0004044641         134.276                0               0                0               0
1.16447                0.9950263       -12.38002     0.0004168935        133.8826                0               0                0               0
1.17105                0.9949071       -12.48642     0.0004323459        133.3875                0               0                0               0
1.17763                0.9947808       -12.59391     0.0004508412        132.7295                0               0                0               0
1.18421                0.9946468       -12.70247     0.0004723239         131.861                0               0                0               0
1.19079                0.9945042       -12.81208     0.0004966753        130.7498                0               0                0               0
1.19737                0.9943524       -12.92271     0.0005237291        129.3786                0               0                0               0
1.20395                0.9941911       -13.03431     0.0005532865        127.7426                0               0                0               0
1.21053                0.9940197       -13.14685     0.0005851281         125.847                0               0                0               0
1.21711                0.9938382       -13.26029      0.000619025        123.7044                0               0                0               0
1.22368                0.9936467       -13.37458     0.0006547453        121.3315                0               0                0               0
1.23026                0.9934451       -13.48968     0.0006920597        118.7478                0               0                0               0
1.23684                 0.993234       -13.60556      0.000730744        115.9739                0               0                0               0
1.24342                0.9930136        -13.7222     0.0007705814        113.0302                0               0                0               0
1.25                   0.9927848       -13.83955     0.0008113629        109.9367                0               0                0               0
1.25658                0.9925481       -13.95761     0.0008528883         106.712                0               0                0               0
1.26316                0.9923044       -14.07637     0.0008949662        103.3737                0               0                0               0
1.26974                0.9920545       -14.19583     0.0009374138        99.93809                0               0                0               0
1.27632                0.9917994         -14.316     0.0009800576        96.42001                0               0                0               0
1.28289                  0.99154        -14.4369      0.001022733        92.83321                0               0                0               0
1.28947                0.9912772       -14.55858      0.001065285        89.19025                0               0                0               0
1.29605                0.9910117       -14.68106      0.001107569        85.50274                0               0                0               0
1.30263                0.9907444       -14.80442      0.001149451        81.78134                0               0                0               0
1.30921                0.9904759        -14.9287      0.001190807        78.03593                0               0                0               0
1.31579                0.9902067       -15.05398      0.001231527        74.27572                0               0                0               0
1.32237                0.9899372       -15.18034      0.001271513        70.50926                0               0                0               0
1.32895                0.9896675       -15.30786      0.001310684        66.74462                0               0                0               0
1.33553                0.9893979       -15.43662       0.00134897        62.98935                0               0                0               0
1.34211                0.9891278       -15.56673      0.001386324        59.25061                0               0                0               0
1.34868                0.9888571       -15.69825      0.001422712        55.53516                0               0                0               0
1.35526                0.9885851       -15.83128      0.001458123        51.84939                0               0                0               0
1.36184                0.9883112       -15.96591      0.001492567        48.19936                0               0                0               0
1.36842                0.9880344       -16.10221      0.001526077        44.59076                0               0                0               0
1.375                  0.9877537       -16.24026       0.00155871        41.02891                0               0                0               0
1.38158                0.9874678       -16.38012      0.001590549        37.51872                0               0                0               0
1.38816                0.9871755       -16.52184      0.001621703        34.06467                0               0                0               0
1.39474                0.9868755       -16.66548       0.00165231        30.67071                0               0                0               0
1.40132                0.9865663       -16.81106      0.001682538         27.3402                0               0                0               0
1.40789                0.9862466       -16.95862      0.001712581        24.07584                0               0                0               0
1.41447                0.9859151       -17.10817      0.001742662        20.87958                0               0                0               0
1.42105                0.9855701       -17.25973      0.001773034        17.75245                0               0                0               0
1.42763                0.9852105       -17.41327      0.001803973        14.69458                0               0                0               0
1.43421                0.9848354        -17.5688      0.001835782        11.70499                0               0                0               0
1.44079                0.9844434        -17.7263      0.001868783        8.781595                0               0                0               0
1.44737                 0.984034       -17.88575      0.001903315        5.921103                0               0                0               0
1.45395                0.9836063       -18.04713       0.00193973        3.119012                0               0                0               0
1.46053                0.9831597        -18.2104      0.001978384        0.369632                0               0                0               0
1.46711                 0.982694       -18.37554      0.002019634       -2.333859                0               0                0               0
1.47368                0.9822088       -18.54253      0.002063832       -4.999289                0               0                0               0
1.48026                0.9817044       -18.71136      0.002111315       -7.635331                0               0                0               0
1.48684                0.9811807         -18.882      0.002162399       -10.25129                0               0                0               0
1.49342                 0.980638       -19.05445      0.002217375       -12.85685                0               0                0               0
1.5                     0.980077       -19.22873        0.0022765       -15.46181                0               0                0               0
1.50658                0.9794976       -19.40484      0.002339993       -18.07583                0               0                0               0
1.51316                0.9789009       -19.58282      0.002408036       -20.70811                0               0                0               0
1.51974                0.9782871       -19.76271      0.002480765       -23.36721                0               0                0               0
1.52632                0.9776569       -19.94455      0.002558272       -26.06084                0               0                0               0
1.53289                0.9770109       -20.12843      0.002640606       -28.79568                0               0                0               0
1.53947                0.9763492       -20.31442      0.002727774       -31.57729                0               0                0               0
1.54605                0.9756721       -20.50261      0.002819741       -34.41008                0               0                0               0
1.55263                0.9749799       -20.69311      0.002916438       -37.29728                0               0                0               0
1.55921                0.9742724       -20.88604      0.003017759       -40.24102                0               0                0               0
1.56579                0.9735492       -21.08151      0.003123571       -43.24233                0               0                0               0
1.57237                0.9728098       -21.27967      0.003233717        -46.3013                0               0                0               0
1.57895                0.9720535       -21.48064      0.003348018       -49.41713                0               0                0               0
1.58553                 0.971279       -21.68456      0.003466279       -52.58831                0               0                0               0
1.59211                0.9704851       -21.89157      0.003588294       -55.81264                0               0                0               0
1.59868                0.9696701       -22.10181       0.00371385       -59.08747                0               0                0               0
1.60526                0.9688322        -22.3154      0.003842731       -62.40965                0               0                0               0
1.61184                0.9679691       -22.53248      0.003974721       -65.77577                0               0                0               0
1.61842                0.9670786       -22.75314      0.004109608       -69.18215                0               0                0               0
1.625                   0.966158       -22.97751      0.004247192       -72.62494                0               0                0               0
1.63158                0.9652046       -23.20567      0.004387281       -76.10021                0               0                0               0
1.63816                0.9642156        -23.4377      0.004529701       -79.60397                0               0                0               0
1.64474                 0.963188       -23.67366      0.004674296       -83.13224                0               0                0               0
1.65132                0.9621189       -23.91361      0.004820935       -86.68109                0               0                0               0
1.65789                0.9610052       -24.15758      0.004969511       -90.24667                0               0                0               0
1.66447                0.9598439       -24.40559      0.005119946       -93.82525                0               0                0               0
1.67105                0.9586322       -24.65764      0.005272196       -97.41323                0               0                0               0
1.67763                0.9573673       -24.91373      0.005426252       -101.0072                0               0                0               0
1.68421                0.9560466       -25.17385      0.005582144       -104.6039                0               0                0               0
1.69079                0.9546674       -25.43796      0.005739943       -108.2004                0               0                0               0
1.69737                 0.953228       -25.70604      0.005899766       -111.7939                0               0                0               0
1.70395                0.9517258       -25.97804      0.006061774       -115.3818                0               0                0               0
1.71053                0.9501592       -26.25392      0.006226179        -118.962                0               0                0               0
1.71711                0.9485269       -26.53365      0.006393243       -122.5326                0               0                0               0
1.72368                0.9468273       -26.81719      0.006563279       -126.0919                0               0                0               0
1.73026                0.9450594       -27.10451      0.006736651       -129.6388                0               0                0               0
1.73684                0.9432223       -27.39558      0.006913778       -133.1724                0               0                0               0
1.74342                0.9413152       -27.69041      0.007095128       -136.6923                0               0                0               0
1.75                   0.9393376       -27.98898       0.00728122       -140.1983                0               0                0               0
1.75658                 0.937289       -28.29133      0.007472622       -143.6908                0               0                0               0
1.76316                0.9351688        -28.5975      0.007669943       -147.1706                0               0                0               0
1.76974                0.9329768       -28.90754      0.007873835       -150.6389                0               0                0               0
1.77632                0.9307124       -29.22152      0.008084985       -154.0972                0               0                0               0
1.78289                0.9283751       -29.53956      0.008304108       -157.5476                0               0                0               0
1.78947                0.9259641       -29.86175      0.008531944       -160.9924                0               0                0               0
1.79605                0.9234786       -30.18825      0.008769248       -164.4342                0               0                0               0
1.80263                 0.920917       -30.51921      0.009016778       -167.8761                0               0                0               0
1.80921                0.9182782       -30.85481      0.009275298       -171.3213                0               0                0               0
1.81579                0.9155601       -31.19522      0.009545558       -174.7732                0               0                0               0
1.82237                0.9127603       -31.54066       0.00982829       -178.2354                0               0                0               0
1.82895                0.9098764       -31.89133        0.0101242        178.2886                0               0                0               0
1.83553                0.9069049       -32.24744       0.01043396         174.795                0               0                0               0
1.84211                0.9038423       -32.60923        0.0107582        171.2802                0               0                0               0
1.84868                0.9006846        -32.9769       0.01109749        167.7409                0               0                0               0
