! TOUCHSTONE file generated by CST MICROWAVE STUDIO
! Date and time: Tue Mar 11 13:57:50 2025
! Project name: transverse.cst
! Parameters = {Fracture=5; B=10; D=160; F=5; Feed=2.85625; L=100; M=10; R=0.384908; S=2; Theta=270; length=57.125; wave=114.25}
! Header version: 2024
! Port assignment regex: !\s*Touchstone port\s*([0-9]+)\s*=\s*(CST MWS port|CST DES external port|CST DES block port)\s*(.+)\s* \(\"(.*)\"\)(\s*mode\s*([0-9]+))?.*
! Touchstone port assignment:
! Touchstone port 1 = CST MWS port 1 ("")
! Touchstone port 2 = CST MWS port 2 ("")
# GHz S MA R 50
1                      0.9978491       -9.751105     0.0002731162       -122.9735                0               0                0               0
1.00658                0.9977691        -9.83944     0.0002938928       -127.1953                0               0                0               0
1.01316                0.9976828       -9.928232      0.000314093       -131.5475                0               0                0               0
1.01974                 0.997591       -10.01745      0.000333588       -135.9937                0               0                0               0
1.02632                 0.997494       -10.10708     0.0003522563       -140.5054                0               0                0               0
1.03289                0.9973922       -10.19708     0.0003699828       -145.0593                0               0                0               0
1.03947                0.9972867       -10.28745     0.0003866591       -149.6358                0               0                0               0
1.04605                0.9971777       -10.37818     0.0004021828       -154.2183                0               0                0               0
1.05263                0.9970664       -10.46927     0.0004164585       -158.7916                0               0                0               0
1.05921                0.9969535       -10.56073     0.0004293983       -163.3422                0               0                0               0
1.06579                0.9968395       -10.65257     0.0004409224       -167.8567                0               0                0               0
1.07237                0.9967256       -10.74483     0.0004509608       -172.3225                0               0                0               0
1.07895                0.9966121       -10.83753     0.0004594535       -176.7264                0               0                0               0
1.08553                0.9964997       -10.93072     0.0004663529         178.945                0               0                0               0
1.09211                0.9963892       -11.02445     0.0004716253        174.7061                0               0                0               0
1.09868                0.9962808       -11.11877     0.0004752524        170.5724                0               0                0               0
1.10526                0.9961749       -11.21373     0.0004772344        166.5609                0               0                0               0
1.11184                0.9960714       -11.30941     0.0004775928        162.6904                0               0                0               0
1.11842                0.9959706       -11.40587     0.0004763736         158.982                0               0                0               0
1.125                  0.9958722       -11.50317     0.0004736517        155.4593                0               0                0               0
1.13158                 0.995776       -11.60137     0.0004695355        152.1487                0               0                0               0
1.13816                0.9956813       -11.70055     0.0004641737        149.0795                0               0                0               0
1.14474                0.9955877       -11.80076     0.0004577611        146.2839                0               0                0               0
1.15132                0.9954944       -11.90205     0.0004505475        143.7968                0               0                0               0
1.15789                0.9954005       -12.00448     0.0004428449        141.6541                0               0                0               0
1.16447                0.9953051       -12.10808     0.0004350366        139.8908                0               0                0               0
1.17105                0.9952072       -12.21289     0.0004275828        138.5379                0               0                0               0
1.17763                0.9951058       -12.31893      0.000421023        137.6166                0               0                0               0
1.18421                0.9949995       -12.42622     0.0004159694         137.132                0               0                0               0
1.19079                0.9948874       -12.53477       0.00041309        137.0652                0               0                0               0
1.19737                0.9947685       -12.64457     0.0004130754        137.3666                0               0                0               0
1.20395                0.9946415       -12.75562     0.0004165901        137.9528                0               0                0               0
1.21053                0.9945057       -12.86789     0.0004242165        138.7098                0               0                0               0
1.21711                0.9943602       -12.98137     0.0004363991        139.5046                0               0                0               0
1.22368                 0.994204       -13.09602     0.0004534066        140.2016                0               0                0               0
1.23026                 0.994037        -13.2118     0.0004753214        140.6803                0               0                0               0
1.23684                0.9938583       -13.32868     0.0005020545        140.8486                0               0                0               0
1.24342                0.9936678       -13.44661     0.0005333828        140.6479                0               0                0               0
1.25                   0.9934654       -13.56556     0.0005689916        140.0518                0               0                0               0
1.25658                 0.993251       -13.68548     0.0006085151        139.0597                0               0                0               0
1.26316                0.9930249       -13.80633      0.000651568        137.6894                0               0                0               0
1.26974                0.9927875       -13.92809     0.0006977673        135.9701                0               0                0               0
1.27632                0.9925389       -14.05072     0.0007467444        133.9363                0               0                0               0
1.28289                0.9922803       -14.17421     0.0007981528        131.6242                0               0                0               0
1.28947                 0.992012       -14.29854      0.000851669         129.069                0               0                0               0
1.29605                0.9917347       -14.42371     0.0009069934         126.304                0               0                0               0
1.30263                0.9914495       -14.54974     0.0009638497        123.3593                0               0                0               0
1.30921                 0.991157       -14.67663      0.001021982        120.2621                0               0                0               0
1.31579                0.9908581       -14.80441      0.001081153        117.0367                0               0                0               0
1.32237                0.9905534       -14.93313      0.001141147        113.7045                0               0                0               0
1.32895                 0.990244       -15.06283      0.001201763        110.2844                0               0                0               0
1.33553                0.9899302       -15.19357      0.001262818        106.7932                0               0                0               0
1.34211                0.9896125       -15.32542      0.001324146        103.2458                0               0                0               0
1.34868                0.9892913       -15.45845      0.001385599        99.65546                0               0                0               0
1.35526                0.9889669       -15.59275      0.001447046        96.03392                0               0                0               0
1.36184                0.9886391       -15.72838      0.001508375        92.39176                0               0                0               0
1.36842                0.9883078       -15.86545      0.001569493        88.73843                0               0                0               0
1.375                  0.9879727       -16.00404      0.001630329        85.08248                0               0                0               0
1.38158                 0.987633       -16.14425      0.001690831        81.43159                0               0                0               0
1.38816                0.9872882       -16.28614      0.001750973        77.79271                0               0                0               0
1.39474                0.9869373        -16.4298      0.001810754        74.17207                0               0                0               0
1.40132                0.9865791       -16.57532      0.001870195        70.57527                0               0                0               0
1.40789                0.9862125       -16.72275      0.001929349         67.0073                0               0                0               0
1.41447                 0.985836       -16.87216      0.001988294        63.47252                0               0                0               0
1.42105                 0.985448        -17.0236      0.002047137        59.97469                0               0                0               0
1.42763                0.9850474        -17.1771      0.002106016        56.51695                0               0                0               0
1.43421                0.9846323       -17.33269      0.002165101        53.10183                0               0                0               0
1.44079                0.9842012       -17.49039      0.002224588        49.73114                0               0                0               0
1.44737                0.9837527       -17.65022      0.002284705        46.40606                0               0                0               0
1.45395                 0.983285       -17.81216      0.002345708        43.12701                0               0                0               0
1.46053                0.9827971        -17.9762      0.002407881         39.8937                0               0                0               0
1.46711                0.9822875       -18.14233      0.002471531        36.70504                0               0                0               0
1.47368                0.9817553       -18.31052      0.002536987         33.5592                0               0                0               0
1.48026                0.9811993       -18.48073      0.002604596        30.45359                0               0                0               0
1.48684                 0.980619       -18.65292      0.002674719        27.38487                0               0                0               0
1.49342                0.9800135       -18.82706      0.002747726          24.349                0               0                0               0
1.5                    0.9793828       -19.00311       0.00282399        21.34135                0               0                0               0
1.50658                0.9787263       -19.18104      0.002903884        18.35671                0               0                0               0
1.51316                0.9780443       -19.36081      0.002987772        15.38945                0               0                0               0
1.51974                0.9773369        -19.5424      0.003076005        12.43363                0               0                0               0
1.52632                0.9766045       -19.72579      0.003168917        9.483127                0               0                0               0
1.53289                0.9758474       -19.91097      0.003266818        6.531768                0               0                0               0
1.53947                0.9750664       -20.09796       0.00336999         3.57348                0               0                0               0
1.54605                0.9742619       -20.28677      0.003478683       0.6024169                0               0                0               0
1.55263                 0.973435       -20.47742      0.003593113       -2.386922                0               0                0               0
1.55921                0.9725859       -20.66998      0.003713461       -5.399587                0               0                0               0
1.56579                0.9717157        -20.8645      0.003839868       -8.440095                0               0                0               0
1.57237                0.9708247       -21.06105       0.00397244       -11.51237                0               0                0               0
1.57895                0.9699136       -21.25973      0.004111242        -14.6197                0               0                0               0
1.58553                0.9689826       -21.46064      0.004256307       -17.76472                0               0                0               0
1.59211                0.9680317        -21.6639       0.00440763       -20.94943                0               0                0               0
1.59868                0.9670611       -21.86963      0.004565177       -24.17518                0               0                0               0
1.60526                0.9660702       -22.07798      0.004728883       -27.44277                0               0                0               0
1.61184                0.9650586       -22.28908      0.004898658       -30.75239                0               0                0               0
1.61842                0.9640253       -22.50309      0.005074389       -34.10378                0               0                0               0
1.625                   0.962969       -22.72015      0.005255942       -37.49622                0               0                0               0
1.63158                0.9618885       -22.94042      0.005443169       -40.92859                0               0                0               0
1.63816                0.9607816       -23.16405       0.00563591       -44.39948                0               0                0               0
1.64474                0.9596466       -23.39117      0.005833993       -47.90718                0               0                0               0
1.65132                 0.958481       -23.62193      0.006037245       -51.44976                0               0                0               0
1.65789                0.9572824       -23.85645      0.006245487       -55.02511                0               0                0               0
1.66447                0.9560476       -24.09485      0.006458545       -58.63102                0               0                0               0
1.67105                0.9547739       -24.33722      0.006676246       -62.26518                0               0                0               0
1.67763                0.9534583       -24.58367      0.006898429       -65.92521                0               0                0               0
1.68421                0.9520971       -24.83424       0.00712494       -69.60874                0               0                0               0
1.69079                0.9506875       -25.08902      0.007355642       -73.31337                0               0                0               0
1.69737                0.9492259       -25.34802      0.007590413       -77.03678                0               0                0               0
1.70395                0.9477091       -25.61128      0.007829152       -80.77667                0               0                0               0
1.71053                0.9461339        -25.8788      0.008071779       -84.53081                0               0                0               0
1.71711                0.9444972       -26.15058       0.00831824       -88.29708                0               0                0               0
1.72368                0.9427961        -26.4266      0.008568507       -92.07345                0               0                0               0
1.73026                0.9410279       -26.70682      0.008822582       -95.85802                0               0                0               0
1.73684                0.9391899       -26.99122      0.009080498       -99.64901                0               0                0               0
1.74342                  0.93728       -27.27975      0.009342324       -103.4448                0               0                0               0
1.75                   0.9352961       -27.57236      0.009608156       -107.2438                0               0                0               0
1.75658                0.9332362       -27.86901      0.009878133       -111.0448                0               0                0               0
1.76316                0.9310989       -28.16964       0.01015243       -114.8466                0               0                0               0
1.76974                0.9288829       -28.47423       0.01043125       -118.6482                0               0                0               0
1.77632                 0.926587       -28.78274       0.01071484       -122.4488                0               0                0               0
1.78289                0.9242104       -29.09516       0.01100349       -126.2477                0               0                0               0
1.78947                0.9217522       -29.41147       0.01129752       -130.0445                0               0                0               0
1.79605                0.9192118        -29.7317       0.01159728       -133.8389                0               0                0               0
1.80263                0.9165887       -30.05588       0.01190315       -137.6308                0               0                0               0
1.80921                0.9138823       -30.38405       0.01221555       -141.4204                0               0                0               0
1.81579                 0.911092       -30.71628       0.01253493        -145.208                0               0                0               0
1.82237                0.9082169       -31.05268       0.01286176        -148.994                0               0                0               0
1.82895                0.9052566       -31.39336       0.01319653        -152.779                0               0                0               0
1.83553                0.9022096       -31.73846       0.01353974       -156.5639                0               0                0               0
1.84211                0.8990748       -32.08813       0.01389192       -160.3496                0               0                0               0
1.84868                0.8958505       -32.44255       0.01425359       -164.1372                0               0                0               0
