! TOUCHSTONE file generated by CST MICROWAVE STUDIO
! Date and time: Tue Mar 11 13:57:41 2025
! Project name: transverse.cst
! Parameters = {Fracture=5; B=12.5; D=160; F=15; Feed=2.85625; L=100; M=20; R=0.384908; S=1; Theta=180; length=57.125; wave=114.25}
! Header version: 2024
! Port assignment regex: !\s*Touchstone port\s*([0-9]+)\s*=\s*(CST MWS port|CST DES external port|CST DES block port)\s*(.+)\s* \(\"(.*)\"\)(\s*mode\s*([0-9]+))?.*
! Touchstone port assignment:
! Touchstone port 1 = CST MWS port 1 ("")
! Touchstone port 2 = CST MWS port 2 ("")
# GHz S MA R 50
1                      0.9975733       -9.825565     0.0004687395       -171.9841                0               0                0               0
1.0066                 0.9974831       -9.912912     0.0004656313       -177.2417                0               0                0               0
1.0132                 0.9973933       -10.00071     0.0004606481        177.6444                0               0                0               0
1.0198                  0.997304       -10.08899     0.0004537921        172.6915                0               0                0               0
1.0264                 0.9972158       -10.17779     0.0004450858        167.9207                0               0                0               0
1.033                  0.9971286       -10.26715     0.0004345744        163.3588                0               0                0               0
1.0396                 0.9970426       -10.35711     0.0004223324        159.0392                0               0                0               0
1.0462                 0.9969578       -10.44772     0.0004084696        155.0036                0               0                0               0
1.05281                0.9968742       -10.53903     0.0003931413        151.3045                0               0                0               0
1.05941                0.9967914       -10.63106     0.0003765612        148.0072                0               0                0               0
1.06601                0.9967092       -10.72388     0.0003590193        145.1929                0               0                0               0
1.07261                0.9966271       -10.81752     0.0003409058        142.9605                0               0                0               0
1.07921                0.9965445       -10.91202     0.0003227421        141.4269                0               0                0               0
1.08581                 0.996461        -11.0074     0.0003052174        140.7215                0               0                0               0
1.09241                 0.996376        -11.1037     0.0002892246        140.9696                0               0                0               0
1.09901                0.9962886       -11.20095     0.0002758773        142.2574                0               0                0               0
1.10561                0.9961983       -11.29915     0.0002664727        144.5741                0               0                0               0
1.11221                0.9961041       -11.39833     0.0002623594        147.7467                0               0                0               0
1.11881                0.9960056       -11.49848     0.0002646969        151.4106                0               0                0               0
1.12541                0.9959017        -11.5996     0.0002741844        155.0689                0               0                0               0
1.13201                0.9957921       -11.70169     0.0002909085        158.2335                0               0                0               0
1.13861                0.9956759       -11.80473     0.0003144044        160.5604                0               0                0               0
1.14521                0.9955527       -11.90871     0.0003438698        161.8978                0               0                0               0
1.15182                0.9954219        -12.0136     0.0003783912        162.2497                0               0                0               0
1.15842                0.9952832       -12.11939     0.0004170932        161.7098                0               0                0               0
1.16502                0.9951364       -12.22604     0.0004592056        160.4061                0               0                0               0
1.17162                0.9949815       -12.33352     0.0005040741        158.4681                0               0                0               0
1.17822                0.9948184       -12.44182     0.0005511482        156.0119                0               0                0               0
1.18482                 0.994647        -12.5509      0.000599961         153.136                0               0                0               0
1.19142                0.9944676       -12.66075     0.0006501095        149.9212                0               0                0               0
1.19802                0.9942807       -12.77133     0.0007012393        146.4331                0               0                0               0
1.20462                0.9940866       -12.88264     0.0007530318        142.7248                0               0                0               0
1.21122                0.9938858       -12.99468     0.0008051954        138.8394                0               0                0               0
1.21782                0.9936791       -13.10742     0.0008574596        134.8122                0               0                0               0
1.22442                0.9934667       -13.22089     0.0009095693        130.6719                0               0                0               0
1.23102                0.9932495        -13.3351     0.0009612836        126.4428                0               0                0               0
1.23762                0.9930281       -13.45006      0.001012373        122.1451                0               0                0               0
1.24422                0.9928031        -13.5658      0.001062618        117.7962                0               0                0               0
1.25083                0.9925753       -13.68236       0.00111181        113.4109                0               0                0               0
1.25743                0.9923449       -13.79979      0.001159749        109.0024                0               0                0               0
1.26403                0.9921124       -13.91813      0.001206247        104.5825                0               0                0               0
1.27063                0.9918782       -14.03744      0.001251129        100.1618                0               0                0               0
1.27723                0.9916426       -14.15779      0.001294232        95.75016                0               0                0               0
1.28383                0.9914055       -14.27924      0.001335405        91.35674                0               0                0               0
1.29043                 0.991167       -14.40187      0.001374518        86.99033                0               0                0               0
1.29703                0.9909269       -14.52573      0.001411456        82.65943                0               0                0               0
1.30363                0.9906846        -14.6509      0.001446126        78.37238                0               0                0               0
1.31023                0.9904398       -14.77747      0.001478458        74.13742                0               0                0               0
1.31683                0.9901917       -14.90547       0.00150841        69.96284                0               0                0               0
1.32343                0.9899395       -15.03499      0.001535967        65.85699                0               0                0               0
1.33003                0.9896824       -15.16607      0.001561148        61.82831                0               0                0               0
1.33663                0.9894193       -15.29878       0.00158401        57.88539                0               0                0               0
1.34323                 0.989149       -15.43314       0.00160465        54.03689                0               0                0               0
1.34984                0.9888705       -15.56921      0.001623208        50.29158                0               0                0               0
1.35644                0.9885825       -15.70699      0.001639878        46.65816                0               0                0               0
1.36304                0.9882838       -15.84652      0.001654904        43.14515                0               0                0               0
1.36964                0.9879729        -15.9878       0.00166859        39.76074                0               0                0               0
1.37624                0.9876492       -16.13082      0.001681301        36.51241                0               0                0               0
1.38284                0.9873111       -16.27559      0.001693468        33.40668                0               0                0               0
1.38944                 0.986958       -16.42208      0.001705588        30.44865                0               0                0               0
1.39604                0.9865889       -16.57027      0.001718224        27.64148                0               0                0               0
1.40264                0.9862029       -16.72015      0.001732004        24.98589                0               0                0               0
1.40924                0.9857995       -16.87167      0.001747612        22.47954                0               0                0               0
1.41584                0.9853783       -17.02481      0.001765782        20.11652                0               0                0               0
1.42244                0.9849391       -17.17953      0.001787283        17.88695                0               0                0               0
1.42904                 0.984482       -17.33581      0.001812901         15.7767                0               0                0               0
1.43564                0.9840065       -17.49361      0.001843419        13.76748                0               0                0               0
1.44224                0.9835135       -17.65292      0.001879593        11.83715                0               0                0               0
1.44884                0.9830031       -17.81372      0.001922127        9.960519                0               0                0               0
1.45545                0.9824758         -17.976      0.001971651        8.110308                0               0                0               0
1.46205                0.9819324       -18.13977      0.002028702        6.258481                0               0                0               0
1.46865                0.9813734       -18.30504      0.002093705        4.377573                0               0                0               0
1.47525                0.9807996       -18.47184      0.002166972        2.441991                0               0                0               0
1.48185                0.9802119       -18.64021      0.002248691       0.4290974                0               0                0               0
1.48845                0.9796109       -18.81019      0.002338939       -1.680023                0               0                0               0
1.49505                0.9789974       -18.98186      0.002437681       -3.900135                0               0                0               0
1.50165                 0.978372       -19.15529      0.002544793       -6.241775                0               0                0               0
1.50825                0.9777352       -19.33057      0.002660067       -8.711455                0               0                0               0
1.51485                0.9770872       -19.50781      0.002783232       -11.31206                0               0                0               0
1.52145                0.9764283       -19.68711      0.002913962       -14.04337                0               0                0               0
1.52805                0.9757586        -19.8686      0.003051896       -16.90266                0               0                0               0
1.53465                0.9750773        -20.0524      0.003196643       -19.88522                0               0                0               0
1.54125                0.9743843       -20.23863      0.003347794        -22.9849                0               0                0               0
1.54785                0.9736787       -20.42745      0.003504931       -26.19456                0               0                0               0
1.55446                0.9729594       -20.61898      0.003667631       -29.50641                0               0                0               0
1.56106                0.9722252       -20.81335      0.003835472       -32.91234                0               0                0               0
1.56766                0.9714743       -21.01069      0.004008038       -36.40414                0               0                0               0
1.57426                0.9707052       -21.21114      0.004184925       -39.97365                0               0                0               0
1.58086                0.9699156       -21.41478      0.004365737       -43.61292                0               0                0               0
1.58746                0.9691034       -21.62175      0.004550095       -47.31425                0               0                0               0
1.59406                0.9682664       -21.83212      0.004737641       -51.07029                0               0                0               0
1.60066                0.9674018       -22.04598      0.004928032       -54.87403                0               0                0               0
1.60726                0.9665074       -22.26341      0.005120954       -58.71885                0               0                0               0
1.61386                0.9655802       -22.48443      0.005316113       -62.59848                0               0                0               0
1.62046                0.9646177       -22.70912      0.005513245       -66.50705                0               0                0               0
1.62706                0.9636173       -22.93748      0.005712117       -70.43904                0               0                0               0
1.63366                0.9625765       -23.16953      0.005912531       -74.38929                0               0                0               0
1.64026                0.9614928       -23.40527      0.006114321       -78.35298                0               0                0               0
1.64686                 0.960364       -23.64468      0.006317365       -82.32562                0               0                0               0
1.65347                0.9591879       -23.88776      0.006521578       -86.30304                0               0                0               0
1.66007                0.9579626       -24.13449      0.006726926       -90.28141                0               0                0               0
1.66667                0.9566867       -24.38482      0.006933418       -94.25717                0               0                0               0
1.67327                0.9553584       -24.63872      0.007141114       -98.22709                0               0                0               0
1.67987                0.9539764       -24.89618      0.007350129       -102.1883                0               0                0               0
1.68647                0.9525401       -25.15715      0.007560633        -106.138                0               0                0               0
1.69307                0.9510484       -25.42163      0.007772854       -110.0742                0               0                0               0
1.69967                 0.949501        -25.6896      0.007987079       -113.9947                0               0                0               0
1.70627                0.9478973       -25.96107      0.008203655       -117.8979                0               0                0               0
1.71287                0.9462373       -26.23604      0.008422991       -121.7826                0               0                0               0
1.71947                0.9445206       -26.51456      0.008645557       -125.6478                0               0                0               0
1.72607                0.9427473       -26.79668      0.008871885       -129.4929                0               0                0               0
1.73267                0.9409175       -27.08246      0.009102564       -133.3178                0               0                0               0
1.73927                0.9390309         -27.372      0.009338241       -137.1227                0               0                0               0
1.74587                0.9370873        -27.6654      0.009579614       -140.9081                0               0                0               0
1.75248                0.9350867       -27.96282      0.009827434       -144.6751                0               0                0               0
1.75908                0.9330283        -28.2644       0.01008249        -148.425                0               0                0               0
1.76568                0.9309114       -28.57033       0.01034562       -152.1595                0               0                0               0
1.77228                 0.928735       -28.88079       0.01061767       -155.8808                0               0                0               0
1.77888                0.9264977         -29.196       0.01089952       -159.5912                0               0                0               0
1.78548                0.9241975       -29.51619       0.01119207       -163.2936                0               0                0               0
1.79208                0.9218322        -29.8416       0.01149622       -166.9909                0               0                0               0
1.79868                0.9193991       -30.17247       0.01181285       -170.6863                0               0                0               0
1.80528                0.9168951       -30.50907       0.01214283       -174.3833                0               0                0               0
1.81188                0.9143163       -30.85163       0.01248701       -178.0854                0               0                0               0
1.81848                0.9116586       -31.20044        0.0128462        178.2039                0               0                0               0
1.82508                0.9089174       -31.55572       0.01322117         174.481                0               0                0               0
1.83168                0.9060874       -31.91773       0.01361261        170.7422                0               0                0               0
1.83828                0.9031631       -32.28668       0.01402117        166.9842                0               0                0               0
1.84488                0.9001385       -32.66279       0.01444744        163.2037                0               0                0               0
1.85149                0.8970071       -33.04625        0.0148919        159.3975                0               0                0               0
