! TOUCHSTONE file generated by CST MICROWAVE STUDIO
! Date and time: Tue Mar 11 13:57:14 2025
! Project name: transverse.cst
! Parameters = {Fracture=5; B=10; D=160; F=5; Feed=2.85625; L=100; M=30; R=0.384908; S=2; Theta=180; length=57.125; wave=114.25}
! Header version: 2024
! Port assignment regex: !\s*Touchstone port\s*([0-9]+)\s*=\s*(CST MWS port|CST DES external port|CST DES block port)\s*(.+)\s* \(\"(.*)\"\)(\s*mode\s*([0-9]+))?.*
! Touchstone port assignment:
! Touchstone port 1 = CST MWS port 1 ("")
! Touchstone port 2 = CST MWS port 2 ("")
# GHz S MA R 50
1                      0.9977067       -9.751339     0.0003766338       -164.4918                0               0                0               0
1.00658                0.9976062       -9.839036     0.0003831692       -168.9059                0               0                0               0
1.01316                0.9975013        -9.92706     0.0003886713       -173.2516                0               0                0               0
1.01974                0.9973927        -10.0154     0.0003931166       -177.5181                0               0                0               0
1.02632                0.9972811       -10.10405      0.000396492        178.3065                0               0                0               0
1.03289                0.9971672       -10.19301     0.0003987956        174.2349                0               0                0               0
1.03947                0.9970519        -10.2823     0.0004000387        170.2811                0               0                0               0
1.04605                0.9969359       -10.37193      0.000400248        166.4607                0               0                0               0
1.05263                  0.99682       -10.46194     0.0003994675        162.7904                0               0                0               0
1.05921                0.9967046       -10.55236     0.0003977614        159.2889                0               0                0               0
1.06579                0.9965905       -10.64323     0.0003952171        155.9761                0               0                0               0
1.07237                 0.996478       -10.73461     0.0003919484        152.8738                0               0                0               0
1.07895                0.9963676       -10.82654     0.0003880993        150.0046                0               0                0               0
1.08553                0.9962592       -10.91907     0.0003838478        147.3916                0               0                0               0
1.09211                0.9961531       -11.01228      0.000379409        145.0573                0               0                0               0
1.09868                0.9960491       -11.10622     0.0003750385        143.0218                0               0                0               0
1.10526                0.9959471       -11.20094     0.0003710332        141.3005                0               0                0               0
1.11184                0.9958465       -11.29651     0.0003677297         139.901                0               0                0               0
1.11842                 0.995747       -11.39298     0.0003654992        138.8195                0               0                0               0
1.125                  0.9956477        -11.4904     0.0003647362        138.0371                0               0                0               0
1.13158                 0.995548       -11.58881     0.0003658423        137.5174                0               0                0               0
1.13816                0.9954471       -11.68826     0.0003692032        137.2051                0               0                0               0
1.14474                 0.995344       -11.78876     0.0003751639        137.0285                0               0                0               0
1.15132                0.9952378       -11.89034     0.0003840037        136.9042                0               0                0               0
1.15789                0.9951274       -11.99301     0.0003959171         136.745                0               0                0               0
1.16447                 0.995012       -12.09678     0.0004110042        136.4685                0               0                0               0
1.17105                0.9948905       -12.20164      0.000429271        136.0048                0               0                0               0
1.17763                0.9947621       -12.30758     0.0004506404        135.3008                0               0                0               0
1.18421                0.9946261       -12.41458     0.0004749681        134.3223                0               0                0               0
1.19079                0.9944817       -12.52261     0.0005020614        133.0526                0               0                0               0
1.19737                0.9943282       -12.63165     0.0005316963        131.4896                0               0                0               0
1.20395                0.9941653       -12.74166     0.0005636317        129.6421                0               0                0               0
1.21053                0.9939927        -12.8526      0.000597621        127.5267                0               0                0               0
1.21711                0.9938103       -12.96443     0.0006334182        125.1641                0               0                0               0
1.22368                0.9936182       -13.07711     0.0006707832        122.5773                0               0                0               0
1.23026                0.9934162       -13.19061     0.0007094842        119.7899                0               0                0               0
1.23684                 0.993205       -13.30489     0.0007492989         116.825                0               0                0               0
1.24342                 0.992985       -13.41993     0.0007900149        113.7044                0               0                0               0
1.25                   0.9927567       -13.53571     0.0008314296        110.4485                0               0                0               0
1.25658                0.9925207        -13.6522     0.0008733503        107.0762                0               0                0               0
1.26316                 0.992278       -13.76941     0.0009155935        103.6047                0               0                0               0
1.26974                0.9920294       -13.88734     0.0009579853        100.0496                0               0                0               0
1.27632                0.9917755         -14.006      0.001000361        96.42514                0               0                0               0
1.28289                0.9915175       -14.12542      0.001042566        92.74444                0               0                0               0
1.28947                0.9912559       -14.24562      0.001084454        89.01935                0               0                0               0
1.29605                0.9909919       -14.36667      0.001125892        85.26078                0               0                0               0
1.30263                0.9907257        -14.4886      0.001166755        81.47881                0               0                0               0
1.30921                0.9904583       -14.61148      0.001206933        77.68275                0               0                0               0
1.31579                  0.99019       -14.73538      0.001246326        73.88129                0               0                0               0
1.32237                0.9899212       -14.86038      0.001284851        70.08256                0               0                0               0
1.32895                 0.989652       -14.98656      0.001322438        66.29421                0               0                0               0
1.33553                0.9893822       -15.11399      0.001359035        62.52346                0               0                0               0
1.34211                0.9891119       -15.24277      0.001394607        58.77718                0               0                0               0
1.34868                0.9888406       -15.37299       0.00142914        55.06185                0               0                0               0
1.35526                0.9885676       -15.50472       0.00146264        51.38364                0               0                0               0
1.36184                0.9882923       -15.63804      0.001495136        47.74837                0               0                0               0
1.36842                0.9880138       -15.77304      0.001526681        44.16153                0               0                0               0
1.375                   0.987731       -15.90978      0.001557354         40.6282                0               0                0               0
1.38158                0.9874429       -16.04832      0.001587261        37.15306                0               0                0               0
1.38816                0.9871481       -16.18872      0.001616536        33.74031                0               0                0               0
1.39474                0.9868453       -16.33103       0.00164534        30.39356                0               0                0               0
1.40132                0.9865332       -16.47527      0.001673866         27.1158                0               0                0               0
1.40789                0.9862104       -16.62147      0.001702334        23.90923                0               0                0               0
1.41447                0.9858756       -16.76965      0.001730995        20.77523                0               0                0               0
1.42105                0.9855275       -16.91982      0.001760124        17.71419                0               0                0               0
1.42763                0.9851648       -17.07197      0.001790024        14.72542                0               0                0               0
1.43421                0.9847865       -17.22609      0.001821019        11.80707                0               0                0               0
1.44079                0.9843918       -17.38218      0.001853452         8.95604                0               0                0               0
1.44737                0.9839795        -17.5402      0.001887678         6.16795                0               0                0               0
1.45395                0.9835493       -17.70015      0.001924063        3.437142                0               0                0               0
1.46053                0.9831003       -17.86199      0.001962972       0.7567316                0               0                0               0
1.46711                0.9826326       -18.02571      0.002004765       -1.881281                0               0                0               0
1.47368                0.9821458       -18.19128      0.002049792       -4.485855                0               0                0               0
1.48026                0.9816397       -18.35868       0.00209838       -7.066687                0               0                0               0
1.48684                0.9811149       -18.52792      0.002150833       -9.633956                0               0                0               0
1.49342                0.9805712       -18.69899       0.00220742       -12.19804                0               0                0               0
1.5                    0.9800094       -18.87189      0.002268374       -14.76921                0               0                0               0
1.50658                0.9794295       -19.04666      0.002333887       -17.35735                0               0                0               0
1.51316                0.9788324       -19.22331      0.002404105        -19.9717                0               0                0               0
1.51974                0.9782183       -19.40189      0.002479131       -22.62058                0               0                0               0
1.52632                0.9775879       -19.58247       0.00255902       -25.31131                0               0                0               0
1.53289                0.9769415        -19.7651      0.002643787       -28.04998                0               0                0               0
1.53947                0.9762795       -19.94988        0.0027334       -30.84148                0               0                0               0
1.54605                 0.975602       -20.13689      0.002827793       -33.68943                0               0                0               0
1.55263                 0.974909       -20.32624      0.002926861       -36.59626                0               0                0               0
1.55921                0.9742006       -20.51805      0.003030475       -39.56324                0               0                0               0
1.56579                0.9734763       -20.71243      0.003138473        -42.5906                0               0                0               0
1.57237                0.9727353       -20.90952      0.003250675       -45.67766                0               0                0               0
1.57895                0.9719769       -21.10945      0.003366882       -48.82291                0               0                0               0
1.58553                0.9712001       -21.31236      0.003486886       -52.02417                0               0                0               0
1.59211                0.9704034       -21.51837      0.003610467       -55.27871                0               0                0               0
1.59868                 0.969585       -21.72762      0.003737404       -58.58332                0               0                0               0
1.60526                0.9687432       -21.94025      0.003867472       -61.93446                0               0                0               0
1.61184                0.9678758       -22.15636      0.004000454       -65.32836                0               0                0               0
1.61842                0.9669804       -22.37608      0.004136139       -68.76102                0               0                0               0
1.625                  0.9660546        -22.5995      0.004274325       -72.22837                0               0                0               0
1.63158                0.9650955       -22.82671      0.004414828       -75.72629                0               0                0               0
1.63816                0.9641003        -23.0578       0.00455748       -79.25063                0               0                0               0
1.64474                0.9630662       -23.29282      0.004702134       -82.79733                0               0                0               0
1.65132                0.9619902       -23.53182      0.004848671       -86.36239                0               0                0               0
1.65789                0.9608693       -23.77483      0.004996995       -89.94191                0               0                0               0
1.66447                0.9597006       -24.02189      0.005147046       -93.53216                0               0                0               0
1.67105                0.9584813       -24.27298      0.005298795       -97.12956                0               0                0               0
1.67763                0.9572087       -24.52812      0.005452253       -100.7307                0               0                0               0
1.68421                0.9558801       -24.78727      0.005607469       -104.3325                0               0                0               0
1.69079                0.9544934       -25.05043      0.005764537       -107.9319                0               0                0               0
1.69737                0.9530458       -25.31755      0.005923594       -111.5263                0               0                0               0
1.70395                0.9515359        -25.5886      0.006084829       -115.1132                0               0                0               0
1.71053                0.9499616       -25.86355      0.006248475       -118.6907                0               0                0               0
1.71711                0.9483215       -26.14236      0.006414823       -122.2569                0               0                0               0
1.72368                0.9466143         -26.425      0.006584209       -125.8104                0               0                0               0
1.73026                0.9448387       -26.71143      0.006757027       -129.3501                0               0                0               0
1.73684                0.9429939       -27.00166      0.006933719       -132.8754                0               0                0               0
1.74342                0.9410792       -27.29566      0.007114781       -136.3859                0               0                0               0
1.75                   0.9390938       -27.59346      0.007300755       -139.8819                0               0                0               0
1.75658                0.9370373       -27.89507      0.007492234       -143.3638                0               0                0               0
1.76316                0.9349092       -28.20054      0.007689849       -146.8328                0               0                0               0
1.76974                0.9327092       -28.50992      0.007894273         -150.29                0               0                0               0
1.77632                0.9304362       -28.82331      0.008106208       -153.7375                0               0                0               0
1.78289                  0.92809       -29.14079      0.008326387       -157.1773                0               0                0               0
1.78947                0.9256696        -29.4625      0.008555558       -160.6121                0               0                0               0
1.79605                0.9231739       -29.78856      0.008794483       -164.0446                0               0                0               0
1.80263                0.9206018       -30.11914      0.009043927       -167.4781                0               0                0               0
1.80921                0.9179515        -30.4544      0.009304655        -170.916                0               0                0               0
1.81579                0.9152211       -30.79454      0.009577409       -174.3618                0               0                0               0
1.82237                0.9124082       -31.13975      0.009862919       -177.8191                0               0                0               0
1.82895                  0.90951       -31.49025       0.01016187        178.7083                0               0                0               0
1.83553                0.9065233       -31.84624       0.01047493        175.2166                0               0                0               0
1.84211                0.9034443       -32.20794       0.01080271        171.7024                0               0                0               0
1.84868                0.9002689       -32.57557       0.01114575        168.1621                0               0                0               0
