! TOUCHSTONE file generated by CST MICROWAVE STUDIO
! Date and time: Tue Mar 11 13:58:06 2025
! Project name: transverse.cst
! Parameters = {Fracture=1; B=12.5; D=160; F=5; Feed=2.85625; L=100; M=30; R=0.384908; S=1; Theta=270; length=57.125; wave=114.25}
! Header version: 2024
! Port assignment regex: !\s*Touchstone port\s*([0-9]+)\s*=\s*(CST MWS port|CST DES external port|CST DES block port)\s*(.+)\s* \(\"(.*)\"\)(\s*mode\s*([0-9]+))?.*
! Touchstone port assignment:
! Touchstone port 1 = CST MWS port 1 ("")
! Touchstone port 2 = CST MWS port 2 ("")
# GHz S MA R 50
1                      0.9976265       -10.11584     0.0003896589       -170.5533                0               0                0               0
1.00658                0.9975275       -10.20648     0.0003940386        -175.059                0               0                0               0
1.01316                0.9974245       -10.29751     0.0003972781       -179.4773                0               0                0               0
1.01974                0.9973178       -10.38891     0.0003993667        176.2037                0               0                0               0
1.02632                0.9972083       -10.48069     0.0004003055        171.9966                0               0                0               0
1.03289                0.9970963       -10.57286     0.0004001087         167.916                0               0                0               0
1.03947                0.9969828       -10.66541      0.000398806        163.9781                0               0                0               0
1.04605                0.9968681       -10.75838     0.0003964448        160.2008                0               0                0               0
1.05263                0.9967527       -10.85179     0.0003930931        156.6045                0               0                0               0
1.05921                0.9966375       -10.94566     0.0003888428        153.2117                0               0                0               0
1.06579                0.9965227       -11.04003     0.0003838135        150.0469                0               0                0               0
1.07237                0.9964087       -11.13496     0.0003781567        147.1369                0               0                0               0
1.07895                0.9962957       -11.23047     0.0003720606        144.5096                0               0                0               0
1.08553                 0.996184       -11.32662      0.000365754         142.193                0               0                0               0
1.09211                0.9960736       -11.42347     0.0003595112        140.2137                0               0                0               0
1.09868                0.9959643       -11.52105     0.0003536534        138.5935                0               0                0               0
1.10526                0.9958559       -11.61943     0.0003485487        137.3454                0               0                0               0
1.11184                0.9957482       -11.71866     0.0003446061        136.4692                0               0                0               0
1.11842                0.9956408       -11.81877     0.0003422633        135.9459                0               0                0               0
1.125                  0.9955329       -11.91982     0.0003419659        135.7333                0               0                0               0
1.13158                0.9954243       -12.02184     0.0003441397        135.7646                0               0                0               0
1.13816                0.9953138       -12.12486     0.0003491575        135.9503                0               0                0               0
1.14474                0.9952009       -12.22892     0.0003573084         136.186                0               0                0               0
1.15132                0.9950849       -12.33403     0.0003687747        136.3636                0               0                0               0
1.15789                0.9949647       -12.44021     0.0003836225         136.383                0               0                0               0
1.16447                0.9948397       -12.54745      0.000401808        136.1628                0               0                0               0
1.17105                 0.994709       -12.65577     0.0004231947        135.6454                0               0                0               0
1.17763                 0.994572       -12.76516     0.0004475775        134.7978                0               0                0               0
1.18421                0.9944279        -12.8756     0.0004747069        133.6088                0               0                0               0
1.19079                0.9942761       -12.98707       0.00050431        132.0841                0               0                0               0
1.19737                0.9941162       -13.09956     0.0005361061         130.241                0               0                0               0
1.20395                0.9939478       -13.21303     0.0005698173        128.1041                0               0                0               0
1.21053                0.9937706       -13.32746      0.000605175        125.7012                0               0                0               0
1.21711                0.9935846       -13.44283     0.0006419227        123.0613                0               0                0               0
1.22368                0.9933895       -13.55909     0.0006798174        120.2126                0               0                0               0
1.23026                0.9931858       -13.67624       0.00071863        117.1819                0               0                0               0
1.23684                0.9929735       -13.79423     0.0007581441         113.994                0               0                0               0
1.24342                0.9927532       -13.91306     0.0007981556        110.6713                0               0                0               0
1.25                   0.9925251       -14.03271     0.0008384723        107.2344                0               0                0               0
1.25658                0.9922899       -14.15317     0.0008789128        103.7016                0               0                0               0
1.26316                0.9920482       -14.27445     0.0009193061        100.0896                0               0                0               0
1.26974                0.9918008       -14.39655     0.0009594922        96.41316                0               0                0               0
1.27632                0.9915482       -14.51949     0.0009993213        92.68597                0               0                0               0
1.28289                0.9912912       -14.64329      0.001038655        88.92031                0               0                0               0
1.28947                0.9910305       -14.76799      0.001077365        85.12743                0               0                0               0
1.29605                0.9907667       -14.89363      0.001115337        81.31773                0               0                0               0
1.30263                0.9905004       -15.02026      0.001152469        77.50079                0               0                0               0
1.30921                 0.990232       -15.14794      0.001188673        73.68558                0               0                0               0
1.31579                 0.989962       -15.27673      0.001223875        69.88051                0               0                0               0
1.32237                0.9896905       -15.40671      0.001258021        66.09352                0               0                0               0
1.32895                0.9894176       -15.53794      0.001291072        62.33214                0               0                0               0
1.33553                0.9891433        -15.6705       0.00132301        58.60351                0               0                0               0
1.34211                0.9888676       -15.80448      0.001353839        54.91443                0               0                0               0
1.34868                0.9885897       -15.93995      0.001383583        51.27138                0               0                0               0
1.35526                0.9883095         -16.077      0.001412295        47.68048                0               0                0               0
1.36184                0.9880261       -16.21569      0.001440051        44.14745                0               0                0               0
1.36842                0.9877388        -16.3561      0.001466956        40.67762                0               0                0               0
1.375                  0.9874466        -16.4983      0.001493143         37.2758                0               0                0               0
1.38158                0.9871486       -16.64235      0.001518776        33.94622                0               0                0               0
1.38816                0.9868436       -16.78831      0.001544051        30.69243                0               0                0               0
1.39474                0.9865304       -16.93621      0.001569192        27.51714                0               0                0               0
1.40132                0.9862079       -17.08611      0.001594457        24.42215                0               0                0               0
1.40789                0.9858748       -17.23802       0.00162013        21.40812                0               0                0               0
1.41447                0.9855298       -17.39199      0.001646525        18.47452                0               0                0               0
1.42105                0.9851719       -17.54802      0.001673979        15.61944                0               0                0               0
1.42763                0.9847999       -17.70612      0.001702851        12.83951                0               0                0               0
1.43421                0.9844127        -17.8663      0.001733513        10.12985                0               0                0               0
1.44079                0.9840095       -18.02855      0.001766347         7.48401                0               0                0               0
1.44737                0.9835893       -18.19288      0.001801736        4.894085                0               0                0               0
1.45395                0.9831515       -18.35927       0.00184006        2.350799                0               0                0               0
1.46053                0.9826954       -18.52772      0.001881683      -0.1562835                0               0                0               0
1.46711                0.9822208       -18.69821      0.001926947       -2.638494                0               0                0               0
1.47368                0.9817272       -18.87075      0.001976167       -5.107733                0               0                0               0
1.48026                0.9812146       -19.04534      0.002029619       -7.576109                0               0                0               0
1.48684                0.9806825       -19.22198      0.002087539       -10.05557                0               0                0               0
1.49342                0.9801315       -19.40067      0.002150118       -12.55754                0               0                0               0
1.5                    0.9795613       -19.58145      0.002217496       -15.09257                0               0                0               0
1.50658                0.9789724       -19.76433      0.002289766       -17.67012                0               0                0               0
1.51316                0.9783647       -19.94936      0.002366971        -20.2983                0               0                0               0
1.51974                0.9777386        -20.1366      0.002449106       -22.98379                0               0                0               0
1.52632                0.9770941       -20.32609      0.002536123       -25.73177                0               0                0               0
1.53289                0.9764314        -20.5179      0.002627932       -28.54593                0               0                0               0
1.53947                0.9757507       -20.71213      0.002724408       -31.42853                0               0                0               0
1.54605                0.9750516       -20.90886      0.002825394       -34.38052                0               0                0               0
1.55263                0.9743341        -21.1082      0.002930708        -37.4017                0               0                0               0
1.55921                0.9735978       -21.31025      0.003040142       -40.49083                0               0                0               0
1.56579                0.9728419       -21.51514      0.003153476       -43.64578                0               0                0               0
1.57237                0.9720657       -21.72297      0.003270472       -46.86374                0               0                0               0
1.57895                0.9712681        -21.9339      0.003390889       -50.14131                0               0                0               0
1.58553                 0.970448       -22.14802      0.003514476       -53.47463                0               0                0               0
1.59211                0.9696037       -22.36549      0.003640986       -56.85953                0               0                0               0
1.59868                0.9687335       -22.58642      0.003770173       -60.29161                0               0                0               0
1.60526                0.9678354       -22.81093      0.003901798        -63.7663                0               0                0               0
1.61184                0.9669072       -23.03914      0.004035631       -67.27897                0               0                0               0
1.61842                0.9659466       -23.27116      0.004171458       -70.82498                0               0                0               0
1.625                   0.964951       -23.50709      0.004309078       -74.39969                0               0                0               0
1.63158                0.9639175       -23.74702      0.004448312       -77.99856                0               0                0               0
1.63816                0.9628434       -23.99103      0.004589003       -81.61713                0               0                0               0
1.64474                0.9617258       -24.23917       0.00473102       -85.25108                0               0                0               0
1.65132                0.9605616       -24.49151      0.004874265       -88.89623                0               0                0               0
1.65789                0.9593478       -24.74809      0.005018665       -92.54859                0               0                0               0
1.66447                0.9580814       -25.00893       0.00516419       -96.20436                0               0                0               0
1.67105                0.9567597       -25.27404      0.005310844       -99.85992                0               0                0               0
1.67763                0.9553797       -25.54344      0.005458677       -103.5119                0               0                0               0
1.68421                0.9539384       -25.81711      0.005607778       -107.1572                0               0                0               0
1.69079                0.9524337       -26.09504      0.005758289        -110.793                0               0                0               0
1.69737                0.9508627       -26.37723      0.005910397       -114.4167                0               0                0               0
1.70395                0.9492234       -26.66363      0.006064345       -118.0261                0               0                0               0
1.71053                0.9475137       -26.95422      0.006220427       -121.6193                0               0                0               0
1.71711                0.9457318       -27.24898      0.006378991       -125.1947                0               0                0               0
1.72368                0.9438757       -27.54788      0.006540443       -128.7511                0               0                0               0
1.73026                0.9419443       -27.85089      0.006705241       -132.2879                0               0                0               0
1.73684                0.9399362       -28.15802        0.0068739       -135.8046                0               0                0               0
1.74342                0.9378499       -28.46926      0.007046983       -139.3016                0               0                0               0
1.75                   0.9356845       -28.78461      0.007225108       -142.7792                0               0                0               0
1.75658                0.9334391       -29.10409      0.007408938       -146.2386                0               0                0               0
1.76316                0.9311126       -29.42775      0.007599173       -149.6814                0               0                0               0
1.76974                0.9287041       -29.75563      0.007796555       -153.1094                0               0                0               0
1.77632                0.9262127        -30.0878      0.008001849       -156.5252                0               0                0               0
1.78289                0.9236373       -30.42435      0.008215846       -159.9315                0               0                0               0
1.78947                0.9209766       -30.76539      0.008439348       -163.3317                0               0                0               0
1.79605                0.9182292       -31.11103      0.008673162       -166.7292                0               0                0               0
1.80263                0.9153935       -31.46141       0.00891809       -170.1279                0               0                0               0
1.80921                0.9124676       -31.81669      0.009174923       -173.5318                0               0                0               0
1.81579                0.9094493       -32.17703      0.009444422        -176.945                0               0                0               0
1.82237                0.9063361       -32.54261      0.009727321        179.6282                0               0                0               0
1.82895                0.9031248        -32.9136       0.01002431        176.1836                0               0                0               0
1.83553                0.8998123       -33.29021       0.01033603        172.7171                0               0                0               0
1.84211                0.8963947       -33.67262       0.01066307        169.2248                0               0                0               0
1.84868                0.8928678       -34.06103       0.01100595        165.7027                0               0                0               0
