! TOUCHSTONE file generated by CST MICROWAVE STUDIO
! Date and time: Tue Mar 11 13:56:46 2025
! Project name: transverse.cst
! Parameters = {Fracture=1; B=12.5; D=160; F=5; Feed=2.85625; L=100; M=10; R=0.384908; S=2; Theta=90; length=57.125; wave=114.25}
! Header version: 2024
! Port assignment regex: !\s*Touchstone port\s*([0-9]+)\s*=\s*(CST MWS port|CST DES external port|CST DES block port)\s*(.+)\s* \(\"(.*)\"\)(\s*mode\s*([0-9]+))?.*
! Touchstone port assignment:
! Touchstone port 1 = CST MWS port 1 ("")
! Touchstone port 2 = CST MWS port 2 ("")
# GHz S MA R 50
1                      0.9978403       -9.998068     0.0002725924       -126.6414                0               0                0               0
1.00658                0.9977575       -10.08818     0.0002925739       -130.8137                0               0                0               0
1.01316                0.9976684       -10.17874     0.0003119824       -135.1128                0               0                0               0
1.01974                0.9975737       -10.26971     0.0003306928       -139.5036                0               0                0               0
1.02632                0.9974739       -10.36105     0.0003485876       -143.9578                0               0                0               0
1.03289                0.9973695       -10.45277     0.0003655557       -148.4524                0               0                0               0
1.03947                0.9972614       -10.54483     0.0003814931       -152.9679                0               0                0               0
1.04605                0.9971502       -10.63723     0.0003963019       -157.4872                0               0                0               0
1.05263                0.9970369       -10.72999     0.0004098919       -161.9951                0               0                0               0
1.05921                0.9969221       -10.82311     0.0004221806       -166.4774                0               0                0               0
1.06579                0.9968068        -10.9166      0.000433094       -170.9207                0               0                0               0
1.07237                0.9966917       -11.01051     0.0004425684       -175.3114                0               0                0               0
1.07895                0.9965775       -11.10487     0.0004505509        -179.636                0               0                0               0
1.08553                0.9964649       -11.19972     0.0004570015        176.1196                0               0                0               0
1.09211                0.9963543       -11.29513     0.0004618948        171.9705                0               0                0               0
1.09868                0.9962461       -11.39113     0.0004652222        167.9329                0               0                0               0
1.10526                0.9961407        -11.4878     0.0004669941        164.0245                0               0                0               0
1.11184                 0.996038       -11.58521     0.0004672437         160.265                0               0                0               0
1.11842                0.9959381       -11.68342     0.0004660302         156.676                0               0                0               0
1.125                  0.9958407       -11.78249     0.0004634431        153.2816                0               0                0               0
1.13158                0.9957454        -11.8825     0.0004596076        150.1085                0               0                0               0
1.13816                0.9956517       -11.98351     0.0004546903        147.1859                0               0                0               0
1.14474                 0.995559       -12.08557     0.0004489062        144.5451                0               0                0               0
1.15132                0.9954663       -12.18874     0.0004425255        142.2186                0               0                0               0
1.15789                0.9953728       -12.29306     0.0004358815        140.2387                0               0                0               0
1.16447                0.9952775       -12.39858     0.0004293757        138.6348                0               0                0               0
1.17105                0.9951793       -12.50532     0.0004234819        137.4292                0               0                0               0
1.17763                0.9950771       -12.61331     0.0004187426        136.6318                0               0                0               0
1.18421                0.9949696       -12.72255     0.0004157584        136.2338                0               0                0               0
1.19079                 0.994856       -12.83306     0.0004151642        136.2015                0               0                0               0
1.19737                0.9947349       -12.94482     0.0004175927        136.4722                0               0                0               0
1.20395                0.9946056       -13.05782     0.0004236272        136.9543                0               0                0               0
1.21053                0.9944669       -13.17204     0.0004337524        137.5343                0               0                0               0
1.21711                0.9943181       -13.28745     0.0004483118         138.089                0               0                0               0
1.22368                0.9941585       -13.40401     0.0004674856        138.5007                0               0                0               0
1.23026                0.9939876       -13.52168     0.0004912909        138.6705                0               0                0               0
1.23684                0.9938051       -13.64043     0.0005196033         138.527                0               0                0               0
1.24342                0.9936106        -13.7602     0.0005521914        138.0284                0               0                0               0
1.25                   0.9934042       -13.88096     0.0005887531        137.1593                0               0                0               0
1.25658                 0.993186       -14.00268     0.0006289485        135.9252                0               0                0               0
1.26316                0.9929563       -14.12529     0.0006724242        134.3453                0               0                0               0
1.26974                0.9927154       -14.24879     0.0007188304        132.4476                0               0                0               0
1.27632                0.9924641       -14.37315     0.0007678305         130.264                0               0                0               0
1.28289                0.9922028       -14.49834     0.0008191062        127.8272                0               0                0               0
1.28947                0.9919326       -14.62436     0.0008723595         125.169                0               0                0               0
1.29605                 0.991654       -14.75122     0.0009273128        122.3193                0               0                0               0
1.30263                0.9913682       -14.87892      0.000983708        119.3054                0               0                0               0
1.30921                0.9910757       -15.00749      0.001041306        116.1519                0               0                0               0
1.31579                0.9907775       -15.13696      0.001099885        112.8808                0               0                0               0
1.32237                0.9904744       -15.26739       0.00115924        109.5118                0               0                0               0
1.32895                0.9901669       -15.39881      0.001219183        106.0623                0               0                0               0
1.33553                0.9898559       -15.53131      0.001279543        102.5478                0               0                0               0
1.34211                0.9895417       -15.66494      0.001340163        98.98218                0               0                0               0
1.34868                0.9892246        -15.7998      0.001400904        95.37781                0               0                0               0
1.35526                0.9889046       -15.93596      0.001461646        91.74573                0               0                0               0
1.36184                0.9885817       -16.07351      0.001522286        88.09588                0               0                0               0
1.36842                0.9882556       -16.21254      0.001582739        84.43723                0               0                0               0
1.375                  0.9879259       -16.35314      0.001642943        80.77785                0               0                0               0
1.38158                0.9875918       -16.49541      0.001702856        77.12504                0               0                0               0
1.38816                0.9872526       -16.63942       0.00176246        73.48538                0               0                0               0
1.39474                0.9869072       -16.78526      0.001821761        69.86481                0               0                0               0
1.40132                0.9865544       -16.93299      0.001880792        66.26861                0               0                0               0
1.40789                0.9861928       -17.08269       0.00193961        62.70149                0               0                0               0
1.41447                0.9858211       -17.23441      0.001998302        59.16754                0               0                0               0
1.42105                0.9854377        -17.3882      0.002056983        55.67025                0               0                0               0
1.42763                0.9850411       -17.54408      0.002115797         52.2125                0               0                0               0
1.43421                0.9846296        -17.7021      0.002174918        48.79655                0               0                0               0
1.44079                0.9842018       -17.86225      0.002234548        45.42396                0               0                0               0
1.44737                0.9837561       -18.02454      0.002294919        42.09564                0               0                0               0
1.45395                0.9832911       -18.18897       0.00235629        38.81177                0               0                0               0
1.46053                0.9828054       -18.35551      0.002418943        35.57179                0               0                0               0
1.46711                0.9822978       -18.52415      0.002483186        32.37442                0               0                0               0
1.47368                0.9817674       -18.69486      0.002549345         29.2176                0               0                0               0
1.48026                0.9812133       -18.86759      0.002617763        26.09856                0               0                0               0
1.48684                0.9806347       -19.04232      0.002688794         23.0138                0               0                0               0
1.49342                0.9800314         -19.219        0.0027628         19.9592                0               0                0               0
1.5                    0.9794027       -19.39761      0.002840146        16.93004                0               0                0               0
1.50658                 0.978749        -19.5781      0.002921191         13.9211                0               0                0               0
1.51316                0.9780701       -19.76046      0.003006286         10.9268                0               0                0               0
1.51974                0.9773665       -19.94467      0.003095769        7.941279                0               0                0               0
1.52632                0.9766384       -20.13071      0.003189957        4.958543                0               0                0               0
1.53289                0.9758864       -20.31858      0.003289144        1.972606                0               0                0               0
1.53947                0.9751112       -20.50832      0.003393596       -1.022388                0               0                0               0
1.54605                0.9743134       -20.69993      0.003503547        -4.03204                0               0                0               0
1.55263                0.9734937       -20.89347      0.003619195        -7.06158                0               0                0               0
1.55921                0.9726528         -21.089      0.003740706       -10.11578                0               0                0               0
1.56579                0.9717912       -21.28658      0.003868206       -13.19887                0               0                0               0
1.57237                0.9709096       -21.48631      0.004001786       -16.31449                0               0                0               0
1.57895                0.9700082       -21.68828      0.004141499       -19.46568                0               0                0               0
1.58553                0.9690872       -21.89262      0.004287365       -22.65482                0               0                0               0
1.59211                0.9681465       -22.09945       0.00443937       -25.88368                0               0                0               0
1.59868                 0.967186        -22.3089      0.004597467       -29.15344                0               0                0               0
1.60526                0.9662049       -22.52112      0.004761585       -32.46469                0               0                0               0
1.61184                0.9652026       -22.73625      0.004931626       -35.81753                0               0                0               0
1.61842                0.9641778       -22.95446       0.00510747       -39.21155                0               0                0               0
1.625                  0.9631291       -23.17589      0.005288977       -42.64596                0               0                0               0
1.63158                0.9620548        -23.4007      0.005475996       -46.11957                0               0                0               0
1.63816                0.9609528       -23.62903      0.005668359       -49.63092                0               0                0               0
1.64474                0.9598209       -23.86102      0.005865894       -53.17827                0               0                0               0
1.65132                0.9586563       -24.09681      0.006068421       -56.75968                0               0                0               0
1.65789                0.9574564       -24.33651      0.006275759       -60.37307                0               0                0               0
1.66447                0.9562182       -24.58023       0.00648773       -64.01621                0               0                0               0
1.67105                0.9549385       -24.82807      0.006704159       -67.68681                0               0                0               0
1.67763                0.9536141        -25.0801      0.006924879       -71.38253                0               0                0               0
1.68421                0.9522415       -25.33638      0.007149736       -75.10102                0               0                0               0
1.69079                0.9508174       -25.59695      0.007378585       -78.83992                0               0                0               0
1.69737                0.9493385       -25.86186      0.007611302       -82.59692                0               0                0               0
1.70395                0.9478014        -26.1311       0.00784778       -86.36977                0               0                0               0
1.71053                0.9462031       -26.40467      0.008087935       -90.15626                0               0                0               0
1.71711                0.9445404       -26.68257      0.008331706       -93.95431                0               0                0               0
1.72368                0.9428104       -26.96476      0.008579059        -97.7619                0               0                0               0
1.73026                0.9410105       -27.25121      0.008829991       -101.5772                0               0                0               0
1.73684                0.9391381       -27.54188      0.009084524       -105.3983                0               0                0               0
1.74342                0.9371913       -27.83671       0.00934272       -109.2237                0               0                0               0
1.75                    0.935168       -28.13567      0.009604668        -113.052                0               0                0               0
1.75658                0.9330667        -28.4387      0.009870496       -116.8817                0               0                0               0
1.76316                0.9308855       -28.74576       0.01014036       -120.7117                0               0                0               0
1.76974                0.9286237       -29.05682       0.01041447       -124.5409                0               0                0               0
1.77632                  0.92628       -29.37186       0.01069306       -128.3687                0               0                0               0
1.78289                0.9238536       -29.69087       0.01097639       -132.1943                0               0                0               0
1.78947                0.9213437       -30.01385       0.01126478       -136.0172                0               0                0               0
1.79605                0.9187498       -30.34084       0.01155856       -139.8372                0               0                0               0
1.80263                0.9160712       -30.67187       0.01185811       -143.6542                0               0                0               0
1.80921                0.9133073         -31.007       0.01216383       -147.4682                0               0                0               0
1.81579                0.9104574       -31.34634       0.01247616       -151.2796                0               0                0               0
1.82237                0.9075207       -31.68998       0.01279555       -155.0887                0               0                0               0
1.82895                0.9044959       -32.03806       0.01312247       -158.8962                0               0                0               0
1.83553                 0.901382       -32.39072       0.01345743       -162.7029                0               0                0               0
1.84211                0.8981771       -32.74815       0.01380092       -166.5096                0               0                0               0
1.84868                0.8948794       -33.11052       0.01415348       -170.3175                0               0                0               0
