! TOUCHSTONE file generated by CST MICROWAVE STUDIO
! Date and time: Tue Mar 11 13:57:47 2025
! Project name: transverse.cst
! Parameters = {Fracture=1; B=12.5; D=160; F=25; Feed=2.85625; L=100; M=30; R=0.384908; S=1; Theta=180; length=57.125; wave=114.25}
! Header version: 2024
! Port assignment regex: !\s*Touchstone port\s*([0-9]+)\s*=\s*(CST MWS port|CST DES external port|CST DES block port)\s*(.+)\s* \(\"(.*)\"\)(\s*mode\s*([0-9]+))?.*
! Touchstone port assignment:
! Touchstone port 1 = CST MWS port 1 ("")
! Touchstone port 2 = CST MWS port 2 ("")
# GHz S MA R 50
1                      0.9975237       -10.02355     0.0005411993        164.6952                0               0                0               0
1.0066                 0.9974603       -10.11123     0.0005374676        158.5946                0               0                0               0
1.0132                    0.9974       -10.19963     0.0005315065        152.6016                0               0                0               0
1.0198                 0.9973422       -10.28881     0.0005232777        146.7246                0               0                0               0
1.0264                 0.9972861       -10.37881     0.0005127558        140.9755                0               0                0               0
1.033                  0.9972313        -10.4697     0.0004999304        135.3697                0               0                0               0
1.0396                 0.9971766       -10.56151     0.0004848079        129.9275                0               0                0               0
1.0462                 0.9971213       -10.65428     0.0004674157        124.6758                0               0                0               0
1.05281                0.9970643       -10.74802     0.0004478061          119.65                0               0                0               0
1.05941                0.9970045       -10.84276     0.0004260642        114.8976                0               0                0               0
1.06601                0.9969408        -10.9385     0.0004023177         110.483                0               0                0               0
1.07261                0.9968725       -11.03524     0.0003767536        106.4941                0               0                0               0
1.07921                0.9967982       -11.13297     0.0003496433        103.0534                0               0                0               0
1.08581                0.9967171       -11.23167     0.0003213843        100.3329                0               0                0               0
1.09241                0.9966286       -11.33132     0.0002925676        98.57483                0               0                0               0
1.09901                0.9965318       -11.43188     0.0002640878        98.11596                0               0                0               0
1.10561                0.9964259       -11.53331     0.0002373127        99.39799                0               0                0               0
1.11221                0.9963108       -11.63557     0.0002143019        102.9098                0               0                0               0
1.11881                 0.996186       -11.73861     0.0001979343        108.9407                0               0                0               0
1.12541                0.9960515        -11.8424     0.0001915368        117.0737                0               0                0               0
1.13201                0.9959073       -11.94688     0.0001976162        125.8484                0               0                0               0
1.13861                0.9957535       -12.05201     0.0002164694        133.4099                0               0                0               0
1.14521                0.9955905       -12.15775     0.0002462999        138.6536                0               0                0               0
1.15182                0.9954189       -12.26407     0.0002845815        141.4773                0               0                0               0
1.15842                0.9952391       -12.37094     0.0003290947         142.287                0               0                0               0
1.16502                0.9950521       -12.47834     0.0003782002        141.5709                0               0                0               0
1.17162                0.9948584       -12.58625     0.0004307453        139.7356                0               0                0               0
1.17822                0.9946591       -12.69467     0.0004859119        137.0829                0               0                0               0
1.18482                 0.994455       -12.80362     0.0005430947        133.8286                0               0                0               0
1.19142                0.9942469        -12.9131     0.0006018235        130.1265                0               0                0               0
1.19802                0.9940358       -13.02315     0.0006617131        126.0869                0               0                0               0
1.20462                0.9938223        -13.1338     0.0007224327        121.7899                0               0                0               0
1.21122                0.9936073        -13.2451     0.0007836874        117.2953                0               0                0               0
1.21782                0.9933915       -13.35711     0.0008452063         112.648                0               0                0               0
1.22442                0.9931751       -13.46987     0.0009067346        107.8824                0               0                0               0
1.23102                0.9929588       -13.58347     0.0009680298        103.0256                0               0                0               0
1.23762                0.9927425       -13.69796      0.001028858        98.09894                0               0                0               0
1.24422                0.9925262       -13.81344      0.001088993        93.11989                0               0                0               0
1.25083                0.9923098       -13.92996      0.001148214        88.10274                0               0                0               0
1.25743                0.9920931       -14.04762       0.00120631        83.05949                0               0                0               0
1.26403                0.9918753       -14.16647       0.00126307        78.00039                0               0                0               0
1.27063                0.9916558       -14.28659      0.001318297        72.93435                0               0                0               0
1.27723                0.9914338       -14.40804      0.001371796        67.86928                0               0                0               0
1.28383                0.9912085       -14.53088      0.001423384        62.81229                0               0                0               0
1.29043                0.9909783       -14.65516      0.001472886        57.76997                0               0                0               0
1.29703                0.9907425       -14.78092       0.00152014        52.74847                0               0                0               0
1.30363                0.9904996       -14.90818      0.001564992        47.75367                0               0                0               0
1.31023                0.9902485       -15.03698      0.001607307        42.79128                0               0                0               0
1.31683                0.9899878       -15.16731      0.001646963        37.86692                0               0                0               0
1.32343                0.9897162       -15.29918      0.001683854        32.98619                0               0                0               0
1.33003                0.9894328       -15.43258      0.001717896        28.15479                0               0                0               0
1.33663                0.9891363       -15.56749      0.001749027         23.3785                0               0                0               0
1.34323                 0.988826       -15.70389      0.001777206        18.66325                0               0                0               0
1.34984                0.9885007       -15.84173      0.001802421         14.0152                0               0                0               0
1.35644                0.9881599         -15.981      0.001824688        9.440716                0               0                0               0
1.36304                0.9878031       -16.12164      0.001844055        4.946409                0               0                0               0
1.36964                  0.98743       -16.26361      0.001860606       0.5391274                0               0                0               0
1.37624                0.9870404       -16.40687      0.001874462       -3.774056                0               0                0               0
1.38284                0.9866346       -16.55138      0.001885787       -7.985889                0               0                0               0
1.38944                0.9862126       -16.69711      0.001894789       -12.08901                0               0                0               0
1.39604                0.9857748       -16.84402      0.001901724       -16.07605                0               0                0               0
1.40264                0.9853217       -16.99209      0.001906901       -19.93981                0               0                0               0
1.40924                0.9848541       -17.14132      0.001910682       -23.67344                0               0                0               0
1.41584                0.9843726       -17.29169      0.001913485        -27.2707                0               0                0               0
1.42244                0.9838784       -17.44322      0.001915786       -30.72634                0               0                0               0
1.42904                0.9833717       -17.59592      0.001918118       -34.03644                0               0                0               0
1.43564                0.9828541       -17.74983      0.001921067       -37.19891                0               0                0               0
1.44224                0.9823258         -17.905      0.001925268       -40.21395                0               0                0               0
1.44884                0.9817879       -18.06147      0.001931401       -43.08458                0               0                0               0
1.45545                 0.981241       -18.21934      0.001940171       -45.81706                0               0                0               0
1.46205                0.9806857       -18.37866      0.001952301        -48.4213                0               0                0               0
1.46865                0.9801221       -18.53954      0.001968511       -50.91097                0               0                0               0
1.47525                0.9795507       -18.70206      0.001989499       -53.30349                0               0                0               0
1.48185                0.9789712       -18.86635      0.002015914       -55.61968                0               0                0               0
1.48845                0.9783832       -19.03249      0.002048338       -57.88307                0               0                0               0
1.49505                0.9777866       -19.20061      0.002087268       -60.11903                0               0                0               0
1.50165                0.9771803       -19.37082      0.002133092       -62.35361                0               0                0               0
1.50825                0.9765635       -19.54322      0.002186085       -64.61237                0               0                0               0
1.51485                0.9759349       -19.71792      0.002246399       -66.91922                0               0                0               0
1.52145                0.9752932       -19.89501      0.002314066       -69.29548                0               0                0               0
1.52805                0.9746366       -20.07458      0.002389003       -71.75915                0               0                0               0
1.53465                0.9739633       -20.25672      0.002471023       -74.32451                0               0                0               0
1.54125                0.9732718        -20.4415      0.002559847       -77.00198                0               0                0               0
1.54785                0.9725596       -20.62895      0.002655119        -79.7983                0               0                0               0
1.55446                0.9718249       -20.81913      0.002756423       -82.71682                0               0                0               0
1.56106                0.9710656       -21.01207      0.002863295       -85.75795                0               0                0               0
1.56766                0.9702799       -21.20777      0.002975238       -88.91968                0               0                0               0
1.57426                0.9694655       -21.40624      0.003091729       -92.19802                0               0                0               0
1.58086                0.9686207       -21.60747      0.003212233       -95.58755                0               0                0               0
1.58746                0.9677437       -21.81143      0.003336208       -99.08175                0               0                0               0
1.59406                0.9668331        -22.0181      0.003463113       -102.6734                0               0                0               0
1.60066                0.9658875       -22.22742      0.003592409       -106.3548                0               0                0               0
1.60726                 0.964906       -22.43936       0.00372357       -110.1182                0               0                0               0
1.61386                0.9638875       -22.65387      0.003856082       -113.9555                0               0                0               0
1.62046                0.9628317        -22.8709      0.003989443        -117.859                0               0                0               0
1.62706                0.9617382       -23.09041      0.004123172       -121.8209                0               0                0               0
1.63366                 0.960607       -23.31236      0.004256809       -125.8337                0               0                0               0
1.64026                0.9594382       -23.53671      0.004389914       -129.8903                0               0                0               0
1.64686                0.9582322       -23.76345      0.004522073       -133.9836                0               0                0               0
1.65347                0.9569897       -23.99257      0.004652899        -138.107                0               0                0               0
1.66007                0.9557116       -24.22408      0.004782035       -142.2539                0               0                0               0
1.66667                0.9543987       -24.45801      0.004909155       -146.4181                0               0                0               0
1.67327                0.9530518       -24.69442      0.005033969       -150.5937                0               0                0               0
1.67987                0.9516721       -24.93337      0.005156224        -154.775                0               0                0               0
1.68647                0.9502605       -25.17495      0.005275709       -158.9563                0               0                0               0
1.69307                0.9488178       -25.41928      0.005392255       -163.1323                0               0                0               0
1.69967                0.9473447       -25.66651      0.005505742       -167.2979                0               0                0               0
1.70627                0.9458418       -25.91678      0.005616103        -171.448                0               0                0               0
1.71287                0.9443093       -26.17028      0.005723322       -175.5778                0               0                0               0
1.71947                0.9427471        -26.4272      0.005827447       -179.6826                0               0                0               0
1.72607                0.9411549       -26.68776      0.005928582        176.2419                0               0                0               0
1.73267                0.9395319       -26.95218      0.006026905           172.2                0               0                0               0
1.73927                0.9378768       -27.22071       0.00612266        168.1957                0               0                0               0
1.74587                 0.936188        -27.4936      0.006216165        164.2327                0               0                0               0
1.75248                0.9344635       -27.77109      0.006307815        160.3144                0               0                0               0
1.75908                0.9327006       -28.05343      0.006398087        156.4438                0               0                0               0
1.76568                0.9308965       -28.34086      0.006487533        152.6236                0               0                0               0
1.77228                0.9290478       -28.63365      0.006576793        148.8557                0               0                0               0
1.77888                0.9271507         -28.932      0.006666585        145.1418                0               0                0               0
1.78548                0.9252007       -29.23615      0.006757707        141.4826                0               0                0               0
1.79208                0.9231936       -29.54629      0.006851033        137.8782                0               0                0               0
1.79868                0.9211245       -29.86262       0.00694751        134.3279                0               0                0               0
1.80528                0.9189883       -30.18528      0.007048143        130.8301                0               0                0               0
1.81188                  0.91678       -30.51444      0.007153996        127.3823                0               0                0               0
1.81848                0.9144943       -30.85021      0.007266171        123.9809                0               0                0               0
1.82508                0.9121256       -31.19268      0.007385798        120.6213                0               0                0               0
1.83168                0.9096689       -31.54196      0.007514019        117.2981                0               0                0               0
1.83828                0.9071185       -31.89807      0.007651969        114.0049                0               0                0               0
1.84488                0.9044698       -32.26108      0.007800761        110.7345                0               0                0               0
1.85149                0.9017173         -32.631      0.007961461         107.479                0               0                0               0
