! TOUCHSTONE file generated by CST MICROWAVE STUDIO
! Date and time: Tue Mar 11 13:57:49 2025
! Project name: transverse.cst
! Parameters = {Fracture=5; B=10; D=160; F=5; Feed=2.85625; L=100; M=10; R=0.384908; S=1; Theta=270; length=57.125; wave=114.25}
! Header version: 2024
! Port assignment regex: !\s*Touchstone port\s*([0-9]+)\s*=\s*(CST MWS port|CST DES external port|CST DES block port)\s*(.+)\s* \(\"(.*)\"\)(\s*mode\s*([0-9]+))?.*
! Touchstone port assignment:
! Touchstone port 1 = CST MWS port 1 ("")
! Touchstone port 2 = CST MWS port 2 ("")
# GHz S MA R 50
1                      0.9979172       -9.746945     0.0003100958       -114.5639                0               0                0               0
1.00658                0.9978344       -9.836102     0.0003352201       -120.0676                0               0                0               0
1.01316                0.9977435       -9.925687     0.0003594344       -125.5788                0               0                0               0
1.01974                 0.997645       -10.01565     0.0003826038        -131.087                0               0                0               0
1.02632                0.9975395       -10.10595     0.0004045956        -136.584                0               0                0               0
1.03289                0.9974279       -10.19654     0.0004252796       -142.0624                0               0                0               0
1.03947                0.9973111       -10.28739     0.0004445287        -147.516                0               0                0               0
1.04605                0.9971901        -10.3785     0.0004622197       -152.9389                0               0                0               0
1.05263                 0.997066       -10.46984     0.0004782347       -158.3252                0               0                0               0
1.05921                0.9969401       -10.56142     0.0004924608       -163.6692                0               0                0               0
1.06579                0.9968135       -10.65326     0.0005047922       -168.9646                0               0                0               0
1.07237                0.9966873       -10.74539     0.0005151303       -174.2048                0               0                0               0
1.07895                0.9965627       -10.83785     0.0005233852       -179.3826                0               0                0               0
1.08553                0.9964406       -10.93068     0.0005294771        175.5104                0               0                0               0
1.09211                0.9963219       -11.02396     0.0005333369        170.4835                0               0                0               0
1.09868                0.9962074       -11.11774     0.0005349088        165.5478                0               0                0               0
1.10526                0.9960975       -11.21211     0.0005341513        160.7159                0               0                0               0
1.11184                0.9959927       -11.30716     0.0005310395        156.0032                0               0                0               0
1.11842                0.9958929       -11.40297     0.0005255685        151.4279                0               0                0               0
1.125                  0.9957983       -11.49962     0.0005177559         147.012                0               0                0               0
1.13158                0.9957084       -11.59722     0.0005076464        142.7822                0               0                0               0
1.13816                0.9956228       -11.69584     0.0004953183        138.7716                0               0                0               0
1.14474                0.9955406       -11.79558     0.0004808902        135.0205                0               0                0               0
1.15132                0.9954609       -11.89651     0.0004645317        131.5794                0               0                0               0
1.15789                0.9953827       -11.99869     0.0004464778        128.5105                0               0                0               0
1.16447                0.9953047       -12.10219     0.0004270478        125.8909                0               0                0               0
1.17105                0.9952255       -12.20706     0.0004066711        123.8147                0               0                0               0
1.17763                0.9951434       -12.31333     0.0003859214        122.3938                0               0                0               0
1.18421                0.9950572       -12.42103      0.000365558        121.7549                0               0                0               0
1.19079                0.9949651       -12.53017     0.0003465692        122.0261                0               0                0               0
1.19737                0.9948656       -12.64075     0.0003302014        123.3092                0               0                0               0
1.20395                0.9947573       -12.75275     0.0003179389        125.6281                0               0                0               0
1.21053                0.9946387       -12.86614     0.0003113861        128.8644                0               0                0               0
1.21711                0.9945087       -12.98089     0.0003120189        132.7118                0               0                0               0
1.22368                0.9943661       -13.09696     0.0003208623        136.7064                0               0                0               0
1.23026                  0.99421       -13.21428     0.0003382522        140.3476                0               0                0               0
1.23684                0.9940397        -13.3328     0.0003638299        143.2434                0               0                0               0
1.24342                0.9938547       -13.45245     0.0003967533        145.1872                0               0                0               0
1.25                   0.9936546       -13.57317     0.0004359719        146.1427                0               0                0               0
1.25658                0.9934396       -13.69488     0.0004804351        146.1823                0               0                0               0
1.26316                0.9932099       -13.81753     0.0005291971        145.4269                0               0                0               0
1.26974                0.9929658       -13.94106     0.0005814487         144.007                0               0                0               0
1.27632                0.9927081       -14.06541     0.0006365093        142.0433                0               0                0               0
1.28289                0.9924374       -14.19055     0.0006938059        139.6397                0               0                0               0
1.28947                0.9921549       -14.31643     0.0007528499        136.8822                0               0                0               0
1.29605                0.9918616       -14.44305     0.0008132187        133.8412                0               0                0               0
1.30263                0.9915588        -14.5704     0.0008745399        130.5739                0               0                0               0
1.30921                0.9912476       -14.69848     0.0009364805        127.1267                0               0                0               0
1.31579                0.9909293       -14.82733     0.0009987395        123.5378                0               0                0               0
1.32237                0.9906052       -14.95697      0.001061042        119.8383                0               0                0               0
1.32895                0.9902764       -15.08746      0.001123138        116.0545                0               0                0               0
1.33553                0.9899439       -15.21887      0.001184796        112.2083                0               0                0               0
1.34211                0.9896086       -15.35128      0.001245807        108.3185                0               0                0               0
1.34868                0.9892713       -15.48478      0.001305984        104.4013                0               0                0               0
1.35526                0.9889323       -15.61946      0.001365158        100.4709                0               0                0               0
1.36184                 0.988592       -15.75544      0.001423185        96.53986                0               0                0               0
1.36842                0.9882503       -15.89282      0.001479945        92.61945                0               0                0               0
1.375                  0.9879068       -16.03172      0.001535345        88.71989                0               0                0               0
1.38158                0.9875612       -16.17227      0.001589319        84.85052                0               0                0               0
1.38816                0.9872125       -16.31455      0.001641834        81.01996                0               0                0               0
1.39474                0.9868596        -16.4587      0.001692891        77.23617                0               0                0               0
1.40132                0.9865012       -16.60479      0.001742526        73.50653                0               0                0               0
1.40789                0.9861358       -16.75294      0.001790818        69.83784                0               0                0               0
1.41447                0.9857617        -16.9032      0.001837884        66.23631                0               0                0               0
1.42105                0.9853767       -17.05566      0.001883891        62.70753                0               0                0               0
1.42763                0.9849793       -17.21036       0.00192905        59.25638                0               0                0               0
1.43421                0.9845671       -17.36734      0.001973621        55.88696                0               0                0               0
1.44079                 0.984138       -17.52661      0.002017917        52.60242                0               0                0               0
1.44737                0.9836901       -17.68818      0.002062298        49.40487                0               0                0               0
1.45395                0.9832213       -17.85205      0.002107176         46.2952                0               0                0               0
1.46053                0.9827299       -18.01819      0.002153009        43.27294                0               0                0               0
1.46711                0.9822139       -18.18655      0.002200298        40.33611                0               0                0               0
1.47368                 0.981672       -18.35709      0.002249582        37.48113                0               0                0               0
1.48026                0.9811028       -18.52975      0.002301432         34.7027                0               0                0               0
1.48684                0.9805054       -18.70447      0.002356439        31.99384                0               0                0               0
1.49342                0.9798789       -18.88116      0.002415206        29.34591                0               0                0               0
1.5                    0.9792228       -19.05977      0.002478335        26.74878                0               0                0               0
1.50658                0.9785371       -19.24023      0.002546415        24.19103                0               0                0               0
1.51316                0.9778216       -19.42246      0.002620009        21.66029                0               0                0               0
1.51974                 0.977077       -19.60641      0.002699642        19.14355                0               0                0               0
1.52632                0.9763037       -19.79202      0.002785792        16.62763                0               0                0               0
1.53289                0.9755027       -19.97927      0.002878876        14.09955                0               0                0               0
1.53947                0.9746748       -20.16814      0.002979247        11.54699                0               0                0               0
1.54605                0.9738214       -20.35861      0.003087188        8.958577                0               0                0               0
1.55263                0.9729437       -20.55071      0.003202909        6.324222                0               0                0               0
1.55921                0.9720431       -20.74447       0.00332655        3.635314                0               0                0               0
1.56579                0.9711208       -20.93994      0.003458177       0.8848324                0               0                0               0
1.57237                0.9701781       -21.13721      0.003597795       -1.932607                0               0                0               0
1.57895                 0.969216       -21.33637      0.003745343       -4.820786                0               0                0               0
1.58553                0.9682356       -21.53754      0.003900708       -7.781981                0               0                0               0
1.59211                0.9672376       -21.74084       0.00406373        -10.8171                0               0                0               0
1.59868                0.9662223       -21.94645      0.004234205       -13.92582                0               0                0               0
1.60526                  0.96519       -22.15452      0.004411897       -17.10682                0               0                0               0
1.61184                0.9641405       -22.36523       0.00459654       -20.35786                0               0                0               0
1.61842                 0.963073       -22.57876      0.004787848       -23.67607                0               0                0               0
1.625                  0.9619866       -22.79532      0.004985519       -27.05797                0               0                0               0
1.63158                0.9608798       -23.01508      0.005189241       -30.49974                0               0                0               0
1.63816                0.9597508       -23.23824      0.005398694       -33.99724                0               0                0               0
1.64474                0.9585975       -23.46498      0.005613566       -37.54615                0               0                0               0
1.65132                0.9574171       -23.69549      0.005833539       -41.14207                0               0                0               0
1.65789                0.9562065       -23.92992       0.00605831       -44.78056                0               0                0               0
1.66447                0.9549629       -24.16842      0.006287591       -48.45724                0               0                0               0
1.67105                0.9536823       -24.41112      0.006521103       -52.16776                0               0                0               0
1.67763                0.9523611       -24.65813      0.006758594       -55.90793                0               0                0               0
1.68421                0.9509955       -24.90954      0.006999836       -59.67368                0               0                0               0
1.69079                0.9495814       -25.16542      0.007244627       -63.46109                0               0                0               0
1.69737                0.9481147        -25.4258      0.007492797       -67.26645                0               0                0               0
1.70395                0.9465915        -25.6907      0.007744212       -71.08622                0               0                0               0
1.71053                0.9450079       -25.96011      0.007998776       -74.91707                0               0                0               0
1.71711                0.9433603       -26.23402      0.008256436       -78.75589                0               0                0               0
1.72368                0.9416449       -26.51237      0.008517181        -82.5998                0               0                0               0
1.73026                0.9398587        -26.7951      0.008781049       -86.44613                0               0                0               0
1.73684                0.9379986       -27.08214      0.009048127       -90.29246                0               0                0               0
1.74342                0.9360622        -27.3734      0.009318557       -94.13662                0               0                0               0
1.75                   0.9340473       -27.66878      0.009592533       -97.97668                0               0                0               0
1.75658                0.9319519       -27.96819      0.009870303        -101.811                0               0                0               0
1.76316                0.9297748       -28.27155       0.01015217       -105.6382                0               0                0               0
1.76974                0.9275149       -28.57875       0.01043851        -109.457                0               0                0               0
1.77632                0.9251715       -28.88972       0.01072973       -113.2668                0               0                0               0
1.78289                0.9227443       -29.20442       0.01102631       -117.0669                0               0                0               0
1.78947                0.9202333       -29.52278       0.01132878       -120.8571                0               0                0               0
1.79605                0.9176386        -29.8448       0.01163772       -124.6374                0               0                0               0
1.80263                0.9149606       -30.17048       0.01195376       -128.4081                0               0                0               0
1.80921                0.9121997       -30.49987       0.01227757       -132.1697                0               0                0               0
1.81579                0.9093564       -30.83302       0.01260986       -135.9233                0               0                0               0
1.82237                0.9064312       -31.17005       0.01295138       -139.6698                0               0                0               0
1.82895                0.9034242       -31.51108       0.01330289       -143.4107                0               0                0               0
1.83553                0.9003355       -31.85629       0.01366519       -147.1477                0               0                0               0
1.84211                0.8971648       -32.20588       0.01403908       -150.8825                0               0                0               0
1.84868                0.8939112       -32.56008       0.01442536       -154.6173                0               0                0               0
