! TOUCHSTONE file generated by CST MICROWAVE STUDIO
! Date and time: Tue Mar 11 13:57:16 2025
! Project name: transverse.cst
! Parameters = {Fracture=5; B=10; D=160; F=15; Feed=2.85625; L=100; M=10; R=0.384908; S=2; Theta=180; length=57.125; wave=114.25}
! Header version: 2024
! Port assignment regex: !\s*Touchstone port\s*([0-9]+)\s*=\s*(CST MWS port|CST DES external port|CST DES block port)\s*(.+)\s* \(\"(.*)\"\)(\s*mode\s*([0-9]+))?.*
! Touchstone port assignment:
! Touchstone port 1 = CST MWS port 1 ("")
! Touchstone port 2 = CST MWS port 2 ("")
# GHz S MA R 50
1                      0.9978113       -9.752999     0.0003102569       -149.1512                0               0                0               0
1.0066                 0.9977286       -9.841254     0.0003166054       -152.3836                0               0                0               0
1.0132                 0.9976418       -9.929986      0.000322519       -155.5305                0               0                0               0
1.0198                 0.9975511       -10.01919     0.0003280289       -158.5804                0               0                0               0
1.0264                 0.9974569       -10.10885     0.0003331801       -161.5227                0               0                0               0
1.033                  0.9973594       -10.19897     0.0003380315       -164.3471                0               0                0               0
1.0396                 0.9972591       -10.28956     0.0003426583       -167.0444                0               0                0               0
1.0462                 0.9971566       -10.38061     0.0003471515       -169.6065                0               0                0               0
1.05281                0.9970522       -10.47215     0.0003516194       -172.0272                0               0                0               0
1.05941                0.9969461       -10.56419     0.0003561875       -174.3023                0               0                0               0
1.06601                0.9968391       -10.65676     0.0003609974       -176.4308                0               0                0               0
1.07261                0.9967311       -10.74988     0.0003662067       -178.4149                0               0                0               0
1.07921                0.9966226       -10.84357     0.0003719854        179.7392                0               0                0               0
1.08581                0.9965137       -10.93789     0.0003785138        178.0208                0               0                0               0
1.09241                0.9964047       -11.03285     0.0003859775        176.4147                0               0                0               0
1.09901                0.9962955       -11.12851     0.0003945626        174.9011                0               0                0               0
1.10561                0.9961861        -11.2249     0.0004044493        173.4563                0               0                0               0
1.11221                0.9960763       -11.32206     0.0004158069        172.0535                0               0                0               0
1.11881                 0.995966       -11.42003     0.0004287871        170.6641                0               0                0               0
1.12541                0.9958549       -11.51885     0.0004435198        169.2589                0               0                0               0
1.13201                0.9957424       -11.61856     0.0004601092        167.8101                0               0                0               0
1.13861                0.9956283       -11.71919      0.000478632        166.2919                0               0                0               0
1.14521                 0.995512       -11.82077     0.0004991363        164.6823                0               0                0               0
1.15182                0.9953928       -11.92333     0.0005216434        162.9633                0               0                0               0
1.15842                0.9952703       -12.02688     0.0005461491        161.1214                0               0                0               0
1.16502                0.9951436       -12.13145     0.0005726272        159.1476                0               0                0               0
1.17162                0.9950124       -12.23705     0.0006010318         157.037                0               0                0               0
1.17822                0.9948758       -12.34367     0.0006313018        154.7884                0               0                0               0
1.18482                0.9947333       -12.45133     0.0006633628        152.4036                0               0                0               0
1.19142                0.9945844       -12.56002      0.000697131        149.8867                0               0                0               0
1.19802                0.9944283       -12.66974     0.0007325152        147.2437                0               0                0               0
1.20462                0.9942647       -12.78047     0.0007694188        144.4819                0               0                0               0
1.21122                0.9940932       -12.89219     0.0008077419        141.6092                0               0                0               0
1.21782                0.9939135       -13.00491     0.0008473826        138.6344                0               0                0               0
1.22442                0.9937254       -13.11859     0.0008882385        135.5662                0               0                0               0
1.23102                0.9935287       -13.23322     0.0009302071        132.4133                0               0                0               0
1.23762                0.9933233       -13.34878     0.0009731874        129.1844                0               0                0               0
1.24422                0.9931095       -13.46526       0.00101708        125.8879                0               0                0               0
1.25083                0.9928871       -13.58264       0.00106179        122.5316                0               0                0               0
1.25743                0.9926565       -13.70092      0.001107222        119.1233                0               0                0               0
1.26403                 0.992418       -13.82009      0.001153289        115.6702                0               0                0               0
1.27063                 0.992172       -13.94014      0.001199906         112.179                0               0                0               0
1.27723                0.9919188       -14.06108      0.001246995        108.6563                0               0                0               0
1.28383                0.9916588       -14.18292      0.001294484        105.1081                0               0                0               0
1.29043                0.9913924       -14.30567      0.001342306          101.54                0               0                0               0
1.29703                0.9911202       -14.42936      0.001390404        97.95736                0               0                0               0
1.30363                0.9908426       -14.55402      0.001438728        94.36508                0               0                0               0
1.31023                0.9905599       -14.67967      0.001487237        90.76779                0               0                0               0
1.31683                0.9902726       -14.80635      0.001535901        87.16977                0               0                0               0
1.32343                0.9899807       -14.93413      0.001584699        83.57501                0               0                0               0
1.33003                0.9896848       -15.06303      0.001633621        79.98715                0               0                0               0
1.33663                0.9893847       -15.19311      0.001682671        76.40957                0               0                0               0
1.34323                0.9890805       -15.32444      0.001731863        72.84529                0               0                0               0
1.34984                0.9887722       -15.45707      0.001781224        69.29707                0               0                0               0
1.35644                0.9884596       -15.59105      0.001830797        65.76734                0               0                0               0
1.36304                0.9881424       -15.72647      0.001880635         62.2582                0               0                0               0
1.36964                0.9878202       -15.86336      0.001930807        58.77142                0               0                0               0
1.37624                0.9874925       -16.00179      0.001981396        55.30846                0               0                0               0
1.38284                0.9871587       -16.14182      0.002032497         51.8704                0               0                0               0
1.38944                0.9868182        -16.2835      0.002084221        48.45798                0               0                0               0
1.39604                0.9864702       -16.42688      0.002136688        45.07157                0               0                0               0
1.40264                0.9861138       -16.57201      0.002190034        41.71118                0               0                0               0
1.40924                0.9857483       -16.71893      0.002244404        38.37643                0               0                0               0
1.41584                0.9853728       -16.86767      0.002299952        35.06657                0               0                0               0
1.42244                0.9849864       -17.01827      0.002356842         31.7805                0               0                0               0
1.42904                 0.984588       -17.17076      0.002415245        28.51676                0               0                0               0
1.43564                0.9841771       -17.32515      0.002475336        25.27355                0               0                0               0
1.44224                0.9837526       -17.48146      0.002537293        22.04876                0               0                0               0
1.44884                0.9833138       -17.63972      0.002601295        18.84003                0               0                0               0
1.45545                  0.98286       -17.79992      0.002667519        15.64471                0               0                0               0
1.46205                0.9823904       -17.96209       0.00273614        12.46001                0               0                0               0
1.46865                0.9819046       -18.12622      0.002807325        9.282953                0               0                0               0
1.47525                0.9814021       -18.29233      0.002881234        6.110495                0               0                0               0
1.48185                0.9808824       -18.46044      0.002958016        2.939539                0               0                0               0
1.48845                0.9803452       -18.63054      0.003037811      -0.2329937                0               0                0               0
1.49505                0.9797902       -18.80265       0.00312074       -3.410116                0               0                0               0
1.50165                0.9792172        -18.9768      0.003206915       -6.594719                0               0                0               0
1.50825                0.9786261         -19.153      0.003296426        -9.78953                0               0                0               0
1.51485                0.9780168       -19.33129      0.003389351       -12.99707                0               0                0               0
1.52145                0.9773892        -19.5117      0.003485747       -16.21963                0               0                0               0
1.52805                0.9767434       -19.69427      0.003585655        -19.4592                0               0                0               0
1.53465                0.9760791       -19.87906        0.0036891       -22.71753                0               0                0               0
1.54125                0.9753964       -20.06611      0.003796087       -25.99603                0               0                0               0
1.54785                0.9746951        -20.2555      0.003906606       -29.29582                0               0                0               0
1.55446                 0.973975        -20.4473      0.004020632       -32.61771                0               0                0               0
1.56106                0.9732359       -20.64159      0.004138126        -35.9622                0               0                0               0
1.56766                0.9724773       -20.83845      0.004259037       -39.32953                0               0                0               0
1.57426                0.9716987       -21.03798        0.0043833       -42.71963                0               0                0               0
1.58086                0.9708995       -21.24027      0.004510845        -46.1322                0               0                0               0
1.58746                0.9700789       -21.44543      0.004641591       -49.56669                0               0                0               0
1.59406                 0.969236       -21.65356      0.004775454       -53.02235                0               0                0               0
1.60066                0.9683697       -21.86477      0.004912345       -56.49823                0               0                0               0
1.60726                0.9674786       -22.07916      0.005052175       -59.99323                0               0                0               0
1.61386                0.9665615       -22.29685      0.005194855        -63.5061                0               0                0               0
1.62046                0.9656165       -22.51793        0.0053403       -67.03547                0               0                0               0
1.62706                 0.964642       -22.74253      0.005488431       -70.57989                0               0                0               0
1.63366                0.9636362       -22.97072      0.005639175       -74.13784                0               0                0               0
1.64026                0.9625971       -23.20261      0.005792469       -77.70773                0               0                0               0
1.64686                0.9615222        -23.4383      0.005948266       -81.28796                0               0                0               0
1.65347                0.9604097       -23.67785      0.006106529       -84.87692                0               0                0               0
1.66007                 0.959257       -23.92137      0.006267238       -88.47302                0               0                0               0
1.66667                0.9580617        -24.1689      0.006430394       -92.07468                0               0                0               0
1.67327                0.9568215       -24.42053      0.006596019       -95.68037                0               0                0               0
1.67987                0.9555338        -24.6763      0.006764153       -99.28865                0               0                0               0
1.68647                0.9541962       -24.93628      0.006934865       -102.8981                0               0                0               0
1.69307                0.9528062        -25.2005       0.00710825       -106.5075                0               0                0               0
1.69967                0.9513612       -25.46902      0.007284426       -110.1156                0               0                0               0
1.70627                 0.949859       -25.74187      0.007463542       -113.7214                0               0                0               0
1.71287                0.9482973       -26.01908       0.00764578        -117.324                0               0                0               0
1.71947                0.9466734        -26.3007      0.007831346       -120.9226                0               0                0               0
1.72607                0.9449853       -26.58675      0.008020481       -124.5165                0               0                0               0
1.73267                0.9432307       -26.87726      0.008213453       -128.1055                0               0                0               0
1.73927                0.9414074       -27.17228      0.008410563       -131.6892                0               0                0               0
1.74587                0.9395131       -27.47183      0.008612139       -135.2676                0               0                0               0
1.75248                0.9375461       -27.77598      0.008818543       -138.8408                0               0                0               0
1.75908                0.9355037       -28.08474      0.009030155       -142.4091                0               0                0               0
1.76568                0.9333842       -28.39819      0.009247388       -145.9731                0               0                0               0
1.77228                0.9311853       -28.71638       0.00947067       -149.5334                0               0                0               0
1.77888                0.9289048       -29.03938      0.009700453       -153.0911                0               0                0               0
1.78548                0.9265402       -29.36725      0.009937204       -156.6473                0               0                0               0
1.79208                0.9240894       -29.70008        0.0101814       -160.2031                0               0                0               0
1.79868                0.9215496       -30.03796       0.01043353         -163.76                0               0                0               0
1.80528                0.9189184       -30.38097       0.01069408       -167.3197                0               0                0               0
1.81188                0.9161927       -30.72923       0.01096355       -170.8838                0               0                0               0
1.81848                0.9133695       -31.08282       0.01124242       -174.4542                0               0                0               0
1.82508                0.9104454       -31.44186       0.01153116       -178.0327                0               0                0               0
1.83168                0.9074172       -31.80644       0.01183023        178.3788                0               0                0               0
1.83828                0.9042809       -32.17669       0.01214008        174.7781                0               0                0               0
1.84488                0.9010326        -32.5527       0.01246112        171.1634                0               0                0               0
1.85149                0.8976679       -32.93458       0.01279373        167.5326                0               0                0               0
