! TOUCHSTONE file generated by CST MICROWAVE STUDIO
! Date and time: Tue Mar 11 13:57:11 2025
! Project name: transverse.cst
! Parameters = {Fracture=5; B=10; D=160; F=5; Feed=2.85625; L=100; M=10; R=0.384908; S=2; Theta=180; length=57.125; wave=114.25}
! Header version: 2024
! Port assignment regex: !\s*Touchstone port\s*([0-9]+)\s*=\s*(CST MWS port|CST DES external port|CST DES block port)\s*(.+)\s* \(\"(.*)\"\)(\s*mode\s*([0-9]+))?.*
! Touchstone port assignment:
! Touchstone port 1 = CST MWS port 1 ("")
! Touchstone port 2 = CST MWS port 2 ("")
# GHz S MA R 50
1                       0.997846       -9.753571     0.0002736602       -123.0033                0               0                0               0
1.00658                0.9977657       -9.841928     0.0002944358        -127.231                0               0                0               0
1.01316                0.9976796       -9.930744     0.0003146311       -131.5881                0               0                0               0
1.01974                0.9975878       -10.01999     0.0003341174       -136.0384                0               0                0               0
1.02632                0.9974908       -10.10964     0.0003527733       -140.5536                0               0                0               0
1.03289                0.9973893       -10.19967      0.000370484       -145.1103                0               0                0               0
1.03947                0.9972837       -10.29007     0.0003871408       -149.6893                0               0                0               0
1.04605                 0.997175       -10.38083     0.0004026416       -154.2737                0               0                0               0
1.05263                0.9970637       -10.47195      0.000416891       -158.8487                0               0                0               0
1.05921                0.9969508       -10.56344     0.0004298012       -163.4006                0               0                0               0
1.06579                0.9968369       -10.65532     0.0004412926       -167.9162                0               0                0               0
1.07237                 0.996723       -10.74761     0.0004512951       -172.3827                0               0                0               0
1.07895                0.9966095       -10.84035     0.0004597493        -176.787                0               0                0               0
1.08553                0.9964972       -10.93358     0.0004666075        178.8844                0               0                0               0
1.09211                0.9963867       -11.02734     0.0004718362        174.6457                0               0                0               0
1.09868                0.9962783        -11.1217     0.0004754176        170.5127                0               0                0               0
1.10526                0.9961722       -11.21671     0.0004773523        166.5022                0               0                0               0
1.11184                0.9960687       -11.31243     0.0004776621        162.6333                0               0                0               0
1.11842                0.9959679       -11.40893     0.0004763936         158.927                0               0                0               0
1.125                  0.9958693       -11.50627     0.0004736222         155.407                0               0                0               0
1.13158                0.9957729       -11.60452     0.0004694574        152.0997                0               0                0               0
1.13816                0.9956781       -11.70374     0.0004640486        149.0348                0               0                0               0
1.14474                0.9955844         -11.804     0.0004575919        146.2445                0               0                0               0
1.15132                0.9954909       -11.90533     0.0004503384        143.7636                0               0                0               0
1.15789                0.9953968        -12.0078     0.0004426019        141.6283                0               0                0               0
1.16447                0.9953013       -12.11144     0.0004347676        139.8737                0               0                0               0
1.17105                0.9952031       -12.21629      0.000427298        138.5307                0               0                0               0
1.17763                0.9951014       -12.32237     0.0004207348        137.6204                0               0                0               0
1.18421                0.9949949        -12.4297     0.0004156929        137.1476                0               0                0               0
1.19079                0.9948826       -12.53829     0.0004128424        137.0928                0               0                0               0
1.19737                0.9947634       -12.64813     0.0004128749        137.4057                0               0                0               0
1.20395                0.9946363       -12.75922     0.0004164554        138.0018                0               0                0               0
1.21053                0.9945002       -12.87153     0.0004241648        138.7665                0               0                0               0
1.21711                0.9943545       -12.98505     0.0004364446        139.5659                0               0                0               0
1.22368                0.9941983       -13.09973     0.0004535598        140.2642                0               0                0               0
1.23026                0.9940309       -13.21555     0.0004755878        140.7413                0               0                0               0
1.23684                0.9938522       -13.33247     0.0005024357        140.9054                0               0                0               0
1.24342                0.9936617       -13.45044     0.0005338765        140.6987                0               0                0               0
1.25                   0.9934591       -13.56943     0.0005695927        140.0953                0               0                0               0
1.25658                0.9932446       -13.68939     0.0006092168        139.0955                0               0                0               0
1.26316                0.9930185       -13.81029     0.0006523623        137.7174                0               0                0               0
1.26974                 0.992781       -13.93209     0.0006986455        135.9906                0               0                0               0
1.27632                0.9925325       -14.05477     0.0007476978        133.9497                0               0                0               0
1.28289                0.9922738       -14.17831     0.0007991724         131.631                0               0                0               0
1.28947                0.9920053       -14.30269     0.0008527461        129.0699                0               0                0               0
1.29605                0.9917281       -14.42792     0.0009081198        126.2995                0               0                0               0
1.30263                0.9914428       -14.55399     0.0009650168        123.3501                0               0                0               0
1.30921                0.9911503       -14.68094      0.001023182        120.2488                0               0                0               0
1.31579                0.9908513       -14.80879      0.001082379        117.0197                0               0                0               0
1.32237                0.9905467       -14.93757       0.00114239        113.6843                0               0                0               0
1.32895                0.9902371       -15.06733      0.001203017        110.2615                0               0                0               0
1.33553                0.9899232       -15.19814      0.001264075         106.768                0               0                0               0
1.34211                0.9896053       -15.33006      0.001325401        103.2188                0               0                0               0
1.34868                 0.989284       -15.46316      0.001386845        99.62691                0               0                0               0
1.35526                0.9889593       -15.59752      0.001448278        96.00418                0               0                0               0
1.36184                0.9886314       -15.73323      0.001509588        92.36114                0               0                0               0
1.36842                0.9882998       -15.87038      0.001570682        88.70724                0               0                0               0
1.375                  0.9879644       -16.00905      0.001631489          85.051                0               0                0               0
1.38158                0.9876245       -16.14932       0.00169196        81.40009                0               0                0               0
1.38816                0.9872793       -16.29129      0.001752068        77.76143                0               0                0               0
1.39474                0.9869281       -16.43504      0.001811812        74.14126                0               0                0               0
1.40132                0.9865694       -16.58063      0.001871217        70.54516                0               0                0               0
1.40789                0.9862024       -16.72814      0.001930334        66.97809                0               0                0               0
1.41447                0.9858254       -16.87763      0.001989243        63.44442                0               0                0               0
1.42105                0.9854371       -17.02914      0.002048052        59.94789                0               0                0               0
1.42763                0.9850359       -17.18272      0.002106902        56.49163                0               0                0               0
1.43421                0.9846202        -17.3384      0.002165961        53.07813                0               0                0               0
1.44079                0.9841886       -17.49618      0.002225428         49.7092                0               0                0               0
1.44737                0.9837395       -17.65609      0.002285533        46.38599                0               0                0               0
1.45395                0.9832714       -17.81811      0.002346533         43.1089                0               0                0               0
1.46053                0.9827829       -17.98224      0.002408712         39.8776                0               0                0               0
1.46711                0.9822728       -18.14845      0.002472379          36.691                0               0                0               0
1.47368                  0.98174       -18.31671      0.002537864        33.54722                0               0                0               0
1.48026                0.9811834       -18.48701      0.002605515        30.44363                0               0                0               0
1.48684                0.9806025       -18.65929      0.002675694        27.37686                0               0                0               0
1.49342                0.9799965       -18.83352      0.002748773        24.34286                0               0                0               0
1.5                    0.9793652       -19.00966      0.002825124        21.33694                0               0                0               0
1.50658                0.9787082       -19.18768       0.00290512        18.35387                0               0                0               0
1.51316                0.9780256       -19.36754      0.002989126        15.38801                0               0                0               0
1.51974                0.9773177       -19.54922      0.003077494        12.43338                0               0                0               0
1.52632                0.9765847       -19.73271      0.003170556        9.483833                0               0                0               0
1.53289                0.9758271         -19.918       0.00326862        6.533196                0               0                0               0
1.53947                0.9750455       -20.10509       0.00337197        3.575386                0               0                0               0
1.54605                0.9742405         -20.294      0.003480854       0.6045531                0               0                0               0
1.55263                0.9734129       -20.48477      0.003595487       -2.384799                0               0                0               0
1.55921                0.9725632       -20.67744      0.003716048       -5.397712                0               0                0               0
1.56579                0.9716923       -20.87208      0.003842677       -8.438691                0               0                0               0
1.57237                0.9708007       -21.06875      0.003975478       -11.51164                0               0                0               0
1.57895                0.9698889       -21.26756      0.004114517       -14.61982                0               0                0               0
1.58553                 0.968957        -21.4686      0.004259821       -17.76587                0               0                0               0
1.59211                0.9680054       -21.67199      0.004411388       -20.95173                0               0                0               0
1.59868                0.9670339       -21.87786       0.00456918       -24.17877                0               0                0               0
1.60526                0.9660422       -22.08635      0.004733131       -27.44772                0               0                0               0
1.61184                0.9650295        -22.2976       0.00490315       -30.75878                0               0                0               0
1.61842                0.9639953       -22.51175      0.005079123       -34.11166                0               0                0               0
1.625                   0.962938       -22.72896      0.005260915       -37.50561                0               0                0               0
1.63158                0.9618562       -22.94939      0.005448377       -40.93951                0               0                0               0
1.63816                0.9607483       -23.17317      0.005641347       -44.41192                0               0                0               0
1.64474                 0.959612       -23.40046      0.005839655       -47.92111                0               0                0               0
1.65132                0.9584452       -23.63138      0.006043125       -51.46514                0               0                0               0
1.65789                 0.957245       -23.86607       0.00625158       -55.04191                0               0                0               0
1.66447                0.9560088       -24.10464      0.006464843       -58.64917                0               0                0               0
1.67105                0.9547336       -24.34719      0.006682744       -62.28461                0               0                0               0
1.67763                0.9534162       -24.59381      0.006905119       -65.94586                0               0                0               0
1.68421                0.9520534       -24.84457      0.007131817       -69.63053                0               0                0               0
1.69079                 0.950642       -25.09952      0.007362699       -73.33623                0               0                0               0
1.69737                0.9491785       -25.35871      0.007597646       -77.06061                0               0                0               0
1.70395                0.9476598       -25.62215      0.007836556       -80.80139                0               0                0               0
1.71053                0.9460826       -25.88987      0.008079349       -84.55634                0               0                0               0
1.71711                0.9444439       -26.16184      0.008325976       -88.32333                0               0                0               0
1.72368                0.9427408       -26.43806      0.008576406       -92.10035                0               0                0               0
1.73026                0.9409704       -26.71849      0.008830645       -95.88548                0               0                0               0
1.73684                0.9391303       -27.00309      0.009088726       -99.67694                0               0                0               0
1.74342                 0.937218       -27.29183      0.009350717       -103.4731                0               0                0               0
1.75                   0.9352316       -27.58465      0.009616721       -107.2725                0               0                0               0
1.75658                0.9331693       -27.88152      0.009886875       -111.0738                0               0                0               0
1.76316                0.9310295       -28.18237       0.01016135       -114.8758                0               0                0               0
1.76974                0.9288108       -28.48719       0.01044037       -118.6775                0               0                0               0
1.77632                0.9265122       -28.79593       0.01072417       -122.4782                0               0                0               0
1.78289                0.9241327       -29.10859       0.01101304       -126.2772                0               0                0               0
1.78947                0.9216716       -29.42515        0.0113073        -130.074                0               0                0               0
1.79605                0.9191281       -29.74562       0.01160731       -133.8684                0               0                0               0
1.80263                0.9165019       -30.07005       0.01191345       -137.6603                0               0                0               0
1.80921                0.9137922       -30.39848       0.01222615       -141.4499                0               0                0               0
1.81579                0.9109985       -30.73099       0.01254585       -145.2375                0               0                0               0
1.82237                  0.90812       -31.06766       0.01287302       -149.0234                0               0                0               0
1.82895                0.9051559       -31.40862       0.01320815       -152.8085                0               0                0               0
1.83553                0.9021052         -31.754       0.01355176       -156.5934                0               0                0               0
1.84211                0.8989665       -32.10396       0.01390436       -160.3792                0               0                0               0
1.84868                0.8957381       -32.45868       0.01426648       -164.1669                0               0                0               0
