! TOUCHSTONE file generated by CST MICROWAVE STUDIO
! Date and time: Tue Mar 11 13:56:55 2025
! Project name: transverse.cst
! Parameters = {Fracture=1; B=12.5; D=160; F=5; Feed=2.85625; L=100; M=20; R=0.384908; S=2; Theta=90; length=57.125; wave=114.25}
! Header version: 2024
! Port assignment regex: !\s*Touchstone port\s*([0-9]+)\s*=\s*(CST MWS port|CST DES external port|CST DES block port)\s*(.+)\s* \(\"(.*)\"\)(\s*mode\s*([0-9]+))?.*
! Touchstone port assignment:
! Touchstone port 1 = CST MWS port 1 ("")
! Touchstone port 2 = CST MWS port 2 ("")
# GHz S MA R 50
1                      0.9978163       -10.01995     0.0003435959       -145.2367                0               0                0               0
1.00658                0.9977141       -10.11027     0.0003566669       -149.2763                0               0                0               0
1.01316                0.9976055       -10.20088     0.0003691324       -153.3158                0               0                0               0
1.01974                 0.997491       -10.29176     0.0003809417       -157.3428                0               0                0               0
1.02632                0.9973717       -10.38287     0.0003920512       -161.3456                0               0                0               0
1.03289                0.9972486        -10.4742     0.0004024254        -165.313                0               0                0               0
1.03947                0.9971226       -10.56574     0.0004120372       -169.2341                0               0                0               0
1.04605                0.9969951       -10.65752     0.0004208696       -173.0982                0               0                0               0
1.05263                 0.996867       -10.74953     0.0004289161       -176.8947                0               0                0               0
1.05921                0.9967394       -10.84182     0.0004361823        179.3868                0               0                0               0
1.06579                0.9966131       -10.93443      0.000442687        175.7569                0               0                0               0
1.07237                0.9964892       -11.02741     0.0004484635        172.2263                0               0                0               0
1.07895                0.9963684        -11.1208     0.0004535607        168.8053                0               0                0               0
1.08553                0.9962511       -11.21469     0.0004580451        165.5043                0               0                0               0
1.09211                0.9961379       -11.30915     0.0004620013         162.333                0               0                0               0
1.09868                 0.996029       -11.40424     0.0004655337        159.3008                0               0                0               0
1.10526                0.9959243       -11.50006     0.0004687671        156.4157                0               0                0               0
1.11184                0.9958237       -11.59668     0.0004718469        153.6845                0               0                0               0
1.11842                 0.995727       -11.69418     0.0004749395        151.1118                0               0                0               0
1.125                  0.9956333       -11.79262     0.0004782305        148.6995                0               0                0               0
1.13158                0.9955422        -11.8921     0.0004819236        146.4461                0               0                0               0
1.13816                0.9954526       -11.99265     0.0004862362        144.3464                0               0                0               0
1.14474                0.9953634       -12.09435     0.0004913957        142.3902                0               0                0               0
1.15132                0.9952737       -12.19724     0.0004976326        140.5629                0               0                0               0
1.15789                0.9951819       -12.30134      0.000505174        138.8449                0               0                0               0
1.16447                 0.995087       -12.40669     0.0005142352        137.2122                0               0                0               0
1.17105                0.9949877       -12.51329     0.0005250118        135.6372                0               0                0               0
1.17763                0.9948825       -12.62116     0.0005376717        134.0902                0               0                0               0
1.18421                0.9947703       -12.73026      0.000552349        132.5405                0               0                0               0
1.19079                0.9946498        -12.8406     0.0005691397        130.9581                0               0                0               0
1.19737                0.9945202       -12.95213     0.0005880987        129.3156                0               0                0               0
1.20395                0.9943803       -13.06482     0.0006092406         127.589                0               0                0               0
1.21053                0.9942296       -13.17862      0.000632541        125.7586                0               0                0               0
1.21711                0.9940674       -13.29348      0.000657941        123.8097                0               0                0               0
1.22368                0.9938933       -13.40936     0.0006853511        121.7323                0               0                0               0
1.23026                0.9937074       -13.52618     0.0007146562         119.521                0               0                0               0
1.23684                0.9935095       -13.64391     0.0007457216        117.1744                0               0                0               0
1.24342                   0.9933       -13.76248      0.000778397        114.6944                0               0                0               0
1.25                   0.9930791       -13.88186     0.0008125209        112.0856                0               0                0               0
1.25658                0.9928477         -14.002     0.0008479249        109.3546                0               0                0               0
1.26316                0.9926065       -14.12287     0.0008844359        106.5096                0               0                0               0
1.26974                0.9923562       -14.24445     0.0009218796        103.5595                0               0                0               0
1.27632                 0.992098       -14.36673      0.000960082        100.5141                0               0                0               0
1.28289                 0.991833       -14.48972     0.0009988719        97.38326                0               0                0               0
1.28947                0.9915622       -14.61343      0.001038081        94.17704                0               0                0               0
1.29605                0.9912868       -14.73788      0.001077549        90.90536                0               0                0               0
1.30263                0.9910078       -14.86311      0.001117119        87.57794                0               0                0               0
1.30921                0.9907263       -14.98919      0.001156644        84.20423                0               0                0               0
1.31579                0.9904429       -15.11617      0.001195986        80.79338                0               0                0               0
1.32237                0.9901587       -15.24413      0.001235017        77.35422                0               0                0               0
1.32895                 0.989874       -15.37316      0.001273622        73.89523                0               0                0               0
1.33553                0.9895893       -15.50334      0.001311697        70.42459                0               0                0               0
1.34211                0.9893047       -15.63478      0.001349153        66.95016                0               0                0               0
1.34868                  0.98902       -15.76759       0.00138592        63.47948                0               0                0               0
1.35526                0.9887352       -15.90185      0.001421942        60.01983                0               0                0               0
1.36184                0.9884494       -16.03768      0.001457184        56.57818                0               0                0               0
1.36842                0.9881622       -16.17517      0.001491631        53.16121                0               0                0               0
1.375                  0.9878722       -16.31443      0.001525292         49.7753                0               0                0               0
1.38158                0.9875785       -16.45554      0.001558199        46.42651                0               0                0               0
1.38816                0.9872797       -16.59857      0.001590412        43.12053                0               0                0               0
1.39474                0.9869741        -16.7436      0.001622016        39.86267                0               0                0               0
1.40132                0.9866603       -16.89068      0.001653127        36.65775                0               0                0               0
1.40789                0.9863365       -17.03986      0.001683891        33.51009                0               0                0               0
1.41447                0.9860009       -17.19118      0.001714483        30.42336                0               0                0               0
1.42105                0.9856518       -17.34465      0.001745112        27.40052                0               0                0               0
1.42763                0.9852875       -17.50027      0.001776018        24.44374                0               0                0               0
1.43421                0.9849063       -17.65806       0.00180747        21.55421                0               0                0               0
1.44079                0.9845068       -17.81797      0.001839768        18.73211                0               0                0               0
1.44737                0.9840874          -17.98      0.001873239        15.97647                0               0                0               0
1.45395                0.9836472        -18.1441      0.001908233        13.28509                0               0                0               0
1.46053                 0.983185       -18.31024      0.001945119        10.65449                0               0                0               0
1.46711                   0.9827       -18.47836      0.001984282        8.079903                0               0                0               0
1.47368                0.9821918       -18.64843      0.002026114        5.555283                0               0                0               0
1.48026                0.9816598       -18.82039       0.00207101        3.073386                0               0                0               0
1.48684                0.9811042       -18.99421      0.002119361       0.6259213                0               0                0               0
1.49342                0.9805249       -19.16984      0.002171543       -1.796275                0               0                0               0
1.5                    0.9799224       -19.34726      0.002227914       -4.202996                0               0                0               0
1.50658                0.9792969       -19.52645      0.002288806       -6.604397                0               0                0               0
1.51316                0.9786494       -19.70739      0.002354519       -9.010694                0               0                0               0
1.51974                0.9779805        -19.8901      0.002425315       -11.43189                0               0                0               0
1.52632                0.9772909        -20.0746      0.002501417       -13.87747                0               0                0               0
1.53289                0.9765817       -20.26093      0.002583005       -16.35618                0               0                0               0
1.53947                0.9758536       -20.44912      0.002670215       -18.87582                0               0                0               0
1.54605                0.9751075       -20.63927       0.00276314       -21.44309                0               0                0               0
1.55263                0.9743441       -20.83145      0.002861835       -24.06352                0               0                0               0
1.55921                0.9735638       -21.02577       0.00296631       -26.74142                0               0                0               0
1.56579                0.9727672       -21.22235      0.003076546        -29.4799                0               0                0               0
1.57237                0.9719541       -21.42131      0.003192488       -32.28091                0               0                0               0
1.57895                0.9711246       -21.62279      0.003314058       -35.14536                0               0                0               0
1.58553                0.9702783       -21.82695      0.003441151       -38.07319                0               0                0               0
1.59211                0.9694145       -22.03393      0.003573649       -41.06354                0               0                0               0
1.59868                0.9685318       -22.24391      0.003711414        -44.1148                0               0                0               0
1.60526                0.9676292       -22.45703      0.003854304        -47.2248                0               0                0               0
1.61184                0.9667049       -22.67345       0.00400217        -50.3909                0               0                0               0
1.61842                0.9657567       -22.89334      0.004154859        -53.6101                0               0                0               0
1.625                  0.9647823       -23.11682      0.004312224       -56.87915                0               0                0               0
1.63158                0.9637793       -23.34405      0.004474121        -60.1946                0               0                0               0
1.63816                0.9627445       -23.57512      0.004640417        -63.5529                0               0                0               0
1.64474                0.9616751       -23.81017      0.004810989       -66.95051                0               0                0               0
1.65132                0.9605677       -24.04926       0.00498573       -70.38385                0               0                0               0
1.65789                 0.959419       -24.29249      0.005164551       -73.84943                0               0                0               0
1.66447                0.9582257        -24.5399      0.005347383       -77.34387                0               0                0               0
1.67105                0.9569843       -24.79153      0.005534179       -80.86389                0               0                0               0
1.67763                0.9556913        -25.0474      0.005724918       -84.40641                0               0                0               0
1.68421                0.9543436       -25.30752      0.005919605       -87.96848                0               0                0               0
1.69079                0.9529379       -25.57186      0.006118275       -91.54741                0               0                0               0
1.69737                0.9514712       -25.84041      0.006320995       -95.14066                0               0                0               0
1.70395                0.9499408       -26.11311       0.00652786       -98.74596                0               0                0               0
1.71053                0.9483441       -26.38993      0.006739004       -102.3613                0               0                0               0
1.71711                0.9466789       -26.67081      0.006954591       -105.9847                0               0                0               0
1.72368                0.9449431       -26.95569      0.007174821       -109.6148                0               0                0               0
1.73026                 0.943135       -27.24451      0.007399928       -113.2502                0               0                0               0
1.73684                0.9412533       -27.53721      0.007630187       -116.8899                0               0                0               0
1.74342                0.9392967       -27.83375        0.0078659       -120.5331                0               0                0               0
1.75                   0.9372644       -28.13409      0.008107405       -124.1793                0               0                0               0
1.75658                0.9351557       -28.43819      0.008355074       -127.8281                0               0                0               0
1.76316                  0.93297       -28.74605      0.008609306       -131.4795                0               0                0               0
1.76974                 0.930707       -29.05769       0.00887053       -135.1339                0               0                0               0
1.77632                0.9283664       -29.37311        0.0091392       -138.7915                0               0                0               0
1.78289                0.9259478       -29.69238      0.009415787       -142.4532                0               0                0               0
1.78947                 0.923451       -30.01557      0.009700783       -146.1197                0               0                0               0
1.79605                0.9208756       -30.34277      0.009994697       -149.7922                0               0                0               0
1.80263                 0.918221        -30.6741       0.01029804       -153.4718                0               0                0               0
1.80921                0.9154862       -31.00971       0.01061132         -157.16                0               0                0               0
1.81579                0.9126702       -31.34976       0.01093507       -160.8582                0               0                0               0
1.82237                0.9097716       -31.69443        0.0112698       -164.5681                0               0                0               0
1.82895                0.9067883       -32.04394       0.01161599       -168.2913                0               0                0               0
1.83553                 0.903718       -32.39848       0.01197414       -172.0295                0               0                0               0
1.84211                0.9005579       -32.75829       0.01234471       -175.7844                0               0                0               0
1.84868                0.8973045        -33.1236       0.01272812       -179.5579                0               0                0               0
