! TOUCHSTONE file generated by CST MICROWAVE STUDIO
! Date and time: Tue Mar 11 13:58:07 2025
! Project name: transverse.cst
! Parameters = {Fracture=1; B=12.5; D=160; F=5; Feed=2.85625; L=100; M=30; R=0.384908; S=2; Theta=270; length=57.125; wave=114.25}
! Header version: 2024
! Port assignment regex: !\s*Touchstone port\s*([0-9]+)\s*=\s*(CST MWS port|CST DES external port|CST DES block port)\s*(.+)\s* \(\"(.*)\"\)(\s*mode\s*([0-9]+))?.*
! Touchstone port assignment:
! Touchstone port 1 = CST MWS port 1 ("")
! Touchstone port 2 = CST MWS port 2 ("")
# GHz S MA R 50
1                      0.9976611       -10.00768     0.0003854573       -170.8842                0               0                0               0
1.00658                0.9975632       -10.09677     0.0003895059       -175.3919                0               0                0               0
1.01316                0.9974618       -10.18622     0.0003924126       -179.8065                0               0                0               0
1.01974                0.9973575       -10.27604     0.0003941702         175.884                0               0                0               0
1.02632                0.9972509       -10.36622     0.0003947829        171.6932                0               0                0               0
1.03289                0.9971428       -10.45678     0.0003942693        167.6361                0               0                0               0
1.03947                0.9970334       -10.54774     0.0003926639        163.7297                0               0                0               0
1.04605                0.9969235       -10.63911     0.0003900201        159.9932                0               0                0               0
1.05263                0.9968135       -10.73093     0.0003864131        156.4479                0               0                0               0
1.05921                0.9967038       -10.82323     0.0003819435        153.1175                0               0                0               0
1.06579                0.9965949       -10.91605     0.0003767412         150.028                0               0                0               0
1.07237                 0.996487       -11.00944     0.0003709705        147.2072                0               0                0               0
1.07895                0.9963801       -11.10344     0.0003648342        144.6841                0               0                0               0
1.08553                0.9962744       -11.19809     0.0003585789        142.4873                0               0                0               0
1.09211                0.9961697       -11.29346     0.0003524982        140.6426                0               0                0               0
1.09868                0.9960658       -11.38958     0.0003469349        139.1701                0               0                0               0
1.10526                0.9959624       -11.48651     0.0003422784        138.0789                0               0                0               0
1.11184                0.9958592       -11.58428     0.0003389574        137.3624                0               0                0               0
1.11842                0.9957555       -11.68294     0.0003374236        136.9924                0               0                0               0
1.125                  0.9956507       -11.78252     0.0003381277        136.9159                0               0                0               0
1.13158                0.9955442       -11.88306     0.0003414879         137.054                0               0                0               0
1.13816                0.9954353       -11.98458     0.0003478561        137.3073                0               0                0               0
1.14474                 0.995323        -12.0871     0.0003574875        137.5649                0               0                0               0
1.15132                0.9952069       -12.19063     0.0003705229        137.7174                0               0                0               0
1.15789                0.9950858       -12.29518      0.000386985        137.6687                0               0                0               0
1.16447                0.9949593       -12.40074     0.0004067904        137.3452                0               0                0               0
1.17105                0.9948264        -12.5073     0.0004297716         136.699                0               0                0               0
1.17763                0.9946867       -12.61486     0.0004557017        135.7068                0               0                0               0
1.18421                0.9945395       -12.72339      0.000484319        134.3659                0               0                0               0
1.19079                0.9943843       -12.83287     0.0005153462        132.6884                0               0                0               0
1.19737                0.9942208       -12.94327     0.0005485031        130.6961                0               0                0               0
1.20395                0.9940489       -13.05457     0.0005835162        128.4164                0               0                0               0
1.21053                0.9938683       -13.16674     0.0006201229        125.8784                0               0                0               0
1.21711                0.9936791       -13.27974     0.0006580738        123.1118                0               0                0               0
1.22368                0.9934814       -13.39356     0.0006971331        120.1448                0               0                0               0
1.23026                0.9932755       -13.50817      0.000737078        117.0036                0               0                0               0
1.23684                0.9930618       -13.62355      0.000777698        113.7123                0               0                0               0
1.24342                0.9928407       -13.73968     0.0008187946        110.2926                0               0                0               0
1.25                   0.9926129       -13.85656     0.0008601796        106.7642                0               0                0               0
1.25658                0.9923788       -13.97419     0.0009016751        103.1447                0               0                0               0
1.26316                0.9921393       -14.09258     0.0009431129        99.44977                0               0                0               0
1.26974                0.9918949       -14.21173     0.0009843343        95.69373                0               0                0               0
1.27632                0.9916463       -14.33168      0.001025191         91.8894                0               0                0               0
1.28289                0.9913943       -14.45245      0.001065543        88.04845                0               0                0               0
1.28947                0.9911394       -14.57408      0.001105263        84.18155                0               0                0               0
1.29605                0.9908822       -14.69663      0.001144234        80.29851                0               0                0               0
1.30263                0.9906231       -14.82014       0.00118235        76.40842                0               0                0               0
1.30921                0.9903626       -14.94468      0.001219519        72.51974                0               0                0               0
1.31579                0.9901008       -15.07032      0.001255664        68.64044                0               0                0               0
1.32237                0.9898379       -15.19712      0.001290722        64.77803                0               0                0               0
1.32895                0.9895737       -15.32516      0.001324647        60.93964                0               0                0               0
1.33553                0.9893082        -15.4545      0.001357411        57.13207                0               0                0               0
1.34211                0.9890409       -15.58524      0.001389007        53.36181                0               0                0               0
1.34868                0.9887712       -15.71743      0.001419449        49.63505                0               0                0               0
1.35526                0.9884988       -15.85115      0.001448772         45.9577                0               0                0               0
1.36184                0.9882227       -15.98647      0.001477037        42.33534                0               0                0               0
1.36842                0.9879421       -16.12344      0.001504332         38.7732                0               0                0               0
1.375                   0.987656       -16.26212       0.00153077        35.27612                0               0                0               0
1.38158                0.9873634       -16.40256      0.001556495        31.84847                0               0                0               0
1.38816                0.9870631       -16.54481      0.001581678        28.49402                0               0                0               0
1.39474                 0.986754       -16.68888       0.00160652        25.21592                0               0                0               0
1.40132                0.9864351       -16.83482      0.001631254         22.0165                0               0                0               0
1.40789                 0.986105       -16.98263       0.00165614        18.89719                0               0                0               0
1.41447                 0.985763       -17.13234      0.001681467        15.85836                0               0                0               0
1.42105                0.9854077       -17.28394      0.001707549        12.89921                0               0                0               0
1.42763                0.9850384       -17.43743      0.001734722        10.01764                0               0                0               0
1.43421                0.9846542        -17.5928      0.001763342        7.210154                0               0                0               0
1.44079                0.9842545       -17.75006      0.001793777        4.471831                0               0                0               0
1.44737                0.9838386       -17.90918        0.0018264        1.796297                0               0                0               0
1.45395                 0.983406       -18.07016      0.001861588      -0.8242009                0               0                0               0
1.46053                0.9829566       -18.23299      0.001899708       -3.398679                0               0                0               0
1.46711                0.9824902       -18.39765      0.001941114       -5.937223                0               0                0               0
1.47368                0.9820066       -18.56415      0.001986136       -8.450732                0               0                0               0
1.48026                0.9815059       -18.73248      0.002035075       -10.95062                0               0                0               0
1.48684                0.9809884       -18.90266      0.002088197       -13.44847                0               0                0               0
1.49342                0.9804541        -19.0747      0.002145725       -15.95569                0               0                0               0
1.5                    0.9799036       -19.24864      0.002207838       -18.48318                0               0                0               0
1.50658                0.9793369        -19.4245       0.00227467       -21.04103                0               0                0               0
1.51316                0.9787546       -19.60234      0.002346304       -23.63826                0               0                0               0
1.51974                0.9781567       -19.78221      0.002422778       -26.28264                0               0                0               0
1.52632                0.9775437       -19.96419      0.002504084       -28.98059                0               0                0               0
1.53289                0.9769155       -20.14835      0.002590171       -31.73707                0               0                0               0
1.53947                0.9762724       -20.33478      0.002680952       -34.55569                0               0                0               0
1.54605                0.9756139       -20.52358      0.002776303       -37.43866                0               0                0               0
1.55263                  0.97494       -20.71486      0.002876073       -40.38698                0               0                0               0
1.55921                0.9742502       -20.90872      0.002980085       -43.40049                0               0                0               0
1.56579                0.9735435       -21.10529      0.003088142       -46.47808                0               0                0               0
1.57237                0.9728193       -21.30469      0.003200034       -49.61779                0               0                0               0
1.57895                0.9720764       -21.50703      0.003315539       -52.81695                0               0                0               0
1.58553                0.9713133       -21.71244      0.003434428       -56.07236                0               0                0               0
1.59211                0.9705285       -21.92104      0.003556471       -59.38036                0               0                0               0
1.59868                0.9697202       -22.13294      0.003681441       -62.73697                0               0                0               0
1.60526                0.9688862       -22.34825      0.003809113       -66.13799                0               0                0               0
1.61184                0.9680246       -22.56708      0.003939275       -69.57908                0               0                0               0
1.61842                0.9671329        -22.7895      0.004071725       -73.05579                0               0                0               0
1.625                  0.9662085        -23.0156      0.004206275       -76.56371                0               0                0               0
1.63158                 0.965249       -23.24545      0.004342763       -80.09841                0               0                0               0
1.63816                0.9642518       -23.47911      0.004481041       -83.65556                0               0                0               0
1.64474                0.9632141       -23.71663      0.004620991       -87.23093                0               0                0               0
1.65132                0.9621331       -23.95803      0.004762522       -90.82045                0               0                0               0
1.65789                0.9610065       -24.20334      0.004905575       -94.42019                0               0                0               0
1.66447                0.9598313       -24.45257      0.005050125       -98.02643                0               0                0               0
1.67105                0.9586055       -24.70572      0.005196187       -101.6357                0               0                0               0
1.67763                0.9573265       -24.96279      0.005343812       -105.2446                0               0                0               0
1.68421                 0.955992       -25.22375      0.005493094       -108.8502                0               0                0               0
1.69079                0.9546003       -25.48859      0.005644177       -112.4497                0               0                0               0
1.69737                0.9531494       -25.75729      0.005797246       -116.0406                0               0                0               0
1.70395                0.9516377       -26.02983      0.005952539       -119.6209                0               0                0               0
1.71053                0.9500636       -26.30617      0.006110342       -123.1887                0               0                0               0
1.71711                 0.948426       -26.58632      0.006270995       -126.7426                0               0                0               0
1.72368                0.9467238       -26.87024      0.006434885       -130.2815                0               0                0               0
1.73026                0.9449561       -27.15795      0.006602453       -133.8048                0               0                0               0
1.73684                 0.943122       -27.44946      0.006774193       -137.3122                0               0                0               0
1.74342                0.9412209       -27.74478      0.006950638        -140.804                0               0                0               0
1.75                   0.9392519       -28.04395      0.007132372       -144.2807                0               0                0               0
1.75658                0.9372146       -28.34702      0.007320021       -147.7435                0               0                0               0
1.76316                0.9351084       -28.65407      0.007514245       -151.1939                0               0                0               0
1.76974                0.9329324       -28.96517      0.007715736       -154.6337                0               0                0               0
1.77632                0.9306859       -29.28044      0.007925214       -158.0653                0               0                0               0
1.78289                 0.928368       -29.59999      0.008143413       -161.4914                0               0                0               0
1.78947                0.9259773       -29.92396      0.008371078        -164.915                0               0                0               0
1.79605                0.9235125       -30.25252      0.008608958       -168.3395                0               0                0               0
1.80263                0.9209719       -30.58581      0.008857795       -171.7683                0               0                0               0
1.80921                0.9183534       -30.92404      0.009118318       -175.2052                0               0                0               0
1.81579                0.9156545       -31.26739      0.009391229        -178.654                0               0                0               0
1.82237                0.9128726       -31.61605      0.009677204        177.8814                0               0                0               0
1.82895                0.9100042       -31.97023      0.009976874        174.3973                0               0                0               0
1.83553                0.9070459       -32.33014       0.01029083        170.8899                0               0                0               0
1.84211                0.9039934       -32.69598       0.01061961        167.3557                0               0                0               0
1.84868                0.9008425       -33.06796       0.01096368        163.7911                0               0                0               0
