! TOUCHSTONE file generated by CST MICROWAVE STUDIO
! Date and time: Tue Mar 11 13:55:49 2025
! Project name: transverse.cst
! Parameters = {Fracture=1; B=10; D=160; F=15; Feed=2.85625; L=100; M=10; R=0.384908; S=2; Theta=0; length=57.125; wave=114.25}
! Header version: 2024
! Port assignment regex: !\s*Touchstone port\s*([0-9]+)\s*=\s*(CST MWS port|CST DES external port|CST DES block port)\s*(.+)\s* \(\"(.*)\"\)(\s*mode\s*([0-9]+))?.*
! Touchstone port assignment:
! Touchstone port 1 = CST MWS port 1 ("")
! Touchstone port 2 = CST MWS port 2 ("")
# GHz S MA R 50
1                      0.9976846       -10.02893     0.0007466713       -133.8878                0               0                0               0
1.00758                 0.997572       -10.13106     0.0007634981       -140.8337                0               0                0               0
1.01515                 0.997458        -10.2337     0.0007786192       -147.6742                0               0                0               0
1.02273                0.9973434        -10.3369     0.0007918852       -154.4141                0               0                0               0
1.0303                 0.9972288       -10.44069     0.0008031526        -161.057                0               0                0               0
1.03788                0.9971143       -10.54511     0.0008122837       -167.6056                0               0                0               0
1.04545                0.9970006       -10.65021     0.0008191472       -174.0614                0               0                0               0
1.05303                 0.996888       -10.75603     0.0008236181        179.5752                0               0                0               0
1.06061                0.9967764       -10.86264     0.0008255792        173.3051                0               0                0               0
1.06818                0.9966662       -10.97009     0.0008249211        167.1303                0               0                0               0
1.07576                0.9965572       -11.07844     0.0008215435        161.0542                0               0                0               0
1.08333                0.9964492       -11.18774     0.0008153561         155.082                0               0                0               0
1.09091                 0.996342       -11.29807     0.0008062802        149.2206                0               0                0               0
1.09848                0.9962352       -11.40947     0.0007942505        143.4796                0               0                0               0
1.10606                0.9961281         -11.522     0.0007792172        137.8711                0               0                0               0
1.11364                0.9960203       -11.63572     0.0007611493        132.4111                0               0                0               0
1.12121                0.9959109       -11.75066     0.0007400385        127.1201                0               0                0               0
1.12879                0.9957992       -11.86687     0.0007159047        122.0247                0               0                0               0
1.13636                0.9956843        -11.9844     0.0006888043        117.1599                0               0                0               0
1.14394                0.9955654       -12.10326     0.0006588409        112.5711                0               0                0               0
1.15152                0.9954414       -12.22348     0.0006261819        108.3187                0               0                0               0
1.15909                0.9953114       -12.34509     0.0005910833        104.4836                0               0                0               0
1.16667                0.9951745       -12.46808     0.0005539266        101.1743                0               0                0               0
1.17424                0.9950297       -12.59246     0.0005152767        98.53765                0               0                0               0
1.18182                0.9948761       -12.71824     0.0004759703        96.77068                0               0                0               0
1.18939                 0.994713        -12.8454     0.0004372491        96.13113                0               0                0               0
1.19697                0.9945395       -12.97392     0.0004009467        96.93275                0               0                0               0
1.20455                0.9943551        -13.1038     0.0003697004        99.49312                0               0                0               0
1.21212                0.9941593       -13.23501     0.0003470451        103.9785                0               0                0               0
1.2197                 0.9939514       -13.36752     0.0003370528        110.1291                0               0                0               0
1.22727                0.9937313       -13.50131     0.0003432042        117.0592                0               0                0               0
1.23485                0.9934988       -13.63636     0.0003669559        123.5072                0               0                0               0
1.24242                0.9932538       -13.77263     0.0004073103        128.4675                0               0                0               0
1.25                   0.9929963       -13.91012     0.0004617757        131.5551                0               0                0               0
1.25758                0.9927266       -14.04879     0.0005276142         132.872                0               0                0               0
1.26515                 0.992445       -14.18863      0.000602514        132.7218                0               0                0               0
1.27273                0.9921518       -14.32964     0.0006847238        131.4263                0               0                0               0
1.2803                 0.9918474        -14.4718     0.0007729621        129.2571                0               0                0               0
1.28788                0.9915326       -14.61513     0.0008662861        126.4243                0               0                0               0
1.29545                0.9912078       -14.75963     0.0009639829        123.0852                0               0                0               0
1.30303                0.9908738       -14.90533      0.001065493        119.3565                0               0                0               0
1.31061                 0.990531       -15.05224      0.001170359        115.3255                0               0                0               0
1.31818                0.9901804       -15.20041      0.001278189        111.0575                0               0                0               0
1.32576                0.9898222       -15.34989      0.001388638        106.6026                0               0                0               0
1.33333                0.9894575       -15.50072      0.001501389        101.9992                0               0                0               0
1.34091                0.9890863       -15.65298      0.001616144        97.27751                0               0                0               0
1.34848                0.9887093       -15.80672      0.001732621        92.46131                0               0                0               0
1.35606                0.9883268       -15.96203      0.001850542        87.56978                0               0                0               0
1.36364                0.9879389       -16.11899      0.001969639         82.6185                0               0                0               0
1.37121                0.9875458        -16.2777      0.002089645        77.62031                0               0                0               0
1.37879                0.9871472       -16.43824      0.002210295        72.58593                0               0                0               0
1.38636                0.9867432       -16.60071      0.002331328        67.52443                0               0                0               0
1.39394                0.9863332       -16.76522      0.002452483        62.44354                0               0                0               0
1.40152                0.9859167       -16.93186      0.002573503           57.35                0               0                0               0
1.40909                0.9854929       -17.10074      0.002694131        52.24972                0               0                0               0
1.41667                0.9850611       -17.27195      0.002814117        47.14795                0               0                0               0
1.42424                0.9846203       -17.44559      0.002933214        42.04945                0               0                0               0
1.43182                0.9841692       -17.62176      0.003051179        36.95855                0               0                0               0
1.43939                0.9837068       -17.80054      0.003167779        31.87927                0               0                0               0
1.44697                0.9832316       -17.98202      0.003282788        26.81539                0               0                0               0
1.45455                0.9827423       -18.16628       0.00339599        21.77049                0               0                0               0
1.46212                0.9822371       -18.35339      0.003507184        16.74799                0               0                0               0
1.4697                 0.9817147       -18.54343       0.00361618        11.75123                0               0                0               0
1.47727                0.9811733       -18.73645      0.003722807         6.78348                0               0                0               0
1.48485                0.9806114        -18.9325      0.003826912        1.847946                0               0                0               0
1.49242                0.9800273       -19.13165      0.003928365       -3.052176                0               0                0               0
1.5                    0.9794194       -19.33392      0.004027059       -7.913698                0               0                0               0
1.50758                0.9787863       -19.53937      0.004122918       -12.73342                0               0                0               0
1.51515                0.9781264       -19.74802      0.004215892       -17.50816                0               0                0               0
1.52273                0.9774381       -19.95991      0.004305972       -22.23467                0               0                0               0
1.5303                 0.9767202       -20.17508       0.00439318       -26.90974                0               0                0               0
1.53788                0.9759712       -20.39354      0.004477588       -31.53014                0               0                0               0
1.54545                0.9751902       -20.61533      0.004559307       -36.09265                0               0                0               0
1.55303                0.9743758       -20.84049      0.004638503       -40.59412                0               0                0               0
1.56061                 0.973527       -21.06904      0.004715395       -45.03145                0               0                0               0
1.56818                 0.972643       -21.30102       0.00479026       -49.40166                0               0                0               0
1.57576                0.9717226       -21.53649       0.00486344       -53.70197                0               0                0               0
1.58333                 0.970765       -21.77548      0.004935341       -57.92981                0               0                0               0
1.59091                0.9697696       -22.01806      0.005006441       -62.08293                0               0                0               0
1.59848                0.9687353        -22.2643       0.00507729       -66.15949                0               0                0               0
1.60606                0.9676613       -22.51426      0.005148513       -70.15816                0               0                0               0
1.61364                0.9665469       -22.76805      0.005220811        -74.0782                0               0                0               0
1.62121                0.9653911       -23.02574      0.005294963       -77.91959                0               0                0               0
1.62879                 0.964193       -23.28745      0.005371816       -81.68318                0               0                0               0
1.63636                0.9629513        -23.5533      0.005452292       -85.37073                0               0                0               0
1.64394                 0.961665       -23.82341      0.005537373       -88.98508                0               0                0               0
1.65152                0.9603325       -24.09791      0.005628099       -92.53016                0               0                0               0
1.65909                0.9589525       -24.37697      0.005725551        -96.0111                0               0                0               0
1.66667                0.9575231       -24.66073      0.005830845       -99.43421                0               0                0               0
1.67424                0.9560425       -24.94936      0.005945115       -102.8069                0               0                0               0
1.68182                0.9545082       -25.24302      0.006069491       -106.1378                0               0                0               0
1.68939                0.9529178        -25.5419      0.006205088       -109.4362                0               0                0               0
1.69697                0.9512686       -25.84618      0.006352988       -112.7124                0               0                0               0
1.70455                0.9495577       -26.15604      0.006514218        -115.977                0               0                0               0
1.71212                0.9477814       -26.47167      0.006689736       -119.2409                0               0                0               0
1.7197                 0.9459364       -26.79326      0.006880419        -122.515                0               0                0               0
1.72727                0.9440186       -27.12098      0.007087047         -125.81                0               0                0               0
1.73485                0.9420238       -27.45503      0.007310299       -129.1358                0               0                0               0
1.74242                0.9399474       -27.79557      0.007550744       -132.5018                0               0                0               0
1.75                   0.9377849       -28.14278      0.007808842       -135.9161                0               0                0               0
1.75758                0.9355307       -28.49682      0.008084937       -139.3861                0               0                0               0
1.76515                  0.93318       -28.85785      0.008379271       -142.9178                0               0                0               0
1.77273                 0.930727         -29.226       0.00869198       -146.5161                0               0                0               0
1.7803                 0.9281658       -29.60142      0.009023107       -150.1847                0               0                0               0
1.78788                0.9254906       -29.98423      0.009372603       -153.9263                0               0                0               0
1.79545                0.9226952       -30.37452      0.009740343       -157.7426                0               0                0               0
1.80303                0.9197732        -30.7724       0.01012612       -161.6343                0               0                0               0
1.81061                0.9167181       -31.17794       0.01052968       -165.6012                0               0                0               0
1.81818                0.9135234       -31.59121        0.0109507       -169.6428                0               0                0               0
1.82576                0.9101824       -32.01225        0.0113888       -173.7575                0               0                0               0
1.83333                0.9066884        -32.4411       0.01184357       -177.9438                0               0                0               0
1.84091                0.9030345       -32.87778       0.01231456        177.8005                0               0                0               0
1.84848                0.8992141       -33.32228       0.01280127        173.4779                0               0                0               0
1.85606                0.8952202        -33.7746       0.01330319        169.0909                0               0                0               0
1.86364                 0.891046       -34.23468       0.01381976        164.6422                0               0                0               0
1.87121                0.8866848       -34.70251       0.01435043        160.1345                0               0                0               0
1.87879                0.8821299       -35.17799       0.01489459        155.5708                0               0                0               0
1.88636                0.8773744       -35.66106       0.01545164        150.9538                0               0                0               0
1.89394                0.8724118       -36.15161       0.01602095        146.2862                0               0                0               0
1.90152                0.8672358       -36.64953       0.01660187        141.5709                0               0                0               0
1.90909                0.8618396       -37.15469       0.01719373        136.8103                0               0                0               0
1.91667                 0.856217       -37.66692       0.01779588         132.007                0               0                0               0
1.92424                0.8503619       -38.18607       0.01840761        127.1635                0               0                0               0
1.93182                 0.844268       -38.71193       0.01902822        122.2822                0               0                0               0
1.93939                0.8379296       -39.24429       0.01965701        117.3652                0               0                0               0
1.94697                0.8313406       -39.78291       0.02029325        112.4147                0               0                0               0
1.95455                0.8244956       -40.32754        0.0209362        107.4326                0               0                0               0
1.96212                 0.817389       -40.87787       0.02158513         102.421                0               0                0               0
1.9697                 0.8100156        -41.4336       0.02223928        97.38163                0               0                0               0
1.97727                0.8023703       -41.99437       0.02289789        92.31622                0               0                0               0
