! TOUCHSTONE file generated by CST MICROWAVE STUDIO
! Date and time: Tue Mar 11 13:57:50 2025
! Project name: transverse.cst
! Parameters = {Fracture=1; B=10; D=160; F=5; Feed=2.85625; L=100; M=20; R=0.384908; S=1; Theta=270; length=57.125; wave=114.25}
! Header version: 2024
! Port assignment regex: !\s*Touchstone port\s*([0-9]+)\s*=\s*(CST MWS port|CST DES external port|CST DES block port)\s*(.+)\s* \(\"(.*)\"\)(\s*mode\s*([0-9]+))?.*
! Touchstone port assignment:
! Touchstone port 1 = CST MWS port 1 ("")
! Touchstone port 2 = CST MWS port 2 ("")
# GHz S MA R 50
1                      0.9979067       -9.998468     0.0003273783       -116.4962                0               0                0               0
1.00658                0.9978082       -10.08922     0.0003526389       -121.9297                0               0                0               0
1.01316                0.9977013       -10.18028     0.0003771959       -127.3454                0               0                0               0
1.01974                 0.997587       -10.27159     0.0004009332       -132.7363                0               0                0               0
1.02632                0.9974662       -10.36311     0.0004237368       -138.0962                0               0                0               0
1.03289                0.9973399       -10.45482     0.0004454955       -143.4194                0               0                0               0
1.03947                0.9972093       -10.54669      0.000466102       -148.7004                0               0                0               0
1.04605                0.9970757       -10.63871      0.000485454       -153.9339                0               0                0               0
1.05263                0.9969404       -10.73089     0.0005034544       -159.1143                0               0                0               0
1.05921                0.9968048       -10.82325     0.0005200131       -164.2359                0               0                0               0
1.06579                0.9966699       -10.91583     0.0005350476       -169.2925                0               0                0               0
1.07237                0.9965372       -11.00867     0.0005484845       -174.2774                0               0                0               0
1.07895                0.9964076       -11.10182     0.0005602609       -179.1835                0               0                0               0
1.08553                 0.996282       -11.19536     0.0005703258        175.9975                0               0                0               0
1.09211                0.9961612       -11.28935     0.0005786417        171.2743                0               0                0               0
1.09868                0.9960458       -11.38389     0.0005851863        166.6571                0               0                0               0
1.10526                 0.995936       -11.47906     0.0005899556        162.1569                0               0                0               0
1.11184                0.9958318       -11.57495     0.0005929649        157.7863                0               0                0               0
1.11842                0.9957332       -11.67166     0.0005942527        153.5592                0               0                0               0
1.125                  0.9956398       -11.76928     0.0005938839        149.4913                0               0                0               0
1.13158                0.9955512        -11.8679     0.0005919529        145.5998                0               0                0               0
1.13816                0.9954662        -11.9676     0.0005885879         141.904                0               0                0               0
1.14474                0.9953839       -12.06846     0.0005839563        138.4245                0               0                0               0
1.15132                0.9953031       -12.17054     0.0005782689        135.1835                0               0                0               0
1.15789                0.9952227        -12.2739     0.0005717863         132.204                0               0                0               0
1.16447                 0.995141       -12.37858     0.0005648227        129.5087                0               0                0               0
1.17105                0.9950565       -12.48461     0.0005577514         127.119                0               0                0               0
1.17763                0.9949677       -12.59201     0.0005510064         125.052                0               0                0               0
1.18421                0.9948731       -12.70078     0.0005450812        123.3183                0               0                0               0
1.19079                0.9947713       -12.81091     0.0005405222        121.9178                0               0                0               0
1.19737                0.9946606       -12.92238     0.0005379134        120.8366                0               0                0               0
1.20395                  0.99454       -13.03515     0.0005378542        120.0432                0               0                0               0
1.21053                0.9944081       -13.14918     0.0005409266        119.4868                0               0                0               0
1.21711                0.9942643       -13.26442     0.0005476577        119.0988                0               0                0               0
1.22368                0.9941077       -13.38081     0.0005584807        118.7966                0               0                0               0
1.23026                0.9939376       -13.49828     0.0005737032        118.4914                0               0                0               0
1.23684                0.9937541       -13.61676     0.0005934893        118.0965                0               0                0               0
1.24342                0.9935568       -13.73619     0.0006178563        117.5362                0               0                0               0
1.25                   0.9933463        -13.8565     0.0006466891        116.7511                0               0                0               0
1.25658                0.9931227       -13.97764     0.0006797638        115.7011                0               0                0               0
1.26316                0.9928868       -14.09955     0.0007167765        114.3645                0               0                0               0
1.26974                0.9926396       -14.22219     0.0007573715        112.7358                0               0                0               0
1.27632                0.9923817       -14.34552     0.0008011639        110.8215                0               0                0               0
1.28289                0.9921148       -14.46953     0.0008477592         108.637                0               0                0               0
1.28947                0.9918398       -14.59421     0.0008967636        106.2026                0               0                0               0
1.29605                 0.991558       -14.71957     0.0009477935        103.5415                0               0                0               0
1.30263                0.9912709       -14.84563       0.00100048        100.6779                0               0                0               0
1.30921                0.9909796       -14.97243      0.001054468        97.63551                0               0                0               0
1.31579                0.9906855       -15.10003      0.001109424        94.43711                0               0                0               0
1.32237                0.9903897       -15.22849      0.001165028        91.10398                0               0                0               0
1.32895                 0.990093       -15.35789      0.001220979        87.65581                0               0                0               0
1.33553                0.9897963       -15.48834      0.001276992        84.11066                0               0                0               0
1.34211                   0.9895       -15.61992      0.001332799        80.48506                0               0                0               0
1.34868                0.9892046       -15.75275       0.00138815        76.79408                0               0                0               0
1.35526                0.9889099       -15.88695      0.001442809        73.05153                0               0                0               0
1.36184                0.9886159       -16.02264      0.001496561         69.2701                0               0                0               0
1.36842                0.9883219       -16.15993      0.001549207        65.46148                0               0                0               0
1.375                  0.9880271       -16.29894      0.001600568        61.63652                0               0                0               0
1.38158                0.9877307       -16.43979      0.001650488        57.80535                0               0                0               0
1.38816                0.9874311       -16.58257      0.001698831        53.97748                0               0                0               0
1.39474                0.9871268       -16.72738      0.001745485        50.16191                0               0                0               0
1.40132                0.9868163       -16.87432      0.001790367        46.36719                0               0                0               0
1.40789                0.9864974       -17.02343      0.001833421        42.60148                0               0                0               0
1.41447                0.9861682       -17.17479      0.001874621         38.8726                0               0                0               0
1.42105                0.9858267       -17.32843      0.001913974        35.18805                0               0                0               0
1.42763                0.9854709       -17.48438      0.001951525        31.55503                0               0                0               0
1.43421                0.9850986       -17.64264      0.001987355        27.98042                0               0                0               0
1.44079                0.9847077       -17.80322      0.002021587        24.47071                0               0                0               0
1.44737                0.9842965       -17.96608      0.002054386        21.03203                0               0                0               0
1.45395                0.9838631        -18.1312      0.002085964        17.66995                0               0                0               0
1.46053                0.9834059       -18.29853      0.002116577        14.38948                0               0                0               0
1.46711                0.9829237       -18.46802      0.002146532         11.1949                0               0                0               0
1.47368                0.9824155        -18.6396      0.002176183        8.089574                0               0                0               0
1.48026                0.9818802       -18.81321       0.00220593        5.075829                0               0                0               0
1.48684                0.9813175       -18.98878      0.002236222        2.154745                0               0                0               0
1.49342                0.9807271       -19.16626       0.00226755      -0.6740197                0               0                0               0
1.5                     0.980109       -19.34556      0.002300439       -3.412404                0               0                0               0
1.50658                0.9794633       -19.52665       0.00233545       -6.064082                0               0                0               0
1.51316                0.9787906       -19.70947      0.002373163       -8.634564                0               0                0               0
1.51974                 0.978092         -19.894      0.002414174       -11.13121                0               0                0               0
1.52632                 0.977368       -20.08022      0.002459077        -13.5632                0               0                0               0
1.53289                0.9766197       -20.26812      0.002508456       -15.94134                0               0                0               0
1.53947                0.9758483       -20.45773      0.002562869       -18.27785                0               0                0               0
1.54605                0.9750549       -20.64907      0.002622838       -20.58599                0               0                0               0
1.55263                0.9742406       -20.84221      0.002688837       -22.87967                0               0                0               0
1.55921                0.9734067       -21.03722      0.002761279       -25.17297                0               0                0               0
1.56579                0.9725539       -21.23419      0.002840509       -27.47967                0               0                0               0
1.57237                0.9716831       -21.43324      0.002926804       -29.81283                0               0                0               0
1.57895                0.9707948        -21.6345      0.003020362       -32.18434                0               0                0               0
1.58553                0.9698893        -21.8381      0.003121308       -34.60466                0               0                0               0
1.59211                0.9689664       -22.04422      0.003229696        -37.0826                0               0                0               0
1.59868                0.9680259       -22.25301      0.003345512       -39.62515                0               0                0               0
1.60526                0.9670671       -22.46465      0.003468683       -42.23754                0               0                0               0
1.61184                0.9660886       -22.67931      0.003599082       -44.92325                0               0                0               0
1.61842                0.9650892       -22.89718      0.003736538       -47.68414                0               0                0               0
1.625                  0.9640668       -23.11842      0.003880844       -50.52063                0               0                0               0
1.63158                0.9630191       -23.34321      0.004031765       -53.43186                0               0                0               0
1.63816                0.9619435       -23.57171      0.004189045       -56.41593                0               0                0               0
1.64474                0.9608371       -23.80405      0.004352416       -59.47004                0               0                0               0
1.65132                0.9596968       -24.04037      0.004521604       -62.59076                0               0                0               0
1.65789                0.9585189       -24.28078      0.004696337       -65.77412                0               0                0               0
1.66447                   0.9573       -24.52537      0.004876346       -69.01582                0               0                0               0
1.67105                0.9560361       -24.77422      0.005061378        -72.3113                0               0                0               0
1.67763                0.9547236       -25.02737      0.005251193        -75.6559                0               0                0               0
1.68421                0.9533584       -25.28485      0.005445575       -79.04495                0               0                0               0
1.69079                 0.951937       -25.54666       0.00564433       -82.47379                0               0                0               0
1.69737                0.9504556       -25.81279      0.005847298       -85.93791                0               0                0               0
1.70395                0.9489108       -26.08322      0.006054347       -89.43292                0               0                0               0
1.71053                0.9472991       -26.35787      0.006265383       -92.95466                0               0                0               0
1.71711                0.9456177        -26.6367      0.006480352       -96.49918                0               0                0               0
1.72368                0.9438639       -26.91961      0.006699243       -100.0628                0               0                0               0
1.73026                0.9420351       -27.20652      0.006922084        -103.642                0               0                0               0
1.73684                0.9401296       -27.49734      0.007148958       -107.2338                0               0                0               0
1.74342                0.9381456       -27.79197      0.007379991       -110.8353                0               0                0               0
1.75                   0.9360818       -28.09032      0.007615359       -114.4441                0               0                0               0
1.75658                0.9339371       -28.39232      0.007855295       -118.0578                0               0                0               0
1.76316                0.9317112       -28.69787      0.008100077       -121.6747                0               0                0               0
1.76974                0.9294036       -29.00694      0.008350041       -125.2933                0               0                0               0
1.77632                0.9270141       -29.31947      0.008605568       -128.9124                0               0                0               0
1.78289                 0.924543       -29.63545      0.008867093       -132.5311                0               0                0               0
1.78947                0.9219903       -29.95487        0.0091351       -136.1491                0               0                0               0
1.79605                0.9193565       -30.27778      0.009410114       -139.7661                0               0                0               0
1.80263                 0.916642       -30.60423      0.009692706       -143.3824                0               0                0               0
1.80921                0.9138468        -30.9343      0.009983482       -146.9984                0               0                0               0
1.81579                 0.910971       -31.26811       0.01028308        -150.615                0               0                0               0
1.82237                0.9080145        -31.6058       0.01059217       -154.2333                0               0                0               0
1.82895                0.9049768       -31.94755       0.01091144       -157.8547                0               0                0               0
1.83553                 0.901857       -32.29354       0.01124159       -161.4807                0               0                0               0
1.84211                 0.898654         -32.644       0.01158332       -165.1132                0               0                0               0
1.84868                0.8953657       -32.99916       0.01193735       -168.7542                0               0                0               0
