! TOUCHSTONE file generated by CST MICROWAVE STUDIO
! Date and time: Tue Mar 11 13:57:07 2025
! Project name: transverse.cst
! Parameters = {Fracture=5; B=12.5; D=160; F=25; Feed=2.85625; L=100; M=20; R=0.384908; S=1; Theta=90; length=57.125; wave=114.25}
! Header version: 2024
! Port assignment regex: !\s*Touchstone port\s*([0-9]+)\s*=\s*(CST MWS port|CST DES external port|CST DES block port)\s*(.+)\s* \(\"(.*)\"\)(\s*mode\s*([0-9]+))?.*
! Touchstone port assignment:
! Touchstone port 1 = CST MWS port 1 ("")
! Touchstone port 2 = CST MWS port 2 ("")
# GHz S MA R 50
1                      0.9976192       -9.766051      0.000512191        174.4896                0               0                0               0
1.0066                 0.9975528       -9.852855     0.0005060741        169.1519                0               0                0               0
1.0132                 0.9974869        -9.94034      0.000497959        163.9784                0               0                0               0
1.0198                 0.9974211       -10.02854     0.0004878733        158.9896                0               0                0               0
1.0264                  0.997355       -10.11749     0.0004758694        154.2118                0               0                0               0
1.033                   0.997288       -10.20721     0.0004620303        149.6775                0               0                0               0
1.0396                 0.9972196       -10.29774     0.0004464768        145.4277                0               0                0               0
1.0462                 0.9971493       -10.38907     0.0004293779        141.5137                0               0                0               0
1.05281                0.9970764       -10.48124      0.000410964        137.9996                0               0                0               0
1.05941                0.9970003       -10.57424     0.0003915462        134.9652                0               0                0               0
1.06601                0.9969204       -10.66809     0.0003715407        132.5076                0               0                0               0
1.07261                 0.996836       -10.76278     0.0003515018        130.7417                0               0                0               0
1.07921                0.9967469       -10.85831       0.00033216        129.7955                0               0                0               0
1.08581                0.9966521       -10.95466     0.0003144601        129.7939                0               0                0               0
1.09241                0.9965516       -11.05182     0.0002995804        130.8252                0               0                0               0
1.09901                0.9964447       -11.14977     0.0002888962        132.8856                0               0                0               0
1.10561                0.9963313       -11.24851      0.000283845        135.8141                0               0                0               0
1.11221                0.9962113         -11.348     0.0002856755        139.2596                0               0                0               0
1.11881                0.9960843       -11.44822     0.0002951577         142.734                0               0                0               0
1.12541                0.9959506       -11.54916     0.0003124104        145.7478                0               0                0               0
1.13201                  0.99581        -11.6508     0.0003369541        147.9475                0               0                0               0
1.13861                0.9956628       -11.75311     0.0003679347        149.1694                0               0                0               0
1.14521                0.9955092        -11.8561     0.0004043678        149.4082                0               0                0               0
1.15182                0.9953495       -11.95974     0.0004453046        148.7522                0               0                0               0
1.15842                 0.995184       -12.06403     0.0004899085        147.3268                0               0                0               0
1.16502                0.9950133       -12.16897     0.0005374691        145.2609                0               0                0               0
1.17162                0.9948376       -12.27457     0.0005873906        142.6711                0               0                0               0
1.17822                0.9946573       -12.38083     0.0006391695        139.6563                0               0                0               0
1.18482                0.9944731       -12.48778     0.0006923737        136.2979                0               0                0               0
1.19142                0.9942852       -12.59543     0.0007466251        132.6622                0               0                0               0
1.19802                 0.994094       -12.70382     0.0008015863        128.8028                0               0                0               0
1.20462                   0.9939       -12.81297     0.0008569502        124.7632                0               0                0               0
1.21122                0.9937032       -12.92292     0.0009124335        120.5787                0               0                0               0
1.21782                0.9935039       -13.03371      0.000967771        116.2784                0               0                0               0
1.22442                0.9933024        -13.1454      0.001022713        111.8864                0               0                0               0
1.23102                0.9930984       -13.25801      0.001077024        107.4231                0               0                0               0
1.23762                0.9928919       -13.37161      0.001130477        102.9056                0               0                0               0
1.24422                0.9926827       -13.48624      0.001182858         98.3487                0               0                0               0
1.25083                0.9924705       -13.60194      0.001233966        93.76532                0               0                0               0
1.25743                0.9922548       -13.71876      0.001283608        89.16689                0               0                0               0
1.26403                0.9920353       -13.83676      0.001331606         84.5637                0               0                0               0
1.27063                0.9918112       -13.95595      0.001377793        79.96517                0               0                0               0
1.27723                 0.991582       -14.07639      0.001422018        75.38002                0               0                0               0
1.28383                0.9913469        -14.1981      0.001464146        70.81648                0               0                0               0
1.29043                0.9911051       -14.32112      0.001504059         66.2824                0               0                0               0
1.29703                0.9908559       -14.44544      0.001541659        61.78542                0               0                0               0
1.30363                0.9905986       -14.57111      0.001576871          57.333                0               0                0               0
1.31023                0.9903322       -14.69811      0.001609644        52.93255                0               0                0               0
1.31683                 0.990056       -14.82645      0.001639954        48.59144                0               0                0               0
1.32343                0.9897693       -14.95614      0.001667807        44.31711                0               0                0               0
1.33003                0.9894715       -15.08715      0.001693242          40.117                0               0                0               0
1.33663                0.9891621       -15.21949      0.001716334         35.9986                0               0                0               0
1.34323                0.9888404       -15.35312      0.001737199        31.96944                0               0                0               0
1.34984                0.9885062       -15.48805      0.001755994        28.03699                0               0                0               0
1.35644                0.9881592       -15.62424      0.001772924        24.20861                0               0                0               0
1.36304                0.9877993       -15.76168      0.001788244        20.49135                0               0                0               0
1.36964                0.9874264       -15.90035       0.00180226        16.89185                0               0                0               0
1.37624                0.9870407       -16.04024      0.001815336        13.41606                0               0                0               0
1.38284                0.9866423       -16.18132      0.001827889        10.06894                0               0                0               0
1.38944                0.9862314        -16.3236      0.001840396        6.854158                0               0                0               0
1.39604                0.9858086       -16.46707      0.001853387        3.773663                0               0                0               0
1.40264                0.9853743       -16.61173      0.001867445       0.8272894                0               0                0               0
1.40924                0.9849289        -16.7576      0.001883198       -1.987667                0               0                0               0
1.41584                0.9844732       -16.90469      0.001901311       -4.676826                0               0                0               0
1.42244                0.9840076       -17.05304      0.001922471       -7.249013                0               0                0               0
1.42904                0.9835326       -17.20268      0.001947376       -9.716401                0               0                0               0
1.43564                 0.983049       -17.35365      0.001976712       -12.09445                0               0                0               0
1.44224                0.9825571       -17.50602      0.002011139       -14.40164                0               0                0               0
1.44884                0.9820574       -17.65984      0.002051267       -16.65889                0               0                0               0
1.45545                0.9815502       -17.81519      0.002097638       -18.88885                0               0                0               0
1.46205                0.9810357       -17.97214       0.00215071        -21.1149                0               0                0               0
1.46865                0.9805141       -18.13078      0.002210844       -23.36023                0               0                0               0
1.47525                0.9799852        -18.2912      0.002278295       -25.64675                0               0                0               0
1.48185                0.9794488       -18.45349      0.002353215       -27.99432                0               0                0               0
1.48845                0.9789045       -18.61775      0.002435644       -30.42004                0               0                0               0
1.49505                0.9783518       -18.78408      0.002525527       -32.93784                0               0                0               0
1.50165                  0.97779       -18.95256      0.002622718       -35.55829                0               0                0               0
1.50825                0.9772181       -19.12331       0.00272699       -38.28868                0               0                0               0
1.51485                0.9766351        -19.2964      0.002838053       -41.13322                0               0                0               0
1.52145                0.9760399       -19.47194      0.002955558       -44.09336                0               0                0               0
1.52805                0.9754311       -19.64999      0.003079115       -47.16824                0               0                0               0
1.53465                0.9748072       -19.83065      0.003208302       -50.35509                0               0                0               0
1.54125                0.9741667       -20.01397      0.003342671       -53.64965                0               0                0               0
1.54785                 0.973508       -20.20002      0.003481758       -57.04653                0               0                0               0
1.55446                0.9728295       -20.38886      0.003625089       -60.53956                0               0                0               0
1.56106                0.9721293       -20.58053      0.003772189       -64.12204                0               0                0               0
1.56766                0.9714061       -20.77506      0.003922577       -67.78699                0               0                0               0
1.57426                0.9706579        -20.9725      0.004075783       -71.52728                0               0                0               0
1.58086                0.9698833       -21.17284      0.004231339       -75.33582                0               0                0               0
1.58746                0.9690807       -21.37613       0.00438879       -79.20559                0               0                0               0
1.59406                0.9682487       -21.58236      0.004547691       -83.12974                0               0                0               0
1.60066                 0.967386       -21.79154      0.004707617       -87.10165                0               0                0               0
1.60726                0.9664913       -22.00367      0.004868157       -91.11493                0               0                0               0
1.61386                0.9655637       -22.21875       0.00502892       -95.16343                0               0                0               0
1.62046                0.9646019        -22.4368      0.005189539       -99.24128                0               0                0               0
1.62706                0.9636055        -22.6578      0.005349673       -103.3428                0               0                0               0
1.63366                0.9625736       -22.88177      0.005509007       -107.4627                0               0                0               0
1.64026                0.9615057       -23.10873      0.005667256       -111.5958                0               0                0               0
1.64686                0.9604014       -23.33868      0.005824171       -115.7371                0               0                0               0
1.65347                0.9592603       -23.57165      0.005979536        -119.882                0               0                0               0
1.66007                 0.958082       -23.80769      0.006133177       -124.0259                0               0                0               0
1.66667                0.9568666       -24.04683      0.006284962       -128.1646                0               0                0               0
1.67327                0.9556135       -24.28915      0.006434804       -132.2941                0               0                0               0
1.67987                0.9543228       -24.53469      0.006582666       -136.4103                0               0                0               0
1.68647                 0.952994       -24.78357      0.006728563       -140.5097                0               0                0               0
1.69307                 0.951627       -25.03585      0.006872569       -144.5887                0               0                0               0
1.69967                0.9502213       -25.29166      0.007014813       -148.6441                0               0                0               0
1.70627                0.9487764       -25.55112      0.007155487        -152.673                0               0                0               0
1.71287                0.9472916       -25.81436      0.007294849       -156.6725                0               0                0               0
1.71947                0.9457659       -26.08152      0.007433222       -160.6402                0               0                0               0
1.72607                0.9441984       -26.35275      0.007571001        -164.574                0               0                0               0
1.73267                0.9425877       -26.62823      0.007708648        -168.472                0               0                0               0
1.73927                0.9409322       -26.90812      0.007846697       -172.3328                0               0                0               0
1.74587                0.9392303       -27.19259      0.007985752       -176.1554                0               0                0               0
1.75248                0.9374797       -27.48184      0.008126486       -179.9394                0               0                0               0
1.75908                0.9356783       -27.77603      0.008269636        176.3154                0               0                0               0
1.76568                0.9338232       -28.07536      0.008416002        172.6084                0               0                0               0
1.77228                0.9319119          -28.38      0.008566443        168.9386                0               0                0               0
1.77888                0.9299409       -28.69015      0.008721864        165.3043                0               0                0               0
1.78548                 0.927907       -29.00597      0.008883214        161.7033                0               0                0               0
1.79208                0.9258066       -29.32765      0.009051471        158.1327                0               0                0               0
1.79868                0.9236357       -29.65535      0.009227635         154.589                0               0                0               0
1.80528                0.9213905       -29.98922      0.009412717        151.0683                0               0                0               0
1.81188                0.9190667       -30.32943       0.00960772        147.5661                0               0                0               0
1.81848                  0.91666       -30.67613      0.009813628        144.0774                0               0                0               0
1.82508                0.9141658       -31.02943        0.0100314        140.5969                0               0                0               0
1.83168                0.9115798       -31.38949       0.01026193        137.1189                0               0                0               0
1.83828                 0.908897       -31.75642       0.01050608        133.6378                0               0                0               0
1.84488                0.9061129       -32.13035       0.01076462        130.1477                0               0                0               0
1.85149                0.9032223       -32.51138       0.01103824        126.6427                0               0                0               0
