! TOUCHSTONE file generated by CST MICROWAVE STUDIO
! Date and time: Tue Mar 11 13:57:57 2025
! Project name: transverse.cst
! Parameters = {Fracture=5; B=10; D=160; F=15; Feed=2.85625; L=100; M=20; R=0.384908; S=2; Theta=270; length=57.125; wave=114.25}
! Header version: 2024
! Port assignment regex: !\s*Touchstone port\s*([0-9]+)\s*=\s*(CST MWS port|CST DES external port|CST DES block port)\s*(.+)\s* \(\"(.*)\"\)(\s*mode\s*([0-9]+))?.*
! Touchstone port assignment:
! Touchstone port 1 = CST MWS port 1 ("")
! Touchstone port 2 = CST MWS port 2 ("")
# GHz S MA R 50
1                      0.9977287       -9.741521     0.0004057845       -166.8734                0               0                0               0
1.00658                0.9976436       -9.828747     0.0004073947       -171.1655                0               0                0               0
1.01316                0.9975556       -9.916445     0.0004079172       -175.3106                0               0                0               0
1.01974                0.9974652       -10.00462     0.0004073975       -179.2934                0               0                0               0
1.02632                0.9973725       -10.09328      0.000405901        176.9029                0               0                0               0
1.03289                0.9972777       -10.18243     0.0004035161        173.2969                0               0                0               0
1.03947                0.9971811       -10.27208     0.0004003574        169.9088                0               0                0               0
1.04605                 0.997083       -10.36226     0.0003965692        166.7599                0               0                0               0
1.05263                0.9969837       -10.45298     0.0003923289        163.8721                0               0                0               0
1.05921                0.9968833       -10.54426      0.000387851        161.2669                0               0                0               0
1.06579                0.9967819       -10.63614     0.0003833895        158.9638                0               0                0               0
1.07237                0.9966796       -10.72863     0.0003792392         156.978                0               0                0               0
1.07895                0.9965763       -10.82177     0.0003757347        155.3176                0               0                0               0
1.08553                0.9964722       -10.91558     0.0003732456        153.9799                0               0                0               0
1.09211                0.9963672       -11.01009     0.0003721659        152.9483                0               0                0               0
1.09868                0.9962609       -11.10534     0.0003728981        152.1892                0               0                0               0
1.10526                0.9961535       -11.20135     0.0003758325        151.6505                0               0                0               0
1.11184                0.9960443       -11.29815     0.0003813215        151.2638                0               0                0               0
1.11842                0.9959332       -11.39577     0.0003896548        150.9482                0               0                0               0
1.125                  0.9958198       -11.49423     0.0004010398        150.6177                0               0                0               0
1.13158                 0.995704       -11.59355     0.0004155899        150.1897                0               0                0               0
1.13816                0.9955849       -11.69375     0.0004333235        149.5927                0               0                0               0
1.14474                0.9954623       -11.79485     0.0004541733        148.7708                0               0                0               0
1.15132                0.9953358       -11.89686     0.0004780017        147.6867                0               0                0               0
1.15789                0.9952047       -11.99979      0.000504619        146.3205                0               0                0               0
1.16447                 0.995069       -12.10365     0.0005338013        144.6673                0               0                0               0
1.17105                0.9949278       -12.20843     0.0005653052        142.7337                0               0                0               0
1.17763                 0.994781       -12.31414     0.0005988793        140.5341                0               0                0               0
1.18421                 0.994628       -12.42077     0.0006342719        138.0882                0               0                0               0
1.19079                0.9944687       -12.52833     0.0006712367         135.418                0               0                0               0
1.19737                0.9943029        -12.6368     0.0007095349        132.5465                0               0                0               0
1.20395                0.9941302       -12.74618     0.0007489368        129.4963                0               0                0               0
1.21053                0.9939504       -12.85646     0.0007892227        126.2891                0               0                0               0
1.21711                0.9937636       -12.96763     0.0008301827        122.9452                0               0                0               0
1.22368                0.9935696       -13.07969     0.0008716164        119.4834                0               0                0               0
1.23026                0.9933686       -13.19263     0.0009133328        115.9208                0               0                0               0
1.23684                0.9931605       -13.30645     0.0009551499        112.2732                0               0                0               0
1.24342                0.9929456       -13.42114     0.0009968951        108.5548                0               0                0               0
1.25                    0.992724       -13.53672      0.001038405        104.7787                0               0                0               0
1.25658                0.9924958       -13.65317      0.001079524        100.9569                0               0                0               0
1.26316                0.9922612       -13.77052       0.00112011        97.10026                0               0                0               0
1.26974                0.9920207       -13.88878      0.001160027        93.21902                0               0                0               0
1.27632                0.9917742       -14.00796      0.001199154        89.32254                0               0                0               0
1.28289                0.9915221       -14.12808       0.00123738        85.41962                0               0                0               0
1.28947                0.9912648       -14.24918      0.001274608        81.51852                0               0                0               0
1.29605                 0.991002       -14.37126      0.001310755        77.62707                0               0                0               0
1.30263                0.9907343       -14.49438      0.001345753        73.75269                0               0                0               0
1.30921                0.9904617       -14.61856      0.001379554        69.90251                0               0                0               0
1.31579                0.9901839       -14.74385      0.001412126        66.08334                0               0                0               0
1.32237                0.9899014       -14.87027      0.001443458        62.30176                0               0                0               0
1.32895                0.9896137       -14.99787      0.001473561        58.56406                0               0                0               0
1.33553                0.9893207        -15.1267      0.001502471        54.87633                0               0                0               0
1.34211                0.9890224       -15.25679      0.001530247        51.24432                0               0                0               0
1.34868                0.9887183        -15.3882      0.001556977        47.67353                0               0                0               0
1.35526                0.9884081       -15.52095      0.001582779        44.16907                0               0                0               0
1.36184                0.9880915       -15.65509      0.001607798         40.7356                0               0                0               0
1.36842                0.9877681       -15.79066      0.001632213        37.37727                0               0                0               0
1.375                  0.9874373        -15.9277      0.001656234        34.09759                0               0                0               0
1.38158                0.9870984       -16.06623      0.001680103        30.89927                0               0                0               0
1.38816                0.9867512       -16.20629      0.001704095        27.78414                0               0                0               0
1.39474                0.9863948        -16.3479      0.001728514        24.75293                0               0                0               0
1.40132                0.9860289       -16.49109      0.001753696         21.8052                0               0                0               0
1.40789                0.9856529       -16.63589          0.00178        18.93913                0               0                0               0
1.41447                0.9852661        -16.7823      0.001807807        16.15142                0               0                0               0
1.42105                0.9848683       -16.93036      0.001837516        13.43726                0               0                0               0
1.42763                0.9844589       -17.08007      0.001869534        10.79023                0               0                0               0
1.43421                0.9840373       -17.23145      0.001904271        8.202391                0               0                0               0
1.44079                0.9836035       -17.38451      0.001942133        5.664376                0               0                0               0
1.44737                0.9831569       -17.53928       0.00198351         3.16558                0               0                0               0
1.45395                0.9826975       -17.69576      0.002028771       0.6944255                0               0                0               0
1.46053                 0.982225       -17.85397      0.002078255       -1.761311                0               0                0               0
1.46711                0.9817391       -18.01394      0.002132262       -4.214137                0               0                0               0
1.47368                0.9812398       -18.17568      0.002191048       -6.676456                0               0                0               0
1.48026                0.9807274       -18.33923      0.002254823       -9.160185                0               0                0               0
1.48684                0.9802013       -18.50461      0.002323744       -11.67642                0               0                0               0
1.49342                 0.979662       -18.67187      0.002397915       -14.23513                0               0                0               0
1.5                    0.9791091       -18.84105      0.002477391       -16.84498                0               0                0               0
1.50658                0.9785431       -19.01219      0.002562175       -19.51313                0               0                0               0
1.51316                0.9779634       -19.18536      0.002652224       -22.24523                0               0                0               0
1.51974                0.9773704       -19.36061      0.002747453        -25.0454                0               0                0               0
1.52632                0.9767637       -19.53802      0.002847738       -27.91627                0               0                0               0
1.53289                0.9761433       -19.71765      0.002952922       -30.85915                0               0                0               0
1.53947                0.9755088       -19.89959      0.003062821       -33.87413                0               0                0               0
1.54605                0.9748599       -20.08393      0.003177225       -36.96021                0               0                0               0
1.55263                0.9741961       -20.27075       0.00329591       -40.11554                0               0                0               0
1.55921                0.9735169       -20.46015      0.003418635       -43.33748                0               0                0               0
1.56579                0.9728213       -20.65222      0.003545149       -46.62284                0               0                0               0
1.57237                0.9721087       -20.84706      0.003675199       -49.96796                0               0                0               0
1.57895                 0.971378       -21.04478      0.003808525       -53.36882                0               0                0               0
1.58553                 0.970628       -21.24547      0.003944873       -56.82121                0               0                0               0
1.59211                0.9698574       -21.44924      0.004083992       -60.32074                0               0                0               0
1.59868                0.9690648       -21.65618       0.00422564       -63.86294                0               0                0               0
1.60526                0.9682487       -21.86638      0.004369582       -67.44337                0               0                0               0
1.61184                0.9674072       -22.07995        0.0045156       -71.05757                0               0                0               0
1.61842                0.9665386       -22.29697       0.00466349       -74.70118                0               0                0               0
1.625                  0.9656412       -22.51751       0.00481307       -78.36995                0               0                0               0
1.63158                0.9647128       -22.74167      0.004964175       -82.05973                0               0                0               0
1.63816                0.9637517       -22.96951      0.005116669       -85.76654                0               0                0               0
1.64474                0.9627553        -23.2011      0.005270438       -89.48655                0               0                0               0
1.65132                0.9617218        -23.4365        0.0054254       -93.21612                0               0                0               0
1.65789                 0.960649       -23.67575      0.005581503        -96.9518                0               0                0               0
1.66447                0.9595348       -23.91893       0.00573873       -100.6903                0               0                0               0
1.67105                 0.958377       -24.16607        0.0058971       -104.4287                0               0                0               0
1.67763                0.9571736       -24.41721       0.00605667        -108.164                0               0                0               0
1.68421                0.9559225       -24.67239       0.00621754       -111.8938                0               0                0               0
1.69079                0.9546218       -24.93164      0.006379848       -115.6157                0               0                0               0
1.69737                0.9532694       -25.19501      0.006543779       -119.3276                0               0                0               0
1.70395                0.9518636       -25.46253      0.006709562       -123.0278                0               0                0               0
1.71053                0.9504024       -25.73423      0.006877472       -126.7147                0               0                0               0
1.71711                0.9488841       -26.01016      0.007047829       -130.3873                0               0                0               0
1.72368                0.9473071       -26.29034      0.007221001       -134.0446                0               0                0               0
1.73026                0.9456696       -26.57485        0.0073974       -137.6861                0               0                0               0
1.73684                0.9439698       -26.86371      0.007577481       -141.3117                0               0                0               0
1.74342                0.9422062       -27.15699      0.007761741       -144.9215                0               0                0               0
1.75                   0.9403773       -27.45477       0.00795072        -148.516                0               0                0               0
1.75658                 0.938481        -27.7571      0.008144985       -152.0962                0               0                0               0
1.76316                0.9365158       -28.06409      0.008345142       -155.6634                0               0                0               0
1.76974                  0.93448       -28.37582      0.008551821       -159.2191                0               0                0               0
1.77632                0.9323713       -28.69238      0.008765669       -162.7652                0               0                0               0
1.78289                 0.930188        -29.0139      0.008987355        -166.304                0               0                0               0
1.78947                0.9279276       -29.34049      0.009217546       -169.8381                0               0                0               0
1.79605                0.9255879       -29.67228      0.009456917       -173.3701                0               0                0               0
1.80263                0.9231661        -30.0094      0.009706134       -176.9031                0               0                0               0
1.80921                0.9206596         -30.352      0.009965844        179.5598                0               0                0               0
1.81579                0.9180651       -30.70022       0.01023668        176.0153                0               0                0               0
1.82237                0.9153796       -31.05421       0.01051924        172.4602                0               0                0               0
1.82895                0.9125992       -31.41413       0.01081409        168.8912                0               0                0               0
1.83553                  0.90972       -31.78012       0.01112174         165.305                0               0                0               0
1.84211                 0.906738       -32.15235       0.01144267        161.6983                0               0                0               0
1.84868                0.9036486       -32.53096       0.01177731        158.0683                0               0                0               0
