! TOUCHSTONE file generated by CST MICROWAVE STUDIO
! Date and time: Tue Mar 11 13:56:58 2025
! Project name: transverse.cst
! Parameters = {Fracture=1; B=12.5; D=160; F=5; Feed=2.85625; L=100; M=30; R=0.384908; S=2; Theta=90; length=57.125; wave=114.25}
! Header version: 2024
! Port assignment regex: !\s*Touchstone port\s*([0-9]+)\s*=\s*(CST MWS port|CST DES external port|CST DES block port)\s*(.+)\s* \(\"(.*)\"\)(\s*mode\s*([0-9]+))?.*
! Touchstone port assignment:
! Touchstone port 1 = CST MWS port 1 ("")
! Touchstone port 2 = CST MWS port 2 ("")
# GHz S MA R 50
1                      0.9976613       -10.00769     0.0003854616       -170.8861                0               0                0               0
1.00658                0.9975633       -10.09677       0.00038951       -175.3939                0               0                0               0
1.01316                0.9974618       -10.18623     0.0003924168       -179.8086                0               0                0               0
1.01974                0.9973576       -10.27604     0.0003941742        175.8818                0               0                0               0
1.02632                 0.997251       -10.36622     0.0003947868        171.6908                0               0                0               0
1.03289                0.9971428       -10.45678      0.000394273        167.6335                0               0                0               0
1.03947                0.9970334       -10.54774     0.0003926674         163.727                0               0                0               0
1.04605                0.9969235       -10.63911     0.0003900233        159.9904                0               0                0               0
1.05263                0.9968134       -10.73093     0.0003864159         156.445                0               0                0               0
1.05921                0.9967039       -10.82323     0.0003819457        153.1144                0               0                0               0
1.06579                0.9965949       -10.91605     0.0003767429        150.0248                0               0                0               0
1.07237                0.9964869       -11.00944     0.0003709714        147.2038                0               0                0               0
1.07895                  0.99638       -11.10344     0.0003648343        144.6806                0               0                0               0
1.08553                0.9962743        -11.1981     0.0003585779        142.4836                0               0                0               0
1.09211                0.9961695       -11.29346      0.000352496        140.6388                0               0                0               0
1.09868                0.9960656       -11.38958     0.0003469313        139.1662                0               0                0               0
1.10526                0.9959623       -11.48651     0.0003422734         138.075                0               0                0               0
1.11184                 0.995859       -11.58428     0.0003389509        137.3585                0               0                0               0
1.11842                0.9957552       -11.68294     0.0003374154        136.9886                0               0                0               0
1.125                  0.9956505       -11.78252     0.0003381177        136.9121                0               0                0               0
1.13158                 0.995544       -11.88306     0.0003414763        137.0505                0               0                0               0
1.13816                0.9954351       -11.98458     0.0003478429         137.304                0               0                0               0
1.14474                0.9953229        -12.0871     0.0003574729         137.562                0               0                0               0
1.15132                0.9952066       -12.19063     0.0003705071        137.7148                0               0                0               0
1.15789                0.9950856       -12.29517     0.0003869684        137.6664                0               0                0               0
1.16447                 0.994959       -12.40073     0.0004067732        137.3432                0               0                0               0
1.17105                0.9948262       -12.50729      0.000429754        136.6973                0               0                0               0
1.17763                0.9946864       -12.61485      0.000455684        135.7054                0               0                0               0
1.18421                0.9945392       -12.72338     0.0004843015        134.3647                0               0                0               0
1.19079                 0.994384       -12.83286      0.000515329        132.6874                0               0                0               0
1.19737                0.9942206       -12.94326     0.0005484865        130.6953                0               0                0               0
1.20395                0.9940486       -13.05456     0.0005835002        128.4156                0               0                0               0
1.21053                0.9938681       -13.16672     0.0006201078        125.8778                0               0                0               0
1.21711                0.9936789       -13.27973     0.0006580596        123.1113                0               0                0               0
1.22368                0.9934812       -13.39355     0.0006971199        120.1443                0               0                0               0
1.23026                0.9932753       -13.50816     0.0007370659        117.0031                0               0                0               0
1.23684                0.9930616       -13.62353     0.0007776872        113.7119                0               0                0               0
1.24342                0.9928406       -13.73966      0.000818785        110.2922                0               0                0               0
1.25                   0.9926127       -13.85655     0.0008601714        106.7639                0               0                0               0
1.25658                0.9923787       -13.97418     0.0009016683        103.1443                0               0                0               0
1.26316                0.9921391       -14.09256     0.0009431074        99.44944                0               0                0               0
1.26974                0.9918947       -14.21171     0.0009843302        95.69341                0               0                0               0
1.27632                0.9916462       -14.33166      0.001025188        91.88909                0               0                0               0
1.28289                0.9913942       -14.45242      0.001065542        88.04814                0               0                0               0
1.28947                0.9911393       -14.57406      0.001105264        84.18125                0               0                0               0
1.29605                0.9908821       -14.69661      0.001144236        80.29821                0               0                0               0
1.30263                0.9906231       -14.82012      0.001182353        76.40811                0               0                0               0
1.30921                0.9903625       -14.94466      0.001219524        72.51943                0               0                0               0
1.31579                0.9901008        -15.0703      0.001255671        68.64013                0               0                0               0
1.32237                0.9898379        -15.1971       0.00129073        64.77771                0               0                0               0
1.32895                0.9895737       -15.32513      0.001324656        60.93931                0               0                0               0
1.33553                0.9893082       -15.45448      0.001357422        57.13174                0               0                0               0
1.34211                0.9890409       -15.58522      0.001389019        53.36147                0               0                0               0
1.34868                0.9887714       -15.71741      0.001419462         49.6347                0               0                0               0
1.35526                0.9884989       -15.85113      0.001448786        45.95734                0               0                0               0
1.36184                0.9882228       -15.98644      0.001477053        42.33496                0               0                0               0
1.36842                0.9879423       -16.12342      0.001504349        38.77281                0               0                0               0
1.375                  0.9876562        -16.2621      0.001530788        35.27572                0               0                0               0
1.38158                0.9873635       -16.40254      0.001556513        31.84805                0               0                0               0
1.38816                0.9870633       -16.54478      0.001581697        28.49358                0               0                0               0
1.39474                0.9867542       -16.68886       0.00160654        25.21546                0               0                0               0
1.40132                0.9864352        -16.8348      0.001631274        22.01603                0               0                0               0
1.40789                0.9861052       -16.98262      0.001656161         18.8967                0               0                0               0
1.41447                0.9857632       -17.13232      0.001681488        15.85786                0               0                0               0
1.42105                 0.985408       -17.28392       0.00170757        12.89869                0               0                0               0
1.42763                0.9850386       -17.43741      0.001734744         10.0171                0               0                0               0
1.43421                0.9846545       -17.59279      0.001763364        7.209602                0               0                0               0
1.44079                0.9842547       -17.75005      0.001793798        4.471266                0               0                0               0
1.44737                0.9838388       -17.90917      0.001826421        1.795721                0               0                0               0
1.45395                0.9834063       -18.07015      0.001861608      -0.8247851                0               0                0               0
1.46053                0.9829569       -18.23298      0.001899728       -3.399269                0               0                0               0
1.46711                0.9824905       -18.39764      0.001941133       -5.937814                0               0                0               0
1.47368                0.9820069       -18.56414      0.001986154       -8.451322                0               0                0               0
1.48026                0.9815062       -18.73247      0.002035092        -10.9512                0               0                0               0
1.48684                0.9809887       -18.90265      0.002088213       -13.44904                0               0                0               0
1.49342                0.9804544        -19.0747       0.00214574       -15.95625                0               0                0               0
1.5                    0.9799038       -19.24863      0.002207852       -18.48372                0               0                0               0
1.50658                0.9793372        -19.4245      0.002274683       -21.04155                0               0                0               0
1.51316                0.9787548       -19.60234      0.002346316       -23.63875                0               0                0               0
1.51974                0.9781569       -19.78221      0.002422789       -26.28311                0               0                0               0
1.52632                0.9775438       -19.96419      0.002504093       -28.98102                0               0                0               0
1.53289                0.9769158       -20.14835       0.00259018       -31.73748                0               0                0               0
1.53947                0.9762726       -20.33478      0.002680959       -34.55606                0               0                0               0
1.54605                0.9756141       -20.52358      0.002776309         -37.439                0               0                0               0
1.55263                0.9749402       -20.71486      0.002876078       -40.38728                0               0                0               0
1.55921                0.9742504       -20.90872      0.002980089       -43.40075                0               0                0               0
1.56579                0.9735438        -21.1053      0.003088146       -46.47831                0               0                0               0
1.57237                0.9728194       -21.30469      0.003200036       -49.61797                0               0                0               0
1.57895                0.9720765       -21.50704       0.00331554        -52.8171                0               0                0               0
1.58553                0.9713134       -21.71245      0.003434428       -56.07247                0               0                0               0
1.59211                0.9705285       -21.92105      0.003556471       -59.38043                0               0                0               0
1.59868                0.9697203       -22.13295       0.00368144       -62.73701                0               0                0               0
1.60526                0.9688862       -22.34826      0.003809112       -66.13801                0               0                0               0
1.61184                0.9680246       -22.56708      0.003939273       -69.57906                0               0                0               0
1.61842                0.9671328        -22.7895      0.004071722       -73.05575                0               0                0               0
1.625                  0.9662086        -23.0156      0.004206273       -76.56363                0               0                0               0
1.63158                 0.965249       -23.24546       0.00434276        -80.0983                0               0                0               0
1.63816                0.9642517       -23.47912      0.004481038       -83.65542                0               0                0               0
1.64474                 0.963214       -23.71663      0.004620988       -87.23077                0               0                0               0
1.65132                 0.962133       -23.95803      0.004762518       -90.82027                0               0                0               0
1.65789                0.9610064       -24.20335      0.004905573       -94.41999                0               0                0               0
1.66447                0.9598313       -24.45257      0.005050124       -98.02621                0               0                0               0
1.67105                0.9586054       -24.70572      0.005196185       -101.6354                0               0                0               0
1.67763                0.9573263       -24.96279       0.00534381       -105.2443                0               0                0               0
1.68421                 0.955992       -25.22375      0.005493093       -108.8499                0               0                0               0
1.69079                0.9546002       -25.48859      0.005644176       -112.4494                0               0                0               0
1.69737                0.9531493       -25.75729      0.005797246       -116.0403                0               0                0               0
1.70395                0.9516375       -26.02982      0.005952539       -119.6206                0               0                0               0
1.71053                0.9500635       -26.30617      0.006110343       -123.1884                0               0                0               0
1.71711                0.9484259       -26.58631      0.006270996       -126.7422                0               0                0               0
1.72368                0.9467237       -26.87024      0.006434888       -130.2812                0               0                0               0
1.73026                 0.944956       -27.15795      0.006602459       -133.8044                0               0                0               0
1.73684                0.9431218       -27.44945      0.006774198       -137.3119                0               0                0               0
1.74342                0.9412207       -27.74477      0.006950644       -140.8036                0               0                0               0
1.75                   0.9392518       -28.04394       0.00713238       -144.2804                0               0                0               0
1.75658                0.9372145       -28.34701      0.007320031       -147.7432                0               0                0               0
1.76316                0.9351082       -28.65406      0.007514256       -151.1935                0               0                0               0
1.76974                0.9329323       -28.96516       0.00771575       -154.6333                0               0                0               0
1.77632                0.9306858       -29.28043      0.007925229       -158.0649                0               0                0               0
1.78289                0.9283679       -29.59998      0.008143429        -161.491                0               0                0               0
1.78947                0.9259772       -29.92396      0.008371095       -164.9146                0               0                0               0
1.79605                0.9235125       -30.25251      0.008608978       -168.3391                0               0                0               0
1.80263                0.9209718        -30.5858      0.008857817        -171.768                0               0                0               0
1.80921                0.9183533       -30.92403      0.009118341       -175.2049                0               0                0               0
1.81579                0.9156544       -31.26737      0.009391253       -178.6537                0               0                0               0
1.82237                0.9128725       -31.61603      0.009677229        177.8817                0               0                0               0
1.82895                0.9100041       -31.97022      0.009976902        174.3976                0               0                0               0
1.83553                0.9070458       -32.33013       0.01029086        170.8902                0               0                0               0
1.84211                0.9039934       -32.69597       0.01061964        167.3559                0               0                0               0
1.84868                0.9008424       -33.06795       0.01096371        163.7914                0               0                0               0
