! TOUCHSTONE file generated by CST MICROWAVE STUDIO
! Date and time: Tue Mar 11 13:57:52 2025
! Project name: transverse.cst
! Parameters = {Fracture=5; B=10; D=160; F=5; Feed=2.85625; L=100; M=20; R=0.384908; S=2; Theta=270; length=57.125; wave=114.25}
! Header version: 2024
! Port assignment regex: !\s*Touchstone port\s*([0-9]+)\s*=\s*(CST MWS port|CST DES external port|CST DES block port)\s*(.+)\s* \(\"(.*)\"\)(\s*mode\s*([0-9]+))?.*
! Touchstone port assignment:
! Touchstone port 1 = CST MWS port 1 ("")
! Touchstone port 2 = CST MWS port 2 ("")
# GHz S MA R 50
1                      0.9978516       -9.765259     0.0003388039       -134.1405                0               0                0               0
1.00658                 0.997751       -9.854159     0.0003567107       -138.5027                0               0                0               0
1.01316                0.9976433        -9.94336      0.000373987       -142.8962                0               0                0               0
1.01974                0.9975293       -10.03282     0.0003905484       -147.3048                0               0                0               0
1.02632                0.9974098       -10.12251     0.0004063162       -151.7144                0               0                0               0
1.03289                0.9972859       -10.21242     0.0004212188        -156.112                0               0                0               0
1.03947                0.9971587       -10.30252     0.0004351912       -160.4858                0               0                0               0
1.04605                0.9970294       -10.39283     0.0004481766       -164.8245                0               0                0               0
1.05263                0.9968991       -10.48336     0.0004601273       -169.1173                0               0                0               0
1.05921                 0.996769       -10.57413     0.0004710055       -173.3535                0               0                0               0
1.06579                0.9966401       -10.66519     0.0004807847       -177.5225                0               0                0               0
1.07237                0.9965134       -10.75658      0.000489451        178.3865                0               0                0               0
1.07895                0.9963898       -10.84836     0.0004970046        174.3846                0               0                0               0
1.08553                0.9962699       -10.94059     0.0005034613        170.4832                0               0                0               0
1.09211                0.9961543       -11.03336     0.0005088547         166.694                0               0                0               0
1.09868                0.9960433       -11.12674     0.0005132375         163.029                0               0                0               0
1.10526                0.9959371        -11.2208     0.0005166841        159.5007                0               0                0               0
1.11184                0.9958355       -11.31565     0.0005192923        156.1215                0               0                0               0
1.11842                0.9957384       -11.41135     0.0005211853        152.9039                0               0                0               0
1.125                  0.9956451         -11.508     0.0005225138        149.8596                0               0                0               0
1.13158                0.9955551       -11.60566     0.0005234574        146.9995                0               0                0               0
1.13816                0.9954673       -11.70442     0.0005242253        144.3327                0               0                0               0
1.14474                0.9953809       -11.80432     0.0005250565        141.8658                0               0                0               0
1.15132                0.9952947       -11.90542      0.000526218        139.6014                0               0                0               0
1.15789                0.9952072       -12.00777     0.0005280016        137.5378                0               0                0               0
1.16447                0.9951173        -12.1114     0.0005307182        135.6673                0               0                0               0
1.17105                0.9950235       -12.21632       0.00053469        133.9755                0               0                0               0
1.17763                0.9949245       -12.32254     0.0005402396        132.4405                0               0                0               0
1.18421                0.9948188       -12.43006     0.0005476779        131.0338                0               0                0               0
1.19079                0.9947053       -12.53887     0.0005572906        129.7203                0               0                0               0
1.19737                0.9945828       -12.64892     0.0005693245        128.4603                0               0                0               0
1.20395                  0.99445        -12.7602     0.0005839767        127.2119                0               0                0               0
1.21053                0.9943064       -12.87264     0.0006013859        125.9335                0               0                0               0
1.21711                 0.994151       -12.98622      0.000621629        124.5862                0               0                0               0
1.22368                0.9939835       -13.10085     0.0006447202        123.1365                0               0                0               0
1.23026                0.9938034        -13.2165     0.0006706164        121.5571                0               0                0               0
1.23684                0.9936108        -13.3331      0.000699223        119.8282                0               0                0               0
1.24342                0.9934057       -13.45059     0.0007304029        117.9371                0               0                0               0
1.25                   0.9931885       -13.56893     0.0007639859        115.8777                0               0                0               0
1.25658                0.9929598       -13.68806     0.0007997765        113.6494                0               0                0               0
1.26316                0.9927202       -13.80795     0.0008375625        111.2564                0               0                0               0
1.26974                0.9924707       -13.92857     0.0008771207        108.7061                0               0                0               0
1.27632                0.9922122       -14.04989     0.0009182228        106.0083                0               0                0               0
1.28289                0.9919458       -14.17193     0.0009606391        103.1744                0               0                0               0
1.28947                0.9916727       -14.29467      0.001004142        100.2169                0               0                0               0
1.29605                0.9913939       -14.41814      0.001048507        97.14838                0               0                0               0
1.30263                0.9911108       -14.54238      0.001093519         93.9816                0               0                0               0
1.30921                0.9908243       -14.66743      0.001138966        90.72905                0               0                0               0
1.31579                0.9905354       -14.79336      0.001184649        87.40285                0               0                0               0
1.32237                 0.990245       -14.92023      0.001230379        84.01462                0               0                0               0
1.32895                0.9899537       -15.04813      0.001275975        80.57544                0               0                0               0
1.33553                0.9896621       -15.17715      0.001321274        77.09585                0               0                0               0
1.34211                0.9893706       -15.30739      0.001366121        73.58587                0               0                0               0
1.34868                0.9890789       -15.43895      0.001410382          70.055                0               0                0               0
1.35526                0.9887871       -15.57194      0.001453936        66.51229                0               0                0               0
1.36184                0.9884947       -15.70646      0.001496682         62.9663                0               0                0               0
1.36842                 0.988201       -15.84263      0.001538536        59.42523                0               0                0               0
1.375                   0.987905       -15.98055       0.00157944        55.89687                0               0                0               0
1.38158                0.9876057        -16.1203      0.001619356        52.38862                0               0                0               0
1.38816                0.9873016       -16.26198      0.001658271        48.90756                0               0                0               0
1.39474                0.9869914       -16.40566      0.001696203        45.46037                0               0                0               0
1.40132                0.9866732       -16.55141      0.001733194        42.05336                0               0                0               0
1.40789                0.9863454       -16.69929      0.001769319        38.69244                0               0                0               0
1.41447                0.9860062       -16.84932      0.001804687        35.38304                0               0                0               0
1.42105                0.9856536       -17.00155      0.001839439         32.1301                0               0                0               0
1.42763                 0.985286       -17.15597      0.001873752        28.93794                0               0                0               0
1.43421                0.9849013       -17.31259      0.001907837        25.81023                0               0                0               0
1.44079                0.9844981        -17.4714      0.001941945        22.74985                0               0                0               0
1.44737                0.9840748       -17.63236       0.00197636        19.75876                0               0                0               0
1.45395                0.9836299       -17.79545      0.002011402        16.83794                0               0                0               0
1.46053                0.9831624       -17.96063      0.002047422        13.98725                0               0                0               0
1.46711                0.9826712       -18.12783      0.002084803        11.20532                0               0                0               0
1.47368                0.9821557       -18.29702      0.002123951        8.489485                0               0                0               0
1.48026                0.9816153       -18.46813      0.002165294        5.835742                0               0                0               0
1.48684                0.9810498       -18.64112      0.002209273         3.23873                0               0                0               0
1.49342                0.9804593       -18.81594      0.002256336       0.6917859                0               0                0               0
1.5                     0.979844       -18.99254      0.002306929       -1.812957                0               0                0               0
1.50658                0.9792043        -19.1709      0.002361489       -4.284401                0               0                0               0
1.51316                0.9785409       -19.35099      0.002420436       -6.732278                0               0                0               0
1.51974                0.9778545       -19.53281      0.002484161       -9.166874                0               0                0               0
1.52632                 0.977146       -19.71637      0.002553025       -11.59874                0               0                0               0
1.53289                0.9764165       -19.90168      0.002627346       -14.03838                0               0                0               0
1.53947                0.9756669        -20.0888      0.002707399       -16.49597                0               0                0               0
1.54605                0.9748981       -20.27778       0.00279341       -18.98102                0               0                0               0
1.55263                0.9741111        -20.4687      0.002885556       -21.50219                0               0                0               0
1.55921                0.9733066       -20.66166      0.002983962        -24.0671                0               0                0               0
1.56579                0.9724853       -20.85675      0.003088706       -26.68216                0               0                0               0
1.57237                0.9716474       -21.05412      0.003199819       -29.35255                0               0                0               0
1.57895                0.9707931        -21.2539       0.00331729       -32.08217                0               0                0               0
1.58553                0.9699224       -21.45623      0.003441067       -34.87369                0               0                0               0
1.59211                0.9690348       -21.66129      0.003571068       -37.72865                0               0                0               0
1.59868                0.9681292       -21.86922       0.00370718       -40.64751                0               0                0               0
1.60526                0.9672048       -22.08021      0.003849268       -43.62981                0               0                0               0
1.61184                0.9662599       -22.29441       0.00399718       -46.67429                0               0                0               0
1.61842                0.9652928         -22.512      0.004150749       -49.77902                0               0                0               0
1.625                  0.9643013       -22.73314      0.004309802       -52.94152                0               0                0               0
1.63158                0.9632826       -22.95796      0.004474161       -56.15889                0               0                0               0
1.63816                0.9622343       -23.18662      0.004643651        -59.4279                0               0                0               0
1.64474                0.9611532       -23.41923      0.004818099       -62.74512                0               0                0               0
1.65132                0.9600359        -23.6559      0.004997345       -66.10697                0               0                0               0
1.65789                0.9588794       -23.89673       0.00518124       -69.50979                0               0                0               0
1.66447                0.9576797       -24.14178      0.005369648       -72.94993                0               0                0               0
1.67105                0.9564336       -24.39112      0.005562456        -76.4238                0               0                0               0
1.67763                0.9551372       -24.64476      0.005759572       -79.92788                0               0                0               0
1.68421                0.9537873       -24.90274      0.005960928       -83.45878                0               0                0               0
1.69079                0.9523801       -25.16504      0.006166485       -87.01327                0               0                0               0
1.69737                0.9509126       -25.43165      0.006376233       -90.58829                0               0                0               0
1.70395                0.9493816       -25.70253      0.006590194       -94.18098                0               0                0               0
1.71053                0.9477842       -25.97763      0.006808424       -97.78872                0               0                0               0
1.71711                0.9461179       -26.25689      0.007031015       -101.4091                0               0                0               0
1.72368                0.9443803       -26.54026      0.007258096       -105.0399                0               0                0               0
1.73026                0.9425695       -26.82767      0.007489834       -108.6792                0               0                0               0
1.73684                0.9406837       -27.11904      0.007726434       -112.3255                0               0                0               0
1.74342                0.9387215       -27.41433      0.007968142       -115.9771                0               0                0               0
1.75                   0.9366817       -27.71346       0.00821524       -119.6332                0               0                0               0
1.75658                0.9345637        -28.0164       0.00846805       -123.2927                0               0                0               0
1.76316                0.9323667       -28.32311      0.008726933        -126.955                0               0                0               0
1.76974                0.9300902       -28.63358       0.00899228       -130.6199                0               0                0               0
1.77632                 0.927734       -28.94782      0.009264521       -134.2872                0               0                0               0
1.78289                0.9252979       -29.26585      0.009544114       -137.9572                0               0                0               0
1.78947                0.9227817       -29.58771      0.009831543       -141.6302                0               0                0               0
1.79605                0.9201851        -29.9135       0.01012732       -145.3069                0               0                0               0
1.80263                0.9175077        -30.2433       0.01043197       -148.9882                0               0                0               0
1.80921                0.9147491       -30.57723       0.01074603       -152.6751                0               0                0               0
1.81579                0.9119084       -30.91545       0.01107007       -156.3688                0               0                0               0
1.82237                0.9089845       -31.25812       0.01140463       -160.0708                0               0                0               0
1.82895                 0.905976       -31.60544       0.01175027       -163.7826                0               0                0               0
1.83553                0.9028809       -31.95762       0.01210754       -167.5057                0               0                0               0
1.84211                0.8996968       -32.31488       0.01247698        -171.242                0               0                0               0
1.84868                0.8964209       -32.67745       0.01285909        -174.993                0               0                0               0
