! TOUCHSTONE file generated by CST MICROWAVE STUDIO
! Date and time: Tue Mar 11 13:58:03 2025
! Project name: transverse.cst
! Parameters = {Fracture=1; B=12.5; D=160; F=5; Feed=2.85625; L=100; M=10; R=0.384908; S=1; Theta=270; length=57.125; wave=114.25}
! Header version: 2024
! Port assignment regex: !\s*Touchstone port\s*([0-9]+)\s*=\s*(CST MWS port|CST DES external port|CST DES block port)\s*(.+)\s* \(\"(.*)\"\)(\s*mode\s*([0-9]+))?.*
! Touchstone port assignment:
! Touchstone port 1 = CST MWS port 1 ("")
! Touchstone port 2 = CST MWS port 2 ("")
# GHz S MA R 50
1                      0.9978914       -10.00567     0.0002852918       -122.0693                0               0                0               0
1.00658                0.9978045       -10.09618     0.0003080321       -126.9014                0               0                0               0
1.01316                0.9977101       -10.18708     0.0003300319       -131.8172                0               0                0               0
1.01974                0.9976086       -10.27832     0.0003511613       -136.7899                0               0                0               0
1.02632                0.9975009       -10.36987     0.0003712947       -141.7988                0               0                0               0
1.03289                0.9973879       -10.46168     0.0003903108       -146.8271                0               0                0               0
1.03947                0.9972705       -10.55375     0.0004080927       -151.8609                0               0                0               0
1.04605                0.9971498       -10.64605     0.0004245284        -156.888                0               0                0               0
1.05263                0.9970269       -10.73859     0.0004395115       -161.8976                0               0                0               0
1.05921                0.9969029       -10.83139     0.0004529414       -166.8795                0               0                0               0
1.06579                 0.996779       -10.92446     0.0004647248       -171.8241                0               0                0               0
1.07237                0.9966563       -11.01784     0.0004747762       -176.7214                0               0                0               0
1.07895                0.9965356       -11.11158      0.000483019        178.4387                0               0                0               0
1.08553                0.9964179       -11.20574     0.0004893871        173.6671                0               0                0               0
1.09211                0.9963042       -11.30037     0.0004938258        168.9756                0               0                0               0
1.09868                0.9961947       -11.39556     0.0004962939        164.3773                0               0                0               0
1.10526                0.9960898       -11.49138     0.0004967655        159.8871                0               0                0               0
1.11184                0.9959899       -11.58792     0.0004952325        155.5221                0               0                0               0
1.11842                0.9958948       -11.68527     0.0004917074         151.302                0               0                0               0
1.125                  0.9958044       -11.78351     0.0004862271          147.25                0               0                0               0
1.13158                0.9957181       -11.88272     0.0004788571        143.3936                0               0                0               0
1.13816                0.9956353       -11.98299      0.000469698        139.7649                0               0                0               0
1.14474                0.9955552       -12.08439     0.0004588924        136.4024                0               0                0               0
1.15132                0.9954766       -12.18699     0.0004466347        133.3513                0               0                0               0
1.15789                0.9953985       -12.29085     0.0004331826        130.6646                0               0                0               0
1.16447                0.9953195       -12.39602     0.0004188731        128.4033                0               0                0               0
1.17105                0.9952382       -12.50254     0.0004041392        126.6356                0               0                0               0
1.17763                0.9951532       -12.61043     0.0003895301        125.4334                0               0                0               0
1.18421                 0.995063       -12.71971      0.000375729        124.8651                0               0                0               0
1.19079                 0.994966       -12.83037     0.0003635622        124.9823                0               0                0               0
1.19737                 0.994861       -12.94241     0.0003539886        125.7996                0               0                0               0
1.20395                0.9947465        -13.0558     0.0003480525        127.2701                0               0                0               0
1.21053                0.9946214       -13.17052     0.0003467894        129.2648                0               0                0               0
1.21711                0.9944844       -13.28651     0.0003510915        131.5703                0               0                0               0
1.22368                0.9943349       -13.40372     0.0003615691        133.9167                0               0                0               0
1.23026                0.9941721       -13.52211     0.0003784624        136.0306                0               0                0               0
1.23684                0.9939954        -13.6416     0.0004016425        137.6889                0               0                0               0
1.24342                0.9938046       -13.76215     0.0004306917        138.7511                0               0                0               0
1.25                   0.9935997       -13.88367     0.0004650199        139.1606                0               0                0               0
1.25658                0.9933807       -14.00612     0.0005039702        138.9259                0               0                0               0
1.26316                0.9931482       -14.12944     0.0005468919        138.0953                0               0                0               0
1.26974                0.9929027       -14.25359     0.0005931797        136.7364                0               0                0               0
1.27632                0.9926449       -14.37851     0.0006422889        134.9219                0               0                0               0
1.28289                0.9923758       -14.50418     0.0006937359        132.7213                0               0                0               0
1.28947                0.9920964       -14.63058     0.0007470926        130.1976                0               0                0               0
1.29605                0.9918078       -14.75771     0.0008019785        127.4055                0               0                0               0
1.30263                0.9915112       -14.88557     0.0008580538        124.3924                0               0                0               0
1.30921                0.9912078       -15.01418     0.0009150118        121.1983                0               0                0               0
1.31579                0.9908987       -15.14359      0.000972575        117.8574                0               0                0               0
1.32237                0.9905851       -15.27383      0.001030491        114.3987                0               0                0               0
1.32895                0.9902679       -15.40497       0.00108853        110.8469                0               0                0               0
1.33553                 0.989948       -15.53709      0.001146482        107.2232                0               0                0               0
1.34211                 0.989626       -15.67027       0.00120416        103.5461                0               0                0               0
1.34868                0.9893024       -15.80461      0.001261395        99.83168                0               0                0               0
1.35526                0.9889775        -15.9402       0.00131804        96.09406                0               0                0               0
1.36184                0.9886512       -16.07716      0.001373969        92.34581                0               0                0               0
1.36842                0.9883236       -16.21558       0.00142908        88.59817                0               0                0               0
1.375                  0.9879936       -16.35559      0.001483296        84.86128                0               0                0               0
1.38158                0.9876609       -16.49729      0.001536565        81.14431                0               0                0               0
1.38816                0.9873243       -16.64077      0.001588865        77.45563                0               0                0               0
1.39474                0.9869827       -16.78614      0.001640204        73.80285                0               0                0               0
1.40132                0.9866345       -16.93348      0.001690622         70.1929                0               0                0               0
1.40789                0.9862782       -17.08288      0.001740196        66.63203                0               0                0               0
1.41447                 0.985912       -17.23438      0.001789038        63.12579                0               0                0               0
1.42105                0.9855341       -17.38805        0.0018373        59.67906                0               0                0               0
1.42763                0.9851425       -17.54392      0.001885172        56.29594                0               0                0               0
1.43421                0.9847351       -17.70201      0.001932887        52.97971                0               0                0               0
1.44079                0.9843103       -17.86234      0.001980718        49.73274                0               0                0               0
1.44737                 0.983866       -18.02488      0.002028978        46.55639                0               0                0               0
1.45395                0.9834004       -18.18963      0.002078022        43.45095                0               0                0               0
1.46053                 0.982912       -18.35656      0.002128239         40.4155                0               0                0               0
1.46711                0.9823993       -18.52561      0.002180053        37.44789                0               0                0               0
1.47368                0.9818611       -18.69674      0.002233917        34.54463                0               0                0               0
1.48026                0.9812963       -18.86989      0.002290306        31.70093                0               0                0               0
1.48684                0.9807043       -19.04499       0.00234971        28.91072                0               0                0               0
1.49342                0.9800845       -19.22199      0.002412627        26.16671                0               0                0               0
1.5                    0.9794367       -19.40082      0.002479555        23.46052                0               0                0               0
1.50658                0.9787609       -19.58143      0.002550978        20.78291                0               0                0               0
1.51316                0.9780575       -19.76376      0.002627362        18.12399                0               0                0               0
1.51974                0.9773268       -19.94777      0.002709144        15.47346                0               0                0               0
1.52632                0.9765699       -20.13343      0.002796725        12.82098                0               0                0               0
1.53289                0.9757873       -20.32073       0.00289046        10.15637                0               0                0               0
1.53947                0.9749802       -20.50966      0.002990656        7.469974                0               0                0               0
1.54605                0.9741497       -20.70024      0.003097566        4.752847                0               0                0               0
1.55263                0.9732969        -20.8925      0.003211389        1.996985                0               0                0               0
1.55921                 0.972423        -21.0865      0.003332268      -0.8045286                0               0                0               0
1.56579                0.9715289       -21.28232       0.00346029       -3.657436                0               0                0               0
1.57237                0.9706159       -21.48003      0.003595491        -6.56626                0               0                0               0
1.57895                0.9696844       -21.67976      0.003737855        -9.53432                0               0                0               0
1.58553                0.9687352       -21.88163      0.003887325       -12.56378                0               0                0               0
1.59211                0.9677686       -22.08577      0.004043799       -15.65572                0               0                0               0
1.59868                0.9667845       -22.29235      0.004207142       -18.81028                0               0                0               0
1.60526                0.9657828       -22.50152      0.004377188       -22.02673                0               0                0               0
1.61184                0.9647628       -22.71345      0.004553746       -25.30361                0               0                0               0
1.61842                0.9637232       -22.92833      0.004736602       -28.63886                0               0                0               0
1.625                  0.9626629       -23.14632      0.004925528       -32.02995                0               0                0               0
1.63158                0.9615803        -23.3676      0.005120287       -35.47393                0               0                0               0
1.63816                0.9604728       -23.59234       0.00532063       -38.96757                0               0                0               0
1.64474                0.9593383       -23.82069      0.005526311       -42.50747                0               0                0               0
1.65132                 0.958174       -24.05282      0.005737084       -46.09006                0               0                0               0
1.65789                0.9569766       -24.28883      0.005952705       -49.71171                0               0                0               0
1.66447                0.9557432       -24.52887      0.006172945       -53.36878                0               0                0               0
1.67105                  0.95447       -24.77302      0.006397583       -57.05766                0               0                0               0
1.67763                0.9531534       -25.02136      0.006626417        -60.7748                0               0                0               0
1.68421                0.9517898       -25.27395      0.006859263       -64.51673                0               0                0               0
1.69079                0.9503757       -25.53083      0.007095962       -68.28011                0               0                0               0
1.69737                 0.948907       -25.79201      0.007336378       -72.06172                0               0                0               0
1.70395                0.9473805       -26.05749      0.007580407       -75.85852                0               0                0               0
1.71053                0.9457924       -26.32726      0.007827975        -79.6676                0               0                0               0
1.71711                  0.94414       -26.60125      0.008079044       -83.48625                0               0                0               0
1.72368                0.9424198       -26.87943      0.008333612       -87.31195                0               0                0               0
1.73026                0.9406296       -27.16172      0.008591717       -91.14237                0               0                0               0
1.73684                0.9387667       -27.44806      0.008853438       -94.97536                0               0                0               0
1.74342                0.9368291       -27.73835        0.0091189       -98.80903                0               0                0               0
1.75                   0.9348153       -28.03252      0.009388269       -102.6417                0               0                0               0
1.75658                0.9327237       -28.33049      0.009661761       -106.4718                0               0                0               0
1.76316                0.9305534       -28.63218      0.009939637       -110.2983                0               0                0               0
1.76974                 0.928304       -28.93754       0.01022221       -114.1199                0               0                0               0
1.77632                0.9259746       -29.24651       0.01050982       -117.9361                0               0                0               0
1.78289                0.9235654       -29.55907       0.01080288       -121.7463                0               0                0               0
1.78947                0.9210765       -29.87519       0.01110184       -125.5503                0               0                0               0
1.79605                0.9185077       -30.19492       0.01140718       -129.3479                0               0                0               0
1.80263                0.9158595       -30.51827       0.01171942       -133.1394                0               0                0               0
1.80921                0.9131323       -30.84532       0.01203913       -136.9254                0               0                0               0
1.81579                 0.910326       -31.17616       0.01236691       -140.7064                0               0                0               0
1.82237                0.9074407       -31.51092       0.01270337       -144.4835                0               0                0               0
1.82895                0.9044761       -31.84977       0.01304915       -148.2576                0               0                0               0
1.83553                0.9014319       -32.19288       0.01340493       -152.0302                0               0                0               0
1.84211                 0.898307       -32.54047       0.01377136       -155.8028                0               0                0               0
1.84868                0.8951002       -32.89277       0.01414911        -159.577                0               0                0               0
