! TOUCHSTONE file generated by CST MICROWAVE STUDIO
! Date and time: Tue Mar 11 13:58:26 2025
! Project name: transverse.cst
! Parameters = {Fracture=5; B=12.5; D=160; F=25; Feed=2.85625; L=100; M=30; R=0.384908; S=1; Theta=270; length=57.125; wave=114.25}
! Header version: 2024
! Port assignment regex: !\s*Touchstone port\s*([0-9]+)\s*=\s*(CST MWS port|CST DES external port|CST DES block port)\s*(.+)\s* \(\"(.*)\"\)(\s*mode\s*([0-9]+))?.*
! Touchstone port assignment:
! Touchstone port 1 = CST MWS port 1 ("")
! Touchstone port 2 = CST MWS port 2 ("")
# GHz S MA R 50
1                      0.9975279       -9.759736     0.0005417703        165.2443                0               0                0               0
1.0066                 0.9974644       -9.845645     0.0005382047        159.1405                0               0                0               0
1.0132                 0.9974038       -9.932269     0.0005324153        153.1439                0               0                0               0
1.0198                 0.9973458       -10.01967     0.0005243633         147.263                0               0                0               0
1.0264                 0.9972895       -10.10789     0.0005140226        141.5092                0               0                0               0
1.033                  0.9972343       -10.19699     0.0005013818        135.8977                0               0                0               0
1.0396                 0.9971794         -10.287     0.0004864465        130.4485                0               0                0               0
1.0462                 0.9971239       -10.37796     0.0004692427        125.1878                0               0                0               0
1.05281                0.9970666       -10.46989     0.0004498211        120.1504                0               0                0               0
1.05941                0.9970067       -10.56282     0.0004282648        115.3828                0               0                0               0
1.06601                0.9969429       -10.65674     0.0004046986        110.9478                0               0                0               0
1.07261                0.9968745       -10.75166     0.0003793052        106.9311                0               0                0               0
1.07921                0.9968002       -10.84756     0.0003523497        103.4518                0               0                0               0
1.08581                0.9967194       -10.94444     0.0003242192        100.6767                0               0                0               0
1.09241                0.9966309       -11.04225      0.000295488        98.84051                0               0                0               0
1.09901                0.9965344       -11.14098     0.0002670229        98.26929                0               0                0               0
1.10561                0.9964289       -11.24057     0.0002401456        99.39212                0               0                0               0
1.11221                0.9963142         -11.341     0.0002168462        102.6913                0               0                0               0
1.11881                  0.99619       -11.44221     0.0001999226         108.478                0               0                0               0
1.12541                 0.996056       -11.54416     0.0001926674        116.4106                0               0                0               0
1.13201                0.9959124       -11.64681     0.0001976849        125.1235                0               0                0               0
1.13861                0.9957593       -11.75011     0.0002154747         132.777                0               0                0               0
1.14521                0.9955971       -11.85402     0.0002443954        138.1921                0               0                0               0
1.15182                0.9954262       -11.95851     0.0002819599        141.1932                0               0                0               0
1.15842                0.9952473       -12.06356     0.0003259212        142.1536                0               0                0               0
1.16502                0.9950611       -12.16913     0.0003745985        141.5563                0               0                0               0
1.17162                0.9948682       -12.27522     0.0004268054        139.8123                0               0                0               0
1.17822                0.9946697       -12.38183     0.0004816995        137.2298                0               0                0               0
1.18482                0.9944662       -12.48896       0.00053866          134.03                0               0                0               0
1.19142                0.9942588       -12.59663     0.0005972058        130.3706                0               0                0               0
1.19802                0.9940483       -12.70487     0.0006569448        126.3649                0               0                0               0
1.20462                0.9938356       -12.81371     0.0007175418        122.0952                0               0                0               0
1.21122                 0.993621       -12.92319     0.0007786981        117.6228                0               0                0               0
1.21782                0.9934057       -13.03338     0.0008401407        112.9937                0               0                0               0
1.22442                0.9931898       -13.14433     0.0009016133        108.2432                0               0                0               0
1.23102                0.9929738        -13.2561     0.0009628719        103.3988                0               0                0               0
1.23762                0.9927577       -13.36877      0.001023682        98.48256                0               0                0               0
1.24422                0.9925416       -13.48242      0.001083815        93.51215                0               0                0               0
1.25083                0.9923254       -13.59711      0.001143052        88.50217                0               0                0               0
1.25743                0.9921088       -13.71292      0.001201178        83.46482                0               0                0               0
1.26403                0.9918912       -13.82992      0.001257985        78.41051                0               0                0               0
1.27063                0.9916719       -13.94818      0.001313271        73.34828                0               0                0               0
1.27723                  0.99145       -14.06777      0.001366843        68.28614                0               0                0               0
1.28383                0.9912247       -14.18874      0.001418517        63.23129                0               0                0               0
1.29043                0.9909947       -14.31114      0.001468115        58.19036                0               0                0               0
1.29703                0.9907591       -14.43501      0.001515474        53.16956                0               0                0               0
1.30363                0.9905165       -14.56038      0.001560441         48.1748                0               0                0               0
1.31023                0.9902657       -14.68727      0.001602877        43.21182                0               0                0               0
1.31683                0.9900055       -14.81569      0.001642659        38.28625                0               0                0               0
1.32343                0.9897345       -14.94564      0.001679679        33.40373                0               0                0               0
1.33003                0.9894518       -15.07712      0.001713852        28.56993                0               0                0               0
1.33663                0.9891561        -15.2101      0.001745111        23.79066                0               0                0               0
1.34323                0.9888465       -15.34457      0.001773415        19.07186                0               0                0               0
1.34984                0.9885223       -15.48048      0.001798748        14.41969                0               0                0               0
1.35644                0.9881826       -15.61781      0.001821123        9.840518                0               0                0               0
1.36304                0.9878272       -15.75651      0.001840585        5.340966                0               0                0               0
1.36964                0.9874554       -15.89654      0.001857213          0.9279                0               0                0               0
1.37624                0.9870674       -16.03787      0.001871126       -3.391582                0               0                0               0
1.38284                0.9866631       -16.18044      0.001882483       -7.610193                0               0                0               0
1.38944                0.9862427       -16.32423      0.001891488       -11.72052                0               0                0               0
1.39604                0.9858067       -16.46921      0.001898393       -15.71513                0               0                0               0
1.40264                0.9853553       -16.61535        0.0019035       -19.58671                0               0                0               0
1.40924                0.9848897       -16.76264       0.00190717       -23.32831                0               0                0               0
1.41584                0.9844101       -16.91109      0.001909815       -26.93354                0               0                0               0
1.42244                0.9839174       -17.06068      0.001911906       -30.39693                0               0                0               0
1.42904                0.9834127       -17.21146      0.001913974       -33.71436                0               0                0               0
1.43564                0.9828968       -17.36344      0.001916601       -36.88345                0               0                0               0
1.44224                0.9823704       -17.51667      0.001920422       -39.90412                0               0                0               0
1.44884                0.9818344       -17.67122      0.001926114       -42.77905                0               0                0               0
1.45545                0.9812891       -17.82714      0.001934385       -45.51418                0               0                0               0
1.46205                0.9807354       -17.98453      0.001945962       -48.11907                0               0                0               0
1.46865                0.9801734       -18.14346      0.001961569       -50.60715                0               0                0               0
1.47525                0.9796034       -18.30403      0.001981912       -52.99559                0               0                0               0
1.48185                0.9790255       -18.46636      0.002007648        -55.3051                0               0                0               0
1.48845                 0.978439       -18.63053      0.002039372       -57.55921                0               0                0               0
1.49505                0.9778439       -18.79668      0.002077591       -59.78339                0               0                0               0
1.50165                0.9772389       -18.96489      0.002122706       -62.00394                0               0                0               0
1.50825                0.9766235       -19.13529      0.002175004       -64.24675                0               0                0               0
1.51485                0.9759964       -19.30797       0.00223465       -66.53616                0               0                0               0
1.52145                0.9753562       -19.48303      0.002301685       -68.89395                0               0                0               0
1.52805                0.9747014       -19.66056      0.002376036       -71.33858                0               0                0               0
1.53465                0.9740298       -19.84064      0.002457521       -73.88476                0               0                0               0
1.54125                  0.97334       -20.02334      0.002545868       -76.54334                0               0                0               0
1.54785                  0.97263       -20.20871      0.002640725       -79.32137                0               0                0               0
1.55446                0.9718975       -20.39679      0.002741679       -82.22246                0               0                0               0
1.56106                0.9711406       -20.58762      0.002848266       -85.24722                0               0                0               0
1.56766                0.9703575        -20.7812      0.002959989       -88.39377                0               0                0               0
1.57426                0.9695459       -20.97753      0.003076325       -91.65821                0               0                0               0
1.58086                0.9687042       -21.17662      0.003196739       -95.03514                0               0                0               0
1.58746                0.9678305       -21.37843      0.003320685       -98.51806                0               0                0               0
1.59406                0.9669236       -21.58294      0.003447622       -102.0997                0               0                0               0
1.60066                 0.965982        -21.7901      0.003577008       -105.7724                0               0                0               0
1.60726                0.9650045       -21.99987      0.003708315       -109.5282                0               0                0               0
1.61386                0.9639904       -22.21222      0.003841024       -113.3592                0               0                0               0
1.62046                0.9629392       -22.42707      0.003974634       -117.2574                0               0                0               0
1.62706                0.9618506        -22.6444      0.004108658       -121.2151                0               0                0               0
1.63366                0.9607243       -22.86417      0.004242633       -125.2247                0               0                0               0
1.64026                0.9595607       -23.08635      0.004376116        -129.279                0               0                0               0
1.64686                0.9583602       -23.31091      0.004508688       -133.3709                0               0                0               0
1.65347                0.9571233       -23.53786      0.004639958       -137.4937                0               0                0               0
1.66007                0.9558508        -23.7672      0.004769564       -141.6409                0               0                0               0
1.66667                0.9545436       -23.99896      0.004897175       -145.8063                0               0                0               0
1.67327                0.9532027       -24.23318      0.005022494       -149.9838                0               0                0               0
1.67987                0.9518288       -24.46995      0.005145262       -154.1677                0               0                0               0
1.68647                0.9504232       -24.70935      0.005265261       -158.3524                0               0                0               0
1.69307                0.9489863        -24.9515      0.005382315       -162.5326                0               0                0               0
1.69967                0.9475193       -25.19653      0.005496296       -166.7029                0               0                0               0
1.70627                0.9460223        -25.4446      0.005607125       -170.8584                0               0                0               0
1.71287                0.9444959       -25.69588       0.00571478       -174.9943                0               0                0               0
1.71947                0.9429398       -25.95057      0.005819294       -179.1059                0               0                0               0
1.72607                0.9413536       -26.20888      0.005920765        176.8112                0               0                0               0
1.73267                0.9397366       -26.47104      0.006019355        172.7614                0               0                0               0
1.73927                0.9380877       -26.73729      0.006115296        168.7487                0               0                0               0
1.74587                0.9364051       -27.00786      0.006208894        164.7768                0               0                0               0
1.75248                0.9346869       -27.28301       0.00630053        160.8493                0               0                0               0
1.75908                0.9329306       -27.56299      0.006390664        156.9691                0               0                0               0
1.76568                0.9311332       -27.84804      0.006479838         153.139                0               0                0               0
1.77228                0.9292915        -28.1384      0.006568676        149.3611                0               0                0               0
1.77888                0.9274014        -28.4343       0.00665788        145.6372                0               0                0               0
1.78548                 0.925459       -28.73596      0.006748236        141.9681                0               0                0               0
1.79208                0.9234598       -29.04358      0.006840605        138.3541                0               0                0               0
1.79868                0.9213991       -29.35735      0.006935922        134.7947                0               0                0               0
1.80528                0.9192718       -29.67743      0.007035184        131.2884                0               0                0               0
1.81188                 0.917073       -30.00396      0.007139445        127.8329                0               0                0               0
1.81848                0.9147971       -30.33708      0.007249803        124.4248                0               0                0               0
1.82508                0.9124391       -30.67688      0.007367387        121.0599                0               0                0               0
1.83168                0.9099934       -31.02343      0.007493338        117.7327                0               0                0               0
1.83828                0.9074551        -31.3768      0.007628799         114.437                0               0                0               0
1.84488                 0.904819       -31.73704      0.007774888        111.1659                0               0                0               0
1.85149                0.9020799       -32.10417      0.007932686        107.9114                0               0                0               0
