! TOUCHSTONE file generated by CST MICROWAVE STUDIO
! Date and time: Tue Mar 11 13:56:43 2025
! Project name: transverse.cst
! Parameters = {Fracture=5; B=10; D=160; F=25; Feed=2.85625; L=100; M=20; R=0.384908; S=2; Theta=90; length=57.125; wave=114.25}
! Header version: 2024
! Port assignment regex: !\s*Touchstone port\s*([0-9]+)\s*=\s*(CST MWS port|CST DES external port|CST DES block port)\s*(.+)\s* \(\"(.*)\"\)(\s*mode\s*([0-9]+))?.*
! Touchstone port assignment:
! Touchstone port 1 = CST MWS port 1 ("")
! Touchstone port 2 = CST MWS port 2 ("")
# GHz S MA R 50
1                      0.9976291       -9.755251     0.0004651414        176.1521                0               0                0               0
1.00658                0.9975572       -9.841926     0.0004642192        171.2962                0               0                0               0
1.01316                0.9974857       -9.929247     0.0004618504        166.5876                0               0                0               0
1.01974                0.9974142       -10.01725     0.0004580712        162.0419                0               0                0               0
1.02632                0.9973425       -10.10596     0.0004529378        157.6775                0               0                0               0
1.03289                  0.99727       -10.19542     0.0004465304        153.5157                0               0                0               0
1.03947                0.9971964       -10.28564     0.0004389568        149.5814                0               0                0               0
1.04605                0.9971212       -10.37666     0.0004303579        145.9027                0               0                0               0
1.05263                0.9970437       -10.46848      0.000420913        142.5118                0               0                0               0
1.05921                0.9969635       -10.56113     0.0004108467         139.444                0               0                0               0
1.06579                0.9968799       -10.65461     0.0004004362         136.737                0               0                0               0
1.07237                0.9967926       -10.74894     0.0003900187        134.4292                0               0                0               0
1.07895                0.9967007        -10.8441      0.000379997        132.5562                0               0                0               0
1.08553                0.9966037        -10.9401     0.0003708424        131.1453                0               0                0               0
1.09211                0.9965012       -11.03693     0.0003630909        130.2088                0               0                0               0
1.09868                0.9963928       -11.13457     0.0003573277        129.7343                0               0                0               0
1.10526                0.9962778       -11.23303     0.0003541582        129.6766                0               0                0               0
1.11184                0.9961564       -11.33227     0.0003541639        129.9521                0               0                0               0
1.11842                 0.996028       -11.43228     0.0003578473        130.4404                0               0                0               0
1.125                  0.9958924       -11.53304      0.000365578        130.9958                0               0                0               0
1.13158                0.9957497       -11.63453     0.0003775552        131.4664                0               0                0               0
1.13816                0.9955999       -11.73674     0.0003937968        131.7145                0               0                0               0
1.14474                0.9954429       -11.83964     0.0004141569        131.6342                0               0                0               0
1.15132                0.9952789       -11.94322     0.0004383636        131.1575                0               0                0               0
1.15789                0.9951082       -12.04748     0.0004660643        130.2538                0               0                0               0
1.16447                 0.994931       -12.15239     0.0004968651        128.9222                0               0                0               0
1.17105                0.9947478       -12.25796     0.0005303626        127.1828                0               0                0               0
1.17763                0.9945587       -12.36419     0.0005661624        125.0678                0               0                0               0
1.18421                0.9943641       -12.47108     0.0006038905        122.6154                0               0                0               0
1.19079                0.9941647       -12.57863     0.0006431978        119.8651                0               0                0               0
1.19737                0.9939605       -12.68687     0.0006837596        116.8553                0               0                0               0
1.20395                0.9937522       -12.79581     0.0007252752        113.6216                0               0                0               0
1.21053                0.9935399       -12.90548     0.0007674654         110.196                0               0                0               0
1.21711                 0.993324        -13.0159     0.0008100696        106.6073                0               0                0               0
1.22368                0.9931048        -13.1271     0.0008528437         102.881                0               0                0               0
1.23026                0.9928824       -13.23913     0.0008955584        99.03941                0               0                0               0
1.23684                 0.992657       -13.35202     0.0009379978        95.10243                0               0                0               0
1.24342                0.9924285        -13.4658     0.0009799579        91.08753                0               0                0               0
1.25                   0.9921971       -13.58053      0.001021247        87.01029                0               0                0               0
1.25658                0.9919624       -13.69623      0.001061684        82.88464                0               0                0               0
1.26316                0.9917243       -13.81296      0.001101099        78.72317                0               0                0               0
1.26974                0.9914827       -13.93076      0.001139335        74.53732                0               0                0               0
1.27632                 0.991237       -14.04966      0.001176245        70.33764                0               0                0               0
1.28289                0.9909868       -14.16969      0.001211699         66.1339                0               0                0               0
1.28947                0.9907316        -14.2909      0.001245576        61.93534                0               0                0               0
1.29605                0.9904712       -14.41331      0.001277774        57.75068                0               0                0               0
1.30263                0.9902046       -14.53694      0.001308207        53.58834                0               0                0               0
1.30921                0.9899315       -14.66182      0.001336805        49.45646                0               0                0               0
1.31579                0.9896513       -14.78797      0.001363521        45.36302                0               0                0               0
1.32237                0.9893634        -14.9154      0.001388329        41.31586                0               0                0               0
1.32895                0.9890672       -15.04411      0.001411224        37.32279                0               0                0               0
1.33553                0.9887622       -15.17412      0.001432232        33.39153                0               0                0               0
1.34211                 0.988448       -15.30542      0.001451403        29.52977                0               0                0               0
1.34868                0.9881243       -15.43802      0.001468821        25.74516                0               0                0               0
1.35526                0.9877906       -15.57191      0.001484602        22.04524                0               0                0               0
1.36184                0.9874468       -15.70709        0.0014989        18.43736                0               0                0               0
1.36842                0.9870927       -15.84356      0.001511903        14.92861                0               0                0               0
1.375                  0.9867281       -15.98131      0.001523844        11.52562                0               0                0               0
1.38158                0.9863532       -16.12034      0.001534997        8.234427                0               0                0               0
1.38816                 0.985968       -16.26066      0.001545678        5.060156                0               0                0               0
1.39474                0.9855726       -16.40227      0.001556248          2.0068                0               0                0               0
1.40132                0.9851674       -16.54518       0.00156711      -0.9231496                0               0                0               0
1.40789                0.9847526        -16.6894      0.001578708       -3.729037                0               0                0               0
1.41447                0.9843284       -16.83495      0.001591521       -6.412415                0               0                0               0
1.42105                0.9838955       -16.98186      0.001606061       -8.977377                0               0                0               0
1.42763                 0.983454       -17.13017      0.001622856       -11.43082                0               0                0               0
1.43421                0.9830045       -17.27991      0.001642449       -13.78264                0               0                0               0
1.44079                0.9825469       -17.43114      0.001665379        -16.0457                0               0                0               0
1.44737                0.9820821       -17.58391      0.001692171       -18.23567                0               0                0               0
1.45395                0.9816099       -17.73828      0.001723317       -20.37064                0               0                0               0
1.46053                0.9811307       -17.89433      0.001759265       -22.47054                0               0                0               0
1.46711                0.9806444       -18.05211      0.001800404       -24.55636                0               0                0               0
1.47368                0.9801511       -18.21173      0.001847056       -26.64932                0               0                0               0
1.48026                0.9796506       -18.37326      0.001899465       -28.76995                0               0                0               0
1.48684                0.9791426        -18.5368      0.001957795       -30.93736                0               0                0               0
1.49342                0.9786267       -18.70243       0.00202213       -33.16847                0               0                0               0
1.5                    0.9781022       -18.87025      0.002092478       -35.47761                0               0                0               0
1.50658                0.9775686       -19.04034      0.002168774       -37.87615                0               0                0               0
1.51316                0.9770249       -19.21282      0.002250887       -40.37252                0               0                0               0
1.51974                0.9764702       -19.38776      0.002338635       -42.97224                0               0                0               0
1.52632                0.9759032       -19.56525      0.002431787       -45.67818                0               0                0               0
1.53289                0.9753228       -19.74539      0.002530077       -48.49086                0               0                0               0
1.53947                0.9747275       -19.92824       0.00263321       -51.40883                0               0                0               0
1.54605                0.9741159       -20.11388      0.002740869       -54.42902                0               0                0               0
1.55263                0.9734865       -20.30239      0.002852725        -57.5471                0               0                0               0
1.55921                0.9728376       -20.49382      0.002968441        -60.7578                0               0                0               0
1.56579                0.9721677       -20.68823      0.003087677        -64.0552                0               0                0               0
1.57237                0.9714752       -20.88566      0.003210093       -67.43293                0               0                0               0
1.57895                0.9707583       -21.08616      0.003335357       -70.88438                0               0                0               0
1.58553                0.9700154       -21.28977      0.003463143       -74.40287                0               0                0               0
1.59211                 0.969245       -21.49651      0.003593136       -77.98171                0               0                0               0
1.59868                0.9684456       -21.70641      0.003725038       -81.61434                0               0                0               0
1.60526                0.9676158       -21.91949      0.003858563       -85.29436                0               0                0               0
1.61184                 0.966754       -22.13578      0.003993447       -89.01559                0               0                0               0
1.61842                0.9658592       -22.35528      0.004129444       -92.77209                0               0                0               0
1.625                  0.9649302       -22.57801      0.004266334       -96.55815                0               0                0               0
1.63158                0.9639658         -22.804      0.004403918       -100.3684                0               0                0               0
1.63816                0.9629651       -23.03326      0.004542029       -104.1976                0               0                0               0
1.64474                0.9619274       -23.26581      0.004680525        -108.041                0               0                0               0
1.65132                0.9608516       -23.50168      0.004819299        -111.894                0               0                0               0
1.65789                0.9597372       -23.74092      0.004958277       -115.7523                0               0                0               0
1.66447                0.9585836       -23.98355       0.00509742       -119.6118                0               0                0               0
1.67105                0.9573902       -24.22963       0.00523673       -123.4688                0               0                0               0
1.67763                0.9561563       -24.47922      0.005376246       -127.3199                0               0                0               0
1.68421                0.9548814       -24.73239      0.005516053       -131.1618                0               0                0               0
1.69079                0.9535648       -24.98923      0.005656278       -134.9918                0               0                0               0
1.69737                 0.952206       -25.24981      0.005797092       -138.8074                0               0                0               0
1.70395                0.9508043       -25.51425      0.005938717       -142.6062                0               0                0               0
1.71053                0.9493588       -25.78265      0.006081418       -146.3864                0               0                0               0
1.71711                0.9478686       -26.05515      0.006225514       -150.1466                0               0                0               0
1.72368                0.9463326       -26.33189      0.006371362       -153.8856                0               0                0               0
1.73026                0.9447494       -26.61299      0.006519375       -157.6026                0               0                0               0
1.73684                0.9431177       -26.89863      0.006670008       -161.2974                0               0                0               0
1.74342                0.9414357       -27.18895      0.006823758       -164.9701                0               0                0               0
1.75                   0.9397017       -27.48414      0.006981164       -168.6212                0               0                0               0
1.75658                0.9379133       -27.78436        0.0071428       -172.2517                0               0                0               0
1.76316                0.9360684       -28.08979      0.007309275        -175.863                0               0                0               0
1.76974                0.9341642       -28.40062       0.00748122       -179.4569                0               0                0               0
1.77632                0.9321978       -28.71704      0.007659288        176.9643                0               0                0               0
1.78289                0.9301661       -29.03923      0.007844147        173.3979                0               0                0               0
1.78947                0.9280655       -29.36736      0.008036468        169.8409                0               0                0               0
1.79605                0.9258926       -29.70163      0.008236924          166.29                0               0                0               0
1.80263                0.9236435       -30.04222      0.008446176        162.7417                0               0                0               0
1.80921                0.9213139       -30.38931      0.008664865        159.1922                0               0                0               0
1.81579                0.9188996       -30.74306       0.00889361        155.6374                0               0                0               0
1.82237                 0.916396       -31.10364      0.009132993        152.0735                0               0                0               0
1.82895                0.9137984       -31.47122      0.009383558        148.4963                0               0                0               0
1.83553                0.9111018       -31.84594      0.009645797         144.902                0               0                0               0
1.84211                0.9083012       -32.22797      0.009920154        141.2867                0               0                0               0
1.84868                0.9053912       -32.61744       0.01020701        137.6468                0               0                0               0
