! TOUCHSTONE file generated by CST MICROWAVE STUDIO
! Date and time: Tue Mar 11 13:56:39 2025
! Project name: transverse.cst
! Parameters = {Fracture=5; B=10; D=160; F=15; Feed=2.85625; L=100; M=30; R=0.384908; S=1; Theta=90; length=57.125; wave=114.25}
! Header version: 2024
! Port assignment regex: !\s*Touchstone port\s*([0-9]+)\s*=\s*(CST MWS port|CST DES external port|CST DES block port)\s*(.+)\s* \(\"(.*)\"\)(\s*mode\s*([0-9]+))?.*
! Touchstone port assignment:
! Touchstone port 1 = CST MWS port 1 ("")
! Touchstone port 2 = CST MWS port 2 ("")
# GHz S MA R 50
1                      0.9975069       -9.754999     0.0005024486        178.2429                0               0                0               0
1.00658                0.9974249       -9.840771      0.000500294        172.3259                0               0                0               0
1.01316                0.9973446       -9.927068     0.0004959997        166.4998                0               0                0               0
1.01974                0.9972665       -10.01393     0.0004895174        160.7718                0               0                0               0
1.02632                0.9971902       -10.10142     0.0004808096        155.1516                0               0                0               0
1.03289                0.9971157       -10.18957     0.0004698504        149.6521                0               0                0               0
1.03947                0.9970426       -10.27844     0.0004566277        144.2902                0               0                0               0
1.04605                0.9969708       -10.36807     0.0004411458        139.0883                0               0                0               0
1.05263                0.9968995        -10.4585     0.0004234281        134.0762                0               0                0               0
1.05921                0.9968283       -10.54978     0.0004035224        129.2939                0               0                0               0
1.06579                0.9967563       -10.64193     0.0003815082         124.796                0               0                0               0
1.07237                0.9966832       -10.73498      0.000357508        120.6579                0               0                0               0
1.07895                0.9966077       -10.82896     0.0003317051        116.9863                0               0                0               0
1.08553                0.9965294       -10.92387      0.000304374        113.9349                0               0                0               0
1.09211                0.9964474       -11.01974     0.0002759319        111.7293                0               0                0               0
1.09868                0.9963607       -11.11655      0.000247029        110.7038                0               0                0               0
1.10526                0.9962687       -11.21431     0.0002187079        111.3494                0               0                0               0
1.11184                0.9961706       -11.31299     0.0001926678        114.3388                0               0                0               0
1.11842                0.9960658       -11.41259     0.0001716128        120.3977                0               0                0               0
1.125                  0.9959536       -11.51308     0.0001593485        129.7191                0               0                0               0
1.13158                0.9958335       -11.61442     0.0001597141        140.9564                0               0                0               0
1.13816                0.9957055        -11.7166     0.0001742229        151.3633                0               0                0               0
1.14474                 0.995569       -11.81958     0.0002011443        158.8701                0               0                0               0
1.15132                0.9954239       -11.92331     0.0002373342         163.155                0               0                0               0
1.15789                0.9952705       -12.02778     0.0002800423         164.835                0               0                0               0
1.16447                0.9951087       -12.13294     0.0003273609        164.6382                0               0                0               0
1.17105                 0.994939       -12.23877     0.0003780397        163.1309                0               0                0               0
1.17763                0.9947615       -12.34525     0.0004312411        160.7059                0               0                0               0
1.18421                 0.994577       -12.45234     0.0004863714        157.6288                0               0                0               0
1.19079                 0.994386       -12.56005     0.0005429804          154.08                0               0                0               0
1.19737                0.9941891       -12.66835     0.0006007042        150.1843                0               0                0               0
1.20395                0.9939871       -12.77727     0.0006592311          146.03                0               0                0               0
1.21053                 0.993781       -12.88679     0.0007182822        141.6809                0               0                0               0
1.21711                0.9935712       -12.99695     0.0007775996        137.1844                0               0                0               0
1.22368                0.9933584       -13.10777     0.0008369393        132.5762                0               0                0               0
1.23026                0.9931438       -13.21929     0.0008960676        127.8841                0               0                0               0
1.23684                0.9929274       -13.33154     0.0009547573        123.1299                0               0                0               0
1.24342                0.9927103       -13.44459      0.001012788        118.3312                0               0                0               0
1.25                   0.9924927        -13.5585      0.001069944        113.5025                0               0                0               0
1.25658                0.9922749       -13.67331      0.001126016        108.6561                0               0                0               0
1.26316                 0.992057       -13.78912        0.0011808        103.8023                0               0                0               0
1.26974                0.9918391       -13.90598        0.0012341        98.95037                0               0                0               0
1.27632                0.9916211       -14.02397      0.001285728        94.10856                0               0                0               0
1.28289                0.9914026       -14.14317      0.001335503        89.28439                0               0                0               0
1.28947                0.9911832       -14.26365      0.001383259        84.48491                0               0                0               0
1.29605                0.9909623       -14.38548      0.001428838        79.71686                0               0                0               0
1.30263                0.9907391       -14.50872        0.0014721        74.98676                0               0                0               0
1.30921                0.9905125       -14.63344      0.001512919        70.30106                0               0                0               0
1.31579                0.9902816       -14.75969      0.001551191        65.66623                0               0                0               0
1.32237                0.9900455       -14.88751       0.00158683        61.08877                0               0                0               0
1.32895                0.9898028       -15.01695      0.001619776        56.57539                0               0                0               0
1.33553                0.9895521       -15.14803      0.001649997        52.13292                0               0                0               0
1.34211                0.9892925       -15.28077       0.00167749        47.76846                0               0                0               0
1.34868                0.9890224       -15.41518      0.001702287        43.48935                0               0                0               0
1.35526                0.9887409       -15.55126      0.001724459        39.30315                0               0                0               0
1.36184                0.9884468       -15.68901      0.001744116        35.21763                0               0                0               0
1.36842                0.9881387        -15.8284      0.001761418        31.24074                0               0                0               0
1.375                  0.9878163       -15.96942      0.001776574         27.3805                0               0                0               0
1.38158                0.9874784       -16.11203      0.001789847        23.64484                0               0                0               0
1.38816                0.9871244       -16.25621      0.001801561        20.04142                0               0                0               0
1.39474                0.9867539       -16.40191      0.001812102        16.57736                0               0                0               0
1.40132                0.9863668        -16.5491      0.001821922        13.25893                0               0                0               0
1.40789                0.9859626       -16.69775       0.00183154         10.0911                0               0                0               0
1.41447                0.9855416       -16.84782      0.001841541        7.077096                0               0                0               0
1.42105                0.9851042       -16.99928      0.001852575        4.217819                0               0                0               0
1.42763                0.9846503       -17.15212      0.001865351        1.511309                0               0                0               0
1.43421                0.9841808       -17.30632      0.001880623       -1.047807                0               0                0               0
1.44079                0.9836964       -17.46188      0.001899183       -3.468761                0               0                0               0
1.44737                0.9831976        -17.6188      0.001921836       -5.764928                0               0                0               0
1.45395                0.9826851        -17.7771      0.001949385       -7.953843                0               0                0               0
1.46053                  0.98216       -17.93682      0.001982599       -10.05691                0               0                0               0
1.46711                0.9816232       -18.09799      0.002022196       -12.09878                0               0                0               0
1.47368                 0.981075       -18.26068      0.002068812       -14.10633                0               0                0               0
1.48026                0.9805165       -18.42495      0.002122983       -16.10752                0               0                0               0
1.48684                0.9799479       -18.59089      0.002185129       -18.12997                0               0                0               0
1.49342                0.9793701       -18.75858      0.002255544       -20.19973                0               0                0               0
1.5                     0.978783       -18.92815      0.002334393       -22.34012                0               0                0               0
1.50658                0.9781866       -19.09968      0.002421716       -24.57087                0               0                0               0
1.51316                0.9775809       -19.27332      0.002517438       -26.90768                0               0                0               0
1.51974                0.9769654       -19.44917      0.002621381       -29.36201                0               0                0               0
1.52632                0.9763396       -19.62736      0.002733281       -31.94124                0               0                0               0
1.53289                0.9757023       -19.80803      0.002852797       -34.64906                0               0                0               0
1.53947                0.9750525       -19.99129      0.002979538       -37.48593                0               0                0               0
1.54605                0.9743886       -20.17727      0.003113064       -40.44964                0               0                0               0
1.55263                 0.973709       -20.36608      0.003252909       -43.53592                0               0                0               0
1.55921                0.9730118       -20.55784      0.003398585       -46.73889                0               0                0               0
1.56579                0.9722948       -20.75263       0.00354959        -50.0516                0               0                0               0
1.57237                0.9715561       -20.95054      0.003705422       -53.46633                0               0                0               0
1.57895                 0.970793       -21.15164      0.003865575       -56.97498                0               0                0               0
1.58553                0.9700031         -21.356      0.004029553       -60.56926                0               0                0               0
1.59211                 0.969184       -21.56366      0.004196867       -64.24087                0               0                0               0
1.59868                0.9683331       -21.77465      0.004367042       -67.98167                0               0                0               0
1.60526                0.9674479       -21.98897       0.00453962       -71.78372                0               0                0               0
1.61184                0.9665262       -22.20663       0.00471416       -75.63939                0               0                0               0
1.61842                0.9655656       -22.42763      0.004890244       -79.54136                0               0                0               0
1.625                  0.9645639       -22.65193      0.005067479       -83.48262                0               0                0               0
1.63158                0.9635193        -22.8795      0.005245498       -87.45653                0               0                0               0
1.63816                0.9624302       -23.11031      0.005423964       -91.45678                0               0                0               0
1.64474                0.9612949        -23.3443      0.005602577       -95.47737                0               0                0               0
1.65132                0.9601123       -23.58143      0.005781067       -99.51264                0               0                0               0
1.65789                0.9588813       -23.82166      0.005959212       -103.5572                0               0                0               0
1.66447                0.9576014       -24.06492      0.006136826        -107.606                0               0                0               0
1.67105                0.9562721        -24.3112      0.006313775       -111.6543                0               0                0               0
1.67763                0.9548931       -24.56045      0.006489976       -115.6975                0               0                0               0
1.68421                0.9534645       -24.81266      0.006665399       -119.7314                0               0                0               0
1.69079                0.9519866       -25.06783      0.006840076       -123.7521                0               0                0               0
1.69737                0.9504594       -25.32595      0.007014096       -127.7558                0               0                0               0
1.70395                0.9488837       -25.58707      0.007187623       -131.7393                0               0                0               0
1.71053                0.9472599       -25.85123      0.007360883       -135.6993                0               0                0               0
1.71711                0.9455883        -26.1185      0.007534178       -139.6333                0               0                0               0
1.72368                0.9438697       -26.38898      0.007707888       -143.5388                0               0                0               0
1.73026                0.9421042       -26.66278      0.007882467       -147.4139                0               0                0               0
1.73684                0.9402921       -26.94003       0.00805845       -151.2569                0               0                0               0
1.74342                0.9384335        -27.2209      0.008236451       -155.0667                0               0                0               0
1.75                    0.936528       -27.50556      0.008417163       -158.8426                0               0                0               0
1.75658                 0.934575       -27.79421      0.008601357       -162.5845                0               0                0               0
1.76316                0.9325736       -28.08706      0.008789869       -166.2928                0               0                0               0
1.76974                0.9305225       -28.38434      0.008983617       -169.9685                0               0                0               0
1.77632                0.9284198       -28.68629      0.009183572       -173.6131                0               0                0               0
1.78289                0.9262636       -28.99314      0.009390759       -177.2287                0               0                0               0
1.78947                0.9240509       -29.30515       0.00960625        179.1819                0               0                0               0
1.79605                0.9217789       -29.62257      0.009831151        175.6155                0               0                0               0
1.80263                0.9194438       -29.94565       0.01006658        172.0682                0               0                0               0
1.80921                0.9170417       -30.27463       0.01031368        168.5357                0               0                0               0
1.81579                0.9145681       -30.60974       0.01057357        165.0133                0               0                0               0
1.82237                0.9120182       -30.95121       0.01084735        161.4958                0               0                0               0
1.82895                0.9093868       -31.29923       0.01113609        157.9781                0               0                0               0
1.83553                0.9066684         -31.654        0.0114408        154.4545                0               0                0               0
1.84211                0.9038573       -32.01568       0.01176243        150.9196                0               0                0               0
1.84868                0.9009475       -32.38443       0.01210185        147.3678                0               0                0               0
