! TOUCHSTONE file generated by CST MICROWAVE STUDIO
! Date and time: Tue Mar 11 13:55:59 2025
! Project name: transverse.cst
! Parameters = {Fracture=1; B=10; D=160; F=25; Feed=2.85625; L=100; M=30; R=0.384908; S=1; Theta=0; length=57.125; wave=114.25}
! Header version: 2024
! Port assignment regex: !\s*Touchstone port\s*([0-9]+)\s*=\s*(CST MWS port|CST DES external port|CST DES block port)\s*(.+)\s* \(\"(.*)\"\)(\s*mode\s*([0-9]+))?.*
! Touchstone port assignment:
! Touchstone port 1 = CST MWS port 1 ("")
! Touchstone port 2 = CST MWS port 2 ("")
# GHz S MA R 50
1                      0.9975046       -10.01117     0.0005617055        165.2718                0               0                0               0
1.0066                 0.9974455       -10.09845     0.0005562947        159.0948                0               0                0               0
1.0132                 0.9973899       -10.18649     0.0005485032        153.0219                0               0                0               0
1.0198                 0.9973374       -10.27534     0.0005382909        147.0615                0               0                0               0
1.0264                 0.9972872       -10.36508     0.0005256309        141.2251                0               0                0               0
1.033                  0.9972383       -10.45574     0.0005105109        135.5282                0               0                0               0
1.0396                 0.9971897       -10.54738      0.000492936        129.9915                0               0                0               0
1.0462                 0.9971404       -10.64002     0.0004729314        124.6425                0               0                0               0
1.05281                0.9970891       -10.73369      0.000450548        119.5186                0               0                0               0
1.05941                0.9970346       -10.82841     0.0004258689        114.6708                0               0                0               0
1.06601                0.9969759       -10.92416      0.000399021          110.17                0               0                0               0
1.07261                0.9969117       -11.02096      0.000370193        106.1162                0               0                0               0
1.07921                0.9968408       -11.11877     0.0003396649        102.6541                0               0                0               0
1.08581                0.9967623       -11.21757     0.0003078596        99.99659                0               0                0               0
1.09241                0.9966754       -11.31733     0.0002754334         98.4615                0               0                0               0
1.09901                0.9965792       -11.41801      0.000243437        98.52216                0               0                0               0
1.10561                0.9964731       -11.51955     0.0002135942        100.8494                0               0                0               0
1.11221                0.9963567        -11.6219     0.0001887017        106.2318                0               0                0               0
1.11881                0.9962299       -11.72501       0.00017287        115.0675                0               0                0               0
1.12541                0.9960925       -11.82883     0.0001706113        126.2766                0               0                0               0
1.13201                0.9959446       -11.93329     0.0001841837        137.0678                0               0                0               0
1.13861                0.9957866       -12.03836     0.0002120082        145.0153                0               0                0               0
1.14521                0.9956191       -12.14398     0.0002505223         149.575                0               0                0               0
1.15182                0.9954425       -12.25012     0.0002964822          151.35                0               0                0               0
1.15842                0.9952577       -12.35675     0.0003476336        151.1211                0               0                0               0
1.16502                0.9950657       -12.46384     0.0004025169         149.502                0               0                0               0
1.17162                0.9948674       -12.57138     0.0004601697        146.9167                0               0                0               0
1.17822                0.9946637       -12.67937      0.000519921        143.6494                0               0                0               0
1.18482                0.9944559       -12.78783       0.00058127        139.8913                0               0                0               0
1.19142                0.9942448       -12.89678     0.0006438169        135.7738                0               0                0               0
1.19802                0.9940316       -13.00624     0.0007072231        131.3889                0               0                0               0
1.20462                0.9938171       -13.11628     0.0007711882         126.803                0               0                0               0
1.21122                0.9936021       -13.22693     0.0008354364        122.0646                0               0                0               0
1.21782                0.9933873       -13.33827     0.0008997078        117.2103                0               0                0               0
1.22442                0.9931732       -13.45037     0.0009637541        112.2681                0               0                0               0
1.23102                0.9929601        -13.5633      0.001027335          107.26                0               0                0               0
1.23762                0.9927483       -13.67715      0.001090216        102.2036                0               0                0               0
1.24422                0.9925376         -13.792       0.00115217        97.11324                0               0                0               0
1.25083                0.9923276       -13.90794      0.001212975         92.0007                0               0                0               0
1.25743                 0.992118       -14.02505      0.001272414        86.87611                0               0                0               0
1.26403                0.9919081        -14.1434      0.001330277        81.74819                0               0                0               0
1.27063                0.9916971       -14.26308      0.001386362        76.62463                0               0                0               0
1.27723                0.9914838       -14.38415      0.001440475        71.51238                0               0                0               0
1.28383                0.9912671       -14.50667      0.001492431        66.41784                0               0                0               0
1.29043                0.9910457       -14.63069      0.001542057        61.34701                0               0                0               0
1.29703                0.9908182       -14.75625      0.001589191        56.30562                0               0                0               0
1.30363                0.9905833       -14.88336      0.001633688        51.29929                0               0                0               0
1.31023                0.9903393       -15.01205      0.001675415        46.33352                0               0                0               0
1.31683                 0.990085       -15.14232      0.001714261        41.41389                0               0                0               0
1.32343                0.9898189       -15.27415      0.001750132        36.54602                0               0                0               0
1.33003                0.9895399       -15.40754      0.001782958        31.73568                0               0                0               0
1.33663                0.9892466       -15.54244      0.001812695        26.98884                0               0                0               0
1.34323                0.9889381       -15.67882      0.001839324        22.31168                0               0                0               0
1.34984                0.9886137       -15.81663      0.001862859        17.71064                0               0                0               0
1.35644                0.9882726       -15.95582      0.001883347        13.19244                0               0                0               0
1.36304                0.9879145       -16.09634      0.001900871        8.764059                0               0                0               0
1.36964                 0.987539       -16.23813      0.001915557        4.432735                0               0                0               0
1.37624                0.9871462       -16.38114      0.001927574       0.2059202                0               0                0               0
1.38284                0.9867365       -16.52532      0.001937138       -3.908795                0               0                0               0
1.38944                0.9863102       -16.67062      0.001944519       -7.903792                0               0                0               0
1.39604                0.9858681       -16.81701      0.001950041       -11.77159                0               0                0               0
1.40264                0.9854106       -16.96446      0.001954086       -15.50504                0               0                0               0
1.40924                 0.984939       -17.11294      0.001957098       -19.09766                0               0                0               0
1.41584                0.9844543       -17.26247      0.001959582       -22.54393                0               0                0               0
1.42244                0.9839576       -17.41305      0.001962106       -25.83973                0               0                0               0
1.42904                0.9834498       -17.56471      0.001965296       -28.98288                0               0                0               0
1.43564                0.9829323       -17.71748      0.001969832        -31.9736                0               0                0               0
1.44224                0.9824062       -17.87143       0.00197644       -34.81509                0               0                0               0
1.44884                0.9818723       -18.02662       0.00198588       -37.51403                0               0                0               0
1.45545                0.9813316       -18.18313      0.001998927       -40.08093                0               0                0               0
1.46205                0.9807847       -18.34107      0.002016354       -42.53034                0               0                0               0
1.46865                0.9802322       -18.50054      0.002038908       -44.88078                0               0                0               0
1.47525                0.9796741       -18.66166      0.002067286       -47.15429                0               0                0               0
1.48185                0.9791104       -18.82454      0.002102109        -49.3758                0               0                0               0
1.48845                0.9785411       -18.98932      0.002143902       -51.57202                0               0                0               0
1.49505                0.9779652       -19.15613      0.002193076       -53.77028                0               0                0               0
1.50165                0.9773822        -19.3251      0.002249915        -55.9972                0               0                0               0
1.50825                0.9767908       -19.49635      0.002314571       -58.27753                0               0                0               0
1.51485                0.9761897       -19.67001      0.002387068       -60.63308                0               0                0               0
1.52145                 0.975577       -19.84617      0.002467304       -63.08207                0               0                0               0
1.52805                 0.974951       -20.02495       0.00255507       -65.63871                0               0                0               0
1.53465                0.9743096       -20.20643      0.002650057       -68.31312                0               0                0               0
1.54125                0.9736506       -20.39069       0.00275188       -71.11157                0               0                0               0
1.54785                0.9729715       -20.57779       0.00286009       -74.03685                0               0                0               0
1.55446                0.9722701       -20.76776      0.002974189       -77.08875                0               0                0               0
1.56106                 0.971544       -20.96064      0.003093644        -80.2646                0               0                0               0
1.56766                0.9707909       -21.15644      0.003217902       -83.55985                0               0                0               0
1.57426                0.9700084       -21.35514      0.003346393       -86.96848                0               0                0               0
1.58086                0.9691943       -21.55673      0.003478544       -90.48348                0               0                0               0
1.58746                0.9683469       -21.76117      0.003613783       -94.09721                0               0                0               0
1.59406                0.9674645       -21.96841      0.003751542       -97.80162                0               0                0               0
1.60066                0.9665452       -22.17841      0.003891265       -101.5885                0               0                0               0
1.60726                0.9655882       -22.39109      0.004032408       -105.4497                0               0                0               0
1.61386                0.9645924        -22.6064      0.004174444       -109.3772                0               0                0               0
1.62046                0.9635572       -22.82426      0.004316867       -113.3631                0               0                0               0
1.62706                0.9624825       -23.04461      0.004459188       -117.3998                0               0                0               0
1.63366                0.9613681        -23.2674      0.004600944       -121.4799                0               0                0               0
1.64026                0.9602145       -23.49258      0.004741697       -125.5964                0               0                0               0
1.64686                0.9590221       -23.72011      0.004881037       -129.7425                0               0                0               0
1.65347                0.9577918       -23.94998      0.005018585       -133.9117                0               0                0               0
1.66007                0.9565247       -24.18218      0.005153996       -138.0979                0               0                0               0
1.66667                0.9552218       -24.41673      0.005286959       -142.2949                0               0                0               0
1.67327                0.9538844       -24.65368      0.005417205       -146.4971                0               0                0               0
1.67987                0.9525139       -24.89308      0.005544505       -150.6988                0               0                0               0
1.68647                0.9511113       -25.13504      0.005668678       -154.8948                0               0                0               0
1.69307                0.9496781       -25.37967      0.005789592       -159.0797                0               0                0               0
1.69967                0.9482151       -25.62711       0.00590717       -163.2487                0               0                0               0
1.70627                0.9467233       -25.87752      0.006021391       -167.3969                0               0                0               0
1.71287                0.9452029       -26.13111      0.006132296       -171.5197                0               0                0               0
1.71947                0.9436543       -26.38807      0.006239991       -175.6126                0               0                0               0
1.72607                0.9420774       -26.64863      0.006344656       -179.6713                0               0                0               0
1.73267                0.9404714       -26.91305      0.006446541        176.3081                0               0                0               0
1.73927                0.9388354       -27.18158      0.006545977        172.3294                0               0                0               0
1.74587                0.9371678       -27.45449      0.006643372        168.3959                0               0                0               0
1.75248                0.9354665       -27.73205      0.006739222        164.5109                0               0                0               0
1.75908                0.9337292       -28.01453      0.006834107        160.6768                0               0                0               0
1.76568                0.9319526       -28.30221      0.006928697        156.8959                0               0                0               0
1.77228                0.9301332       -28.59535      0.007023743        153.1697                0               0                0               0
1.77888                0.9282672        -28.8942      0.007120086        149.4992                0               0                0               0
1.78548                  0.92635       -29.19901      0.007218646        145.8844                0               0                0               0
1.79208                0.9243771       -29.50999      0.007320421        142.3247                0               0                0               0
1.79868                0.9223432       -29.82737      0.007426478        138.8186                0               0                0               0
1.80528                 0.920243       -30.15131      0.007537937        135.3637                0               0                0               0
1.81188                 0.918071       -30.48198      0.007655971        131.9564                0               0                0               0
1.81848                0.9158215       -30.81951      0.007781781        128.5923                0               0                0               0
1.82508                0.9134886       -31.16402      0.007916581         125.266                0               0                0               0
1.83168                0.9110668        -31.5156      0.008061582        121.9711                0               0                0               0
1.83828                0.9085502        -31.8743      0.008217974        118.7004                0               0                0               0
1.84488                0.9059332       -32.24019      0.008386899         115.446                0               0                0               0
1.85149                0.9032103       -32.61327      0.008569438        112.1995                0               0                0               0
