! TOUCHSTONE file generated by CST MICROWAVE STUDIO
! Date and time: Tue Mar 11 13:57:26 2025
! Project name: transverse.cst
! Parameters = {Fracture=1; B=12.5; D=160; F=5; Feed=2.85625; L=100; M=20; R=0.384908; S=1; Theta=180; length=57.125; wave=114.25}
! Header version: 2024
! Port assignment regex: !\s*Touchstone port\s*([0-9]+)\s*=\s*(CST MWS port|CST DES external port|CST DES block port)\s*(.+)\s* \(\"(.*)\"\)(\s*mode\s*([0-9]+))?.*
! Touchstone port assignment:
! Touchstone port 1 = CST MWS port 1 ("")
! Touchstone port 2 = CST MWS port 2 ("")
# GHz S MA R 50
1                      0.9978473       -10.03259     0.0003344843       -139.6001                0               0                0               0
1.00662                0.9977454       -10.12402     0.0003499591       -143.8556                0               0                0               0
1.01325                0.9976359       -10.21576     0.0003647986       -148.1295                0               0                0               0
1.01987                0.9975198       -10.30775     0.0003789316       -152.4072                0               0                0               0
1.02649                 0.997398       -10.39997      0.000392293       -156.6753                0               0                0               0
1.03311                0.9972715        -10.4924     0.0004048252       -160.9215                0               0                0               0
1.03974                0.9971416       -10.58502      0.000416478       -165.1341                0               0                0               0
1.04636                0.9970095       -10.67784     0.0004272105       -169.3016                0               0                0               0
1.05298                0.9968762       -10.77087      0.000436991       -173.4129                0               0                0               0
1.0596                 0.9967434       -10.86413     0.0004457995       -177.4568                0               0                0               0
1.06623                0.9966117       -10.95768     0.0004536281         178.578                0               0                0               0
1.07285                0.9964823       -11.05155     0.0004604827         174.703                0               0                0               0
1.07947                0.9963562       -11.14581      0.000466385          170.93                0               0                0               0
1.08609                0.9962341       -11.24052     0.0004713736        167.2708                0               0                0               0
1.09272                0.9961164       -11.33577     0.0004755063        163.7379                0               0                0               0
1.09934                0.9960037       -11.43164     0.0004788618        160.3434                0               0                0               0
1.10596                0.9958961       -11.52821     0.0004815417        157.0997                0               0                0               0
1.11258                0.9957934       -11.62558     0.0004836719        154.0184                0               0                0               0
1.11921                0.9956953       -11.72382     0.0004854047        151.1105                0               0                0               0
1.12583                0.9956014       -11.82303     0.0004869194        148.3853                0               0                0               0
1.13245                0.9955109       -11.92329     0.0004884226        145.8497                0               0                0               0
1.13907                0.9954228       -12.02466     0.0004901475        143.5077                0               0                0               0
1.1457                 0.9953363       -12.12721     0.0004923513        141.3587                0               0                0               0
1.15232                0.9952499         -12.231     0.0004953109        139.3972                0               0                0               0
1.15894                0.9951622       -12.33607     0.0004993165        137.6111                0               0                0               0
1.16556                0.9950721       -12.44245     0.0005046633         135.982                0               0                0               0
1.17219                0.9949779       -12.55017     0.0005116403        134.4843                0               0                0               0
1.17881                0.9948781       -12.65922     0.0005205191        133.0863                0               0                0               0
1.18543                0.9947715        -12.7696     0.0005315419        131.7514                0               0                0               0
1.19205                0.9946566       -12.88128     0.0005449094        130.4399                0               0                0               0
1.19868                0.9945324       -12.99425     0.0005607741        129.1117                0               0                0               0
1.2053                 0.9943978       -13.10847     0.0005792332        127.7283                0               0                0               0
1.21192                0.9942516       -13.22387     0.0006003279        126.2555                0               0                0               0
1.21854                0.9940934       -13.34041     0.0006240453        124.6647                0               0                0               0
1.22517                0.9939226       -13.45804     0.0006503233        122.9339                0               0                0               0
1.23179                0.9937389       -13.57668     0.0006790572        121.0481                0               0                0               0
1.23841                0.9935421       -13.69627     0.0007101079        118.9989                0               0                0               0
1.24503                0.9933328       -13.81677      0.000743309        116.7833                0               0                0               0
1.25166                0.9931112        -13.9381     0.0007784745        114.4034                0               0                0               0
1.25828                0.9928779       -14.06023     0.0008154046         111.865                0               0                0               0
1.2649                 0.9926338       -14.18312     0.0008538914        109.1763                0               0                0               0
1.27152                0.9923797       -14.30674      0.000893722        106.3479                0               0                0               0
1.27815                0.9921167       -14.43106     0.0009346831         103.391                0               0                0               0
1.28477                0.9918461       -14.55608     0.0009765625        100.3178                0               0                0               0
1.29139                0.9915692       -14.68183      0.001019152        97.14049                0               0                0               0
1.29801                0.9912869       -14.80831      0.001062247        93.87129                0               0                0               0
1.30464                0.9910008       -14.93558      0.001105651        90.52207                0               0                0               0
1.31126                0.9907119       -15.06368      0.001149174         87.1043                0               0                0               0
1.31788                0.9904211       -15.19267      0.001192635        83.62899                0               0                0               0
1.3245                 0.9901295       -15.32265      0.001235862        80.10666                0               0                0               0
1.33113                0.9898376        -15.4537      0.001278696        76.54733                0               0                0               0
1.33775                0.9895461       -15.58592      0.001320987        72.96053                0               0                0               0
1.34437                0.9892552       -15.71942      0.001362601        69.35536                0               0                0               0
1.35099                0.9889647       -15.85431      0.001403418        65.74053                0               0                0               0
1.35762                0.9886747        -15.9907      0.001443333        62.12432                0               0                0               0
1.36424                0.9883845       -16.12871      0.001482262        58.51472                0               0                0               0
1.37086                0.9880932       -16.26845      0.001520137        54.91936                0               0                0               0
1.37748                   0.9878       -16.41004      0.001556914         51.3456                0               0                0               0
1.38411                0.9875033       -16.55356      0.001592571        47.80051                0               0                0               0
1.39073                 0.987202       -16.69912      0.001627113        44.29085                0               0                0               0
1.39735                0.9868944       -16.84678      0.001660568        40.82309                0               0                0               0
1.40397                0.9865785       -16.99662      0.001692999        37.40339                0               0                0               0
1.4106                 0.9862525        -17.1487      0.001724494        34.03751                0               0                0               0
1.41722                0.9859145       -17.30305      0.001755178        30.73081                0               0                0               0
1.42384                0.9855623        -17.4597      0.001785207        27.48813                0               0                0               0
1.43046                0.9851942       -17.61866      0.001814776        24.31372                0               0                0               0
1.43709                0.9848081       -17.77992      0.001844111        21.21112                0               0                0               0
1.44371                0.9844026       -17.94347      0.001873479        18.18306                0               0                0               0
1.45033                0.9839757       -18.10928      0.001903179         15.2313                0               0                0               0
1.45695                 0.983526       -18.27731      0.001933545        12.35652                0               0                0               0
1.46358                0.9830524       -18.44752      0.001964944         9.55816                0               0                0               0
1.4702                 0.9825539       -18.61984      0.001997768        6.834334                0               0                0               0
1.47682                0.9820298       -18.79424      0.002032434        4.181722                0               0                0               0
1.48344                0.9814794       -18.97065      0.002069378        1.595527                0               0                0               0
1.49007                0.9809028       -19.14901      0.002109044      -0.9305259                0               0                0               0
1.49669                0.9802997       -19.32928      0.002151879       -3.404126                0               0                0               0
1.50331                0.9796705       -19.51143      0.002198324       -5.834244                0               0                0               0
1.50993                0.9790158       -19.69541      0.002248807       -8.230931                0               0                0               0
1.51656                0.9783361       -19.88121      0.002303731       -10.60506                0               0                0               0
1.52318                0.9776322       -20.06882      0.002363466         -12.968                0               0                0               0
1.5298                  0.976905       -20.25827      0.002428345       -15.33129                0               0                0               0
1.53642                0.9761556       -20.44957      0.002498656       -17.70626                0               0                0               0
1.54305                0.9753848       -20.64278      0.002574638       -20.10373                0               0                0               0
1.54967                0.9745934       -20.83797      0.002656478       -22.53368                0               0                0               0
1.55629                0.9737825       -21.03521       0.00274431       -25.00499                0               0                0               0
1.56291                0.9729527       -21.23461      0.002838217       -27.52529                0               0                0               0
1.56954                0.9721043       -21.43629      0.002938235       -30.10086                0               0                0               0
1.57616                0.9712378       -21.64038      0.003044353       -32.73651                0               0                0               0
1.58278                0.9703529       -21.84703      0.003156519       -35.43571                0               0                0               0
1.5894                 0.9694494        -22.0564      0.003274647       -38.20056                0               0                0               0
1.59603                0.9685265       -22.26863       0.00339862       -41.03195                0               0                0               0
1.60265                0.9675832       -22.48392      0.003528297       -43.92968                0               0                0               0
1.60927                0.9666183       -22.70242       0.00366352       -46.89262                0               0                0               0
1.61589                0.9656296        -22.9243      0.003804115        -49.9188                0               0                0               0
1.62252                0.9646153       -23.14973      0.003949902       -53.00565                0               0                0               0
1.62914                0.9635727       -23.37885        0.0041007       -56.15006                0               0                0               0
1.63576                0.9624992       -23.61183      0.004256327       -59.34856                0               0                0               0
1.64238                0.9613917       -23.84877       0.00441661       -62.59738                0               0                0               0
1.64901                0.9602468        -24.0898      0.004581385       -65.89263                0               0                0               0
1.65563                0.9590611       -24.33502      0.004750505       -69.23028                0               0                0               0
1.66225                0.9578309        -24.5845      0.004923838       -72.60632                0               0                0               0
1.66887                0.9565525       -24.83829      0.005101277       -76.01678                0               0                0               0
1.6755                 0.9552223       -25.09644      0.005282738       -79.45777                0               0                0               0
1.68212                0.9538364       -25.35895      0.005468166       -82.92557                0               0                0               0
1.68874                0.9523914       -25.62583      0.005657539       -86.41663                0               0                0               0
1.69536                0.9508836       -25.89704      0.005850864       -89.92758                0               0                0               0
1.70199                  0.94931       -26.17256      0.006048188        -93.4553                0               0                0               0
1.70861                0.9476674       -26.45231      0.006249596       -96.99691                0               0                0               0
1.71523                0.9459529       -26.73625       0.00645521       -100.5498                0               0                0               0
1.72185                0.9441644       -27.02428      0.006665198       -104.1117                0               0                0               0
1.72848                0.9422995       -27.31634      0.006879769       -107.6805                0               0                0               0
1.7351                 0.9403565       -27.61234      0.007099174       -111.2545                0               0                0               0
1.74172                 0.938334        -27.9122      0.007323712       -114.8323                0               0                0               0
1.74834                0.9362307       -28.21585      0.007553721       -118.4127                0               0                0               0
1.75497                 0.934046       -28.52322      0.007789586       -121.9951                0               0                0               0
1.76159                0.9317792       -28.83427       0.00803173       -125.5789                0               0                0               0
1.76821                0.9294299       -29.14895      0.008280618        -129.164                0               0                0               0
1.77483                0.9269981       -29.46726      0.008536751       -132.7505                0               0                0               0
1.78146                0.9244837        -29.7892      0.008800665        -136.339                0               0                0               0
1.78808                0.9218869       -30.11481      0.009072925       -139.9301                0               0                0               0
1.7947                 0.9192074       -30.44414      0.009354119        -143.525                0               0                0               0
1.80132                0.9164455       -30.77728      0.009644858       -147.1248                0               0                0               0
1.80795                0.9136008       -31.11434      0.009945769       -150.7311                0               0                0               0
1.81457                0.9106729       -31.45546       0.01025748       -154.3456                0               0                0               0
1.82119                0.9076611        -31.8008       0.01058063       -157.9701                0               0                0               0
1.82781                0.9045644       -32.15055       0.01091586       -161.6067                0               0                0               0
1.83444                0.9013812       -32.50492       0.01126378       -165.2574                0               0                0               0
1.84106                0.8981095       -32.86414       0.01162499       -168.9244                0               0                0               0
1.84768                0.8947468       -33.22843       0.01200008       -172.6099                0               0                0               0
1.8543                   0.89129       -33.59807        0.0123896        -176.316                0               0                0               0
