! TOUCHSTONE file generated by CST MICROWAVE STUDIO
! Date and time: Tue Mar 11 13:56:41 2025
! Project name: transverse.cst
! Parameters = {Fracture=1; B=10; D=160; F=25; Feed=2.85625; L=100; M=10; R=0.384908; S=2; Theta=90; length=57.125; wave=114.25}
! Header version: 2024
! Port assignment regex: !\s*Touchstone port\s*([0-9]+)\s*=\s*(CST MWS port|CST DES external port|CST DES block port)\s*(.+)\s* \(\"(.*)\"\)(\s*mode\s*([0-9]+))?.*
! Touchstone port assignment:
! Touchstone port 1 = CST MWS port 1 ("")
! Touchstone port 2 = CST MWS port 2 ("")
# GHz S MA R 50
1                      0.9977221       -9.982654     0.0005812525       -152.5699                0               0                0               0
1.00758                 0.997641       -10.08473     0.0005955736        -158.548                0               0                0               0
1.01515                0.9975574       -10.18762     0.0006085867       -164.4342                0               0                0               0
1.02273                0.9974708       -10.29136     0.0006202163       -170.2277                0               0                0               0
1.0303                  0.997381       -10.39596     0.0006303933       -175.9267                0               0                0               0
1.03788                0.9972878       -10.50143     0.0006390555        178.4716                0               0                0               0
1.04545                0.9971907       -10.60778      0.000646149        172.9713                0               0                0               0
1.05303                0.9970895       -10.71503     0.0006516293        167.5774                0               0                0               0
1.06061                 0.996984       -10.82319     0.0006554629        162.2964                0               0                0               0
1.06818                0.9968738       -10.93225     0.0006576287        157.1362                0               0                0               0
1.07576                0.9967586       -11.04225     0.0006581207        152.1061                0               0                0               0
1.08333                0.9966381       -11.15316     0.0006569499        147.2172                0               0                0               0
1.09091                0.9965122       -11.26501     0.0006541478        142.4824                0               0                0               0
1.09848                0.9963806       -11.37779     0.0006497693         137.917                0               0                0               0
1.10606                0.9962432       -11.49151     0.0006438977        133.5382                0               0                0               0
1.11364                0.9960997       -11.60617     0.0006366492         129.366                0               0                0               0
1.12121                  0.99595       -11.72178      0.000628179        125.4229                0               0                0               0
1.12879                0.9957941       -11.83833     0.0006186887        121.7339                0               0                0               0
1.13636                0.9956318       -11.95583     0.0006084334         118.326                0               0                0               0
1.14394                0.9954631       -12.07428     0.0005977312        115.2279                0               0                0               0
1.15152                 0.995288       -12.19369     0.0005869714        112.4681                0               0                0               0
1.15909                0.9951065       -12.31407     0.0005766222         110.073                0               0                0               0
1.16667                0.9949188       -12.43543     0.0005672355        108.0632                0               0                0               0
1.17424                0.9947248       -12.55776     0.0005594456         106.449                0               0                0               0
1.18182                0.9945243        -12.6811     0.0005539588        105.2248                0               0                0               0
1.18939                0.9943179       -12.80545     0.0005515303        104.3633                0               0                0               0
1.19697                0.9941055       -12.93083     0.0005529253        103.8112                0               0                0               0
1.20455                 0.993887       -13.05726     0.0005588682        103.4887                0               0                0               0
1.21212                0.9936626       -13.18476     0.0005699853        103.2935                0               0                0               0
1.2197                 0.9934325       -13.31336     0.0005867525        103.1109                0               0                0               0
1.22727                0.9931965       -13.44309     0.0006094623        102.8266                0               0                0               0
1.23485                0.9929549       -13.57396      0.000638215        102.3401                0               0                0               0
1.24242                0.9927076       -13.70602      0.000672937        101.5735                0               0                0               0
1.25                   0.9924545       -13.83931      0.000713415        100.4763                0               0                0               0
1.25758                0.9921956       -13.97384     0.0007593385        99.02328                0               0                0               0
1.26515                0.9919307       -14.10966     0.0008103395        97.21082                0               0                0               0
1.27273                  0.99166       -14.24681     0.0008660241        95.05078                0               0                0               0
1.2803                 0.9913828       -14.38532     0.0009259943        92.56501                0               0                0               0
1.28788                0.9910994       -14.52524     0.0009898631        89.78087                0               0                0               0
1.29545                0.9908092        -14.6666      0.001057261        86.72785                0               0                0               0
1.30303                0.9905121       -14.80945      0.001127837         83.4354                0               0                0               0
1.31061                0.9902078       -14.95381      0.001201263         79.9316                0               0                0               0
1.31818                0.9898958       -15.09973      0.001277229        76.24241                0               0                0               0
1.32576                 0.989576       -15.24725       0.00135544        72.39144                0               0                0               0
1.33333                0.9892477       -15.39639      0.001435617        68.39985                0               0                0               0
1.34091                0.9889107       -15.54721      0.001517493        64.28651                0               0                0               0
1.34848                0.9885647       -15.69973      0.001600811        60.06815                0               0                0               0
1.35606                0.9882092       -15.85398      0.001685322        55.75962                0               0                0               0
1.36364                0.9878437       -16.01001      0.001770785         51.3741                0               0                0               0
1.37121                 0.987468       -16.16784      0.001856967        46.92327                0               0                0               0
1.37879                0.9870814       -16.32751      0.001943637        42.41759                0               0                0               0
1.38636                 0.986684       -16.48905      0.002030575         37.8664                0               0                0               0
1.39394                0.9862754       -16.65249      0.002117562        33.27815                0               0                0               0
1.40152                0.9858551       -16.81787      0.002204388        28.66046                0               0                0               0
1.40909                0.9854229       -16.98523      0.002290847         24.0203                0               0                0               0
1.41667                0.9849786       -17.15461      0.002376742        19.36408                0               0                0               0
1.42424                 0.984522       -17.32605      0.002461882        14.69772                0               0                0               0
1.43182                0.9840528       -17.49958      0.002546086        10.02675                0               0                0               0
1.43939                 0.983571       -17.67527      0.002629183        5.356362                0               0                0               0
1.44697                0.9830763       -17.85317      0.002711012       0.6914808                0               0                0               0
1.45455                0.9825685       -18.03333      0.002791425       -3.963196                0               0                0               0
1.46212                0.9820475       -18.21581      0.002870292       -8.603147                0               0                0               0
1.4697                 0.9815132       -18.40069      0.002947494         -13.224                0               0                0               0
1.47727                0.9809652       -18.58804      0.003022935        -17.8215                0               0                0               0
1.48485                0.9804034       -18.77794      0.003096537       -22.39149                0               0                0               0
1.49242                0.9798272       -18.97049      0.003168246       -26.92989                0               0                0               0
1.5                    0.9792367       -19.16576      0.003238036       -31.43266                0               0                0               0
1.50758                0.9786311       -19.36387      0.003305906       -35.89586                0               0                0               0
1.51515                0.9780099       -19.56491       0.00337189       -40.31559                0               0                0               0
1.52273                0.9773723         -19.769      0.003436053       -44.68803                0               0                0               0
1.5303                 0.9767178       -19.97626        0.0034985       -49.00944                0               0                0               0
1.53788                0.9760452        -20.1868      0.003559378       -53.27621                0               0                0               0
1.54545                0.9753535       -20.40076      0.003618877       -57.48487                0               0                0               0
1.55303                0.9746415       -20.61825      0.003677234       -61.63217                0               0                0               0
1.56061                0.9739079       -20.83942      0.003734739       -65.71511                0               0                0               0
1.56818                 0.973151       -21.06439      0.003791733       -69.73101                0               0                0               0
1.57576                 0.972369        -21.2933      0.003848614       -73.67762                0               0                0               0
1.58333                0.9715603       -21.52628      0.003905839       -77.55318                0               0                0               0
1.59091                0.9707226       -21.76346      0.003963922       -81.35654                0               0                0               0
1.59848                0.9698538       -22.00497      0.004023438       -85.08729                0               0                0               0
1.60606                0.9689514       -22.25095      0.004085018       -88.74581                0               0                0               0
1.61364                0.9680129       -22.50151       0.00414935       -92.33344                0               0                0               0
1.62121                0.9670356       -22.75677      0.004217173       -95.85255                0               0                0               0
1.62879                0.9660168       -23.01686      0.004289273       -99.30661                0               0                0               0
1.63636                0.9649535       -23.28188      0.004366473       -102.7003                0               0                0               0
1.64394                0.9638427       -23.55193      0.004449627       -106.0394                0               0                0               0
1.65152                0.9626811       -23.82712      0.004539603       -109.3309                0               0                0               0
1.65909                0.9614659       -24.10753       0.00463728       -112.5829                0               0                0               0
1.66667                0.9601936       -24.39326       0.00474353       -115.8043                0               0                0               0
1.67424                 0.958861       -24.68439      0.004859199       -119.0051                0               0                0               0
1.68182                0.9574647       -24.98099      0.004985104       -122.1954                0               0                0               0
1.68939                0.9560016       -25.28313      0.005122013        -125.386                0               0                0               0
1.69697                0.9544683       -25.59089      0.005270639       -128.5875                0               0                0               0
1.70455                0.9528614       -25.90433      0.005431622       -131.8104                0               0                0               0
1.71212                0.9511777       -26.22353       0.00560553       -135.0646                0               0                0               0
1.7197                 0.9494139       -26.54853       0.00579285       -138.3594                0               0                0               0
1.72727                0.9475667       -26.87941      0.005993988       -141.7031                0               0                0               0
1.73485                 0.945633       -27.21623      0.006209262        -145.103                0               0                0               0
1.74242                0.9436093       -27.55906      0.006438913       -148.5653                0               0                0               0
1.75                   0.9414926       -27.90798        0.0066831       -152.0951                0               0                0               0
1.75758                0.9392796       -28.26307      0.006941909       -155.6961                0               0                0               0
1.76515                0.9369668       -28.62441      0.007215355       -159.3713                0               0                0               0
1.77273                0.9345509        -28.9921      0.007503393       -163.1224                0               0                0               0
1.7803                 0.9320286       -29.36622      0.007805917       -166.9502                0               0                0               0
1.78788                0.9293965        -29.7469      0.008122773       -170.8548                0               0                0               0
1.79545                0.9266504       -30.13426      0.008453755       -174.8356                0               0                0               0
1.80303                0.9237868       -30.52841      0.008798622       -178.8914                0               0                0               0
1.81061                0.9208016        -30.9295      0.009157094        176.9795                0               0                0               0
1.81818                0.9176904       -31.33767      0.009528861        172.7793                0               0                0               0
1.82576                0.9144487       -31.75308      0.009913579        168.5103                0               0                0               0
1.83333                0.9110717       -32.17587       0.01031089        164.1749                0               0                0               0
1.84091                0.9075541       -32.60623       0.01072039        159.7761                0               0                0               0
1.84848                0.9038906       -33.04431       0.01114168        155.3164                0               0                0               0
1.85606                0.9000751       -33.49029       0.01157433        150.7988                0               0                0               0
1.86364                0.8961015       -33.94434        0.0120179         146.226                0               0                0               0
1.87121                0.8919629       -34.40661       0.01247192        141.6009                0               0                0               0
1.87879                0.8876524       -34.87728       0.01293592        136.9262                0               0                0               0
1.88636                0.8831623       -35.35648        0.0134094        132.2045                0               0                0               0
1.89394                 0.878485       -35.84436       0.01389186        127.4385                0               0                0               0
1.90152                0.8736119       -36.34103        0.0143828        122.6306                0               0                0               0
1.90909                0.8685344       -36.84658       0.01488167        117.7832                0               0                0               0
1.91667                0.8632435       -37.36109       0.01538794        112.8985                0               0                0               0
1.92424                  0.85773       -37.88461       0.01590108        107.9788                0               0                0               0
1.93182                 0.851984       -38.41712        0.0164205        103.0261                0               0                0               0
1.93939                0.8459959       -38.95862       0.01694565        98.04236                0               0                0               0
1.94697                0.8397556       -39.50901       0.01747596        93.02947                0               0                0               0
1.95455                0.8332529       -40.06818       0.01801083        87.98917                0               0                0               0
1.96212                 0.826478       -40.63596       0.01854967        82.92315                0               0                0               0
1.9697                 0.8194206       -41.21211       0.01909189        77.83299                0               0                0               0
1.97727                0.8120708       -41.79632       0.01963687        72.72019                0               0                0               0
