! TOUCHSTONE file generated by CST MICROWAVE STUDIO
! Date and time: Tue Mar 11 13:57:19 2025
! Project name: transverse.cst
! Parameters = {Fracture=1; B=10; D=160; F=15; Feed=2.85625; L=100; M=30; R=0.384908; S=2; Theta=180; length=57.125; wave=114.25}
! Header version: 2024
! Port assignment regex: !\s*Touchstone port\s*([0-9]+)\s*=\s*(CST MWS port|CST DES external port|CST DES block port)\s*(.+)\s* \(\"(.*)\"\)(\s*mode\s*([0-9]+))?.*
! Touchstone port assignment:
! Touchstone port 1 = CST MWS port 1 ("")
! Touchstone port 2 = CST MWS port 2 ("")
# GHz S MA R 50
1                      0.9975056       -10.00999     0.0005350502        169.0588                0               0                0               0
1.0066                 0.9974382       -10.09787     0.0005286224        163.0077                0               0                0               0
1.0132                 0.9973729       -10.18646     0.0005198456        157.0584                0               0                0               0
1.0198                 0.9973092       -10.27578     0.0005086879        151.2204                0               0                0               0
1.0264                 0.9972469        -10.3659     0.0004951307        145.5065                0               0                0               0
1.033                  0.9971851       -10.45685     0.0004791699        139.9337                0               0                0               0
1.0396                 0.9971232       -10.54867      0.000460819        134.5252                0               0                0               0
1.0462                 0.9970603        -10.6414      0.000440112        129.3119                0               0                0               0
1.05281                0.9969956       -10.73505     0.0004171086         124.336                0               0                0               0
1.05941                0.9969283       -10.82963     0.0003919026        119.6562                0               0                0               0
1.06601                0.9968572       -10.92517     0.0003646338        115.3552                0               0                0               0
1.07261                0.9967817       -11.02165     0.0003355092        111.5524                0               0                0               0
1.07921                0.9967007       -11.11908     0.0003048384        108.4247                0               0                0               0
1.08581                0.9966137       -11.21742     0.0002730972        106.2397                0               0                0               0
1.09241                0.9965197       -11.31668     0.0002410455        105.4096                0               0                0               0
1.09901                0.9964182       -11.41681      0.000209945        106.5639                0               0                0               0
1.10561                0.9963086       -11.51779     0.0001819422        110.5932                0               0                0               0
1.11221                0.9961907       -11.61958     0.0001605705        118.4197                0               0                0               0
1.11881                0.9960638       -11.72215     0.0001507074        129.9608                0               0                0               0
1.12541                0.9959283       -11.82546     0.0001564414        142.7405                0               0                0               0
1.13201                0.9957839       -11.92946     0.0001778314        153.1858                0               0                0               0
1.13861                0.9956308       -12.03413     0.0002113937        159.7158                0               0                0               0
1.14521                0.9954693       -12.13943     0.0002532694        162.7809                0               0                0               0
1.15182                0.9952997       -12.24533     0.0003007125         163.357                0               0                0               0
1.15842                0.9951226        -12.3518     0.0003520002        162.2474                0               0                0               0
1.16502                0.9949387       -12.45884     0.0004060458        159.9981                0               0                0               0
1.17162                0.9947485       -12.56643     0.0004621227         156.964                0               0                0               0
1.17822                0.9945528       -12.67456      0.000519706        153.3776                0               0                0               0
1.18482                0.9943524       -12.78325     0.0005783865        149.3937                0               0                0               0
1.19142                0.9941481       -12.89251     0.0006378228        145.1188                0               0                0               0
1.19802                0.9939405       -13.00236     0.0006977148        140.6279                0               0                0               0
1.20462                0.9937304       -13.11284     0.0007577881        135.9751                0               0                0               0
1.21122                0.9935184       -13.22398     0.0008177849        131.2006                0               0                0               0
1.21782                0.9933051       -13.33583     0.0008774585        126.3348                0               0                0               0
1.22442                 0.993091       -13.44845     0.0009365707        121.4013                0               0                0               0
1.23102                0.9928765       -13.56189     0.0009948895        116.4189                0               0                0               0
1.23762                0.9926615       -13.67621      0.001052188        111.4026                0               0                0               0
1.24422                0.9924463       -13.79149      0.001108246        106.3651                0               0                0               0
1.25083                0.9922306       -13.90779      0.001162848        101.3171                0               0                0               0
1.25743                0.9920143       -14.02518      0.001215785         96.2676                0               0                0               0
1.26403                0.9917969       -14.14372      0.001266856        91.22486                0               0                0               0
1.27063                 0.991578       -14.26348      0.001315868        86.19624                0               0                0               0
1.27723                0.9913567       -14.38451      0.001362638        81.18859                0               0                0               0
1.28383                0.9911324       -14.50687      0.001406993        76.20837                0               0                0               0
1.29043                0.9909041       -14.63061      0.001448774        71.26186                0               0                0               0
1.29703                0.9906708       -14.75577      0.001487836        66.35522                0               0                0               0
1.30363                0.9904315       -14.88237      0.001524051        61.49464                0               0                0               0
1.31023                0.9901851       -15.01045      0.001557309        56.68641                0               0                0               0
1.31683                0.9899304       -15.14002      0.001587522        51.93699                0               0                0               0
1.32343                0.9896668       -15.27108      0.001614625         47.2531                0               0                0               0
1.33003                0.9893927       -15.40363       0.00163858        42.64179                0               0                0               0
1.33663                0.9891075       -15.53768      0.001659379        38.11047                0               0                0               0
1.34323                0.9888103       -15.67318      0.001677046        33.66696                0               0                0               0
1.34984                0.9885003       -15.81014      0.001691644        29.31953                0               0                0               0
1.35644                0.9881769       -15.94853      0.001703275         25.0769                0               0                0               0
1.36304                0.9878398        -16.0883      0.001712087        20.94822                0               0                0               0
1.36964                0.9874884       -16.22944      0.001718279        16.94302                0               0                0               0
1.37624                0.9871228       -16.37191      0.001722104        13.07113                0               0                0               0
1.38284                 0.986743       -16.51569      0.001723874        9.342486                0               0                0               0
1.38944                0.9863489       -16.66074      0.001723967        5.766921                0               0                0               0
1.39604                0.9859411       -16.80705       0.00172283        2.353818                0               0                0               0
1.40264                0.9855198        -16.9546      0.001720981      -0.8883438                0               0                0               0
1.40924                0.9850859       -17.10339      0.001719012       -3.952542                0               0                0               0
1.41584                0.9846397       -17.25341      0.001717588       -6.833925                0               0                0               0
1.42244                0.9841822       -17.40469      0.001717445       -9.530599                0               0                0               0
1.42904                0.9837141       -17.55723      0.001719376       -12.04451                0               0                0               0
1.43564                0.9832359       -17.71107      0.001724225       -14.38226                0               0                0               0
1.44224                0.9827488       -17.86627      0.001732862       -16.55584                0               0                0               0
1.44884                0.9822533       -18.02287      0.001746163       -18.58308                0               0                0               0
1.45545                  0.98175       -18.18095      0.001764976       -20.48759                0               0                0               0
1.46205                0.9812396       -18.34057      0.001790093       -22.29831                0               0                0               0
1.46865                0.9807224       -18.50185      0.001822218       -24.04834                0               0                0               0
1.47525                0.9801987       -18.66486      0.001861932       -25.77335                0               0                0               0
1.48185                0.9796685        -18.8297       0.00190968       -27.50961                0               0                0               0
1.48845                0.9791319       -18.99651      0.001965748       -29.29191                0               0                0               0
1.49505                0.9785883       -19.16537       0.00203027       -31.15177                0               0                0               0
1.50165                0.9780373       -19.33642      0.002103224       -33.11595                0               0                0               0
1.50825                0.9774781       -19.50977       0.00218445       -35.20558                0               0                0               0
1.51485                0.9769098       -19.68553      0.002273672        -37.4359                0               0                0               0
1.52145                0.9763311       -19.86382      0.002370513        -39.8164                0               0                0               0
1.52805                0.9757405       -20.04475      0.002474525        -42.3514                0               0                0               0
1.53465                0.9751368       -20.22841      0.002585199       -45.04085                0               0                0               0
1.54125                 0.974518        -20.4149      0.002701995       -47.88118                0               0                0               0
1.54785                0.9738823        -20.6043      0.002824346       -50.86614                0               0                0               0
1.55446                0.9732277       -20.79668      0.002951677       -53.98756                0               0                0               0
1.56106                0.9725523       -20.99211      0.003083412       -57.23605                0               0                0               0
1.56766                0.9718539       -21.19065      0.003218979       -60.60145                0               0                0               0
1.57426                0.9711304       -21.39232       0.00335782       -64.07326                0               0                0               0
1.58086                0.9703798       -21.59716      0.003499391       -67.64097                0               0                0               0
1.58746                0.9696002       -21.80519      0.003643167       -71.29424                0               0                0               0
1.59406                0.9687895       -22.01643      0.003788645       -75.02304                0               0                0               0
1.60066                 0.967946       -22.23086      0.003935344       -78.81773                0               0                0               0
1.60726                0.9670682       -22.44849      0.004082812       -82.66913                0               0                0               0
1.61386                0.9661542       -22.66931      0.004230621       -86.56853                0               0                0               0
1.62046                 0.965203       -22.89329      0.004378376       -90.50769                0               0                0               0
1.62706                0.9642134       -23.12044      0.004525712       -94.47881                0               0                0               0
1.63366                0.9631842       -23.35073      0.004672301       -98.47453                0               0                0               0
1.64026                0.9621149       -23.58415      0.004817853       -102.4879                0               0                0               0
1.64686                0.9610047        -23.8207      0.004962118       -106.5123                0               0                0               0
1.65347                0.9598532       -24.06038      0.005104889       -110.5416                0               0                0               0
1.66007                0.9586602       -24.30319      0.005246009       -114.5699                0               0                0               0
1.66667                0.9574254       -24.54917       0.00538537       -118.5916                0               0                0               0
1.67327                0.9561486       -24.79833      0.005522921       -122.6015                0               0                0               0
1.67987                  0.95483       -25.05074      0.005658668       -126.5947                0               0                0               0
1.68647                0.9534694       -25.30646       0.00579268       -130.5665                0               0                0               0
1.69307                0.9520666       -25.56556      0.005925092       -134.5127                0               0                0               0
1.69967                 0.950622       -25.82813      0.006056114       -138.4293                0               0                0               0
1.70627                0.9491349        -26.0943      0.006186021       -142.3126                0               0                0               0
1.71287                0.9476054       -26.36418      0.006315174       -146.1595                0               0                0               0
1.71947                0.9460326       -26.63791      0.006444009       -149.9672                0               0                0               0
1.72607                0.9444161       -26.91565       0.00657304       -153.7335                0               0                0               0
1.73267                0.9427548       -27.19758       0.00670287       -157.4565                0               0                0               0
1.73927                0.9410476       -27.48387      0.006834178        -161.135                0               0                0               0
1.74587                 0.939293       -27.77471      0.006967723       -164.7687                0               0                0               0
1.75248                0.9374891       -28.07031      0.007104345       -168.3575                0               0                0               0
1.75908                0.9356337       -28.37086      0.007244951       -171.9024                0               0                0               0
1.76568                0.9337246       -28.67657      0.007390515       -175.4051                0               0                0               0
1.77228                0.9317588       -28.98766      0.007542065       -178.8681                0               0                0               0
1.77888                0.9297331       -29.30434      0.007700679        177.7053                0               0                0               0
1.78548                0.9276443        -29.6268      0.007867461         174.311                0               0                0               0
1.79208                0.9254885       -29.95526       0.00804354        170.9441                0               0                0               0
1.79868                0.9232616        -30.2899      0.008230043        167.5991                0               0                0               0
1.80528                0.9209593       -30.63092      0.008428085        164.2697                0               0                0               0
1.81188                0.9185772       -30.97849      0.008638756        160.9492                0               0                0               0
1.81848                0.9161103       -31.33278       0.00886309        157.6307                0               0                0               0
1.82508                0.9135538       -31.69394      0.009102065        154.3069                0               0                0               0
1.83168                0.9109025       -32.06213      0.009356579        150.9704                0               0                0               0
1.83828                0.9081512       -32.43748      0.009627441         147.614                0               0                0               0
1.84488                0.9052946       -32.82011      0.009915358        144.2308                0               0                0               0
1.85149                0.9023274       -33.21013       0.01022093        140.8143                0               0                0               0
