! TOUCHSTONE file generated by CST MICROWAVE STUDIO
! Date and time: Tue Mar 11 13:57:14 2025
! Project name: transverse.cst
! Parameters = {Fracture=1; B=10; D=160; F=15; Feed=2.85625; L=100; M=10; R=0.384908; S=1; Theta=180; length=57.125; wave=114.25}
! Header version: 2024
! Port assignment regex: !\s*Touchstone port\s*([0-9]+)\s*=\s*(CST MWS port|CST DES external port|CST DES block port)\s*(.+)\s* \(\"(.*)\"\)(\s*mode\s*([0-9]+))?.*
! Touchstone port assignment:
! Touchstone port 1 = CST MWS port 1 ("")
! Touchstone port 2 = CST MWS port 2 ("")
# GHz S MA R 50
1                      0.9978887       -10.03098     0.0003320252       -136.4552                0               0                0               0
1.0066                 0.9977904       -10.12175     0.0003440471        -140.901                0               0                0               0
1.0132                 0.9976861       -10.21281     0.0003550169       -145.3131                0               0                0               0
1.0198                 0.9975768       -10.30414     0.0003648677       -149.6772                0               0                0               0
1.0264                 0.9974633       -10.39573     0.0003735411       -153.9792                0               0                0               0
1.033                  0.9973468       -10.48756     0.0003809894       -158.2044                0               0                0               0
1.0396                 0.9972282       -10.57965     0.0003871773       -162.3373                0               0                0               0
1.0462                 0.9971087       -10.67201     0.0003920838       -166.3614                0               0                0               0
1.05281                0.9969893       -10.76466      0.000395705       -170.2588                0               0                0               0
1.05941                0.9968711       -10.85765     0.0003980569       -174.0099                0               0                0               0
1.06601                0.9967547       -10.95102      0.000399179       -177.5932                0               0                0               0
1.07261                0.9966411       -11.04484     0.0003991386         179.015                0               0                0               0
1.07921                0.9965309       -11.13917     0.0003980354        175.8406                0               0                0               0
1.08581                0.9964243       -11.23408     0.0003960074        172.9117                0               0                0               0
1.09241                0.9963218       -11.32965     0.0003932369        170.2579                0               0                0               0
1.09901                0.9962232       -11.42596     0.0003899573        167.9094                0               0                0               0
1.10561                0.9961284       -11.52309     0.0003864597        165.8953                0               0                0               0
1.11221                0.9960371       -11.62112     0.0003830976        164.2408                0               0                0               0
1.11881                0.9959487       -11.72012     0.0003802898        162.9636                0               0                0               0
1.12541                0.9958623       -11.82017     0.0003785176        162.0685                0               0                0               0
1.13201                0.9957771       -11.92134      0.000378314        161.5418                0               0                0               0
1.13861                0.9956919       -12.02366     0.0003802432        161.3464                0               0                0               0
1.14521                0.9956055        -12.1272      0.000384869         161.419                0               0                0               0
1.15182                0.9955167       -12.23199     0.0003927157        161.6711                0               0                0               0
1.15842                0.9954241       -12.33805     0.0004042261        161.9962                0               0                0               0
1.16502                0.9953263       -12.44539     0.0004197273         162.281                0               0                0               0
1.17162                0.9952218       -12.55401     0.0004394116        162.4183                0               0                0               0
1.17822                0.9951096        -12.6639     0.0004633353        162.3191                0               0                0               0
1.18482                0.9949882       -12.77503     0.0004914347         161.919                0               0                0               0
1.19142                0.9948566       -12.88738     0.0005235519          161.18                0               0                0               0
1.19802                0.9947139       -13.00089     0.0005594634        160.0877                0               0                0               0
1.20462                 0.994559       -13.11553     0.0005989064        158.6465                0               0                0               0
1.21122                0.9943917       -13.23122      0.000641599        156.8733                0               0                0               0
1.21782                0.9942114       -13.34793      0.000687254        154.7934                0               0                0               0
1.22442                 0.994018       -13.46557     0.0007355887        152.4357                0               0                0               0
1.23102                0.9938114        -13.5841     0.0007863291        149.8303                0               0                0               0
1.23762                 0.993592       -13.70346     0.0008392132        147.0067                0               0                0               0
1.24422                0.9933602       -13.82359     0.0008939904        143.9926                0               0                0               0
1.25083                0.9931167       -13.94446     0.0009504225        140.8138                0               0                0               0
1.25743                0.9928621       -14.06601      0.001008283        137.4936                0               0                0               0
1.26403                0.9925977       -14.18824      0.001067356        134.0527                0               0                0               0
1.27063                0.9923242       -14.31112      0.001127436        130.5101                0               0                0               0
1.27723                0.9920432       -14.43465      0.001188328        126.8824                0               0                0               0
1.28383                0.9917553       -14.55885      0.001249847        123.1846                0               0                0               0
1.29043                0.9914622       -14.68374       0.00131182        119.4302                0               0                0               0
1.29703                0.9911647       -14.80935      0.001374084        115.6312                0               0                0               0
1.30363                0.9908639       -14.93575      0.001436487        111.7984                0               0                0               0
1.31023                0.9905609       -15.06299      0.001498891        107.9417                0               0                0               0
1.31683                0.9902565       -15.19115      0.001561171        104.0701                0               0                0               0
1.32343                0.9899511       -15.32031      0.001623219        100.1917                0               0                0               0
1.33003                0.9896451       -15.45058      0.001684942        96.31393                0               0                0               0
1.33663                0.9893388       -15.58204      0.001746266        92.44374                0               0                0               0
1.34323                0.9890321        -15.7148      0.001807136        88.58745                0               0                0               0
1.34984                0.9887248       -15.84896       0.00186752         84.7509                0               0                0               0
1.35644                0.9884162       -15.98463      0.001927408        80.93945                0               0                0               0
1.36304                0.9881053        -16.1219      0.001986816        77.15805                0               0                0               0
1.36964                0.9877916       -16.26086      0.002045788        73.41115                0               0                0               0
1.37624                0.9874737       -16.40161      0.002104394         69.7028                0               0                0               0
1.38284                  0.98715       -16.54422      0.002162736        66.03656                0               0                0               0
1.38944                0.9868192       -16.68874      0.002220946         62.4155                0               0                0               0
1.39604                0.9864795       -16.83524      0.002279186        58.84215                0               0                0               0
1.40264                0.9861293       -16.98376      0.002337655         55.3185                0               0                0               0
1.40924                0.9857667       -17.13431      0.002396581         51.8459                0               0                0               0
1.41584                0.9853903       -17.28691      0.002456226        48.42506                0               0                0               0
1.42244                0.9849982       -17.44156      0.002516881        45.05596                0               0                0               0
1.42904                0.9845889       -17.59824      0.002578866        41.73785                0               0                0               0
1.43564                0.9841609       -17.75693       0.00264253        38.46918                0               0                0               0
1.44224                0.9837131       -17.91758      0.002708244        35.24764                0               0                0               0
1.44884                0.9832445       -18.08017      0.002776396        32.07008                0               0                0               0
1.45545                0.9827542       -18.24463       0.00284739        28.93261                0               0                0               0
1.46205                0.9822414       -18.41091      0.002921637        25.83058                0               0                0               0
1.46865                0.9817062       -18.57897      0.002999553        22.75868                0               0                0               0
1.47525                0.9811484       -18.74874      0.003081548        19.71104                0               0                0               0
1.48185                 0.980568       -18.92019      0.003168022        16.68133                0               0                0               0
1.48845                0.9799657       -19.09327      0.003259359         13.6629                0               0                0               0
1.49505                 0.979342       -19.26796      0.003355917        10.64893                0               0                0               0
1.50165                0.9786978       -19.44424      0.003458027        7.632582                0               0                0               0
1.50825                0.9780341       -19.62211      0.003565988        4.607159                0               0                0               0
1.51485                 0.977352       -19.80158      0.003680056        1.566256                0               0                0               0
1.52145                0.9766526       -19.98269      0.003800451       -1.496115                0               0                0               0
1.52805                0.9759371       -20.16549      0.003927345       -4.585414                0               0                0               0
1.53465                0.9752067       -20.35004      0.004060868       -7.706476                0               0                0               0
1.54125                0.9744624       -20.53644      0.004201104       -10.86346                0               0                0               0
1.54785                0.9737052        -20.7248      0.004348094       -14.05979                0               0                0               0
1.55446                0.9729356       -20.91524      0.004501836       -17.29818                0               0                0               0
1.56106                0.9721543        -21.1079      0.004662287        -20.5806                0               0                0               0
1.56766                0.9713614       -21.30294      0.004829367       -23.90835                0               0                0               0
1.57426                0.9705569       -21.50053      0.005002963       -27.28206                0               0                0               0
1.58086                0.9697401       -21.70084      0.005182929       -30.70176                0               0                0               0
1.58746                0.9689104       -21.90406      0.005369092       -34.16695                0               0                0               0
1.59406                0.9680663       -22.11036      0.005561258       -37.67666                0               0                0               0
1.60066                0.9672065       -22.31994      0.005759211        -41.2295                0               0                0               0
1.60726                0.9663287       -22.53298      0.005962718       -44.82375                0               0                0               0
1.61386                0.9654307       -22.74963      0.006171538       -48.45736                0               0                0               0
1.62046                0.9645098       -22.97007      0.006385421       -52.12812                0               0                0               0
1.62706                 0.963563       -23.19445       0.00660411       -55.83356                0               0                0               0
1.63366                0.9625869       -23.42289       0.00682735       -59.57114                0               0                0               0
1.64026                0.9615781        -23.6555       0.00705489        -63.3382                0               0                0               0
1.64686                0.9605329       -23.89239      0.007286483         -67.132                0               0                0               0
1.65347                0.9594475       -24.13363      0.007521895       -70.94983                0               0                0               0
1.66007                0.9583181       -24.37926      0.007760903       -74.78892                0               0                0               0
1.66667                0.9571408        -24.6293      0.008003303       -78.64657                0               0                0               0
1.67327                0.9559119       -24.88379      0.008248914        -82.5201                0               0                0               0
1.67987                0.9546279       -25.14268      0.008497573       -86.40692                0               0                0               0
1.68647                0.9532853       -25.40596      0.008749151       -90.30448                0               0                0               0
1.69307                0.9518807       -25.67357      0.009003543       -94.21037                0               0                0               0
1.69967                0.9504114       -25.94546      0.009260683       -98.12226                0               0                0               0
1.70627                0.9488748       -26.22154       0.00952054       -102.0379                0               0                0               0
1.71287                0.9472686       -26.50175       0.00978312       -105.9553                0               0                0               0
1.71947                0.9455907         -26.786       0.01004847       -109.8725                0               0                0               0
1.72607                0.9438398        -27.0742       0.01031669       -113.7878                0               0                0               0
1.73267                0.9420147       -27.36628       0.01058792       -117.6994                0               0                0               0
1.73927                0.9401144       -27.66217       0.01086235        -121.606                0               0                0               0
1.74587                0.9381386       -27.96183        0.0111402       -125.5063                0               0                0               0
1.75248                0.9360866       -28.26519       0.01142178       -129.3992                0               0                0               0
1.75908                0.9339587       -28.57226       0.01170741        -133.284                0               0                0               0
1.76568                0.9317549       -28.88303       0.01199749       -137.1599                0               0                0               0
1.77228                0.9294754       -29.19753       0.01229245       -141.0265                0               0                0               0
1.77888                0.9271205       -29.51582       0.01259278       -144.8837                0               0                0               0
1.78548                0.9246905       -29.83798       0.01289902       -148.7314                0               0                0               0
1.79208                0.9221853       -30.16414       0.01321173       -152.5699                0               0                0               0
1.79868                0.9196048       -30.49443       0.01353154       -156.3997                0               0                0               0
1.80528                0.9169486       -30.82903       0.01385909       -160.2215                0               0                0               0
1.81188                0.9142161       -31.16814       0.01419507       -164.0362                0               0                0               0
1.81848                 0.911406       -31.51198       0.01454018        -167.845                0               0                0               0
1.82508                0.9085166       -31.86081       0.01489515       -171.6493                0               0                0               0
1.83168                0.9055457       -32.21488       0.01526072       -175.4506                0               0                0               0
1.83828                0.9024904       -32.57447       0.01563762       -179.2505                0               0                0               0
1.84488                0.8993474       -32.93988        0.0160266         176.949                0               0                0               0
1.85149                0.8961127       -33.31138       0.01642838        173.1459                0               0                0               0
