! TOUCHSTONE file generated by CST MICROWAVE STUDIO
! Date and time: Tue Mar 11 13:57:07 2025
! Project name: transverse.cst
! Parameters = {Fracture=1; B=12.5; D=160; F=25; Feed=2.85625; L=100; M=20; R=0.384908; S=2; Theta=90; length=57.125; wave=114.25}
! Header version: 2024
! Port assignment regex: !\s*Touchstone port\s*([0-9]+)\s*=\s*(CST MWS port|CST DES external port|CST DES block port)\s*(.+)\s* \(\"(.*)\"\)(\s*mode\s*([0-9]+))?.*
! Touchstone port assignment:
! Touchstone port 1 = CST MWS port 1 ("")
! Touchstone port 2 = CST MWS port 2 ("")
# GHz S MA R 50
1                      0.9976034       -9.991356     0.0004517642        176.2406                0               0                0               0
1.00658                0.9975351       -10.07901     0.0004532313        171.3919                0               0                0               0
1.01316                0.9974683       -10.16733     0.0004533779          166.67                0               0                0               0
1.01974                0.9974023       -10.25637     0.0004522233        162.0873                0               0                0               0
1.02632                 0.997337       -10.34617     0.0004498035        157.6581                0               0                0               0
1.03289                0.9972716       -10.43677     0.0004461727        153.3986                0               0                0               0
1.03947                0.9972055       -10.52818     0.0004414068        149.3277                0               0                0               0
1.04605                0.9971381       -10.62046     0.0004356063        145.4665                0               0                0               0
1.05263                0.9970687        -10.7136     0.0004289003        141.8386                0               0                0               0
1.05921                0.9969962       -10.80764     0.0004214511        138.4701                0               0                0               0
1.06579                0.9969201       -10.90257     0.0004134588        135.3889                0               0                0               0
1.07237                0.9968396        -10.9984     0.0004051663         132.624                0               0                0               0
1.07895                0.9967539       -11.09512     0.0003968642        130.2035                0               0                0               0
1.08553                0.9966622       -11.19273     0.0003888936        128.1525                0               0                0               0
1.09211                0.9965641        -11.2912      0.000381647         126.489                0               0                0               0
1.09868                0.9964588       -11.39051     0.0003755639         125.219                0               0                0               0
1.10526                0.9963458       -11.49065      0.000371119        124.3307                0               0                0               0
1.11184                0.9962249       -11.59158     0.0003688026        123.7898                0               0                0               0
1.11842                0.9960957       -11.69327     0.0003690903        123.5352                0               0                0               0
1.125                  0.9959582       -11.79569     0.0003724067        123.4807                0               0                0               0
1.13158                0.9958121        -11.8988     0.0003790888        123.5204                0               0                0               0
1.13816                0.9956577       -12.00258     0.0003893559        123.5399                0               0                0               0
1.14474                 0.995495         -12.107     0.0004032952        123.4297                0               0                0               0
1.15132                0.9953245       -12.21204     0.0004208648        123.0968                0               0                0               0
1.15789                0.9951465       -12.31767     0.0004419117        122.4728                0               0                0               0
1.16447                0.9949613       -12.42387     0.0004661996        121.5159                0               0                0               0
1.17105                0.9947697       -12.53064      0.000493438        120.2087                0               0                0               0
1.17763                0.9945722       -12.63798     0.0005233076         118.553                0               0                0               0
1.18421                0.9943693       -12.74588       0.00055548        116.5647                0               0                0               0
1.19079                0.9941617       -12.85436     0.0005896311         114.268                0               0                0               0
1.19737                  0.99395       -12.96343     0.0006254483        111.6913                0               0                0               0
1.20395                0.9937347       -13.07312     0.0006626349        108.8648                0               0                0               0
1.21053                0.9935165       -13.18346     0.0007009112        105.8181                0               0                0               0
1.21711                0.9932959       -13.29449     0.0007400144        102.5793                0               0                0               0
1.22368                0.9930731       -13.40624     0.0007796971        99.17438                0               0                0               0
1.23026                0.9928484       -13.51877     0.0008197272        95.62693                0               0                0               0
1.23684                0.9926222       -13.63213     0.0008598859        91.95833                0               0                0               0
1.24342                0.9923944       -13.74637     0.0008999669        88.18776                0               0                0               0
1.25                    0.992165       -13.86154     0.0009397758        84.33247                0               0                0               0
1.25658                0.9919338       -13.97769     0.0009791291        80.40798                0               0                0               0
1.26316                0.9917006        -14.0949      0.001017855        76.42827                0               0                0               0
1.26974                0.9914648        -14.2132      0.001055792        72.40608                0               0                0               0
1.27632                0.9912263       -14.33264      0.001092791        68.35303                0               0                0               0
1.28289                 0.990984       -14.45327      0.001128713        64.27985                0               0                0               0
1.28947                0.9907376       -14.57514      0.001163434        60.19647                0               0                0               0
1.29605                0.9904861       -14.69826      0.001196841        56.11224                0               0                0               0
1.30263                0.9902288       -14.82269      0.001228837        52.03599                0               0                0               0
1.30921                 0.989965       -14.94843      0.001259341        47.97617                0               0                0               0
1.31579                0.9896936        -15.0755      0.001288286        43.94087                0               0                0               0
1.32237                0.9894141       -15.20391      0.001315629        39.93798                0               0                0               0
1.32895                0.9891254       -15.33366      0.001341341        35.97517                0               0                0               0
1.33553                 0.988827       -15.46476      0.001365421        32.05997                0               0                0               0
1.34211                0.9885182       -15.59719      0.001387889        28.19976                0               0                0               0
1.34868                0.9881985       -15.73094      0.001408791        24.40179                0               0                0               0
1.35526                0.9878673       -15.86599      0.001428202        20.67317                0               0                0               0
1.36184                0.9875245       -16.00234      0.001446228         17.0208                0               0                0               0
1.36842                0.9871696       -16.13995      0.001463006        13.45132                0               0                0               0
1.375                  0.9868026       -16.27881      0.001478707        9.970999                0               0                0               0
1.38158                0.9864237        -16.4189       0.00149354        6.585613                0               0                0               0
1.38816                0.9860328       -16.56021       0.00150775         3.30026                0               0                0               0
1.39474                0.9856304       -16.70272      0.001521619       0.1191725                0               0                0               0
1.40132                0.9852168       -16.84644      0.001535469       -2.954533                0               0                0               0
1.40789                0.9847924       -16.99137      0.001549658       -5.919106                0               0                0               0
1.41447                0.9843579       -17.13752      0.001564577       -8.774446                0               0                0               0
1.42105                0.9839136       -17.28489      0.001580649       -11.52237                0               0                0               0
1.42763                0.9834604       -17.43353      0.001598322       -14.16686                0               0                0               0
1.43421                0.9829989       -17.58346      0.001618063       -16.71425                0               0                0               0
1.44079                0.9825295       -17.73474      0.001640348       -19.17332                0               0                0               0
1.44737                0.9820529       -17.88743      0.001665652       -21.55529                0               0                0               0
1.45395                0.9815697       -18.04157      0.001694436       -23.87362                0               0                0               0
1.46053                0.9810801       -18.19725      0.001727141       -26.14376                0               0                0               0
1.46711                0.9805843       -18.35456      0.001764169        -28.3826                0               0                0               0
1.47368                0.9800827       -18.51357      0.001805878       -30.60796                0               0                0               0
1.48026                0.9795751       -18.67439      0.001852568       -32.83788                0               0                0               0
1.48684                0.9790615       -18.83712       0.00190448       -35.08999                0               0                0               0
1.49342                0.9785413       -19.00185      0.001961787        -37.3808                0               0                0               0
1.5                    0.9780141       -19.16869      0.002024596       -39.72523                0               0                0               0
1.50658                 0.977479       -19.33776      0.002092946       -42.13613                0               0                0               0
1.51316                0.9769353       -19.50913      0.002166817       -44.62403                0               0                0               0
1.51974                0.9763818       -19.68293      0.002246129       -47.19708                0               0                0               0
1.52632                0.9758173       -19.85925      0.002330751         -49.861                0               0                0               0
1.53289                0.9752403       -20.03817      0.002420511       -52.61925                0               0                0               0
1.53947                0.9746493       -20.21978      0.002515198       -55.47324                0               0                0               0
1.54605                0.9740427       -20.40415      0.002614573       -58.42262                0               0                0               0
1.55263                0.9734187       -20.59136      0.002718373       -61.46551                0               0                0               0
1.55921                0.9727755       -20.78146      0.002826319       -64.59884                0               0                0               0
1.56579                0.9721114       -20.97449      0.002938121       -67.81855                0               0                0               0
1.57237                0.9714243        -21.1705      0.003053482       -71.11991                0               0                0               0
1.57895                0.9707127       -21.36952      0.003172102       -74.49765                0               0                0               0
1.58553                0.9699747       -21.57157      0.003293682       -77.94621                0               0                0               0
1.59211                0.9692087       -21.77666      0.003417927       -81.45979                0               0                0               0
1.59868                0.9684131       -21.98479      0.003544551       -85.03257                0               0                0               0
1.60526                0.9675864       -22.19598      0.003673275       -88.65872                0               0                0               0
1.61184                0.9667274       -22.41022      0.003803835       -92.33249                0               0                0               0
1.61842                0.9658348        -22.6275      0.003935978       -96.04827                0               0                0               0
1.625                  0.9649077       -22.84782      0.004069472       -99.80063                0               0                0               0
1.63158                0.9639452       -23.07118      0.004204099       -103.5843                0               0                0               0
1.63816                0.9629466       -23.29757      0.004339666       -107.3944                0               0                0               0
1.64474                0.9619113         -23.527         0.004476       -111.2259                0               0                0               0
1.65132                0.9608391       -23.75949      0.004612955       -115.0744                0               0                0               0
1.65789                0.9597293       -23.99505      0.004750409       -118.9355                0               0                0               0
1.66447                0.9585822       -24.23371      0.004888273       -122.8051                0               0                0               0
1.67105                0.9573972       -24.47551      0.005026488       -126.6795                0               0                0               0
1.67763                0.9561746       -24.72052      0.005165026       -130.5549                0               0                0               0
1.68421                0.9549139       -24.96879      0.005303897       -134.4281                0               0                0               0
1.69079                0.9536154       -25.22041      0.005443146        -138.296                0               0                0               0
1.69737                0.9522788       -25.47548      0.005582859       -142.1558                0               0                0               0
1.70395                0.9509037       -25.73411      0.005723159       -146.0049                0               0                0               0
1.71053                0.9494899       -25.99642      0.005864213       -149.8411                0               0                0               0
1.71711                0.9480367       -26.26256      0.006006228       -153.6624                0               0                0               0
1.72368                0.9465435       -26.53267      0.006149459       -157.4672                0               0                0               0
1.73026                0.9450094       -26.80693      0.006294196       -161.2543                0               0                0               0
1.73684                0.9434329        -27.0855      0.006440778       -165.0226                0               0                0               0
1.74342                0.9418129       -27.36857      0.006589585       -168.7715                0               0                0               0
1.75                   0.9401475       -27.65634      0.006741036       -172.5008                0               0                0               0
1.75658                0.9384345       -27.94899      0.006895587       -176.2107                0               0                0               0
1.76316                0.9366719       -28.24674      0.007053736       -179.9016                0               0                0               0
1.76974                0.9348566       -28.54978      0.007216005        176.4254                0               0                0               0
1.77632                0.9329858       -28.85832      0.007382949        172.7692                0               0                0               0
1.78289                0.9310564       -29.17256      0.007555146        169.1279                0               0                0               0
1.78947                0.9290647       -29.49269      0.007733189        165.4996                0               0                0               0
1.79605                0.9270069       -29.81891      0.007917686        161.8819                0               0                0               0
1.80263                0.9248789        -30.1514      0.008109247        158.2719                0               0                0               0
1.80921                0.9226765       -30.49034      0.008308482        154.6669                0               0                0               0
1.81579                 0.920395        -30.8359      0.008515991        151.0635                0               0                0               0
1.82237                0.9180298       -31.18825      0.008732361        147.4583                0               0                0               0
1.82895                0.9155761       -31.54753       0.00895815        143.8479                0               0                0               0
1.83553                 0.913029       -31.91389      0.009193892        140.2286                0               0                0               0
1.84211                 0.910383       -32.28746      0.009440081        136.5968                0               0                0               0
1.84868                0.9076333       -32.66835      0.009697168         132.949                0               0                0               0
