! TOUCHSTONE file generated by CST MICROWAVE STUDIO
! Date and time: Tue Mar 11 13:58:26 2025
! Project name: transverse.cst
! Parameters = {Fracture=5; B=12.5; D=160; F=25; Feed=2.85625; L=100; M=20; R=0.384908; S=2; Theta=270; length=57.125; wave=114.25}
! Header version: 2024
! Port assignment regex: !\s*Touchstone port\s*([0-9]+)\s*=\s*(CST MWS port|CST DES external port|CST DES block port)\s*(.+)\s* \(\"(.*)\"\)(\s*mode\s*([0-9]+))?.*
! Touchstone port assignment:
! Touchstone port 1 = CST MWS port 1 ("")
! Touchstone port 2 = CST MWS port 2 ("")
# GHz S MA R 50
1                      0.9975797       -9.739011     0.0004785132        174.2133                0               0                0               0
1.0066                 0.9975138       -9.825079     0.0004783809        169.0801                0               0                0               0
1.0132                 0.9974499       -9.911854     0.0004766877         164.077                0               0                0               0
1.0198                 0.9973876       -9.999383     0.0004734466        159.2171                0               0                0               0
1.0264                 0.9973261       -10.08771      0.000468687        154.5158                0               0                0               0
1.033                  0.9972649       -10.17688     0.0004624584        149.9916                0               0                0               0
1.0396                 0.9972032       -10.26693     0.0004548331        145.6663                0               0                0               0
1.0462                 0.9971401       -10.35788     0.0004459105        141.5656                0               0                0               0
1.05281                0.9970749       -10.44976     0.0004358224        137.7195                0               0                0               0
1.05941                0.9970064       -10.54257     0.0004247393        134.1629                0               0                0               0
1.06601                 0.996934       -10.63633     0.0004128777        130.9356                0               0                0               0
1.07261                0.9968566       -10.73102      0.000400509        128.0817                0               0                0               0
1.07921                0.9967733       -10.82665     0.0003879695         125.649                0               0                0               0
1.08581                0.9966834       -10.92319     0.0003756696        123.6855                0               0                0               0
1.09241                0.9965863       -11.02063     0.0003641018        122.2343                0               0                0               0
1.09901                0.9964811       -11.11892     0.0003538414        121.3257                0               0                0               0
1.10561                0.9963675       -11.21804     0.0003455376        120.9651                0               0                0               0
1.11221                 0.996245       -11.31796     0.0003398852        121.1203                0               0                0               0
1.11881                0.9961136       -11.41863     0.0003375752        121.7101                0               0                0               0
1.12541                0.9959728       -11.52002     0.0003392258        122.6011                0               0                0               0
1.13201                 0.995823       -11.62208     0.0003453073        123.6188                0               0                0               0
1.13861                0.9956641       -11.72478     0.0003560829        124.5718                0               0                0               0
1.14521                0.9954965       -11.82809     0.0003715868        125.2829                0               0                0               0
1.15182                0.9953205       -11.93197     0.0003916439        125.6141                0               0                0               0
1.15842                0.9951368       -12.03641     0.0004159217        125.4793                0               0                0               0
1.16502                0.9949459       -12.14139     0.0004439918        124.8424                0               0                0               0
1.17162                0.9947485       -12.24689     0.0004753845        123.7063                0               0                0               0
1.17822                0.9945453       -12.35291     0.0005096284           122.1                0               0                0               0
1.18482                0.9943371       -12.45947     0.0005462736        120.0668                0               0                0               0
1.19142                0.9941245       -12.56656     0.0005849024        117.6554                0               0                0               0
1.19802                0.9939083       -12.67422     0.0006251324        114.9149                0               0                0               0
1.20462                0.9936892       -12.78248     0.0006666145        111.8913                0               0                0               0
1.21122                0.9934679       -12.89137     0.0007090303        108.6264                0               0                0               0
1.21782                0.9932448       -13.00094     0.0007520871         105.157                0               0                0               0
1.22442                0.9930203       -13.11124     0.0007955151        101.5157                0               0                0               0
1.23102                0.9927949       -13.22232     0.0008390631        97.73069                0               0                0               0
1.23762                0.9925685       -13.33425     0.0008824967        93.82639                0               0                0               0
1.24422                0.9923414       -13.44708     0.0009255966        89.82419                0               0                0               0
1.25083                0.9921132       -13.56087     0.0009681557        85.74277                0               0                0               0
1.25743                0.9918839        -13.6757       0.00100998        81.59855                0               0                0               0
1.26403                0.9916531       -13.79161      0.001050888        77.40613                0               0                0               0
1.27063                0.9914202       -13.90867      0.001090708        73.17856                0               0                0               0
1.27723                0.9911845       -14.02692      0.001129282        68.92764                0               0                0               0
1.28383                0.9909454       -14.14643      0.001166465         64.6642                0               0                0               0
1.29043                0.9907019       -14.26722      0.001202124        60.39822                0               0                0               0
1.29703                0.9904533       -14.38933      0.001236141        56.13911                0               0                0               0
1.30363                0.9901986        -14.5128      0.001268414        51.89573                0               0                0               0
1.31023                0.9899368       -14.63763      0.001298858        47.67662                0               0                0               0
1.31683                 0.989667       -14.76384      0.001327405        43.49005                0               0                0               0
1.32343                0.9893881       -14.89144       0.00135401        39.34409                0               0                0               0
1.33003                0.9890996       -15.02042      0.001378649        35.24672                0               0                0               0
1.33663                0.9888003       -15.15077      0.001401321        31.20585                0               0                0               0
1.34323                  0.98849       -15.28247      0.001422054        27.22935                0               0                0               0
1.34984                0.9881676       -15.41551      0.001440905        23.32503                0               0                0               0
1.35644                 0.987833       -15.54986      0.001457962        19.50069                0               0                0               0
1.36304                0.9874858        -15.6855      0.001473348        15.76402                0               0                0               0
1.36964                0.9871258        -15.8224      0.001487221        12.12255                0               0                0               0
1.37624                0.9867529       -15.96053      0.001499781        8.583506                0               0                0               0
1.38284                0.9863675       -16.09987      0.001511267         5.15367                0               0                0               0
1.38944                0.9859697        -16.2404      0.001521965        1.839173                0               0                0               0
1.39604                0.9855598       -16.38211      0.001532202       -1.354768                0               0                0               0
1.40264                0.9851385         -16.525      0.001542352       -4.424158                0               0                0               0
1.40924                0.9847063       -16.66906      0.001552832       -7.366574                0               0                0               0
1.41584                0.9842638       -16.81431      0.001564099       -10.18154                0               0                0               0
1.42244                 0.983812       -16.96076      0.001576649        -12.8709                0               0                0               0
1.42904                0.9833515       -17.10844      0.001591006       -15.43921                0               0                0               0
1.43564                0.9828829       -17.25741      0.001607715       -17.89398                0               0                0               0
1.44224                0.9824071       -17.40771      0.001627332       -20.24583                0               0                0               0
1.44884                0.9819247       -17.55939      0.001650407       -22.50853                0               0                0               0
1.45545                0.9814362       -17.71255      0.001677472       -24.69872                0               0                0               0
1.46205                 0.980942       -17.86726      0.001709025       -26.83553                0               0                0               0
1.46865                0.9804425       -18.02362      0.001745515       -28.93989                0               0                0               0
1.47525                0.9799377       -18.18171      0.001787328        -31.0337                0               0                0               0
1.48185                0.9794278       -18.34164       0.00183478       -33.13895                0               0                0               0
1.48845                0.9789122       -18.50353      0.001888103       -35.27677                0               0                0               0
1.49505                0.9783907       -18.66749       0.00194745       -37.46661                0               0                0               0
1.50165                0.9778624       -18.83362      0.002012888       -39.72552                0               0                0               0
1.50825                0.9773267       -19.00204      0.002084407       -42.06774                0               0                0               0
1.51485                0.9767824       -19.17286      0.002161925       -44.50441                0               0                0               0
1.52145                0.9762282       -19.34618      0.002245295       -47.04356                0               0                0               0
1.52805                0.9756628       -19.52209      0.002334316       -49.69024                0               0                0               0
1.53465                0.9750846        -19.7007      0.002428743       -52.44679                0               0                0               0
1.54125                0.9744918       -19.88208      0.002528293        -55.3132                0               0                0               0
1.54785                0.9738826       -20.06631       0.00263266       -58.28751                0               0                0               0
1.55446                0.9732551       -20.25344      0.002741514       -61.36617                0               0                0               0
1.56106                0.9726074       -20.44354      0.002854517       -64.54443                0               0                0               0
1.56766                0.9719376       -20.63664      0.002971321       -67.81665                0               0                0               0
1.57426                0.9712437       -20.83278      0.003091577       -71.17659                0               0                0               0
1.58086                0.9705239       -21.03197      0.003214939       -74.61761                0               0                0               0
1.58746                0.9697764       -21.23423      0.003341065       -78.13292                0               0                0               0
1.59406                0.9689994       -21.43957      0.003469624       -81.71563                0               0                0               0
1.60066                0.9681914       -21.64798      0.003600292       -85.35895                0               0                0               0
1.60726                 0.967351       -21.85945      0.003732765       -89.05621                0               0                0               0
1.61386                 0.966477       -22.07399       0.00386675       -92.80096                0               0                0               0
1.62046                0.9655683       -22.29156      0.004001975       -96.58693                0               0                0               0
1.62706                0.9646238       -22.51218      0.004138186       -100.4082                0               0                0               0
1.63366                 0.963643       -22.73581      0.004275154        -104.259                0               0                0               0
1.64026                0.9626254       -22.96247      0.004412673       -108.1339                0               0                0               0
1.64686                0.9615703       -23.19216      0.004550562       -112.0278                0               0                0               0
1.65347                0.9604778       -23.42489      0.004688673       -115.9358                0               0                0               0
1.66007                0.9593473       -23.66067      0.004826883       -119.8533                0               0                0               0
1.66667                0.9581792       -23.89955      0.004965109       -123.7761                0               0                0               0
1.67327                0.9569732       -24.14158      0.005103297          -127.7                0               0                0               0
1.67987                0.9557295       -24.38681      0.005241432       -131.6213                0               0                0               0
1.68647                0.9544479       -24.63532      0.005379541       -135.5365                0               0                0               0
1.69307                0.9531286       -24.88721      0.005517689       -139.4424                0               0                0               0
1.69967                0.9517715       -25.14258      0.005655988       -143.3362                0               0                0               0
1.70627                0.9503763       -25.40156      0.005794589       -147.2152                0               0                0               0
1.71287                0.9489425       -25.66428      0.005933692        -151.077                0               0                0               0
1.71947                0.9474697       -25.93091      0.006073546       -154.9198                0               0                0               0
1.72607                0.9459569        -26.2016      0.006214442        -158.742                0               0                0               0
1.73267                0.9444031       -26.47653      0.006356722       -162.5422                0               0                0               0
1.73927                0.9428069        -26.7559      0.006500773       -166.3196                0               0                0               0
1.74587                0.9411669        -27.0399      0.006647031       -170.0736                0               0                0               0
1.75248                 0.939481       -27.32872       0.00679597       -173.8044                0               0                0               0
1.75908                0.9377466       -27.62258      0.006948107       -177.5121                0               0                0               0
1.76568                0.9359617       -27.92169         0.007104        178.8024                0               0                0               0
1.77228                 0.934123       -28.22625      0.007264235        175.1379                0               0                0               0
1.77888                0.9322273       -28.53648      0.007429428        171.4927                0               0                0               0
1.78548                0.9302712       -28.85256       0.00760022        167.8648                0               0                0               0
1.79208                0.9282507       -29.17471      0.007777265        164.2517                0               0                0               0
1.79868                0.9261619        -29.5031      0.007961225        160.6505                0               0                0               0
1.80528                0.9240003       -29.83794      0.008152767        157.0581                0               0                0               0
1.81188                0.9217614       -30.17937      0.008352547        153.4711                0               0                0               0
1.81848                0.9194406       -30.52758      0.008561209        149.8856                0               0                0               0
1.82508                0.9170329       -30.88272      0.008779371        146.2978                0               0                0               0
1.83168                0.9145333       -31.24492      0.009007626        142.7037                0               0                0               0
1.83828                0.9119367       -31.61432      0.009246522        139.0994                0               0                0               0
1.84488                0.9092378       -31.99104      0.009496567        135.4806                0               0                0               0
1.85149                0.9064314       -32.37521      0.009758215        131.8436                0               0                0               0
