! TOUCHSTONE file generated by CST MICROWAVE STUDIO
! Date and time: Tue Mar 11 13:55:57 2025
! Project name: transverse.cst
! Parameters = {Fracture=5; B=10; D=160; F=25; Feed=2.85625; L=100; M=10; R=0.384908; S=2; Theta=0; length=57.125; wave=114.25}
! Header version: 2024
! Port assignment regex: !\s*Touchstone port\s*([0-9]+)\s*=\s*(CST MWS port|CST DES external port|CST DES block port)\s*(.+)\s* \(\"(.*)\"\)(\s*mode\s*([0-9]+))?.*
! Touchstone port assignment:
! Touchstone port 1 = CST MWS port 1 ("")
! Touchstone port 2 = CST MWS port 2 ("")
# GHz S MA R 50
1                      0.9977896       -9.745222     0.0003749142       -164.3953                0               0                0               0
1.0066                 0.9977045       -9.833174     0.0003786485       -168.1105                0               0                0               0
1.0132                 0.9976157       -9.921612     0.0003817339       -171.6815                0               0                0               0
1.0198                 0.9975236       -10.01054     0.0003842442       -175.0967                0               0                0               0
1.0264                 0.9974283       -10.09995     0.0003862723       -178.3447                0               0                0               0
1.033                  0.9973302       -10.18985     0.0003879317        178.5856                0               0                0               0
1.0396                 0.9972295       -10.28024     0.0003893578        175.7041                0               0                0               0
1.0462                 0.9971265       -10.37115     0.0003907088        173.0188                0               0                0               0
1.05281                0.9970214       -10.46258     0.0003921659        170.5351                0               0                0               0
1.05941                0.9969146       -10.55455      0.000393932        168.2548                0               0                0               0
1.06601                0.9968062       -10.64708     0.0003962298        166.1746                0               0                0               0
1.07261                0.9966963        -10.7402     0.0003992974        164.2854                0               0                0               0
1.07921                0.9965851       -10.83393     0.0004033825        162.5716                0               0                0               0
1.08581                0.9964728        -10.9283      0.000408735        161.0102                0               0                0               0
1.09241                0.9963591       -11.02335     0.0004155973        159.5712                0               0                0               0
1.09901                0.9962442       -11.11909     0.0004241944        158.2189                0               0                0               0
1.10561                0.9961279       -11.21557     0.0004347243         156.913                0               0                0               0
1.11221                0.9960099        -11.3128     0.0004473493        155.6115                0               0                0               0
1.11881                0.9958901       -11.41082     0.0004621901        154.2729                0               0                0               0
1.12541                0.9957681       -11.50966     0.0004793221        152.8588                0               0                0               0
1.13201                0.9956435       -11.60935     0.0004987764        151.3362                0               0                0               0
1.13861                0.9955161       -11.70989     0.0005205414        149.6786                0               0                0               0
1.14521                0.9953853       -11.81132     0.0005445684        147.8665                0               0                0               0
1.15182                0.9952506       -11.91365     0.0005707775        145.8876                0               0                0               0
1.15842                0.9951116       -12.01689     0.0005990633        143.7361                0               0                0               0
1.16502                0.9949679       -12.12106     0.0006293019        141.4113                0               0                0               0
1.17162                 0.994819       -12.22614     0.0006613554        138.9172                0               0                0               0
1.17822                0.9946644       -12.33216     0.0006950769        136.2606                0               0                0               0
1.18482                0.9945036        -12.4391     0.0007303141         133.451                0               0                0               0
1.19142                0.9943365       -12.54696     0.0007669115         130.499                0               0                0               0
1.19802                0.9941625       -12.65574     0.0008047135        127.4162                0               0                0               0
1.20462                0.9939815       -12.76543     0.0008435645        124.2143                0               0                0               0
1.21122                0.9937932       -12.87601     0.0008833116        120.9053                0               0                0               0
1.21782                0.9935975       -12.98748     0.0009238043        117.5005                0               0                0               0
1.22442                0.9933942       -13.09982     0.0009648956        114.0109                0               0                0               0
1.23102                0.9931836       -13.21303      0.001006443        110.4471                0               0                0               0
1.23762                0.9929655       -13.32709      0.001048307         106.819                0               0                0               0
1.24422                0.9927402         -13.442      0.001090356        103.1359                0               0                0               0
1.25083                0.9925078       -13.55776       0.00113246        99.40644                0               0                0               0
1.25743                0.9922686       -13.67436      0.001174499        95.63893                0               0                0               0
1.26403                0.9920228       -13.79181      0.001216358        91.84104                0               0                0               0
1.27063                0.9917708       -13.91012      0.001257927        88.01995                0               0                0               0
1.27723                 0.991513       -14.02929      0.001299108        84.18247                0               0                0               0
1.28383                0.9912495       -14.14935      0.001339808        80.33498                0               0                0               0
1.29043                 0.990981       -14.27032      0.001379947        76.48351                0               0                0               0
1.29703                0.9907076       -14.39222      0.001419453        72.63379                0               0                0               0
1.30363                0.9904297       -14.51508      0.001458264        68.79123                0               0                0               0
1.31023                0.9901475       -14.63894      0.001496333        64.96097                0               0                0               0
1.31683                0.9898612       -14.76384      0.001533625        61.14792                0               0                0               0
1.32343                 0.989571       -14.88983      0.001570118        57.35673                0               0                0               0
1.33003                 0.989277       -15.01694      0.001605805        53.59181                0               0                0               0
1.33663                0.9889791       -15.14523      0.001640696        49.85734                0               0                0               0
1.34323                0.9886774       -15.27475      0.001674817        46.15726                0               0                0               0
1.34984                0.9883716       -15.40555      0.001708212        42.49524                0               0                0               0
1.35644                0.9880614       -15.53768      0.001740943        38.87468                0               0                0               0
1.36304                0.9877467        -15.6712      0.001773091        35.29868                0               0                0               0
1.36964                 0.987427       -15.80615      0.001804757        31.76999                0               0                0               0
1.37624                0.9871018       -15.94257      0.001836061        28.29097                0               0                0               0
1.38284                0.9867706       -16.08053      0.001867144        24.86359                0               0                0               0
1.38944                0.9864327       -16.22005      0.001898165         21.4893                0               0                0               0
1.39604                0.9860878       -16.36119      0.001929304        18.16908                0               0                0               0
1.40264                 0.985735       -16.50397      0.001960758        14.90328                0               0                0               0
1.40924                0.9853737       -16.64843      0.001992742        11.69167                0               0                0               0
1.41584                0.9850033        -16.7946      0.002025485        8.533329                0               0                0               0
1.42244                0.9846231       -16.94251       0.00205923        5.426647                0               0                0               0
1.42904                0.9842325       -17.09217      0.002094229        2.369289                0               0                0               0
1.43564                0.9838308       -17.24362      0.002130743      -0.6418037                0               0                0               0
1.44224                0.9834176       -17.39686      0.002169035       -3.610397                0               0                0               0
1.44884                0.9829924       -17.55192      0.002209372       -6.540929                0               0                0               0
1.45545                0.9825547       -17.70881      0.002252011       -9.438453                0               0                0               0
1.46205                0.9821043       -17.86755      0.002297206       -12.30855                0               0                0               0
1.46865                0.9816408       -18.02816      0.002345197       -15.15721                0               0                0               0
1.47525                0.9811639       -18.19065      0.002396208       -17.99074                0               0                0               0
1.48185                0.9806735       -18.35506      0.002450445       -20.81562                0               0                0               0
1.48845                0.9801695        -18.5214       0.00250809       -23.63834                0               0                0               0
1.49505                0.9796519       -18.68972        0.0025693       -26.46525                0               0                0               0
1.50165                0.9791206       -18.86004      0.002634206       -29.30248                0               0                0               0
1.50825                0.9785756       -19.03242      0.002702908       -32.15576                0               0                0               0
1.51485                0.9780168        -19.2069      0.002775481       -35.03033                0               0                0               0
1.52145                0.9774444       -19.38354      0.002851969       -37.93086                0               0                0               0
1.52805                0.9768583        -19.5624      0.002932389       -40.86138                0               0                0               0
1.53465                0.9762584       -19.74357      0.003016729       -43.82525                0               0                0               0
1.54125                0.9756444       -19.92711      0.003104956       -46.82513                0               0                0               0
1.54785                0.9750162       -20.11312      0.003197011         -49.863                0               0                0               0
1.55446                0.9743734        -20.3017      0.003292818       -52.94016                0               0                0               0
1.56106                0.9737156       -20.49294      0.003392281       -56.05731                0               0                0               0
1.56766                 0.973042       -20.68694      0.003495291       -59.21455                0               0                0               0
1.57426                0.9723521       -20.88383      0.003601728       -62.41146                0               0                0               0
1.58086                0.9716447       -21.08371      0.003711462       -65.64718                0               0                0               0
1.58746                0.9709188       -21.28671      0.003824359       -68.92041                0               0                0               0
1.59406                0.9701731       -21.49293      0.003940281       -72.22954                0               0                0               0
1.60066                0.9694061        -21.7025      0.004059091       -75.57267                0               0                0               0
1.60726                0.9686162       -21.91553      0.004180654       -78.94767                0               0                0               0
1.61386                0.9678016       -22.13214      0.004304842       -82.35225                0               0                0               0
1.62046                0.9669601       -22.35244      0.004431534       -85.78398                0               0                0               0
1.62706                0.9660896       -22.57653      0.004560621       -89.24036                0               0                0               0
1.63366                 0.965188       -22.80451      0.004692005       -92.71884                0               0                0               0
1.64026                0.9642527       -23.03647      0.004825604       -96.21687                0               0                0               0
1.64686                0.9632811        -23.2725      0.004961353       -99.73193                0               0                0               0
1.65347                0.9622707       -23.51267      0.005099208       -103.2615                0               0                0               0
1.66007                0.9612188       -23.75706      0.005239143       -106.8033                0               0                0               0
1.66667                0.9601227       -24.00571       0.00538116       -110.3549                0               0                0               0
1.67327                0.9589794       -24.25868      0.005525279       -113.9142                0               0                0               0
1.67987                0.9577865       -24.51601      0.005671552       -117.4791                0               0                0               0
1.68647                 0.956541       -24.77773      0.005820055       -121.0478                0               0                0               0
1.69307                0.9552404       -25.04388      0.005970895       -124.6186                0               0                0               0
1.69967                0.9538821       -25.31446      0.006124207         -128.19                0               0                0               0
1.70627                0.9524633       -25.58949      0.006280152       -131.7605                0               0                0               0
1.71287                 0.950982         -25.869      0.006438928       -135.3293                0               0                0               0
1.71947                0.9494354       -26.15297      0.006600757       -138.8953                0               0                0               0
1.72607                0.9478216       -26.44143      0.006765894        -142.458                0               0                0               0
1.73267                0.9461383       -26.73437      0.006934621        -146.017                0               0                0               0
1.73927                0.9443835       -27.03181      0.007107248        -149.572                0               0                0               0
1.74587                0.9425553       -27.33375      0.007284111       -153.1233                0               0                0               0
1.75248                0.9406521       -27.64023      0.007465569       -156.6711                0               0                0               0
1.75908                0.9386717       -27.95125      0.007652002        -160.216                0               0                0               0
1.76568                0.9366127       -28.26686      0.007843813       -163.7589                0               0                0               0
1.77228                0.9344732       -28.58709      0.008041412       -167.3008                0               0                0               0
1.77888                0.9322516       -28.91201       0.00824523       -170.8429                0               0                0               0
1.78548                0.9299462       -29.24165      0.008455695       -174.3868                0               0                0               0
1.79208                0.9275553       -29.57611      0.008673251        -177.934                0               0                0               0
1.79868                0.9250768       -29.91547      0.008898332        178.5136                0               0                0               0
1.80528                 0.922509       -30.25981      0.009131371        174.9542                0               0                0               0
1.81188                0.9198496       -30.60926      0.009372789        171.3857                0               0                0               0
1.81848                0.9170961       -30.96393      0.009622996        167.8061                0               0                0               0
1.82508                0.9142462       -31.32395      0.009882379        164.2132                0               0                0               0
1.83168                 0.911297       -31.68947       0.01015131         160.605                0               0                0               0
1.83828                0.9082455       -32.06061       0.01043012        156.9792                0               0                0               0
1.84488                0.9050882       -32.43754       0.01071912         153.334                0               0                0               0
1.85149                0.9018214       -32.82041       0.01101859        149.6672                0               0                0               0
