! TOUCHSTONE file generated by CST MICROWAVE STUDIO
! Date and time: Tue Mar 11 13:56:58 2025
! Project name: transverse.cst
! Parameters = {Fracture=5; B=12.5; D=160; F=5; Feed=2.85625; L=100; M=30; R=0.384908; S=1; Theta=90; length=57.125; wave=114.25}
! Header version: 2024
! Port assignment regex: !\s*Touchstone port\s*([0-9]+)\s*=\s*(CST MWS port|CST DES external port|CST DES block port)\s*(.+)\s* \(\"(.*)\"\)(\s*mode\s*([0-9]+))?.*
! Touchstone port assignment:
! Touchstone port 1 = CST MWS port 1 ("")
! Touchstone port 2 = CST MWS port 2 ("")
# GHz S MA R 50
1                       0.997644       -9.803544     0.0003927589       -171.5311                0               0                0               0
1.0066                 0.9975471         -9.8921     0.0003962143        -176.117                0               0                0               0
1.0132                 0.9974462       -9.981054     0.0003984721        179.3935                0               0                0               0
1.0198                 0.9973419        -10.0704     0.0003995259        175.0125                0               0                0               0
1.0264                 0.9972347       -10.16013     0.0003993817        170.7535                0               0                0               0
1.033                  0.9971253       -10.25027     0.0003980596        166.6319                0               0                0               0
1.0396                 0.9970141        -10.3408      0.000395596        162.6652                0               0                0               0
1.0462                 0.9969019       -10.43176     0.0003920466        158.8734                0               0                0               0
1.05281                0.9967889       -10.52318     0.0003874887        155.2787                0               0                0               0
1.05941                0.9966759       -10.61506     0.0003820263        151.9065                0               0                0               0
1.06601                 0.996563       -10.70746     0.0003757932        148.7845                0               0                0               0
1.07261                0.9964508       -10.80042     0.0003689589        145.9433                0               0                0               0
1.07921                0.9963395       -10.89397     0.0003617334        143.4149                0               0                0               0
1.08581                 0.996229       -10.98816     0.0003543725        141.2318                0               0                0               0
1.09241                0.9961197       -11.08305     0.0003471831        139.4243                0               0                0               0
1.09901                0.9960111       -11.17867      0.000340525        138.0167                0               0                0               0
1.10561                0.9959033       -11.27508     0.0003348096        137.0224                0               0                0               0
1.11221                0.9957958       -11.37233     0.0003304921         136.437                0               0                0               0
1.11881                0.9956883       -11.47045     0.0003280539        136.2321                0               0                0               0
1.12541                0.9955801       -11.56949     0.0003279756        136.3503                0               0                0               0
1.13201                 0.995471       -11.66949     0.0003307007         136.704                0               0                0               0
1.13861                0.9953598       -11.77047     0.0003365963        137.1811                0               0                0               0
1.14521                0.9952462       -11.87247     0.0003459188        137.6565                0               0                0               0
1.15182                0.9951293        -11.9755     0.0003587946        138.0074                0               0                0               0
1.15842                0.9950083       -12.07957     0.0003752184        138.1281                0               0                0               0
1.16502                0.9948825       -12.18469     0.0003950701          137.94                0               0                0               0
1.17162                 0.994751       -12.29085      0.000418142        137.3946                0               0                0               0
1.17822                0.9946134       -12.39806     0.0004441689        136.4717                0               0                0               0
1.18482                0.9944688       -12.50631     0.0004728551        135.1732                0               0                0               0
1.19142                0.9943167       -12.61557     0.0005038948        133.5168                0               0                0               0
1.19802                0.9941568       -12.72582     0.0005369862        131.5297                0               0                0               0
1.20462                0.9939887       -12.83704     0.0005718389        129.2439                0               0                0               0
1.21122                0.9938122        -12.9492     0.0006081782        126.6925                0               0                0               0
1.21782                0.9936271       -13.06229     0.0006457458        123.9082                0               0                0               0
1.22442                0.9934335       -13.17627     0.0006843003        120.9215                0               0                0               0
1.23102                0.9932313       -13.29112     0.0007236149        117.7606                0               0                0               0
1.23762                0.9930212       -13.40683      0.000763478        114.4508                0               0                0               0
1.24422                0.9928032       -13.52336     0.0008036898        111.0151                0               0                0               0
1.25083                0.9925778       -13.64072     0.0008440632        107.4736                0               0                0               0
1.25743                0.9923456        -13.7589     0.0008844222        103.8447                0               0                0               0
1.26403                0.9921073        -13.8779     0.0009246015        100.1446                0               0                0               0
1.27063                0.9918634       -13.99773     0.0009644464        96.38784                0               0                0               0
1.27723                0.9916145       -14.11841      0.001003813        92.58758                0               0                0               0
1.28383                0.9913612       -14.23997      0.001042569        88.75577                0               0                0               0
1.29043                0.9911044       -14.36243      0.001080593        84.90331                0               0                0               0
1.29703                0.9908445       -14.48584      0.001117777        81.04026                0               0                0               0
1.30363                0.9905821       -14.61026      0.001154025        77.17593                0               0                0               0
1.31023                0.9903176       -14.73573      0.001189257        73.31901                0               0                0               0
1.31683                0.9900512       -14.86233      0.001223408        69.47771                0               0                0               0
1.32343                0.9897833       -14.99012       0.00125643        65.65976                0               0                0               0
1.33003                0.9895137       -15.11917      0.001288294        61.87252                0               0                0               0
1.33663                0.9892425       -15.24955      0.001318991          58.123                0               0                0               0
1.34323                0.9889695       -15.38135      0.001348533         54.4179                0               0                0               0
1.34984                0.9886943       -15.51464      0.001376958        50.76356                0               0                0               0
1.35644                0.9884164       -15.64949      0.001404326        47.16602                0               0                0               0
1.36304                0.9881351       -15.78597      0.001430726        43.63091                0               0                0               0
1.36964                0.9878496       -15.92417      0.001456275        40.16344                0               0                0               0
1.37624                0.9875589       -16.06413      0.001481118        36.76829                0               0                0               0
1.38284                0.9872621       -16.20592      0.001505432        33.44955                0               0                0               0
1.38944                0.9869582        -16.3496      0.001529425        30.21057                0               0                0               0
1.39604                 0.986646       -16.49519      0.001553334        27.05383                0               0                0               0
1.40264                0.9863243       -16.64276      0.001577431         23.9808                0               0                0               0
1.40924                0.9859921       -16.79231      0.001602011        20.99181                0               0                0               0
1.41584                 0.985648       -16.94388      0.001627399        18.08584                0               0                0               0
1.42244                 0.985291       -17.09748      0.001653945        15.26048                0               0                0               0
1.42904                0.9849201       -17.25313      0.001682013        12.51174                0               0                0               0
1.43564                0.9845341       -17.41082      0.001711985        9.834071                0               0                0               0
1.44224                0.9841323       -17.57055      0.001744245        7.220306                0               0                0               0
1.44884                0.9837138       -17.73233      0.001779181        4.661782                0               0                0               0
1.45545                0.9832781       -17.89614      0.001817167        2.148474                0               0                0               0
1.46205                0.9828244       -18.06199      0.001858565      -0.3307724                0               0                0               0
1.46865                0.9823526       -18.22986      0.001903708       -2.787939                0               0                0               0
1.47525                0.9818622       -18.39976      0.001952899       -5.235477                0               0                0               0
1.48185                0.9813533       -18.57169      0.002006401       -7.685922                0               0                0               0
1.48845                0.9808255       -18.74565      0.002064432        -10.1515                0               0                0               0
1.49505                0.9802791       -18.92166      0.002127164       -12.64376                0               0                0               0
1.50165                 0.979714       -19.09974      0.002194719       -15.17326                0               0                0               0
1.50825                0.9791305       -19.27993      0.002267167       -17.74927                0               0                0               0
1.51485                0.9785286       -19.46226      0.002344531       -20.37967                0               0                0               0
1.52145                0.9779086       -19.64678      0.002426787       -23.07074                0               0                0               0
1.52805                0.9772706       -19.83357      0.002513868       -25.82725                0               0                0               0
1.53465                0.9766146       -20.02269      0.002605668       -28.65242                0               0                0               0
1.54125                0.9759408       -20.21421      0.002702047       -31.54802                0               0                0               0
1.54785                0.9752487       -20.40825      0.002802835       -34.51455                0               0                0               0
1.55446                0.9745383       -20.60489      0.002907839       -37.55132                0               0                0               0
1.56106                0.9738091       -20.80424      0.003016844       -40.65668                0               0                0               0
1.56766                0.9730603       -21.00643      0.003129622       -43.82814                0               0                0               0
1.57426                 0.972291       -21.21157      0.003245936       -47.06252                0               0                0               0
1.58086                0.9715003       -21.41977      0.003365538       -50.35614                0               0                0               0
1.58746                0.9706867       -21.63117      0.003488182        -53.7049                0               0                0               0
1.59406                0.9698488        -21.8459      0.003613621       -57.10442                0               0                0               0
1.60066                0.9689848       -22.06406      0.003741614       -60.55012                0               0                0               0
1.60726                0.9680926       -22.28578      0.003871927       -64.03731                0               0                0               0
1.61386                  0.96717       -22.51117       0.00400434       -67.56127                0               0                0               0
1.62046                0.9662148       -22.74033      0.004138644       -71.11726                0               0                0               0
1.62706                0.9652244       -22.97335       0.00427465       -74.70062                0               0                0               0
1.63366                 0.964196       -23.21033      0.004412191       -78.30677                0               0                0               0
1.64026                0.9631268       -23.45132      0.004551121       -81.93125                0               0                0               0
1.64686                0.9620142       -23.69639      0.004691325       -85.56976                0               0                0               0
1.65347                0.9608549        -23.9456      0.004832713       -89.21814                0               0                0               0
1.66007                0.9596463       -24.19896      0.004975234       -92.87244                0               0                0               0
1.66667                0.9583853       -24.45652      0.005118868       -96.52892                0               0                0               0
1.67327                0.9570692       -24.71828       0.00526364        -100.184                0               0                0               0
1.67987                0.9556953       -24.98425       0.00540961       -103.8345                0               0                0               0
1.68647                0.9542608       -25.25441      0.005556889       -107.4773                0               0                0               0
1.69307                0.9527633       -25.52876      0.005705633       -111.1097                0               0                0               0
1.69967                0.9512006       -25.80727      0.005856046       -114.7293                0               0                0               0
1.70627                0.9495705       -26.08992      0.006008386       -118.3339                0               0                0               0
1.71287                 0.947871       -26.37669      0.006162961       -121.9218                0               0                0               0
1.71947                0.9461004       -26.66755      0.006320135       -125.4916                0               0                0               0
1.72607                0.9442569       -26.96248      0.006480323       -129.0423                0               0                0               0
1.73267                0.9423393       -27.26146      0.006643996       -132.5733                0               0                0               0
1.73927                0.9403464       -27.56449      0.006811678       -136.0844                0               0                0               0
1.74587                0.9382768       -27.87157      0.006983939        -139.576                0               0                0               0
1.75248                0.9361296       -28.18272        0.0071614       -143.0489                0               0                0               0
1.75908                0.9339039       -28.49795      0.007344723       -146.5043                0               0                0               0
1.76568                0.9315986       -28.81731      0.007534609       -149.9438                0               0                0               0
1.77228                0.9292129       -29.14086      0.007731792       -153.3697                0               0                0               0
1.77888                0.9267458       -29.46868       0.00793703       -156.7844                0               0                0               0
1.78548                 0.924196       -29.80085      0.008151098        -160.191                0               0                0               0
1.79208                0.9215623       -30.13748      0.008374785       -163.5928                0               0                0               0
1.79868                0.9188435       -30.47869      0.008608877       -166.9934                0               0                0               0
1.80528                0.9160377       -30.82463      0.008854153       -170.3967                0               0                0               0
1.81188                 0.913143       -31.17545      0.009111377       -173.8068                0               0                0               0
1.81848                 0.910157       -31.53132      0.009381282       -177.2277                0               0                0               0
1.82508                0.9070772        -31.8924      0.009664572        179.3363                0               0                0               0
1.83168                0.9039004       -32.25889      0.009961902        175.8811                0               0                0               0
1.83828                0.9006233       -32.63097       0.01027389        172.4027                0               0                0               0
1.84488                0.8972422       -33.00884       0.01060107        168.8971                0               0                0               0
1.85149                0.8937525       -33.39267       0.01094394        165.3608                0               0                0               0
