! TOUCHSTONE file generated by CST MICROWAVE STUDIO
! Date and time: Tue Mar 11 13:56:50 2025
! Project name: transverse.cst
! Parameters = {Fracture=1; B=12.5; D=160; F=5; Feed=2.85625; L=100; M=20; R=0.384908; S=1; Theta=90; length=57.125; wave=114.25}
! Header version: 2024
! Port assignment regex: !\s*Touchstone port\s*([0-9]+)\s*=\s*(CST MWS port|CST DES external port|CST DES block port)\s*(.+)\s* \(\"(.*)\"\)(\s*mode\s*([0-9]+))?.*
! Touchstone port assignment:
! Touchstone port 1 = CST MWS port 1 ("")
! Touchstone port 2 = CST MWS port 2 ("")
# GHz S MA R 50
1                      0.9978472       -10.03256     0.0003344924       -139.5985                0               0                0               0
1.00662                0.9977454       -10.12399      0.000349966       -143.8543                0               0                0               0
1.01325                 0.997636       -10.21573     0.0003648045       -148.1283                0               0                0               0
1.01987                0.9975199       -10.30772     0.0003789363       -152.4062                0               0                0               0
1.02649                 0.997398       -10.39994     0.0003922967       -156.6744                0               0                0               0
1.03311                0.9972716       -10.49237     0.0004048278       -160.9208                0               0                0               0
1.03974                0.9971417       -10.58499     0.0004164797       -165.1334                0               0                0               0
1.04636                0.9970096       -10.67781      0.000427211        -169.301                0               0                0               0
1.05298                0.9968764       -10.77084     0.0004369906       -173.4124                0               0                0               0
1.0596                 0.9967434       -10.86411     0.0004457982       -177.4564                0               0                0               0
1.06623                0.9966117       -10.95765     0.0004536259        178.5784                0               0                0               0
1.07285                0.9964825       -11.05152     0.0004604797        174.7033                0               0                0               0
1.07947                0.9963563       -11.14578     0.0004663812        170.9301                0               0                0               0
1.08609                0.9962342       -11.24049     0.0004713692         167.271                0               0                0               0
1.09272                0.9961166       -11.33574     0.0004755012         163.738                0               0                0               0
1.09934                0.9960039       -11.43161     0.0004788562        160.3435                0               0                0               0
1.10596                0.9958962       -11.52819     0.0004815355        157.0997                0               0                0               0
1.11258                0.9957935       -11.62555     0.0004836652        154.0184                0               0                0               0
1.11921                0.9956955        -11.7238     0.0004853977        151.1105                0               0                0               0
1.12583                0.9956016       -11.82301     0.0004869121        148.3852                0               0                0               0
1.13245                0.9955111       -11.92326     0.0004884151        145.8496                0               0                0               0
1.13907                0.9954231       -12.02463     0.0004901398        143.5076                0               0                0               0
1.1457                 0.9953365       -12.12718     0.0004923435        141.3586                0               0                0               0
1.15232                  0.99525       -12.23098      0.000495303         139.397                0               0                0               0
1.15894                0.9951625       -12.33605     0.0004993086         137.611                0               0                0               0
1.16556                0.9950722       -12.44243     0.0005046553        135.9818                0               0                0               0
1.17219                0.9949781       -12.55014     0.0005116323        134.4841                0               0                0               0
1.17881                0.9948784       -12.65919     0.0005205112        133.0861                0               0                0               0
1.18543                0.9947718       -12.76957     0.0005315338        131.7511                0               0                0               0
1.19205                 0.994657       -12.88126     0.0005449014        130.4396                0               0                0               0
1.19868                0.9945328       -12.99423      0.000560766        129.1114                0               0                0               0
1.2053                 0.9943981       -13.10844     0.0005792248         127.728                0               0                0               0
1.21192                 0.994252       -13.22385     0.0006003193        126.2551                0               0                0               0
1.21854                0.9940937       -13.34039     0.0006240364        124.6643                0               0                0               0
1.22517                0.9939229       -13.45802      0.000650314        122.9334                0               0                0               0
1.23179                0.9937392       -13.57666     0.0006790475        121.0476                0               0                0               0
1.23841                0.9935426       -13.69625     0.0007100978        118.9983                0               0                0               0
1.24503                0.9933332       -13.81675     0.0007432983        116.7827                0               0                0               0
1.25166                0.9931117       -13.93809     0.0007784632        114.4028                0               0                0               0
1.25828                0.9928784       -14.06022     0.0008153926        111.8643                0               0                0               0
1.2649                 0.9926342       -14.18311     0.0008538785        109.1757                0               0                0               0
1.27152                0.9923801       -14.30672     0.0008937084        106.3472                0               0                0               0
1.27815                0.9921171       -14.43104     0.0009346687        103.3903                0               0                0               0
1.28477                0.9918466       -14.55607     0.0009765474        100.3171                0               0                0               0
1.29139                0.9915696       -14.68182      0.001019136         97.1398                0               0                0               0
1.29801                0.9912874        -14.8083       0.00106223         93.8706                0               0                0               0
1.30464                0.9910013       -14.93557      0.001105633        90.52139                0               0                0               0
1.31126                0.9907123       -15.06367      0.001149155        87.10363                0               0                0               0
1.31788                0.9904214       -15.19267      0.001192615        83.62833                0               0                0               0
1.3245                 0.9901299       -15.32265      0.001235842        80.10602                0               0                0               0
1.33113                 0.989838        -15.4537      0.001278674         76.5467                0               0                0               0
1.33775                0.9895465       -15.58592      0.001320965        72.95992                0               0                0               0
1.34437                0.9892556       -15.71942      0.001362578        69.35478                0               0                0               0
1.35099                0.9889651       -15.85431      0.001403394        65.73996                0               0                0               0
1.35762                0.9886751        -15.9907      0.001443309        62.12379                0               0                0               0
1.36424                0.9883848       -16.12871      0.001482237        58.51421                0               0                0               0
1.37086                0.9880936       -16.26846      0.001520112        54.91889                0               0                0               0
1.37748                0.9878004       -16.41004      0.001556889        51.34516                0               0                0               0
1.38411                0.9875038       -16.55356      0.001592546         47.8001                0               0                0               0
1.39073                0.9872025       -16.69912      0.001627087        44.29049                0               0                0               0
1.39735                0.9868947       -16.84678      0.001660542        40.82277                0               0                0               0
1.40397                0.9865789       -16.99662      0.001692972         37.4031                0               0                0               0
1.4106                 0.9862528        -17.1487      0.001724468        34.03727                0               0                0               0
1.41722                0.9859147       -17.30305      0.001755152        30.73061                0               0                0               0
1.42384                0.9855626        -17.4597      0.001785182        27.48797                0               0                0               0
1.43046                0.9851945       -17.61866      0.001814751         24.3136                0               0                0               0
1.43709                0.9848085       -17.77992      0.001844088        21.21105                0               0                0               0
1.44371                0.9844029       -17.94347      0.001873456        18.18303                0               0                0               0
1.45033                0.9839759       -18.10928      0.001903157        15.23131                0               0                0               0
1.45695                0.9835263       -18.27731      0.001933525        12.35656                0               0                0               0
1.46358                0.9830527       -18.44752      0.001964924        9.558241                0               0                0               0
1.4702                 0.9825542       -18.61985       0.00199775        6.834446                0               0                0               0
1.47682                  0.98203       -18.79424      0.002032418        4.181863                0               0                0               0
1.48344                0.9814797       -18.97065      0.002069364        1.595691                0               0                0               0
1.49007                 0.980903       -19.14902      0.002109031      -0.9303441                0               0                0               0
1.49669                0.9802999       -19.32929      0.002151868       -3.403932                0               0                0               0
1.50331                0.9796708       -19.51143      0.002198316       -5.834042                0               0                0               0
1.50993                 0.979016       -19.69541      0.002248801       -8.230728                0               0                0               0
1.51656                0.9783363       -19.88121      0.002303727       -10.60486                0               0                0               0
1.52318                0.9776324       -20.06883      0.002363464       -12.96781                0               0                0               0
1.5298                 0.9769053       -20.25827      0.002428346       -15.33111                0               0                0               0
1.53642                0.9761559       -20.44958      0.002498659        -17.7061                0               0                0               0
1.54305                0.9753849       -20.64279      0.002574644       -20.10359                0               0                0               0
1.54967                0.9745936       -20.83798      0.002656485       -22.53356                0               0                0               0
1.55629                0.9737827       -21.03522      0.002744319        -25.0049                0               0                0               0
1.56291                0.9729529       -21.23462      0.002838228       -27.52523                0               0                0               0
1.56954                0.9721046        -21.4363      0.002938247       -30.10082                0               0                0               0
1.57616                 0.971238       -21.64039      0.003044367       -32.73651                0               0                0               0
1.58278                0.9703531       -21.84704      0.003156534       -35.43573                0               0                0               0
1.5894                 0.9694495        -22.0564      0.003274663       -38.20061                0               0                0               0
1.59603                0.9685266       -22.26864      0.003398637       -41.03202                0               0                0               0
1.60265                0.9675835       -22.48393      0.003528316       -43.92978                0               0                0               0
1.60927                0.9666184       -22.70243      0.003663539       -46.89273                0               0                0               0
1.61589                0.9656298       -22.92431      0.003804134       -49.91893                0               0                0               0
1.62252                0.9646155       -23.14974      0.003949922       -53.00579                0               0                0               0
1.62914                0.9635729       -23.37887       0.00410072       -56.15021                0               0                0               0
1.63576                0.9624994       -23.61184      0.004256348       -59.34872                0               0                0               0
1.64238                0.9613918       -23.84878      0.004416631       -62.59756                0               0                0               0
1.64901                0.9602469       -24.08982      0.004581406       -65.89281                0               0                0               0
1.65563                0.9590612       -24.33503      0.004750526       -69.23046                0               0                0               0
1.66225                 0.957831       -24.58451      0.004923859        -72.6065                0               0                0               0
1.66887                0.9565527       -24.83831      0.005101298       -76.01696                0               0                0               0
1.6755                 0.9552224       -25.09645      0.005282759       -79.45795                0               0                0               0
1.68212                0.9538365       -25.35897      0.005468187       -82.92575                0               0                0               0
1.68874                0.9523915       -25.62584       0.00565756       -86.41679                0               0                0               0
1.69536                0.9508838       -25.89706      0.005850885       -89.92774                0               0                0               0
1.70199                0.9493101       -26.17257      0.006048209       -93.45545                0               0                0               0
1.70861                0.9476674       -26.45232      0.006249617       -96.99706                0               0                0               0
1.71523                0.9459529       -26.73626      0.006455231         -100.55                0               0                0               0
1.72185                0.9441643       -27.02429       0.00666522       -104.1118                0               0                0               0
1.72848                0.9422994       -27.31635      0.006879791       -107.6806                0               0                0               0
1.7351                 0.9403565       -27.61235      0.007099197       -111.2546                0               0                0               0
1.74172                0.9383339       -27.91221      0.007323735       -114.8324                0               0                0               0
1.74834                0.9362307       -28.21586      0.007553745       -118.4128                0               0                0               0
1.75497                 0.934046       -28.52323      0.007789611       -121.9952                0               0                0               0
1.76159                0.9317791       -28.83427      0.008031756        -125.579                0               0                0               0
1.76821                0.9294299       -29.14896      0.008280646        -129.164                0               0                0               0
1.77483                0.9269981       -29.46726      0.008536781       -132.7506                0               0                0               0
1.78146                0.9244837       -29.78921      0.008800696        -136.339                0               0                0               0
1.78808                0.9218868       -30.11481      0.009072958       -139.9302                0               0                0               0
1.7947                 0.9192075       -30.44414      0.009354154        -143.525                0               0                0               0
1.80132                0.9164455       -30.77728      0.009644897       -147.1248                0               0                0               0
1.80795                0.9136007       -31.11434      0.009945807       -150.7312                0               0                0               0
1.81457                0.9106729       -31.45546       0.01025752       -154.3457                0               0                0               0
1.82119                0.9076612        -31.8008       0.01058068       -157.9702                0               0                0               0
1.82781                0.9045645       -32.15055       0.01091591       -161.6068                0               0                0               0
1.83444                0.9013812       -32.50492       0.01126383       -165.2575                0               0                0               0
1.84106                0.8981095       -32.86413       0.01162504       -168.9245                0               0                0               0
1.84768                0.8947468       -33.22843       0.01200014         -172.61                0               0                0               0
1.8543                 0.8912901       -33.59806       0.01238966       -176.3161                0               0                0               0
