! TOUCHSTONE file generated by CST MICROWAVE STUDIO
! Date and time: Tue Mar 11 13:57:45 2025
! Project name: transverse.cst
! Parameters = {Fracture=5; B=12.5; D=160; F=25; Feed=2.85625; L=100; M=10; R=0.384908; S=2; Theta=180; length=57.125; wave=114.25}
! Header version: 2024
! Port assignment regex: !\s*Touchstone port\s*([0-9]+)\s*=\s*(CST MWS port|CST DES external port|CST DES block port)\s*(.+)\s* \(\"(.*)\"\)(\s*mode\s*([0-9]+))?.*
! Touchstone port assignment:
! Touchstone port 1 = CST MWS port 1 ("")
! Touchstone port 2 = CST MWS port 2 ("")
# GHz S MA R 50
1                      0.9977755       -9.765061     0.0003904635       -168.5441                0               0                0               0
1.0066                 0.9976909       -9.853184     0.0003927542       -172.4976                0               0                0               0
1.0132                  0.997603       -9.941811       0.00039421       -176.2893                0               0                0               0
1.0198                 0.9975118       -10.03094     0.0003949084       -179.9049                0               0                0               0
1.0264                 0.9974179       -10.12058     0.0003949492        176.6707                0               0                0               0
1.033                  0.9973212       -10.21072     0.0003944572        173.4529                0               0                0               0
1.0396                  0.997222       -10.30139     0.0003935843        170.4565                0               0                0               0
1.0462                 0.9971206        -10.3926     0.0003925117        167.6955                0               0                0               0
1.05281                 0.997017       -10.48436     0.0003914511         165.181                0               0                0               0
1.05941                0.9969116       -10.57668     0.0003906449        162.9206                0               0                0               0
1.06601                0.9968045        -10.6696     0.0003903643        160.9161                0               0                0               0
1.07261                0.9966956       -10.76313     0.0003909053        159.1615                0               0                0               0
1.07921                0.9965852       -10.85729     0.0003925812        157.6417                0               0                0               0
1.08581                0.9964732       -10.95212     0.0003957122        156.3305                0               0                0               0
1.09241                0.9963596       -11.04764     0.0004006123        155.1909                0               0                0               0
1.09901                0.9962441       -11.14388     0.0004075729        154.1754                0               0                0               0
1.10561                0.9961268       -11.24085     0.0004168479         153.229                0               0                0               0
1.11221                0.9960072        -11.3386     0.0004286395        152.2928                0               0                0               0
1.11881                0.9958853       -11.43714     0.0004430891        151.3082                0               0                0               0
1.12541                0.9957607        -11.5365     0.0004602727        150.2217                0               0                0               0
1.13201                0.9956331        -11.6367     0.0004802027        148.9881                0               0                0               0
1.13861                 0.995502       -11.73775     0.0005028336        147.5729                0               0                0               0
1.14521                 0.995367       -11.83968     0.0005280717        145.9528                0               0                0               0
1.15182                 0.995228       -11.94249     0.0005557857        144.1151                0               0                0               0
1.15842                0.9950842       -12.04619     0.0005858166         142.056                0               0                0               0
1.16502                0.9949352        -12.1508     0.0006179871        139.7791                0               0                0               0
1.17162                0.9947809       -12.25631      0.000652109        137.2935                0               0                0               0
1.17822                0.9946207       -12.36272     0.0006879885        134.6117                0               0                0               0
1.18482                0.9944542       -12.47004     0.0007254307        131.7483                0               0                0               0
1.19142                0.9942813       -12.57826     0.0007642421        128.7192                0               0                0               0
1.19802                0.9941015       -12.68736     0.0008042322        125.5403                0               0                0               0
1.20462                0.9939148       -12.79736     0.0008452154        122.2275                0               0                0               0
1.21122                0.9937211       -12.90823     0.0008870107        118.7958                0               0                0               0
1.21782                0.9935201       -13.01998     0.0009294423        115.2596                0               0                0               0
1.22442                0.9933119       -13.13258     0.0009723404        111.6322                0               0                0               0
1.23102                0.9930964       -13.24605      0.001015541        107.9261                0               0                0               0
1.23762                0.9928738       -13.36036      0.001058886        104.1528                0               0                0               0
1.24422                0.9926444       -13.47552      0.001102225        100.3229                0               0                0               0
1.25083                0.9924081       -13.59154      0.001145411        96.44624                0               0                0               0
1.25743                0.9921653        -13.7084      0.001188308        92.53196                0               0                0               0
1.26403                0.9919162       -13.82612      0.001230785        88.58851                0               0                0               0
1.27063                0.9916611       -13.94472       0.00127272        84.62373                0               0                0               0
1.27723                0.9914001        -14.0642      0.001314001        80.64499                0               0                0               0
1.28383                0.9911339       -14.18458      0.001354523        76.65919                0               0                0               0
1.29043                0.9908626       -14.30589      0.001394195        72.67286                0               0                0               0
1.29703                0.9905862       -14.42816      0.001432934        68.69215                0               0                0               0
1.30363                0.9903053       -14.55141      0.001470672        64.72295                0               0                0               0
1.31023                0.9900198       -14.67569      0.001507352        60.77085                0               0                0               0
1.31683                0.9897301       -14.80103      0.001542933        56.84121                0               0                0               0
1.32343                 0.989436       -14.92747      0.001577391        52.93918                0               0                0               0
1.33003                0.9891377       -15.05505      0.001610716        49.06969                0               0                0               0
1.33663                 0.988835       -15.18382      0.001642918        45.23745                0               0                0               0
1.34323                 0.988528       -15.31383      0.001674025        41.44701                0               0                0               0
1.34984                0.9882163       -15.44512      0.001704086        37.70262                0               0                0               0
1.35644                0.9878997       -15.57775       0.00173317        34.00832                0               0                0               0
1.36304                0.9875779       -15.71174       0.00176137        30.36788                0               0                0               0
1.36964                0.9872507       -15.84716      0.001788801        26.78471                0               0                0               0
1.37624                0.9869172       -15.98403      0.001815602        23.26185                0               0                0               0
1.38284                0.9865773       -16.12241      0.001841935         19.8019                0               0                0               0
1.38944                0.9862304       -16.26233      0.001867987        16.40693                0               0                0               0
1.39604                 0.985876       -16.40382      0.001893968        13.07842                0               0                0               0
1.40264                0.9855134       -16.54692      0.001920109          9.8172                0               0                0               0
1.40924                0.9851421       -16.69166      0.001946666        6.623308                0               0                0               0
1.41584                0.9847616       -16.83806       0.00197391        3.495971                0               0                0               0
1.42244                0.9843714       -16.98615      0.002002132       0.4335129                0               0                0               0
1.42904                 0.983971       -17.13595      0.002031634       -2.566695                0               0                0               0
1.43564                0.9835599       -17.28749      0.002062729       -5.508258                0               0                0               0
1.44224                0.9831377       -17.44078      0.002095733       -8.395763                0               0                0               0
1.44884                0.9827039       -17.59584      0.002130965       -11.23474                0               0                0               0
1.45545                0.9822586        -17.7527      0.002168736       -14.03159                0               0                0               0
1.46205                0.9818011       -17.91137      0.002209347       -16.79349                0               0                0               0
1.46865                0.9813316       -18.07189      0.002253083       -19.52823                0               0                0               0
1.47525                0.9808496       -18.23428      0.002300207       -22.24407                0               0                0               0
1.48185                0.9803552       -18.39856      0.002350957       -24.94948                0               0                0               0
1.48845                0.9798483       -18.56479      0.002405538         -27.653                0               0                0               0
1.49505                0.9793288       -18.73299      0.002464123       -30.36298                0               0                0               0
1.50165                0.9787967       -18.90322       0.00252685       -33.08738                0               0                0               0
1.50825                 0.978252       -19.07553      0.002593818       -35.83364                0               0                0               0
1.51485                0.9776946       -19.24997      0.002665089       -38.60841                0               0                0               0
1.52145                0.9771245       -19.42662       0.00274069       -41.41759                0               0                0               0
1.52805                0.9765415       -19.60555      0.002820609       -44.26611                0               0                0               0
1.53465                0.9759454       -19.78684      0.002904804       -47.15797                0               0                0               0
1.54125                0.9753358       -19.97057      0.002993203       -50.09621                0               0                0               0
1.54785                0.9747125       -20.15684      0.003085705       -53.08292                0               0                0               0
1.55446                 0.974075       -20.34575      0.003182189       -56.11933                0               0                0               0
1.56106                0.9734225       -20.53739      0.003282513       -59.20585                0               0                0               0
1.56766                0.9727542       -20.73189      0.003386516       -62.34214                0               0                0               0
1.57426                0.9720691       -20.92934      0.003494031       -65.52723                0               0                0               0
1.58086                0.9713664       -21.12985       0.00360488       -68.75959                0               0                0               0
1.58746                0.9706443       -21.33355      0.003718878       -72.03723                0               0                0               0
1.59406                0.9699019       -21.54054      0.003835843       -75.35777                0               0                0               0
1.60066                0.9691372       -21.75093      0.003955592       -78.71855                0               0                0               0
1.60726                0.9683486       -21.96483      0.004077948       -82.11665                0               0                0               0
1.61386                 0.967534       -22.18234      0.004202742       -85.54902                0               0                0               0
1.62046                0.9666915       -22.40356      0.004329815       -89.01249                0               0                0               0
1.62706                0.9658188       -22.62859      0.004459021       -92.50384                0               0                0               0
1.63366                0.9649137       -22.85751      0.004590232       -96.01983                0               0                0               0
1.64026                0.9639736        -23.0904      0.004723334       -99.55725                0               0                0               0
1.64686                0.9629962       -23.32732       0.00485824        -103.113                0               0                0               0
1.65347                0.9619789       -23.56835      0.004994878       -106.6839                0               0                0               0
1.66007                0.9609191       -23.81353      0.005133207       -110.2672                0               0                0               0
1.66667                0.9598144       -24.06292      0.005273208       -113.8599                0               0                0               0
1.67327                0.9586621       -24.31655      0.005414895       -117.4595                0               0                0               0
1.67987                0.9574597       -24.57445      0.005558307       -121.0634                0               0                0               0
1.68647                0.9562048       -24.83665      0.005703518       -124.6695                0               0                0               0
1.69307                0.9548949       -25.10317      0.005850632       -128.2756                0               0                0               0
1.69967                0.9535278       -25.37403       0.00599979       -131.8798                0               0                0               0
1.70627                0.9521014       -25.64923      0.006151162       -135.4807                0               0                0               0
1.71287                0.9506135       -25.92879      0.006304959       -139.0768                0               0                0               0
1.71947                 0.949062       -26.21273      0.006461419       -142.6671                0               0                0               0
1.72607                0.9474453       -26.50105      0.006620821       -146.2508                0               0                0               0
1.73267                0.9457613       -26.79377       0.00678347       -149.8272                0               0                0               0
1.73927                0.9440086       -27.09092      0.006949711       -153.3963                0               0                0               0
1.74587                0.9421854       -27.39252      0.007119913       -156.9579                0               0                0               0
1.75248                0.9402903        -27.6986      0.007294475       -160.5126                0               0                0               0
1.75908                0.9383218       -28.00923       0.00747382       -164.0609                0               0                0               0
1.76568                0.9362783       -28.32443      0.007658394       -167.6038                0               0                0               0
1.77228                0.9341586       -28.64429       0.00784866       -171.1424                0               0                0               0
1.77888                0.9319608       -28.96889      0.008045095       -174.6782                0               0                0               0
1.78548                0.9296836       -29.29832      0.008248187        -178.213                0               0                0               0
1.79208                0.9273252       -29.63268      0.008458426        178.2515                0               0                0               0
1.79868                0.9248838        -29.9721      0.008676304         174.713                0               0                0               0
1.80528                0.9223574        -30.3167      0.008902304        171.1694                0               0                0               0
1.81188                0.9197436       -30.66663      0.009136901        167.6182                0               0                0               0
1.81848                0.9170402       -31.02205      0.009380552        164.0569                0               0                0               0
1.82508                0.9142442       -31.38313      0.009633694        160.4832                0               0                0               0
1.83168                0.9113527       -31.75004      0.009896735        156.8944                0               0                0               0
1.83828                0.9083622       -32.12296       0.01017006        153.2881                0               0                0               0
1.84488                0.9052691       -32.50208         0.010454        149.6617                0               0                0               0
1.85149                0.9020692       -32.88761       0.01074887        146.0131                0               0                0               0
