! TOUCHSTONE file generated by CST MICROWAVE STUDIO
! Date and time: Tue Mar 11 13:58:05 2025
! Project name: transverse.cst
! Parameters = {Fracture=1; B=12.5; D=160; F=5; Feed=2.85625; L=100; M=20; R=0.384908; S=2; Theta=270; length=57.125; wave=114.25}
! Header version: 2024
! Port assignment regex: !\s*Touchstone port\s*([0-9]+)\s*=\s*(CST MWS port|CST DES external port|CST DES block port)\s*(.+)\s* \(\"(.*)\"\)(\s*mode\s*([0-9]+))?.*
! Touchstone port assignment:
! Touchstone port 1 = CST MWS port 1 ("")
! Touchstone port 2 = CST MWS port 2 ("")
# GHz S MA R 50
1                      0.9978162       -10.01993     0.0003436215       -145.2344                0               0                0               0
1.00658                0.9977141       -10.11026     0.0003566919       -149.2741                0               0                0               0
1.01316                0.9976054       -10.20087     0.0003691565       -153.3137                0               0                0               0
1.01974                0.9974909       -10.29174     0.0003809649       -157.3408                0               0                0               0
1.02632                0.9973717       -10.38285     0.0003920734       -161.3437                0               0                0               0
1.03289                0.9972485       -10.47418     0.0004024464       -165.3111                0               0                0               0
1.03947                0.9971227       -10.56573     0.0004120571       -169.2323                0               0                0               0
1.04605                0.9969951        -10.6575     0.0004208882       -173.0965                0               0                0               0
1.05263                 0.996867       -10.74952     0.0004289334       -176.8931                0               0                0               0
1.05921                0.9967394       -10.84181     0.0004361983        179.3884                0               0                0               0
1.06579                0.9966132       -10.93442     0.0004427015        175.7585                0               0                0               0
1.07237                0.9964892       -11.02739     0.0004484765        172.2278                0               0                0               0
1.07895                0.9963683       -11.12079     0.0004535722        168.8068                0               0                0               0
1.08553                0.9962512       -11.21468     0.0004580551        165.5057                0               0                0               0
1.09211                0.9961379       -11.30913     0.0004620097        162.3344                0               0                0               0
1.09868                 0.996029       -11.40423     0.0004655406        159.3022                0               0                0               0
1.10526                0.9959244       -11.50005     0.0004687723        156.4171                0               0                0               0
1.11184                0.9958238       -11.59666     0.0004718506         153.686                0               0                0               0
1.11842                 0.995727       -11.69416     0.0004749416        151.1133                0               0                0               0
1.125                  0.9956335       -11.79261     0.0004782313         148.701                0               0                0               0
1.13158                0.9955423       -11.89208     0.0004819229        146.4477                0               0                0               0
1.13816                0.9954527       -11.99264     0.0004862343         144.348                0               0                0               0
1.14474                0.9953635       -12.09434     0.0004913925        142.3919                0               0                0               0
1.15132                0.9952738       -12.19722     0.0004976283        140.5647                0               0                0               0
1.15789                0.9951821       -12.30132     0.0005051687        138.8468                0               0                0               0
1.16447                0.9950872       -12.40667     0.0005142292        137.2142                0               0                0               0
1.17105                0.9949878       -12.51327      0.000525005        135.6394                0               0                0               0
1.17763                0.9948826       -12.62114     0.0005376645        134.0925                0               0                0               0
1.18421                0.9947704       -12.73024     0.0005523416        132.5428                0               0                0               0
1.19079                  0.99465       -12.84058     0.0005691322        130.9606                0               0                0               0
1.19737                0.9945203       -12.95211     0.0005880912        129.3182                0               0                0               0
1.20395                0.9943804        -13.0648     0.0006092333        127.5916                0               0                0               0
1.21053                0.9942298        -13.1786     0.0006325341        125.7613                0               0                0               0
1.21711                0.9940676       -13.29346     0.0006579347        123.8124                0               0                0               0
1.22368                0.9938936       -13.40933     0.0006853453         121.735                0               0                0               0
1.23026                0.9937077       -13.52616     0.0007146512        119.5238                0               0                0               0
1.23684                0.9935098       -13.64388     0.0007457174        117.1772                0               0                0               0
1.24342                0.9933002       -13.76246     0.0007783936        114.6972                0               0                0               0
1.25                   0.9930795       -13.88183     0.0008125185        112.0884                0               0                0               0
1.25658                0.9928481       -14.00198     0.0008479235        109.3574                0               0                0               0
1.26316                0.9926069       -14.12285     0.0008844356        106.5123                0               0                0               0
1.26974                0.9923566       -14.24443     0.0009218803        103.5622                0               0                0               0
1.27632                0.9920985       -14.36672     0.0009600839        100.5167                0               0                0               0
1.28289                0.9918335        -14.4897     0.0009988749        97.38585                0               0                0               0
1.28947                0.9915627       -14.61341      0.001038086        94.17958                0               0                0               0
1.29605                0.9912873       -14.73786      0.001077555        90.90785                0               0                0               0
1.30263                0.9910084        -14.8631      0.001117126        87.58038                0               0                0               0
1.30921                0.9907268       -14.98918      0.001156652        84.20662                0               0                0               0
1.31579                0.9904435       -15.11616      0.001195995        80.79572                0               0                0               0
1.32237                0.9901593       -15.24412      0.001235028        77.35651                0               0                0               0
1.32895                0.9898745       -15.37315      0.001273634        73.89747                0               0                0               0
1.33553                0.9895899       -15.50334       0.00131171        70.42677                0               0                0               0
1.34211                0.9893052       -15.63479      0.001349169        66.95228                0               0                0               0
1.34868                0.9890206       -15.76759      0.001385937        63.48156                0               0                0               0
1.35526                0.9887357       -15.90186       0.00142196        60.02185                0               0                0               0
1.36184                  0.98845       -16.03769      0.001457204        56.58014                0               0                0               0
1.36842                0.9881627       -16.17518      0.001491653        53.16312                0               0                0               0
1.375                  0.9878727       -16.31444      0.001525315        49.77715                0               0                0               0
1.38158                 0.987579       -16.45555      0.001558225        46.42831                0               0                0               0
1.38816                0.9872801       -16.59858      0.001590439        43.12226                0               0                0               0
1.39474                0.9869745       -16.74361      0.001622045        39.86434                0               0                0               0
1.40132                0.9866607        -16.8907      0.001653158        36.65936                0               0                0               0
1.40789                0.9863368       -17.03989      0.001683923        33.51163                0               0                0               0
1.41447                0.9860012        -17.1912      0.001714517        30.42483                0               0                0               0
1.42105                0.9856521       -17.34467      0.001745148        27.40193                0               0                0               0
1.42763                0.9852877        -17.5003      0.001776056        24.44507                0               0                0               0
1.43421                0.9849064       -17.65808       0.00180751        21.55547                0               0                0               0
1.44079                0.9845068       -17.81799       0.00183981        18.73329                0               0                0               0
1.44737                0.9840875       -17.98002      0.001873283        15.97757                0               0                0               0
1.45395                0.9836472       -18.14412      0.001908279         13.2861                0               0                0               0
1.46053                0.9831849       -18.31025      0.001945167        10.65542                0               0                0               0
1.46711                0.9826999       -18.47837      0.001984331        8.080743                0               0                0               0
1.47368                0.9821917       -18.64844      0.002026165        5.556031                0               0                0               0
1.48026                0.9816598        -18.8204      0.002071063        3.074042                0               0                0               0
1.48684                0.9811041       -18.99422      0.002119415       0.6264849                0               0                0               0
1.49342                0.9805249       -19.16985      0.002171598       -1.795803                0               0                0               0
1.5                    0.9799222       -19.34726       0.00222797       -4.202615                0               0                0               0
1.50658                0.9792969       -19.52644      0.002288863       -6.604103                0               0                0               0
1.51316                0.9786493       -19.70739      0.002354577       -9.010485                0               0                0               0
1.51974                0.9779803        -19.8901      0.002425374       -11.43176                0               0                0               0
1.52632                0.9772909       -20.07459      0.002501476       -13.87741                0               0                0               0
1.53289                0.9765817       -20.26091      0.002583064        -16.3562                0               0                0               0
1.53947                0.9758536       -20.44911      0.002670274        -18.8759                0               0                0               0
1.54605                0.9751074       -20.63926        0.0027632       -21.44324                0               0                0               0
1.55263                 0.974344       -20.83144      0.002861894       -24.06372                0               0                0               0
1.55921                0.9735638       -21.02576      0.002966369       -26.74168                0               0                0               0
1.56579                0.9727671       -21.22233      0.003076605       -29.48019                0               0                0               0
1.57237                0.9719542       -21.42129      0.003192547       -32.28125                0               0                0               0
1.57895                0.9711248       -21.62277      0.003314116       -35.14573                0               0                0               0
1.58553                0.9702785       -21.82693      0.003441208        -38.0736                0               0                0               0
1.59211                0.9694146       -22.03391      0.003573704       -41.06396                0               0                0               0
1.59868                0.9685321       -22.24389      0.003711469       -44.11524                0               0                0               0
1.60526                0.9676295       -22.45701      0.003854358       -47.22526                0               0                0               0
1.61184                0.9667051       -22.67344      0.004002222       -50.39137                0               0                0               0
1.61842                0.9657571       -22.89333      0.004154911       -53.61059                0               0                0               0
1.625                  0.9647826       -23.11681      0.004312275       -56.87964                0               0                0               0
1.63158                0.9637797       -23.34404      0.004474172       -60.19509                0               0                0               0
1.63816                0.9627448       -23.57512      0.004640465        -63.5534                0               0                0               0
1.64474                0.9616755       -23.81016      0.004811037       -66.95101                0               0                0               0
1.65132                0.9605681       -24.04926      0.004985777       -70.38435                0               0                0               0
1.65789                0.9594195       -24.29249      0.005164597       -73.84993                0               0                0               0
1.66447                0.9582262        -24.5399      0.005347427       -77.34436                0               0                0               0
1.67105                0.9569846       -24.79154      0.005534221       -80.86438                0               0                0               0
1.67763                0.9556918       -25.04741      0.005724959       -84.40689                0               0                0               0
1.68421                 0.954344       -25.30752      0.005919645       -87.96896                0               0                0               0
1.69079                0.9529383       -25.57187      0.006118314       -91.54788                0               0                0               0
1.69737                0.9514716       -25.84042      0.006321032       -95.14113                0               0                0               0
1.70395                0.9499412       -26.11312      0.006527896       -98.74642                0               0                0               0
1.71053                0.9483444       -26.38995      0.006739038       -102.3617                0               0                0               0
1.71711                0.9466791       -26.67083      0.006954623       -105.9852                0               0                0               0
1.72368                0.9449434        -26.9557      0.007174852       -109.6153                0               0                0               0
1.73026                0.9431353       -27.24453      0.007399959       -113.2507                0               0                0               0
1.73684                0.9412535       -27.53723      0.007630216       -116.8904                0               0                0               0
1.74342                0.9392969       -27.83377      0.007865927       -120.5335                0               0                0               0
1.75                   0.9372645       -28.13411      0.008107431       -124.1796                0               0                0               0
1.75658                0.9351557       -28.43821      0.008355098       -127.8284                0               0                0               0
1.76316                  0.93297       -28.74607      0.008609329       -131.4799                0               0                0               0
1.76974                 0.930707        -29.0577      0.008870552       -135.1342                0               0                0               0
1.77632                0.9283664       -29.37313       0.00913922       -138.7919                0               0                0               0
1.78289                0.9259478       -29.69239      0.009415806       -142.4535                0               0                0               0
1.78947                 0.923451       -30.01558      0.009700801       -146.1201                0               0                0               0
1.79605                0.9208756       -30.34278      0.009994711       -149.7925                0               0                0               0
1.80263                0.9182208       -30.67411       0.01029805       -153.4721                0               0                0               0
1.80921                0.9154861       -31.00972       0.01061134       -157.1603                0               0                0               0
1.81579                0.9126701       -31.34976       0.01093509       -160.8585                0               0                0               0
1.82237                0.9097714       -31.69444       0.01126981       -164.5684                0               0                0               0
1.82895                0.9067881       -32.04394         0.011616       -168.2915                0               0                0               0
1.83553                0.9037179       -32.39848       0.01197415       -172.0297                0               0                0               0
1.84211                0.9005577       -32.75829       0.01234471       -175.7847                0               0                0               0
1.84868                0.8973044       -33.12359       0.01272813       -179.5581                0               0                0               0
