! TOUCHSTONE file generated by CST MICROWAVE STUDIO
! Date and time: Tue Mar 11 13:57:53 2025
! Project name: transverse.cst
! Parameters = {Fracture=5; B=10; D=160; F=5; Feed=2.85625; L=100; M=30; R=0.384908; S=2; Theta=270; length=57.125; wave=114.25}
! Header version: 2024
! Port assignment regex: !\s*Touchstone port\s*([0-9]+)\s*=\s*(CST MWS port|CST DES external port|CST DES block port)\s*(.+)\s* \(\"(.*)\"\)(\s*mode\s*([0-9]+))?.*
! Touchstone port assignment:
! Touchstone port 1 = CST MWS port 1 ("")
! Touchstone port 2 = CST MWS port 2 ("")
# GHz S MA R 50
1                      0.9977067        -9.75133     0.0003766043       -164.4883                0               0                0               0
1.00658                0.9976062       -9.839027       0.00038314       -168.9021                0               0                0               0
1.01316                0.9975013       -9.927051     0.0003886424       -173.2475                0               0                0               0
1.01974                0.9973927       -10.01539     0.0003930882       -177.5137                0               0                0               0
1.02632                 0.997281       -10.10404     0.0003964643        178.3111                0               0                0               0
1.03289                0.9971672         -10.193     0.0003987687        174.2398                0               0                0               0
1.03947                0.9970519       -10.28229     0.0004000129        170.2863                0               0                0               0
1.04605                0.9969359       -10.37193     0.0004002234        166.4662                0               0                0               0
1.05263                  0.99682       -10.46194     0.0003994443        162.7962                0               0                0               0
1.05921                0.9967046       -10.55236     0.0003977399        159.2949                0               0                0               0
1.06579                0.9965904       -10.64323     0.0003951976        155.9825                0               0                0               0
1.07237                 0.996478       -10.73461     0.0003919311        152.8805                0               0                0               0
1.07895                0.9963675       -10.82653     0.0003880845        150.0115                0               0                0               0
1.08553                0.9962592       -10.91907     0.0003838358        147.3988                0               0                0               0
1.09211                0.9961531       -11.01228     0.0003794002        145.0647                0               0                0               0
1.09868                0.9960491       -11.10621     0.0003750331        143.0295                0               0                0               0
1.10526                 0.995947       -11.20094     0.0003710315        141.3084                0               0                0               0
1.11184                0.9958464       -11.29651     0.0003677321        139.9089                0               0                0               0
1.11842                0.9957468       -11.39298     0.0003655058        138.8274                0               0                0               0
1.125                  0.9956476        -11.4904     0.0003647473        138.0449                0               0                0               0
1.13158                0.9955479       -11.58881     0.0003658578        137.5249                0               0                0               0
1.13816                 0.995447       -11.68825      0.000369223        137.2123                0               0                0               0
1.14474                0.9953439       -11.78875     0.0003751878        137.0351                0               0                0               0
1.15132                0.9952376       -11.89033     0.0003840313        136.9102                0               0                0               0
1.15789                0.9951273         -11.993      0.000395948        136.7503                0               0                0               0
1.16447                0.9950118       -12.09677     0.0004110378        136.4732                0               0                0               0
1.17105                0.9948903       -12.20163     0.0004293067        136.0088                0               0                0               0
1.17763                0.9947619       -12.30757     0.0004506776        135.3041                0               0                0               0
1.18421                0.9946258       -12.41457     0.0004750063         134.325                0               0                0               0
1.19079                0.9944815        -12.5226        0.0005021        133.0548                0               0                0               0
1.19737                 0.994328       -12.63164     0.0005317348        131.4913                0               0                0               0
1.20395                0.9941651       -12.74165     0.0005636698        129.6435                0               0                0               0
1.21053                0.9939927       -12.85259     0.0005976584        127.5277                0               0                0               0
1.21711                0.9938102       -12.96442     0.0006334545        125.1649                0               0                0               0
1.22368                 0.993618        -13.0771     0.0006708182        122.5779                0               0                0               0
1.23026                0.9934162        -13.1906     0.0007095179        119.7903                0               0                0               0
1.23684                0.9932049       -13.30488      0.000749331        116.8253                0               0                0               0
1.24342                 0.992985       -13.41992     0.0007900454        113.7046                0               0                0               0
1.25                   0.9927565       -13.53569     0.0008314583        110.4487                0               0                0               0
1.25658                0.9925206       -13.65219     0.0008733771        107.0763                0               0                0               0
1.26316                0.9922779        -13.7694     0.0009156185        103.6048                0               0                0               0
1.26974                0.9920292       -13.88733     0.0009580083        100.0496                0               0                0               0
1.27632                0.9917754       -14.00599      0.001000382        96.42519                0               0                0               0
1.28289                0.9915173       -14.12541      0.001042585        92.74449                0               0                0               0
1.28947                0.9912559       -14.24561      0.001084472        89.01941                0               0                0               0
1.29605                0.9909917       -14.36666      0.001125907        85.26086                0               0                0               0
1.30263                0.9907256       -14.48859      0.001166769        81.47891                0               0                0               0
1.30921                0.9904583       -14.61147      0.001206945        77.68287                0               0                0               0
1.31579                0.9901899       -14.73538      0.001246337        73.88143                0               0                0               0
1.32237                0.9899211       -14.86037       0.00128486        70.08273                0               0                0               0
1.32895                0.9896518       -14.98655      0.001322446         66.2944                0               0                0               0
1.33553                0.9893822       -15.11398      0.001359041        62.52369                0               0                0               0
1.34211                0.9891119       -15.24276      0.001394612        58.77744                0               0                0               0
1.34868                0.9888405       -15.37298      0.001429144        55.06213                0               0                0               0
1.35526                0.9885675       -15.50471      0.001462643        51.38395                0               0                0               0
1.36184                0.9882922       -15.63803      0.001495138        47.74871                0               0                0               0
1.36842                0.9880136       -15.77303      0.001526683        44.16189                0               0                0               0
1.375                  0.9877309       -15.90977      0.001557355        40.62859                0               0                0               0
1.38158                0.9874427       -16.04831      0.001587262        37.15348                0               0                0               0
1.38816                0.9871479       -16.18871      0.001616535        33.74075                0               0                0               0
1.39474                0.9868452       -16.33102       0.00164534        30.39401                0               0                0               0
1.40132                0.9865331       -16.47526      0.001673865        27.11626                0               0                0               0
1.40789                0.9862102       -16.62146      0.001702333        23.90971                0               0                0               0
1.41447                0.9858754       -16.76964      0.001730993        20.77572                0               0                0               0
1.42105                0.9855272       -16.91981      0.001760123        17.71469                0               0                0               0
1.42763                0.9851647       -17.07196      0.001790023        14.72592                0               0                0               0
1.43421                0.9847865       -17.22608      0.001821018        11.80758                0               0                0               0
1.44079                0.9843916       -17.38217      0.001853451         8.95654                0               0                0               0
1.44737                0.9839795       -17.54019      0.001887678        6.168444                0               0                0               0
1.45395                0.9835491       -17.70014      0.001924063        3.437626                0               0                0               0
1.46053                0.9831003       -17.86198      0.001962972       0.7572039                0               0                0               0
1.46711                0.9826325       -18.02569      0.002004766       -1.880826                0               0                0               0
1.47368                0.9821456       -18.19126      0.002049793       -4.485421                0               0                0               0
1.48026                0.9816396       -18.35867      0.002098381       -7.066274                0               0                0               0
1.48684                0.9811147       -18.52791      0.002150834       -9.633565                0               0                0               0
1.49342                0.9805711       -18.69897      0.002207421       -12.19767                0               0                0               0
1.5                    0.9800093       -18.87188      0.002268375       -14.76887                0               0                0               0
1.50658                0.9794294       -19.04664      0.002333887       -17.35704                0               0                0               0
1.51316                0.9788323        -19.2233      0.002404106       -19.97141                0               0                0               0
1.51974                0.9782182       -19.40188      0.002479131       -22.62032                0               0                0               0
1.52632                0.9775878       -19.58246       0.00255902       -25.31107                0               0                0               0
1.53289                0.9769414       -19.76509      0.002643785       -28.04976                0               0                0               0
1.53947                0.9762794       -19.94987      0.002733398       -30.84128                0               0                0               0
1.54605                0.9756019       -20.13688      0.002827789       -33.68925                0               0                0               0
1.55263                 0.974909       -20.32623      0.002926857       -36.59609                0               0                0               0
1.55921                0.9742005       -20.51804      0.003030469       -39.56308                0               0                0               0
1.56579                0.9734761       -20.71242      0.003138466       -42.59046                0               0                0               0
1.57237                0.9727351       -20.90951      0.003250666       -45.67753                0               0                0               0
1.57895                0.9719769       -21.10944      0.003366873       -48.82277                0               0                0               0
1.58553                   0.9712       -21.31235      0.003486875       -52.02404                0               0                0               0
1.59211                0.9704032       -21.51836      0.003610455       -55.27858                0               0                0               0
1.59868                0.9695849       -21.72761       0.00373739       -58.58319                0               0                0               0
1.60526                0.9687431       -21.94024      0.003867457       -61.93434                0               0                0               0
1.61184                0.9678756       -22.15635      0.004000437       -65.32822                0               0                0               0
1.61842                0.9669803       -22.37606       0.00413612       -68.76088                0               0                0               0
1.625                  0.9660544       -22.59948      0.004274305       -72.22822                0               0                0               0
1.63158                0.9650953        -22.8267      0.004414807       -75.72613                0               0                0               0
1.63816                0.9641001       -23.05778      0.004557457       -79.25047                0               0                0               0
1.64474                 0.963066        -23.2928      0.004702111       -82.79716                0               0                0               0
1.65132                  0.96199        -23.5318      0.004848646        -86.3622                0               0                0               0
1.65789                 0.960869       -23.77482      0.004996969       -89.94172                0               0                0               0
1.66447                0.9597004       -24.02187       0.00514702       -93.53195                0               0                0               0
1.67105                0.9584811       -24.27296      0.005298768       -97.12934                0               0                0               0
1.67763                0.9572085       -24.52809      0.005452225       -100.7305                0               0                0               0
1.68421                  0.95588       -24.78725      0.005607441       -104.3322                0               0                0               0
1.69079                0.9544931        -25.0504      0.005764508       -107.9316                0               0                0               0
1.69737                0.9530457       -25.31752      0.005923566        -111.526                0               0                0               0
1.70395                0.9515357       -25.58857        0.0060848        -115.113                0               0                0               0
1.71053                0.9499614       -25.86352      0.006248447       -118.6904                0               0                0               0
1.71711                0.9483215       -26.14233      0.006414796       -122.2566                0               0                0               0
1.72368                0.9466142       -26.42496      0.006584183       -125.8101                0               0                0               0
1.73026                0.9448386        -26.7114      0.006757002       -129.3498                0               0                0               0
1.73684                0.9429939       -27.00163      0.006933695        -132.875                0               0                0               0
1.74342                0.9410791       -27.29563      0.007114758       -136.3856                0               0                0               0
1.75                   0.9390939       -27.59343      0.007300735       -139.8816                0               0                0               0
1.75658                0.9370374       -27.89504      0.007492215       -143.3635                0               0                0               0
1.76316                0.9349093       -28.20051      0.007689833       -146.8324                0               0                0               0
1.76974                0.9327092       -28.50989      0.007894259       -150.2897                0               0                0               0
1.77632                0.9304363       -28.82328      0.008106197       -153.7372                0               0                0               0
1.78289                0.9280901       -29.14076      0.008326378        -157.177                0               0                0               0
1.78947                0.9256697       -29.46247      0.008555551       -160.6118                0               0                0               0
1.79605                0.9231741       -29.78853       0.00879448       -164.0443                0               0                0               0
1.80263                 0.920602       -30.11911      0.009043928       -167.4778                0               0                0               0
1.80921                0.9179517       -30.45437      0.009304657       -170.9157                0               0                0               0
1.81579                0.9152213       -30.79452      0.009577417       -174.3615                0               0                0               0
1.82237                0.9124084       -31.13973      0.009862927       -177.8188                0               0                0               0
1.82895                0.9095102       -31.49023       0.01016189        178.7085                0               0                0               0
1.83553                0.9065234       -31.84622       0.01047495        175.2169                0               0                0               0
1.84211                0.9034445       -32.20792       0.01080273        171.7026                0               0                0               0
1.84868                0.9002691       -32.57555       0.01114577        168.1623                0               0                0               0
