! TOUCHSTONE file generated by CST MICROWAVE STUDIO
! Date and time: Tue Mar 11 13:57:58 2025
! Project name: transverse.cst
! Parameters = {Fracture=1; B=10; D=160; F=25; Feed=2.85625; L=100; M=10; R=0.384908; S=1; Theta=270; length=57.125; wave=114.25}
! Header version: 2024
! Port assignment regex: !\s*Touchstone port\s*([0-9]+)\s*=\s*(CST MWS port|CST DES external port|CST DES block port)\s*(.+)\s* \(\"(.*)\"\)(\s*mode\s*([0-9]+))?.*
! Touchstone port assignment:
! Touchstone port 1 = CST MWS port 1 ("")
! Touchstone port 2 = CST MWS port 2 ("")
# GHz S MA R 50
1                       0.997644       -9.997576      0.000355056       -157.6382                0               0                0               0
1.00658                0.9975762       -10.08541     0.0003581783       -161.1368                0               0                0               0
1.01316                0.9975093       -10.17387     0.0003606604       -164.4683                0               0                0               0
1.01974                 0.997443       -10.26302     0.0003625919        -167.618                0               0                0               0
1.02632                 0.997377       -10.35288     0.0003640864       -170.5716                0               0                0               0
1.03289                0.9973109       -10.44349     0.0003652833       -173.3152                0               0                0               0
1.03947                0.9972443       -10.53488     0.0003663502        -175.837                0               0                0               0
1.04605                0.9971765       -10.62707     0.0003674833       -178.1278                0               0                0               0
1.05263                 0.997107       -10.72009     0.0003689079        179.8174                0               0                0               0
1.05921                0.9970352       -10.81396     0.0003708765        177.9977                0               0                0               0
1.06579                0.9969605       -10.90868     0.0003736649        176.4047                0               0                0               0
1.07237                 0.996882       -11.00427      0.000377565        175.0213                0               0                0               0
1.07895                0.9967991       -11.10072     0.0003828762        173.8206                0               0                0               0
1.08553                0.9967114       -11.19804     0.0003898928        172.7658                0               0                0               0
1.09211                0.9966181       -11.29621     0.0003988909        171.8121                0               0                0               0
1.09868                 0.996519       -11.39522     0.0004101149        170.9083                0               0                0               0
1.10526                0.9964134       -11.49506     0.0004237663        170.0007                0               0                0               0
1.11184                0.9963007        -11.5957     0.0004399951        169.0371                0               0                0               0
1.11842                0.9961811       -11.69713     0.0004588963          167.97                0               0                0               0
1.125                   0.996054       -11.79932     0.0004805108        166.7598                0               0                0               0
1.13158                0.9959196       -11.90224     0.0005048298        165.3764                0               0                0               0
1.13816                0.9957776       -12.00587     0.0005318022        163.7993                0               0                0               0
1.14474                0.9956283        -12.1102     0.0005613422        162.0174                0               0                0               0
1.15132                0.9954717       -12.21519     0.0005933389        160.0276                0               0                0               0
1.15789                0.9953083       -12.32084     0.0006276628        157.8332                0               0                0               0
1.16447                 0.995138       -12.42713     0.0006641722        155.4421                0               0                0               0
1.17105                0.9949618       -12.53405     0.0007027187        152.8656                0               0                0               0
1.17763                0.9947796       -12.64159     0.0007431501        150.1168                0               0                0               0
1.18421                0.9945923       -12.74977     0.0007853135          147.21                0               0                0               0
1.19079                0.9944002       -12.85858     0.0008290574        144.1598                0               0                0               0
1.19737                0.9942039       -12.96805     0.0008742323        140.9807                0               0                0               0
1.20395                0.9940037       -13.07818     0.0009206915        137.6864                0               0                0               0
1.21053                0.9938003       -13.18902     0.0009682926        134.2902                0               0                0               0
1.21711                0.9935941       -13.30058      0.001016897        130.8044                0               0                0               0
1.22368                0.9933852       -13.41292      0.001066371        127.2405                0               0                0               0
1.23026                0.9931744       -13.52605      0.001116585         123.609                0               0                0               0
1.23684                0.9929613       -13.64005      0.001167416        119.9199                0               0                0               0
1.24342                0.9927464       -13.75494      0.001218744        116.1821                0               0                0               0
1.25                   0.9925295       -13.87079      0.001270457        112.4039                0               0                0               0
1.25658                0.9923107       -13.98764      0.001322449        108.5929                0               0                0               0
1.26316                0.9920897       -14.10554      0.001374623        104.7563                0               0                0               0
1.26974                0.9918661       -14.22455      0.001426886        100.9006                0               0                0               0
1.27632                0.9916395       -14.34472      0.001479155        97.03161                0               0                0               0
1.28289                0.9914095       -14.46608      0.001531358        93.15505                0               0                0               0
1.28947                0.9911753       -14.58869      0.001583431        89.27603                0               0                0               0
1.29605                0.9909365       -14.71258      0.001635319        85.39931                0               0                0               0
1.30263                0.9906923       -14.83779      0.001686981        81.52929                0               0                0               0
1.30921                0.9904416       -14.96433      0.001738388        77.67007                0               0                0               0
1.31579                0.9901842       -15.09224      0.001789522        73.82542                0               0                0               0
1.32237                 0.989919       -15.22153      0.001840381        69.99879                0               0                0               0
1.32895                0.9896452        -15.3522      0.001890975        66.19335                0               0                0               0
1.33553                0.9893621       -15.48428       0.00194133        62.41197                0               0                0               0
1.34211                0.9890691       -15.61775      0.001991489        58.65722                0               0                0               0
1.34868                0.9887655        -15.7526      0.002041506        54.93136                0               0                0               0
1.35526                0.9884508       -15.88884      0.002091457        51.23633                0               0                0               0
1.36184                0.9881248       -16.02646      0.002141432        47.57375                0               0                0               0
1.36842                0.9877865       -16.16542      0.002191534        43.94489                0               0                0               0
1.375                  0.9874365       -16.30574      0.002241887        40.35066                0               0                0               0
1.38158                0.9870741       -16.44739      0.002292627        36.79158                0               0                0               0
1.38816                0.9866994       -16.59035      0.002343904        33.26782                0               0                0               0
1.39474                0.9863127       -16.73463      0.002395886        29.77912                0               0                0               0
1.40132                 0.985914       -16.88022      0.002448747        26.32483                0               0                0               0
1.40789                0.9855037       -17.02712      0.002502677        22.90387                0               0                0               0
1.41447                0.9850821       -17.17533      0.002557871        19.51479                0               0                0               0
1.42105                0.9846498       -17.32487      0.002614533         16.1557                0               0                0               0
1.42763                0.9842069       -17.47576      0.002672869        12.82437                0               0                0               0
1.43421                0.9837543       -17.62804      0.002733089        9.518198                0               0                0               0
1.44079                0.9832924       -17.78173        0.0027954        6.234282                0               0                0               0
1.44737                0.9828214       -17.93689      0.002860006        2.969442                0               0                0               0
1.45395                 0.982342       -18.09357      0.002927104      -0.2797164                0               0                0               0
1.46053                0.9818544       -18.25184      0.002996884       -3.516752                0               0                0               0
1.46711                0.9813589       -18.41176      0.003069521       -6.745319                0               0                0               0
1.47368                 0.980856       -18.57343      0.003145178       -9.969109                0               0                0               0
1.48026                0.9803452       -18.73692      0.003224001       -13.19178                0               0                0               0
1.48684                0.9798266       -18.90232      0.003306116       -16.41689                0               0                0               0
1.49342                0.9793001       -19.06973      0.003391634       -19.64785                0               0                0               0
1.5                    0.9787651       -19.23926      0.003480641       -22.88785                0               0                0               0
1.50658                0.9782212       -19.41099      0.003573206       -26.13983                0               0                0               0
1.51316                0.9776674       -19.58503      0.003669371       -29.40642                0               0                0               0
1.51974                0.9771029       -19.76149      0.003769161       -32.68993                0               0                0               0
1.52632                0.9765266       -19.94044       0.00387258       -35.99232                0               0                0               0
1.53289                0.9759372         -20.122      0.003979612       -39.31519                0               0                0               0
1.53947                0.9753335       -20.30625       0.00409022       -42.65976                0               0                0               0
1.54605                0.9747138       -20.49326      0.004204354       -46.02689                0               0                0               0
1.55263                0.9740767       -20.68313      0.004321948       -49.41711                0               0                0               0
1.55921                0.9734203        -20.8759      0.004442919       -52.83059                0               0                0               0
1.56579                0.9727431       -21.07166      0.004567179        -56.2672                0               0                0               0
1.57237                0.9720433       -21.27044      0.004694628       -59.72651                0               0                0               0
1.57895                0.9713191       -21.47229      0.004825157       -63.20783                0               0                0               0
1.58553                0.9705687       -21.67726      0.004958661       -66.71026                0               0                0               0
1.59211                0.9697907       -21.88537      0.005095028       -70.23265                0               0                0               0
1.59868                 0.968983       -22.09665      0.005234147       -73.77372                0               0                0               0
1.60526                0.9681445       -22.31112      0.005375917       -77.33201                0               0                0               0
1.61184                0.9672734        -22.5288      0.005520236       -80.90597                0               0                0               0
1.61842                0.9663687        -22.7497      0.005667018       -84.49395                0               0                0               0
1.625                  0.9654288       -22.97384      0.005816184       -88.09422                0               0                0               0
1.63158                0.9644527       -23.20123      0.005967674       -91.70504                0               0                0               0
1.63816                0.9634395       -23.43188      0.006121439       -95.32462                0               0                0               0
1.64474                0.9623882       -23.66583      0.006277456       -98.95121                0               0                0               0
1.65132                0.9612981       -23.90309       0.00643572       -102.5831                0               0                0               0
1.65789                0.9601684       -24.14371      0.006596251       -106.2185                0               0                0               0
1.66447                0.9589986       -24.38772      0.006759093        -109.856                0               0                0               0
1.67105                0.9577878       -24.63519       0.00692432       -113.4939                0               0                0               0
1.67763                0.9565356       -24.88617      0.007092035       -117.1308                0               0                0               0
1.68421                0.9552414       -25.14075      0.007262374       -120.7655                0               0                0               0
1.69079                0.9539043       -25.39901        0.0074355       -124.3968                0               0                0               0
1.69737                0.9525238       -25.66105      0.007611616       -128.0238                0               0                0               0
1.70395                0.9510988       -25.92699      0.007790954       -131.6456                0               0                0               0
1.71053                0.9496284       -26.19696      0.007973782       -135.2615                0               0                0               0
1.71711                0.9481113        -26.4711      0.008160402       -138.8712                0               0                0               0
1.72368                 0.946546       -26.74955      0.008351148       -142.4745                0               0                0               0
1.73026                0.9449308       -27.03246      0.008546387       -146.0713                0               0                0               0
1.73684                0.9432636       -27.32002      0.008746517       -149.6619                0               0                0               0
1.74342                0.9415422       -27.61238      0.008951964       -153.2467                0               0                0               0
1.75                    0.939764       -27.90972      0.009163181       -156.8265                0               0                0               0
1.75658                0.9379263       -28.21221      0.009380641       -160.4021                0               0                0               0
1.76316                0.9360254       -28.52003      0.009604841       -163.9747                0               0                0               0
1.76974                0.9340581       -28.83335      0.009836289       -167.5456                0               0                0               0
1.77632                0.9320205       -29.15234       0.01007551       -171.1163                0               0                0               0
1.78289                0.9299082       -29.47714       0.01032302       -174.6886                0               0                0               0
1.78947                0.9277167       -29.80791       0.01057935       -178.2643                0               0                0               0
1.79605                0.9254414       -30.14479       0.01084503        178.1545                0               0                0               0
1.80263                0.9230773       -30.48787       0.01112057        174.5658                0               0                0               0
1.80921                0.9206192       -30.83728       0.01140647        170.9674                0               0                0               0
1.81579                 0.918062        -31.1931        0.0117032        167.3569                0               0                0               0
1.82237                0.9153999       -31.55539       0.01201122        163.7322                0               0                0               0
1.82895                0.9126276       -31.92421       0.01233094        160.0909                0               0                0               0
1.83553                0.9097395       -32.29958       0.01266276         156.431                0               0                0               0
1.84211                  0.90673       -32.68152       0.01300701        152.7502                0               0                0               0
1.84868                0.9035936       -33.06999         0.013364        149.0464                0               0                0               0
