! TOUCHSTONE file generated by CST MICROWAVE STUDIO
! Date and time: Tue Mar 11 13:57:55 2025
! Project name: transverse.cst
! Parameters = {Fracture=1; B=10; D=160; F=15; Feed=2.85625; L=100; M=20; R=0.384908; S=1; Theta=270; length=57.125; wave=114.25}
! Header version: 2024
! Port assignment regex: !\s*Touchstone port\s*([0-9]+)\s*=\s*(CST MWS port|CST DES external port|CST DES block port)\s*(.+)\s* \(\"(.*)\"\)(\s*mode\s*([0-9]+))?.*
! Touchstone port assignment:
! Touchstone port 1 = CST MWS port 1 ("")
! Touchstone port 2 = CST MWS port 2 ("")
# GHz S MA R 50
1                      0.9977567       -9.995588     0.0004062681       -158.1219                0               0                0               0
1.00658                0.9976558       -10.08456      0.000410369       -162.7308                0               0                0               0
1.01316                0.9975517       -10.17383     0.0004132106       -167.2197                0               0                0               0
1.01974                0.9974453       -10.26339     0.0004147943       -171.5756                0               0                0               0
1.02632                0.9973373       -10.35326     0.0004151375       -175.7835                0               0                0               0
1.03289                0.9972285       -10.44344     0.0004142764       -179.8264                0               0                0               0
1.03947                0.9971197       -10.53398     0.0004122688        176.3149                0               0                0               0
1.04605                0.9970115       -10.62489     0.0004091983        172.6623                0               0                0               0
1.05263                0.9969048       -10.71622     0.0004051783        169.2398                0               0                0               0
1.05921                0.9967998       -10.80803     0.0004003569         166.074                0               0                0               0
1.06579                0.9966971       -10.90036     0.0003949223         163.193                0               0                0               0
1.07237                0.9965968       -10.99327     0.0003891084         160.626                0               0                0               0
1.07895                0.9964992       -11.08683     0.0003832004        158.4011                0               0                0               0
1.08553                0.9964041       -11.18109     0.0003775383        156.5429                0               0                0               0
1.09211                0.9963115       -11.27612     0.0003725184        155.0684                0               0                0               0
1.09868                0.9962208       -11.37197     0.0003685895        153.9823                0               0                0               0
1.10526                0.9961317       -11.46872     0.0003662417        153.2708                0               0                0               0
1.11184                0.9960435       -11.56641     0.0003659861        152.8973                0               0                0               0
1.11842                0.9959553       -11.66509     0.0003683245        152.7987                0               0                0               0
1.125                  0.9958665        -11.7648     0.0003737125        152.8868                0               0                0               0
1.13158                0.9957759       -11.86557     0.0003825213        153.0551                0               0                0               0
1.13816                0.9956825       -11.96743     0.0003950069        153.1898                0               0                0               0
1.14474                0.9955855        -12.0704     0.0004112942         153.183                0               0                0               0
1.15132                0.9954836       -12.17448     0.0004313788        152.9445                0               0                0               0
1.15789                0.9953758       -12.27967     0.0004551439        152.4087                0               0                0               0
1.16447                0.9952613       -12.38596     0.0004823863        151.5365                0               0                0               0
1.17105                0.9951392       -12.49333     0.0005128449        150.3124                0               0                0               0
1.17763                0.9950085       -12.60176     0.0005462253        148.7401                0               0                0               0
1.18421                0.9948686       -12.71121      0.000582219        146.8361                0               0                0               0
1.19079                0.9947191       -12.82164     0.0006205169        144.6251                0               0                0               0
1.19737                0.9945594       -12.93302     0.0006608167         142.136                0               0                0               0
1.20395                0.9943896        -13.0453     0.0007028277        139.3987                0               0                0               0
1.21053                0.9942093       -13.15844     0.0007462718        136.4427                0               0                0               0
1.21711                0.9940189       -13.27239     0.0007908841        133.2959                0               0                0               0
1.22368                0.9938185       -13.38713     0.0008364124        129.9842                0               0                0               0
1.23026                0.9936087       -13.50262     0.0008826161        126.5309                0               0                0               0
1.23684                0.9933899       -13.61883     0.0009292655        122.9572                0               0                0               0
1.24342                0.9931629       -13.73573     0.0009761409        119.2822                0               0                0               0
1.25                   0.9929283       -13.85333      0.001023033        115.5229                0               0                0               0
1.25658                0.9926871       -13.97163       0.00106974        111.6948                0               0                0               0
1.26316                0.9924402       -14.09062      0.001116072        107.8119                0               0                0               0
1.26974                0.9921884       -14.21034      0.001161848        103.8867                0               0                0               0
1.27632                0.9919326       -14.33081      0.001206898         99.9308                0               0                0               0
1.28289                0.9916736       -14.45207      0.001251062        95.95496                0               0                0               0
1.28947                0.9914122       -14.57418      0.001294193        91.96907                0               0                0               0
1.29605                0.9911489        -14.6972      0.001336158        87.98241                0               0                0               0
1.30263                0.9908844       -14.82119       0.00137684        84.00379                0               0                0               0
1.30921                0.9906187       -14.94624      0.001416137         80.0416                0               0                0               0
1.31579                0.9903522       -15.07242      0.001453967         76.1039                0               0                0               0
1.32237                0.9900847       -15.19982      0.001490268        72.19847                0               0                0               0
1.32895                 0.989816       -15.32852      0.001525003        68.33289                0               0                0               0
1.33553                0.9895458       -15.45861      0.001558157        64.51456                0               0                0               0
1.34211                0.9892733       -15.59017      0.001589748        60.75067                0               0                0               0
1.34868                0.9889977       -15.72329       0.00161982        57.04827                0               0                0               0
1.35526                0.9887181       -15.85803      0.001648454        53.41417                0               0                0               0
1.36184                0.9884333       -15.99446      0.001675766        49.85494                0               0                0               0
1.36842                0.9881421       -16.13264      0.001701911        46.37679                0               0                0               0
1.375                  0.9878429       -16.27262      0.001727086         42.9855                0               0                0               0
1.38158                0.9875346       -16.41444      0.001751532        39.68625                0               0                0               0
1.38816                0.9872154       -16.55811      0.001775535        36.48347                0               0                0               0
1.39474                 0.986884       -16.70366      0.001799427        33.38062                0               0                0               0
1.40132                0.9865389       -16.85109      0.001823588           30.38                0               0                0               0
1.40789                0.9861789       -17.00038      0.001848442        27.48248                0               0                0               0
1.41447                0.9858026       -17.15153      0.001874455        24.68724                0               0                0               0
1.42105                0.9854087       -17.30451      0.001902131         21.9916                0               0                0               0
1.42763                0.9849966       -17.45927      0.001932007        19.39076                0               0                0               0
1.43421                0.9845651        -17.6158      0.001964641        16.87771                0               0                0               0
1.44079                 0.984114       -17.77403      0.002000604        14.44319                0               0                0               0
1.44737                0.9836427       -17.93393      0.002040471        12.07578                0               0                0               0
1.45395                 0.983151       -18.09545        0.0020848        9.762096                0               0                0               0
1.46053                0.9826389       -18.25856      0.002134126        7.487146                0               0                0               0
1.46711                0.9821069       -18.42321      0.002188947          5.2348                0               0                0               0
1.47368                0.9815551       -18.58938      0.002249706        2.988335                0               0                0               0
1.48026                0.9809844       -18.75706      0.002316789       0.7310523                0               0                0               0
1.48684                0.9803955       -18.92622      0.002390511       -1.553134                0               0                0               0
1.49342                 0.979789       -19.09688      0.002471115       -3.879141                0               0                0               0
1.5                    0.9791661       -19.26906      0.002558768       -6.260263                0               0                0               0
1.50658                0.9785276        -19.4428      0.002653564       -8.707843                0               0                0               0
1.51316                0.9778746       -19.61813      0.002755525       -11.23108                0               0                0               0
1.51974                0.9772079       -19.79513       0.00286461       -13.83694                0               0                0               0
1.52632                0.9765285       -19.97387      0.002980718       -16.53023                0               0                0               0
1.53289                0.9758369       -20.15446      0.003103696       -19.31374                0               0                0               0
1.53947                0.9751336         -20.337      0.003233348       -22.18842                0               0                0               0
1.54605                0.9744192       -20.52162      0.003369442       -25.15363                0               0                0               0
1.55263                0.9736935       -20.70845      0.003511718        -28.2074                0               0                0               0
1.55921                0.9729564       -20.89762      0.003659893       -31.34671                0               0                0               0
1.56579                0.9722074       -21.08929      0.003813666       -34.56765                0               0                0               0
1.57237                0.9714457        -21.2836       0.00397273        -37.8657                0               0                0               0
1.57895                0.9706702       -21.48071      0.004136768       -41.23592                0               0                0               0
1.58553                0.9698796       -21.68077      0.004305464       -44.67303                0               0                0               0
1.59211                 0.969072       -21.88392      0.004478504       -48.17162                0               0                0               0
1.59868                0.9682457       -22.09031      0.004655582       -51.72621                0               0                0               0
1.60526                0.9673982       -22.30005      0.004836402       -55.33134                0               0                0               0
1.61184                0.9665272       -22.51328       0.00502068       -58.98166                0               0                0               0
1.61842                  0.96563       -22.73008      0.005208148        -62.6719                0               0                0               0
1.625                  0.9647038       -22.95056      0.005398562       -66.39701                0               0                0               0
1.63158                0.9637456       -23.17479      0.005591695       -70.15212                0               0                0               0
1.63816                0.9627526       -23.40283      0.005787351       -73.93254                0               0                0               0
1.64474                0.9617217        -23.6347      0.005985358       -77.73386                0               0                0               0
1.65132                0.9606499       -23.87044      0.006185579       -81.55186                0               0                0               0
1.65789                0.9595346       -24.11006      0.006387913       -85.38258                0               0                0               0
1.66447                0.9583727       -24.35355       0.00659229        -89.2223                0               0                0               0
1.67105                 0.957162       -24.60089      0.006798687       -93.06758                0               0                0               0
1.67763                   0.9559       -24.85206      0.007007123        -96.9152                0               0                0               0
1.68421                0.9545845       -25.10701       0.00721766       -100.7622                0               0                0               0
1.69079                0.9532139        -25.3657      0.007430412        -104.606                0               0                0               0
1.69737                0.9517864        -25.6281       0.00764554       -108.4441                0               0                0               0
1.70395                0.9503008       -25.89415      0.007863262       -112.2744                0               0                0               0
1.71053                 0.948756       -26.16381      0.008083843       -116.0952                0               0                0               0
1.71711                0.9471513       -26.43707       0.00830761        -119.905                0               0                0               0
1.72368                0.9454861       -26.71388       0.00853494       -123.7024                0               0                0               0
1.73026                  0.94376       -26.99426      0.008766269       -127.4868                0               0                0               0
1.73684                0.9419731        -27.2782      0.009002086       -131.2576                0               0                0               0
1.74342                0.9401252       -27.56574      0.009242932       -135.0145                0               0                0               0
1.75                   0.9382163       -27.85692      0.009489401       -138.7578                0               0                0               0
1.75658                0.9362466       -28.15182      0.009742133        -142.488                0               0                0               0
1.76316                 0.934216       -28.45054       0.01000181       -146.2059                0               0                0               0
1.76974                0.9321245        -28.7532       0.01026916       -149.9126                0               0                0               0
1.77632                0.9299717       -29.05992       0.01054493       -153.6098                0               0                0               0
1.78289                0.9277571        -29.3709        0.0108299       -157.2992                0               0                0               0
1.78947                0.9254798       -29.68632       0.01112489       -160.9829                0               0                0               0
1.79605                0.9231389        -30.0064       0.01143068       -164.6633                0               0                0               0
1.80263                0.9207327       -30.33134       0.01174812        -168.343                0               0                0               0
1.80921                0.9182591       -30.66142       0.01207799       -172.0247                0               0                0               0
1.81579                0.9157154       -30.99689        0.0124211       -175.7114                0               0                0               0
1.82237                0.9130988         -31.338       0.01277821       -179.4061                0               0                0               0
1.82895                0.9104054       -31.68503       0.01315007        176.8882                0               0                0               0
1.83553                0.9076313       -32.03825       0.01353738        173.1684                0               0                0               0
1.84211                0.9047718       -32.39793       0.01394077        169.4314                0               0                0               0
1.84868                0.9018213       -32.76432       0.01436085        165.6744                0               0                0               0
