! TOUCHSTONE file generated by CST MICROWAVE STUDIO
! Date and time: Tue Mar 11 13:56:05 2025
! Project name: transverse.cst
! Parameters = {Fracture=1; B=12.5; D=160; F=5; Feed=2.85625; L=100; M=30; R=0.384908; S=1; Theta=0; length=57.125; wave=114.25}
! Header version: 2024
! Port assignment regex: !\s*Touchstone port\s*([0-9]+)\s*=\s*(CST MWS port|CST DES external port|CST DES block port)\s*(.+)\s* \(\"(.*)\"\)(\s*mode\s*([0-9]+))?.*
! Touchstone port assignment:
! Touchstone port 1 = CST MWS port 1 ("")
! Touchstone port 2 = CST MWS port 2 ("")
# GHz S MA R 50
1                      0.9976266       -10.11585     0.0003896825       -170.5523                0               0                0               0
1.00658                0.9975275       -10.20649     0.0003940623       -175.0582                0               0                0               0
1.01316                0.9974245       -10.29752     0.0003973019       -179.4766                0               0                0               0
1.01974                0.9973179       -10.38892     0.0003993905        176.2042                0               0                0               0
1.02632                0.9972083       -10.48071     0.0004003292        171.9971                0               0                0               0
1.03289                0.9970963       -10.57287     0.0004001324        167.9163                0               0                0               0
1.03947                0.9969827       -10.66543     0.0003988295        163.9782                0               0                0               0
1.04605                 0.996868        -10.7584     0.0003964679        160.2008                0               0                0               0
1.05263                0.9967528        -10.8518     0.0003931158        156.6043                0               0                0               0
1.05921                0.9966374       -10.94567     0.0003888649        153.2113                0               0                0               0
1.06579                0.9965226       -11.04005     0.0003838348        150.0463                0               0                0               0
1.07237                0.9964086       -11.13497     0.0003781772        147.1361                0               0                0               0
1.07895                0.9962956       -11.23049       0.00037208        144.5085                0               0                0               0
1.08553                0.9961839       -11.32664     0.0003657721        142.1917                0               0                0               0
1.09211                0.9960734       -11.42348     0.0003595278        140.2121                0               0                0               0
1.09868                0.9959641       -11.52107     0.0003536682        138.5916                0               0                0               0
1.10526                0.9958557       -11.61945     0.0003485614        137.3433                0               0                0               0
1.11184                0.9957481       -11.71867     0.0003446165        136.4669                0               0                0               0
1.11842                0.9956406       -11.81879     0.0003422711        135.9434                0               0                0               0
1.125                  0.9955327       -11.91983      0.000341971        135.7308                0               0                0               0
1.13158                 0.995424       -12.02185     0.0003441419         135.762                0               0                0               0
1.13816                0.9953136       -12.12488     0.0003491569        135.9478                0               0                0               0
1.14474                0.9952007       -12.22893      0.000357305        136.1838                0               0                0               0
1.15132                0.9950845       -12.33404     0.0003687687        136.3616                0               0                0               0
1.15789                0.9949644       -12.44021     0.0003836142        136.3814                0               0                0               0
1.16447                0.9948394       -12.54746     0.0004017977        136.1616                0               0                0               0
1.17105                0.9947086       -12.65578     0.0004231827        135.6446                0               0                0               0
1.17763                0.9945716       -12.76516     0.0004475642        134.7973                0               0                0               0
1.18421                0.9944275        -12.8756     0.0004746927        133.6086                0               0                0               0
1.19079                0.9942758       -12.98707     0.0005042952        132.0842                0               0                0               0
1.19737                0.9941159       -13.09956     0.0005360911        130.2415                0               0                0               0
1.20395                0.9939475       -13.21303     0.0005698024        128.1048                0               0                0               0
1.21053                0.9937703       -13.32746     0.0006051604        125.7022                0               0                0               0
1.21711                0.9935842       -13.44282     0.0006419086        123.0624                0               0                0               0
1.22368                0.9933892       -13.55908     0.0006798042        120.2138                0               0                0               0
1.23026                0.9931855       -13.67622     0.0007186177        117.1833                0               0                0               0
1.23684                0.9929732       -13.79422     0.0007581328        113.9954                0               0                0               0
1.24342                0.9927528       -13.91305     0.0007981457        110.6729                0               0                0               0
1.25                   0.9925248        -14.0327     0.0008384638        107.2361                0               0                0               0
1.25658                0.9922896       -14.15316     0.0008789058        103.7033                0               0                0               0
1.26316                 0.992048       -14.27444     0.0009193009        100.0913                0               0                0               0
1.26974                0.9918006       -14.39654     0.0009594887        96.41492                0               0                0               0
1.27632                0.9915481       -14.51947     0.0009993197        92.68775                0               0                0               0
1.28289                0.9912911       -14.64328      0.001038655         88.9221                0               0                0               0
1.28947                0.9910304       -14.76798      0.001077368        85.12923                0               0                0               0
1.29605                0.9907666       -14.89361      0.001115342        81.31952                0               0                0               0
1.30263                0.9905003       -15.02025      0.001152476        77.50258                0               0                0               0
1.30921                 0.990232       -15.14792      0.001188681        73.68735                0               0                0               0
1.31579                0.9899619       -15.27671      0.001223886        69.88227                0               0                0               0
1.32237                0.9896905       -15.40669      0.001258034        66.09525                0               0                0               0
1.32895                0.9894177       -15.53792      0.001291088        62.33383                0               0                0               0
1.33553                0.9891434       -15.67049      0.001323028        58.60516                0               0                0               0
1.34211                0.9888676       -15.80447      0.001353859        54.91605                0               0                0               0
1.34868                0.9885898       -15.93994      0.001383606        51.27295                0               0                0               0
1.35526                0.9883097       -16.07699      0.001412321        47.68199                0               0                0               0
1.36184                0.9880262       -16.21568      0.001440079        44.14891                0               0                0               0
1.36842                 0.987739       -16.35609      0.001466986        40.67901                0               0                0               0
1.375                  0.9874468        -16.4983      0.001493175        37.27713                0               0                0               0
1.38158                0.9871488       -16.64235       0.00151881        33.94748                0               0                0               0
1.38816                0.9868437        -16.7883      0.001544087         30.6936                0               0                0               0
1.39474                0.9865306       -16.93621       0.00156923        27.51824                0               0                0               0
1.40132                0.9862081        -17.0861      0.001594496        24.42316                0               0                0               0
1.40789                0.9858749       -17.23802       0.00162017        21.40904                0               0                0               0
1.41447                  0.98553       -17.39199      0.001646567        18.47535                0               0                0               0
1.42105                0.9851721       -17.54802      0.001674022        15.62018                0               0                0               0
1.42763                   0.9848       -17.70612      0.001702895        12.84016                0               0                0               0
1.43421                0.9844129        -17.8663      0.001733557         10.1304                0               0                0               0
1.44079                0.9840096       -18.02855      0.001766392        7.484466                0               0                0               0
1.44737                0.9835894       -18.19288      0.001801782        4.894452                0               0                0               0
1.45395                0.9831516       -18.35927      0.001840105        2.351082                0               0                0               0
1.46053                0.9826956       -18.52772      0.001881728      -0.1560812                0               0                0               0
1.46711                0.9822209       -18.69821      0.001926992       -2.638366                0               0                0               0
1.47368                0.9817272       -18.87075       0.00197621       -5.107672                0               0                0               0
1.48026                0.9812145       -19.04534      0.002029661       -7.576107                0               0                0               0
1.48684                0.9806826       -19.22198      0.002087581       -10.05562                0               0                0               0
1.49342                0.9801314       -19.40067      0.002150158       -12.55763                0               0                0               0
1.5                    0.9795614       -19.58145      0.002217536       -15.09269                0               0                0               0
1.50658                0.9789724       -19.76433      0.002289804       -17.67026                0               0                0               0
1.51316                0.9783647       -19.94937      0.002367008       -20.29846                0               0                0               0
1.51974                0.9777385        -20.1366      0.002449141       -22.98397                0               0                0               0
1.52632                0.9770941       -20.32608      0.002536156       -25.73195                0               0                0               0
1.53289                0.9764315        -20.5179      0.002627964        -28.5461                0               0                0               0
1.53947                0.9757506       -20.71213      0.002724439        -31.4287                0               0                0               0
1.54605                0.9750517       -20.90886      0.002825425       -34.38068                0               0                0               0
1.55263                0.9743341        -21.1082      0.002930737       -37.40185                0               0                0               0
1.55921                0.9735978       -21.31025      0.003040171       -40.49096                0               0                0               0
1.56579                0.9728419       -21.51514      0.003153503        -43.6459                0               0                0               0
1.57237                0.9720657       -21.72297        0.0032705       -46.86384                0               0                0               0
1.57895                0.9712682       -21.93389      0.003390915       -50.14139                0               0                0               0
1.58553                 0.970448       -22.14802      0.003514503        -53.4747                0               0                0               0
1.59211                0.9696038       -22.36549      0.003641013       -56.85958                0               0                0               0
1.59868                0.9687336       -22.58642        0.0037702       -60.29164                0               0                0               0
1.60526                0.9678356       -22.81093      0.003901825       -63.76632                0               0                0               0
1.61184                0.9669074       -23.03915      0.004035659       -67.27898                0               0                0               0
1.61842                0.9659468       -23.27117      0.004171486       -70.82498                0               0                0               0
1.625                  0.9649511        -23.5071      0.004309107       -74.39968                0               0                0               0
1.63158                0.9639176       -23.74703      0.004448341       -77.99854                0               0                0               0
1.63816                0.9628436       -23.99104      0.004589034       -81.61711                0               0                0               0
1.64474                 0.961726       -24.23918      0.004731053       -85.25106                0               0                0               0
1.65132                0.9605617       -24.49152      0.004874298       -88.89621                0               0                0               0
1.65789                0.9593479        -24.7481      0.005018699       -92.54857                0               0                0               0
1.66447                0.9580816       -25.00894      0.005164225       -96.20434                0               0                0               0
1.67105                0.9567598       -25.27405      0.005310881       -99.85991                0               0                0               0
1.67763                0.9553797       -25.54345      0.005458715       -103.5119                0               0                0               0
1.68421                0.9539385       -25.81713      0.005607817       -107.1573                0               0                0               0
1.69079                0.9524337       -26.09506      0.005758329       -110.7931                0               0                0               0
1.69737                0.9508627       -26.37724      0.005910439       -114.4168                0               0                0               0
1.70395                0.9492233       -26.66364      0.006064387       -118.0262                0               0                0               0
1.71053                0.9475137       -26.95424       0.00622047       -121.6193                0               0                0               0
1.71711                0.9457316       -27.24899      0.006379035       -125.1947                0               0                0               0
1.72368                0.9438757       -27.54789      0.006540487       -128.7512                0               0                0               0
1.73026                0.9419441       -27.85091      0.006705284        -132.288                0               0                0               0
1.73684                0.9399359       -28.15804      0.006873942       -135.8048                0               0                0               0
1.74342                0.9378497       -28.46927      0.007047027       -139.3017                0               0                0               0
1.75                   0.9356843       -28.78462      0.007225152       -142.7794                0               0                0               0
1.75658                0.9334388        -29.1041       0.00740898       -146.2388                0               0                0               0
1.76316                0.9311123       -29.42776      0.007599214       -149.6816                0               0                0               0
1.76974                0.9287039       -29.75563      0.007796594       -153.1096                0               0                0               0
1.77632                0.9262125       -30.08781      0.008001886       -156.5254                0               0                0               0
1.78289                 0.923637       -30.42436       0.00821588       -159.9318                0               0                0               0
1.78947                0.9209762       -30.76539      0.008439379        -163.332                0               0                0               0
1.79605                0.9182288       -31.11103       0.00867319       -166.7295                0               0                0               0
1.80263                0.9153932       -31.46141      0.008918115       -170.1282                0               0                0               0
1.80921                0.9124673       -31.81669      0.009174943       -173.5321                0               0                0               0
1.81579                 0.909449       -32.17703      0.009444438       -176.9453                0               0                0               0
1.82237                0.9063357        -32.5426      0.009727332        179.6279                0               0                0               0
1.82895                0.9031245       -32.91359       0.01002432        176.1833                0               0                0               0
1.83553                 0.899812       -33.29019       0.01033603        172.7168                0               0                0               0
1.84211                0.8963944       -33.67261       0.01066307        169.2245                0               0                0               0
1.84868                0.8928676       -34.06101       0.01100594        165.7024                0               0                0               0
