! TOUCHSTONE file generated by CST MICROWAVE STUDIO
! Date and time: Tue Mar 11 13:58:26 2025
! Project name: transverse.cst
! Parameters = {Fracture=1; B=12.5; D=160; F=25; Feed=2.85625; L=100; M=30; R=0.384908; S=1; Theta=270; length=57.125; wave=114.25}
! Header version: 2024
! Port assignment regex: !\s*Touchstone port\s*([0-9]+)\s*=\s*(CST MWS port|CST DES external port|CST DES block port)\s*(.+)\s* \(\"(.*)\"\)(\s*mode\s*([0-9]+))?.*
! Touchstone port assignment:
! Touchstone port 1 = CST MWS port 1 ("")
! Touchstone port 2 = CST MWS port 2 ("")
# GHz S MA R 50
1                      0.9975237       -10.02355     0.0005411853        164.6947                0               0                0               0
1.0066                 0.9974604       -10.11123     0.0005374539        158.5941                0               0                0               0
1.0132                    0.9974       -10.19963     0.0005314931        152.6009                0               0                0               0
1.0198                 0.9973422        -10.2888     0.0005232645        146.7239                0               0                0               0
1.0264                 0.9972862       -10.37881      0.000512743        140.9747                0               0                0               0
1.033                  0.9972313        -10.4697     0.0004999178        135.3687                0               0                0               0
1.0396                 0.9971767       -10.56151     0.0004847956        129.9264                0               0                0               0
1.0462                 0.9971214       -10.65427     0.0004674035        124.6746                0               0                0               0
1.05281                0.9970643       -10.74801     0.0004477941        119.6486                0               0                0               0
1.05941                0.9970045       -10.84275     0.0004260521        114.8961                0               0                0               0
1.06601                 0.996941       -10.93849     0.0004023056        110.4813                0               0                0               0
1.07261                0.9968726       -11.03523     0.0003767413        106.4923                0               0                0               0
1.07921                0.9967983       -11.13296     0.0003496307        103.0514                0               0                0               0
1.08581                0.9967173       -11.23166     0.0003213711        100.3307                0               0                0               0
1.09241                0.9966288       -11.33131     0.0002925537        98.57245                0               0                0               0
1.09901                0.9965319       -11.43187     0.0002640727        98.11345                0               0                0               0
1.10561                0.9964261        -11.5333     0.0002372963        99.39549                0               0                0               0
1.11221                 0.996311       -11.63556     0.0002142837        102.9076                0               0                0               0
1.11881                0.9961862       -11.73861     0.0001979145        108.9392                0               0                0               0
1.12541                0.9960517        -11.8424     0.0001915159        117.0736                0               0                0               0
1.13201                0.9959075       -11.94688     0.0001975952        125.8497                0               0                0               0
1.13861                0.9957537       -12.05201     0.0002164495        133.4123                0               0                0               0
1.14521                0.9955908       -12.15775     0.0002462814        138.6565                0               0                0               0
1.15182                0.9954191       -12.26407     0.0002845645        141.4803                0               0                0               0
1.15842                0.9952394       -12.37094     0.0003290791          142.29                0               0                0               0
1.16502                0.9950523       -12.47834     0.0003781856        141.5738                0               0                0               0
1.17162                0.9948586       -12.58625     0.0004307318        139.7382                0               0                0               0
1.17822                0.9946592       -12.69468     0.0004858989        137.0853                0               0                0               0
1.18482                0.9944551       -12.80362     0.0005430823        133.8309                0               0                0               0
1.19142                 0.994247       -12.91311     0.0006018116        130.1287                0               0                0               0
1.19802                0.9940358       -13.02316     0.0006617016        126.0888                0               0                0               0
1.20462                0.9938224       -13.13381     0.0007224215        121.7918                0               0                0               0
1.21122                0.9936074       -13.24511     0.0007836767        117.2971                0               0                0               0
1.21782                0.9933915       -13.35711     0.0008451958        112.6496                0               0                0               0
1.22442                0.9931752       -13.46988     0.0009067245         107.884                0               0                0               0
1.23102                0.9929588       -13.58347       0.00096802        103.0271                0               0                0               0
1.23762                0.9927425       -13.69797      0.001028849        98.10035                0               0                0               0
1.24422                0.9925262       -13.81344      0.001088984        93.12124                0               0                0               0
1.25083                0.9923098       -13.92996      0.001148206        88.10403                0               0                0               0
1.25743                0.9920931       -14.04761      0.001206301        83.06073                0               0                0               0
1.26403                0.9918753       -14.16647      0.001263063        78.00158                0               0                0               0
1.27063                0.9916559       -14.28659      0.001318289         72.9355                0               0                0               0
1.27723                0.9914339       -14.40804      0.001371789        67.87038                0               0                0               0
1.28383                0.9912084       -14.53088      0.001423378        62.81336                0               0                0               0
1.29043                0.9909784       -14.65516      0.001472881        57.77101                0               0                0               0
1.29703                0.9907426       -14.78091      0.001520135        52.74948                0               0                0               0
1.30363                0.9904997       -14.90818      0.001564988        47.75466                0               0                0               0
1.31023                0.9902486       -15.03697      0.001607304        42.79224                0               0                0               0
1.31683                 0.989988        -15.1673      0.001646959        37.86785                0               0                0               0
1.32343                0.9897165       -15.29917      0.001683852        32.98711                0               0                0               0
1.33003                 0.989433       -15.43257      0.001717895        28.15568                0               0                0               0
1.33663                0.9891366       -15.56749      0.001749026        23.37936                0               0                0               0
1.34323                0.9888261       -15.70388      0.001777206         18.6641                0               0                0               0
1.34984                0.9885009       -15.84173      0.001802422        14.01603                0               0                0               0
1.35644                0.9881601         -15.981       0.00182469        9.441529                0               0                0               0
1.36304                0.9878033       -16.12164      0.001844058        4.947204                0               0                0               0
1.36964                0.9874303       -16.26361       0.00186061        0.539904                0               0                0               0
1.37624                0.9870408       -16.40687      0.001874467       -3.773297                0               0                0               0
1.38284                0.9866349       -16.55138      0.001885792       -7.985148                0               0                0               0
1.38944                0.9862128       -16.69711      0.001894795       -12.08829                0               0                0               0
1.39604                 0.985775       -16.84403      0.001901731       -16.07535                0               0                0               0
1.40264                 0.985322        -16.9921      0.001906909       -19.93913                0               0                0               0
1.40924                0.9848543       -17.14133       0.00191069       -23.67278                0               0                0               0
1.41584                 0.984373        -17.2917      0.001913495       -27.27006                0               0                0               0
1.42244                0.9838785       -17.44323      0.001915797       -30.72572                0               0                0               0
1.42904                 0.983372       -17.59593      0.001918129       -34.03585                0               0                0               0
1.43564                0.9828542       -17.74985      0.001921079       -37.19835                0               0                0               0
1.44224                 0.982326       -17.90501      0.001925281       -40.21342                0               0                0               0
1.44884                0.9817881       -18.06149      0.001931414       -43.08407                0               0                0               0
1.45545                0.9812412       -18.21935      0.001940184       -45.81659                0               0                0               0
1.46205                0.9806858       -18.37867      0.001952315       -48.42085                0               0                0               0
1.46865                0.9801223       -18.53955      0.001968526       -50.91056                0               0                0               0
1.47525                0.9795507       -18.70208      0.001989513       -53.30311                0               0                0               0
1.48185                0.9789712       -18.86636      0.002015928       -55.61933                0               0                0               0
1.48845                0.9783833       -19.03251      0.002048352       -57.88275                0               0                0               0
1.49505                0.9777866       -19.20063      0.002087282       -60.11874                0               0                0               0
1.50165                0.9771803       -19.37083      0.002133106       -62.35334                0               0                0               0
1.50825                0.9765634       -19.54323      0.002186098       -64.61211                0               0                0               0
1.51485                0.9759349       -19.71793      0.002246412       -66.91898                0               0                0               0
1.52145                0.9752931       -19.89502      0.002314079       -69.29525                0               0                0               0
1.52805                0.9746365       -20.07459      0.002389016       -71.75893                0               0                0               0
1.53465                0.9739633       -20.25673      0.002471036       -74.32429                0               0                0               0
1.54125                0.9732716        -20.4415      0.002559859       -77.00177                0               0                0               0
1.54785                0.9725595       -20.62895       0.00265513       -79.79809                0               0                0               0
1.55446                0.9718249       -20.81913      0.002756434        -82.7166                0               0                0               0
1.56106                0.9710656       -21.01207      0.002863307       -85.75773                0               0                0               0
1.56766                0.9702797       -21.20777      0.002975249       -88.91945                0               0                0               0
1.57426                0.9694654       -21.40624       0.00309174       -92.19779                0               0                0               0
1.58086                0.9686205       -21.60747      0.003212244        -95.5873                0               0                0               0
1.58746                0.9677436       -21.81143       0.00333622        -99.0815                0               0                0               0
1.59406                0.9668331       -22.01809      0.003463124       -102.6731                0               0                0               0
1.60066                0.9658875       -22.22742      0.003592421       -106.3546                0               0                0               0
1.60726                 0.964906       -22.43936      0.003723582       -110.1179                0               0                0               0
1.61386                0.9638876       -22.65387      0.003856094       -113.9552                0               0                0               0
1.62046                0.9628318        -22.8709      0.003989456       -117.8587                0               0                0               0
1.62706                0.9617383       -23.09041      0.004123186       -121.8206                0               0                0               0
1.63366                 0.960607       -23.31236      0.004256823       -125.8334                0               0                0               0
1.64026                0.9594383        -23.5367      0.004389929         -129.89                0               0                0               0
1.64686                0.9582324       -23.76344      0.004522089       -133.9833                0               0                0               0
1.65347                0.9569899       -23.99257      0.004652916       -138.1066                0               0                0               0
1.66007                0.9557118       -24.22408      0.004782053       -142.2535                0               0                0               0
1.66667                0.9543988       -24.45802      0.004909174       -146.4178                0               0                0               0
1.67327                 0.953052       -24.69442      0.005033989       -150.5934                0               0                0               0
1.67987                0.9516723       -24.93337      0.005156247       -154.7747                0               0                0               0
1.68647                0.9502606       -25.17496      0.005275732        -158.956                0               0                0               0
1.69307                0.9488179       -25.41929      0.005392279        -163.132                0               0                0               0
1.69967                0.9473448       -25.66652      0.005505769       -167.2976                0               0                0               0
1.70627                0.9458419       -25.91679       0.00561613       -171.4477                0               0                0               0
1.71287                0.9443093       -26.17029      0.005723351       -175.5775                0               0                0               0
1.71947                0.9427472       -26.42721      0.005827477       -179.6823                0               0                0               0
1.72607                 0.941155       -26.68777      0.005928615        176.2422                0               0                0               0
1.73267                0.9395319        -26.9522      0.006026939        172.2003                0               0                0               0
1.73927                0.9378768       -27.22073      0.006122695         168.196                0               0                0               0
1.74587                 0.936188       -27.49362      0.006216202         164.233                0               0                0               0
1.75248                0.9344635        -27.7711      0.006307854        160.3147                0               0                0               0
1.75908                0.9327008       -28.05344      0.006398127        156.4441                0               0                0               0
1.76568                0.9308967       -28.34088      0.006487575        152.6238                0               0                0               0
1.77228                0.9290479       -28.63366      0.006576836         148.856                0               0                0               0
1.77888                0.9271506       -28.93201      0.006666629         145.142                0               0                0               0
1.78548                0.9252007       -29.23616      0.006757752        141.4828                0               0                0               0
1.79208                0.9231935       -29.54631      0.006851079        137.8784                0               0                0               0
1.79868                0.9211244       -29.86263      0.006947557        134.3281                0               0                0               0
1.80528                0.9189883        -30.1853      0.007048191        130.8302                0               0                0               0
1.81188                0.9167801       -30.51445      0.007154044        127.3824                0               0                0               0
1.81848                0.9144942       -30.85022      0.007266219        123.9809                0               0                0               0
1.82508                0.9121256        -31.1927      0.007385846        120.6213                0               0                0               0
1.83168                0.9096687       -31.54197      0.007514066        117.2981                0               0                0               0
1.83828                0.9071185       -31.89808      0.007652015        114.0049                0               0                0               0
1.84488                0.9044697       -32.26109      0.007800807        110.7345                0               0                0               0
1.85149                0.9017172       -32.63101      0.007961506         107.479                0               0                0               0
