! TOUCHSTONE file generated by CST MICROWAVE STUDIO
! Date and time: Tue Mar 11 13:58:22 2025
! Project name: transverse.cst
! Parameters = {Fracture=1; B=12.5; D=160; F=15; Feed=2.85625; L=100; M=30; R=0.384908; S=2; Theta=270; length=57.125; wave=114.25}
! Header version: 2024
! Port assignment regex: !\s*Touchstone port\s*([0-9]+)\s*=\s*(CST MWS port|CST DES external port|CST DES block port)\s*(.+)\s* \(\"(.*)\"\)(\s*mode\s*([0-9]+))?.*
! Touchstone port assignment:
! Touchstone port 1 = CST MWS port 1 ("")
! Touchstone port 2 = CST MWS port 2 ("")
# GHz S MA R 50
1                      0.9975394       -9.990477     0.0004691435        173.0906                0               0                0               0
1.00658                0.9974677       -10.07788     0.0004669295        167.5488                0               0                0               0
1.01316                0.9973976       -10.16591     0.0004628293        162.1253                0               0                0               0
1.01974                0.9973291       -10.25463     0.0004568251         156.833                0               0                0               0
1.02632                0.9972614       -10.34407     0.0004489129        151.6878                0               0                0               0
1.03289                0.9971943       -10.43427     0.0004391061        146.7102                0               0                0               0
1.03947                0.9971272       -10.52528     0.0004274379         141.926                0               0                0               0
1.04605                0.9970596       -10.61712     0.0004139666         137.368                0               0                0               0
1.05263                0.9969905       -10.70982      0.000398782        133.0779                0               0                0               0
1.05921                0.9969193        -10.8034     0.0003820135        129.1094                0               0                0               0
1.06579                0.9968453       -10.89787     0.0003638436        125.5314                0               0                0               0
1.07237                0.9967676       -10.99325     0.0003445253        122.4324                0               0                0               0
1.07895                0.9966856       -11.08952     0.0003244077        119.9261                0               0                0               0
1.08553                0.9965983        -11.1867     0.0003039727        118.1554                0               0                0               0
1.09211                0.9965051       -11.28476     0.0002838834        117.2933                0               0                0               0
1.09868                0.9964056       -11.38369     0.0002650438         117.532                0               0                0               0
1.10526                0.9962987       -11.48347     0.0002486518        119.0471                0               0                0               0
1.11184                0.9961845       -11.58407     0.0002362054        121.9172                0               0                0               0
1.11842                0.9960625       -11.68546     0.0002293774        126.0036                0               0                0               0
1.125                  0.9959322       -11.78761      0.000229695        130.8543                0               0                0               0
1.13158                0.9957938        -11.8905     0.0002381009        135.7605                0               0                0               0
1.13816                0.9956472       -11.99408     0.0002546722        140.0003                0               0                0               0
1.14474                0.9954923       -12.09833     0.0002787172        143.0934                0               0                0               0
1.15132                0.9953295       -12.20321     0.0003091362        144.8758                0               0                0               0
1.15789                0.9951593       -12.30871     0.0003447682        145.4124                0               0                0               0
1.16447                0.9949819       -12.41481     0.0003845798        144.8744                0               0                0               0
1.17105                0.9947979       -12.52149     0.0004277194        143.4554                0               0                0               0
1.17763                0.9946077       -12.62875     0.0004735032        141.3316                0               0                0               0
1.18421                0.9944124       -12.73658     0.0005213804        138.6497                0               0                0               0
1.19079                0.9942121       -12.84498     0.0005708984        135.5269                0               0                0               0
1.19737                0.9940079       -12.95399     0.0006216757         132.055                0               0                0               0
1.20395                0.9938002        -13.0636     0.0006733812        128.3062                0               0                0               0
1.21053                0.9935897       -13.17386     0.0007257198        124.3369                0               0                0               0
1.21711                0.9933769       -13.28481     0.0007784221        120.1916                0               0                0               0
1.22368                0.9931625       -13.39647      0.000831238        115.9061                0               0                0               0
1.23026                0.9929464       -13.50891     0.0008839314         111.509                0               0                0               0
1.23684                0.9927297       -13.62217     0.0009362782        107.0239                0               0                0               0
1.24342                0.9925118       -13.73632     0.0009880625        102.4701                0               0                0               0
1.25                   0.9922931       -13.85141      0.001039078        97.86406                0               0                0               0
1.25658                0.9920734        -13.9675      0.001089124         93.2196                0               0                0               0
1.26316                0.9918526       -14.08466      0.001138011        88.54873                0               0                0               0
1.26974                0.9916301       -14.20295      0.001185553        83.86202                0               0                0               0
1.27632                0.9914057       -14.32242      0.001231576        79.16889                0               0                0               0
1.28289                0.9911785       -14.44313      0.001275914        74.47788                0               0                0               0
1.28947                0.9909481       -14.56513      0.001318411        69.79692                0               0                0               0
1.29605                0.9907135       -14.68847      0.001358923        65.13343                0               0                0               0
1.30263                0.9904737       -14.81318      0.001397319        60.49448                0               0                0               0
1.30921                0.9902279        -14.9393      0.001433483        55.88695                0               0                0               0
1.31579                0.9899749       -15.06685      0.001467314         51.3176                0               0                0               0
1.32237                0.9897141       -15.19584       0.00149873        46.79313                0               0                0               0
1.32895                0.9894443       -15.32628      0.001527671        42.32031                0               0                0               0
1.33553                0.9891645       -15.45819      0.001554096        37.90598                0               0                0               0
1.34211                0.9888739       -15.59155      0.001577993        33.55715                0               0                0               0
1.34868                0.9885718       -15.72634      0.001599375        29.28098                0               0                0               0
1.35526                0.9882574       -15.86256      0.001618286        25.08485                0               0                0               0
1.36184                  0.98793       -16.00018      0.001634806         20.9763                0               0                0               0
1.36842                0.9875894       -16.13918       0.00164905        16.96307                0               0                0               0
1.375                  0.9872351       -16.27953      0.001661174        13.05297                0               0                0               0
1.38158                0.9868669       -16.42121      0.001671378        9.253889                0               0                0               0
1.38816                0.9864848       -16.56419      0.001679909        5.573559                0               0                0               0
1.39474                 0.986089       -16.70844      0.001687065        2.019443                0               0                0               0
1.40132                0.9856797       -16.85397      0.001693195       -1.401548                0               0                0               0
1.40789                0.9852573       -17.00074      0.001698705       -4.683346                0               0                0               0
1.41447                0.9848221       -17.14875      0.001704055       -7.821122                0               0                0               0
1.42105                0.9843749       -17.29802      0.001709761       -10.81172                0               0                0               0
1.42763                0.9839162       -17.44854      0.001716387       -13.65416                0               0                0               0
1.43421                0.9834468       -17.60035      0.001724546       -16.35017                0               0                0               0
1.44079                 0.982967       -17.75347      0.001734886       -18.90463                0               0                0               0
1.44737                 0.982478       -17.90794      0.001748083       -21.32605                0               0                0               0
1.45395                0.9819801       -18.06383      0.001764818        -23.6268                0               0                0               0
1.46053                0.9814738       -18.22118      0.001785766       -25.82312                0               0                0               0
1.46711                0.9809598       -18.38009      0.001811573       -27.93495                0               0                0               0
1.47368                0.9804383       -18.54062      0.001842833       -29.98526                0               0                0               0
1.48026                0.9799097       -18.70288      0.001880071       -31.99928                0               0                0               0
1.48684                0.9793737       -18.86695      0.001923723       -34.00335                0               0                0               0
1.49342                0.9788303       -19.03294      0.001974126       -36.02372                0               0                0               0
1.5                    0.9782793       -19.20097      0.002031507       -38.08533                0               0                0               0
1.50658                0.9777199       -19.37112      0.002095981       -40.21074                0               0                0               0
1.51316                0.9771515       -19.54353      0.002167556       -42.41932                0               0                0               0
1.51974                0.9765731       -19.71828      0.002246141        -44.7267                0               0                0               0
1.52632                0.9759835        -19.8955      0.002331554       -47.14459                0               0                0               0
1.53289                0.9753815       -20.07527       0.00242354       -49.68082                0               0                0               0
1.53947                0.9747654        -20.2577      0.002521779       -52.33966                0               0                0               0
1.54605                0.9741336       -20.44286      0.002625902       -55.12224                0               0                0               0
1.55263                0.9734842       -20.63084      0.002735507       -58.02705                0               0                0               0
1.55921                0.9728155        -20.8217      0.002850162       -61.05043                0               0                0               0
1.56579                0.9721255        -21.0155      0.002969423       -64.18713                0               0                0               0
1.57237                0.9714121       -21.21228      0.003092833       -67.43069                0               0                0               0
1.57895                0.9706735       -21.41208      0.003219935       -70.77385                0               0                0               0
1.58553                0.9699075       -21.61492      0.003350277       -74.20885                0               0                0               0
1.59211                0.9691124       -21.82082      0.003483411       -77.72769                0               0                0               0
1.59868                0.9682863       -22.02978      0.003618904       -81.32228                0               0                0               0
1.60526                0.9674276       -22.24179      0.003756333       -84.98461                0               0                0               0
1.61184                0.9665346       -22.45685      0.003895297       -88.70684                0               0                0               0
1.61842                 0.965606       -22.67494       0.00403541       -92.48136                0               0                0               0
1.625                  0.9646406       -22.89604       0.00417631       -96.30084                0               0                0               0
1.63158                0.9636374       -23.12014      0.004317661       -100.1583                0               0                0               0
1.63816                0.9625955       -23.34721      0.004459152       -104.0469                0               0                0               0
1.64474                0.9615144       -23.57724      0.004600503       -107.9603                0               0                0               0
1.65132                0.9603933       -23.81022      0.004741466       -111.8925                0               0                0               0
1.65789                0.9592325       -24.04614      0.004881827       -115.8375                0               0                0               0
1.66447                0.9580313       -24.28502      0.005021412       -119.7899                0               0                0               0
1.67105                0.9567899       -24.52687      0.005160087       -123.7445                0               0                0               0
1.67763                0.9555085       -24.77173      0.005297763       -127.6964                0               0                0               0
1.68421                0.9541871       -25.01964      0.005434398       -131.6409                0               0                0               0
1.69079                0.9528258       -25.27066      0.005570001       -135.5735                0               0                0               0
1.69737                0.9514249       -25.52487      0.005704636       -139.4903                0               0                0               0
1.70395                0.9499846       -25.78236      0.005838423       -143.3874                0               0                0               0
1.71053                0.9485045       -26.04326      0.005971541       -147.2614                0               0                0               0
1.71711                0.9469849       -26.30768      0.006104237       -151.1092                0               0                0               0
1.72368                0.9454252       -26.57577      0.006236815       -154.9279                0               0                0               0
1.73026                0.9438251       -26.84769      0.006369653       -158.7153                0               0                0               0
1.73684                0.9421836       -27.12362      0.006503195       -162.4693                0               0                0               0
1.74342                0.9404998       -27.40375      0.006637951       -166.1886                0               0                0               0
1.75                   0.9387722       -27.68826      0.006774502       -169.8721                0               0                0               0
1.75658                0.9369994       -27.97737      0.006913494       -173.5195                0               0                0               0
1.76316                0.9351791       -28.27128      0.007055637       -177.1309                0               0                0               0
1.76974                 0.933309        -28.5702      0.007201699        179.2929                0               0                0               0
1.77632                0.9313863       -28.87437      0.007352504        175.7504                0               0                0               0
1.78289                0.9294081       -29.18398       0.00750892        172.2395                0               0                0               0
1.78947                0.9273709       -29.49924      0.007671858        168.7575                0               0                0               0
1.79605                0.9252709       -29.82037      0.007842252         165.301                0               0                0               0
1.80263                0.9231042       -30.14756      0.008021057         161.866                0               0                0               0
1.80921                0.9208664         -30.481      0.008209231        158.4478                0               0                0               0
1.81579                 0.918553       -30.82087      0.008407727        155.0416                0               0                0               0
1.82237                0.9161593       -31.16732      0.008617474        151.6417                0               0                0               0
1.82895                0.9136803       -31.52052      0.008839372        148.2425                0               0                0               0
1.83553                 0.911111        -31.8806       0.00907427         144.838                0               0                0               0
1.84211                0.9084461       -32.24768       0.00932296        141.4221                0               0                0               0
1.84868                0.9056806       -32.62189      0.009586166        137.9888                0               0                0               0
