! TOUCHSTONE file generated by CST MICROWAVE STUDIO
! Date and time: Tue Mar 11 13:58:04 2025
! Project name: transverse.cst
! Parameters = {Fracture=1; B=12.5; D=160; F=5; Feed=2.85625; L=100; M=10; R=0.384908; S=2; Theta=270; length=57.125; wave=114.25}
! Header version: 2024
! Port assignment regex: !\s*Touchstone port\s*([0-9]+)\s*=\s*(CST MWS port|CST DES external port|CST DES block port)\s*(.+)\s* \(\"(.*)\"\)(\s*mode\s*([0-9]+))?.*
! Touchstone port assignment:
! Touchstone port 1 = CST MWS port 1 ("")
! Touchstone port 2 = CST MWS port 2 ("")
# GHz S MA R 50
1                      0.9978401       -9.998071     0.0002725637       -126.6397                0               0                0               0
1.00658                0.9977572       -10.08818     0.0002925467       -130.8119                0               0                0               0
1.01316                0.9976682       -10.17874     0.0003119568       -135.1111                0               0                0               0
1.01974                0.9975735       -10.26971     0.0003306687       -139.5019                0               0                0               0
1.02632                0.9974737       -10.36106     0.0003485651       -143.9562                0               0                0               0
1.03289                0.9973693       -10.45277     0.0003655349       -148.4509                0               0                0               0
1.03947                0.9972612       -10.54483     0.0003814737       -152.9664                0               0                0               0
1.04605                  0.99715       -10.63723     0.0003962841       -157.4858                0               0                0               0
1.05263                0.9970367       -10.72999     0.0004098756       -161.9938                0               0                0               0
1.05921                 0.996922        -10.8231     0.0004221656       -166.4763                0               0                0               0
1.06579                0.9968067        -10.9166     0.0004330805       -170.9196                0               0                0               0
1.07237                0.9966915       -11.01051     0.0004425562       -175.3105                0               0                0               0
1.07895                0.9965773       -11.10487     0.0004505399       -179.6352                0               0                0               0
1.08553                0.9964647       -11.19972     0.0004569918        176.1203                0               0                0               0
1.09211                0.9963541       -11.29512     0.0004618861        171.9711                0               0                0               0
1.09868                 0.996246       -11.39113     0.0004652144        167.9333                0               0                0               0
1.10526                0.9961405        -11.4878     0.0004669872        164.0248                0               0                0               0
1.11184                0.9960379       -11.58521     0.0004672375        160.2651                0               0                0               0
1.11842                 0.995938       -11.68341     0.0004660245         156.676                0               0                0               0
1.125                  0.9958406       -11.78249     0.0004634378        153.2815                0               0                0               0
1.13158                0.9957453        -11.8825     0.0004596025        150.1082                0               0                0               0
1.13816                0.9956515        -11.9835     0.0004546852        147.1854                0               0                0               0
1.14474                0.9955588       -12.08556     0.0004489008        144.5444                0               0                0               0
1.15132                0.9954662       -12.18873     0.0004425197        142.2177                0               0                0               0
1.15789                0.9953727       -12.29306     0.0004358748        140.2377                0               0                0               0
1.16447                0.9952774       -12.39857     0.0004293681        138.6337                0               0                0               0
1.17105                0.9951792       -12.50532     0.0004234729        137.4279                0               0                0               0
1.17763                0.9950769       -12.61331      0.000418732        136.6304                0               0                0               0
1.18421                0.9949696       -12.72255     0.0004157461        136.2324                0               0                0               0
1.19079                 0.994856       -12.83306     0.0004151498        136.2002                0               0                0               0
1.19737                0.9947349       -12.94482     0.0004175762         136.471                0               0                0               0
1.20395                0.9946055       -13.05782     0.0004236086        136.9533                0               0                0               0
1.21053                0.9944668       -13.17204     0.0004337318        137.5335                0               0                0               0
1.21711                 0.994318       -13.28745     0.0004482894        138.0886                0               0                0               0
1.22368                0.9941585         -13.404     0.0004674617        138.5005                0               0                0               0
1.23026                0.9939875       -13.52168     0.0004912658        138.6706                0               0                0               0
1.23684                 0.993805       -13.64043     0.0005195774        138.5274                0               0                0               0
1.24342                0.9936104        -13.7602      0.000552165        138.0291                0               0                0               0
1.25                    0.993404       -13.88097     0.0005887265        137.1603                0               0                0               0
1.25658                0.9931858       -14.00268      0.000628922        135.9263                0               0                0               0
1.26316                0.9929561        -14.1253     0.0006723982        134.3466                0               0                0               0
1.26974                0.9927152        -14.2488      0.000718805         132.449                0               0                0               0
1.27632                0.9924639       -14.37315      0.000767806        130.2654                0               0                0               0
1.28289                0.9922027       -14.49834     0.0008190827        127.8286                0               0                0               0
1.28947                0.9919324       -14.62436     0.0008723372        125.1705                0               0                0               0
1.29605                0.9916539       -14.75122     0.0009272918        122.3208                0               0                0               0
1.30263                0.9913679       -14.87891     0.0009836885        119.3069                0               0                0               0
1.30921                0.9910754       -15.00749      0.001041288        116.1534                0               0                0               0
1.31579                0.9907772       -15.13696      0.001099869        112.8823                0               0                0               0
1.32237                0.9904741       -15.26738      0.001159226        109.5132                0               0                0               0
1.32895                0.9901668       -15.39881      0.001219171        106.0637                0               0                0               0
1.33553                0.9898557        -15.5313      0.001279532        102.5492                0               0                0               0
1.34211                0.9895415       -15.66493      0.001340154        98.98351                0               0                0               0
1.34868                0.9892244       -15.79979      0.001400898        95.37909                0               0                0               0
1.35526                0.9889044       -15.93594      0.001461642        91.74695                0               0                0               0
1.36184                0.9885815        -16.0735      0.001522283        88.09705                0               0                0               0
1.36842                0.9882554       -16.21253      0.001582739        84.43834                0               0                0               0
1.375                  0.9879257       -16.35313      0.001642945         80.7789                0               0                0               0
1.38158                0.9875918       -16.49539       0.00170286        77.12603                0               0                0               0
1.38816                0.9872525       -16.63941      0.001762466        73.48631                0               0                0               0
1.39474                0.9869071       -16.78524       0.00182177        69.86567                0               0                0               0
1.40132                0.9865544       -16.93298      0.001880802        66.26941                0               0                0               0
1.40789                0.9861928       -17.08268      0.001939622        62.70222                0               0                0               0
1.41447                0.9858211        -17.2344      0.001998316         59.1682                0               0                0               0
1.42105                0.9854377       -17.38818      0.002056999        55.67084                0               0                0               0
1.42763                0.9850412       -17.54407      0.002115814        52.21303                0               0                0               0
1.43421                0.9846297       -17.70208      0.002174937        48.79701                0               0                0               0
1.44079                0.9842019       -17.86224      0.002234569        45.42436                0               0                0               0
1.44737                0.9837562       -18.02453      0.002294941        42.09598                0               0                0               0
1.45395                0.9832912       -18.18895      0.002356313        38.81204                0               0                0               0
1.46053                0.9828055        -18.3555      0.002418967        35.57201                0               0                0               0
1.46711                 0.982298       -18.52414      0.002483211        32.37458                0               0                0               0
1.47368                0.9817676       -18.69485       0.00254937         29.2177                0               0                0               0
1.48026                0.9812135       -18.86758      0.002617788         26.0986                0               0                0               0
1.48684                0.9806349       -19.04231       0.00268882         23.0138                0               0                0               0
1.49342                0.9800315       -19.21901      0.002762826        19.95915                0               0                0               0
1.5                     0.979403       -19.39761      0.002840172        16.92995                0               0                0               0
1.50658                0.9787493       -19.57811      0.002921216        13.92098                0               0                0               0
1.51316                0.9780704       -19.76047      0.003006311        10.92665                0               0                0               0
1.51974                0.9773667       -19.94468      0.003095793        7.941097                0               0                0               0
1.52632                0.9766386       -20.13072      0.003189981        4.958338                0               0                0               0
1.53289                0.9758866        -20.3186      0.003289167        1.972384                0               0                0               0
1.53947                0.9751114       -20.50833      0.003393619       -1.022624                0               0                0               0
1.54605                0.9743135       -20.69995      0.003503568       -4.032284                0               0                0               0
1.55263                0.9734938       -20.89349      0.003619216        -7.06183                0               0                0               0
1.55921                0.9726528       -21.08902      0.003740726       -10.11603                0               0                0               0
1.56579                0.9717912        -21.2866      0.003868225       -13.19911                0               0                0               0
1.57237                0.9709096       -21.48633      0.004001804       -16.31473                0               0                0               0
1.57895                0.9700081        -21.6883      0.004141516       -19.46591                0               0                0               0
1.58553                0.9690871       -21.89264      0.004287381       -22.65504                0               0                0               0
1.59211                0.9681464       -22.09947      0.004439385       -25.88389                0               0                0               0
1.59868                0.9671858       -22.30892      0.004597482       -29.15364                0               0                0               0
1.60526                0.9662047       -22.52114        0.0047616       -32.46487                0               0                0               0
1.61184                0.9652023       -22.73627      0.004931641        -35.8177                0               0                0               0
1.61842                0.9641775       -22.95448      0.005107484        -39.2117                0               0                0               0
1.625                  0.9631287       -23.17591      0.005288992       -42.64608                0               0                0               0
1.63158                0.9620543       -23.40072       0.00547601       -46.11968                0               0                0               0
1.63816                0.9609524       -23.62904      0.005668374       -49.63101                0               0                0               0
1.64474                0.9598203       -23.86104      0.005865909       -53.17834                0               0                0               0
1.65132                0.9586558       -24.09682      0.006068437       -56.75975                0               0                0               0
1.65789                 0.957456       -24.33652      0.006275776       -60.37312                0               0                0               0
1.66447                0.9562178       -24.58024      0.006487748       -64.01625                0               0                0               0
1.67105                0.9549381       -24.82807      0.006704178       -67.68683                0               0                0               0
1.67763                0.9536137        -25.0801        0.0069249       -71.38254                0               0                0               0
1.68421                0.9522411       -25.33638      0.007149757       -75.10102                0               0                0               0
1.69079                0.9508169       -25.59695      0.007378608       -78.83991                0               0                0               0
1.69737                0.9493381       -25.86185      0.007611327        -82.5969                0               0                0               0
1.70395                 0.947801       -26.13109      0.007847805       -86.36974                0               0                0               0
1.71053                0.9462026       -26.40467      0.008087962       -90.15623                0               0                0               0
1.71711                0.9445399       -26.68256      0.008331735       -93.95427                0               0                0               0
1.72368                0.9428098       -26.96475      0.008579089       -97.76186                0               0                0               0
1.73026                0.9410099        -27.2512      0.008830022       -101.5771                0               0                0               0
1.73684                0.9391377       -27.54186      0.009084558       -105.3983                0               0                0               0
1.74342                 0.937191       -27.83669      0.009342754       -109.2237                0               0                0               0
1.75                   0.9351677       -28.13565      0.009604704       -113.0519                0               0                0               0
1.75658                0.9330664       -28.43868      0.009870534       -116.8816                0               0                0               0
1.76316                0.9308852       -28.74574        0.0101404       -120.7116                0               0                0               0
1.76974                0.9286234        -29.0568       0.01041452       -124.5409                0               0                0               0
1.77632                0.9262797       -29.37184        0.0106931       -128.3686                0               0                0               0
1.78289                0.9238533       -29.69085       0.01097644       -132.1942                0               0                0               0
1.78947                0.9213435       -30.01383       0.01126482       -136.0172                0               0                0               0
1.79605                0.9187495       -30.34082        0.0115586       -139.8372                0               0                0               0
1.80263                 0.916071       -30.67184       0.01185815       -143.6542                0               0                0               0
1.80921                0.9133071       -31.00698       0.01216388       -147.4682                0               0                0               0
1.81579                0.9104572       -31.34632        0.0124762       -151.2795                0               0                0               0
1.82237                0.9075204       -31.68996       0.01279559       -155.0887                0               0                0               0
1.82895                0.9044958       -32.03803       0.01312252       -158.8962                0               0                0               0
1.83553                0.9013818        -32.3907       0.01345747       -162.7028                0               0                0               0
1.84211                 0.898177       -32.74813       0.01380097       -166.5096                0               0                0               0
1.84868                0.8948793        -33.1105       0.01415352       -170.3175                0               0                0               0
