! TOUCHSTONE file generated by CST MICROWAVE STUDIO
! Date and time: Tue Mar 11 13:57:08 2025
! Project name: transverse.cst
! Parameters = {Fracture=5; B=12.5; D=160; F=25; Feed=2.85625; L=100; M=30; R=0.384908; S=1; Theta=90; length=57.125; wave=114.25}
! Header version: 2024
! Port assignment regex: !\s*Touchstone port\s*([0-9]+)\s*=\s*(CST MWS port|CST DES external port|CST DES block port)\s*(.+)\s* \(\"(.*)\"\)(\s*mode\s*([0-9]+))?.*
! Touchstone port assignment:
! Touchstone port 1 = CST MWS port 1 ("")
! Touchstone port 2 = CST MWS port 2 ("")
# GHz S MA R 50
1                      0.9975277       -9.759728     0.0005417653        165.2454                0               0                0               0
1.0066                 0.9974644       -9.845635     0.0005381994        159.1417                0               0                0               0
1.0132                 0.9974037       -9.932259     0.0005324097        153.1451                0               0                0               0
1.0198                 0.9973457       -10.01966     0.0005243574        147.2642                0               0                0               0
1.0264                 0.9972894       -10.10788     0.0005140164        141.5104                0               0                0               0
1.033                  0.9972342       -10.19698     0.0005013754        135.8989                0               0                0               0
1.0396                 0.9971793       -10.28699     0.0004864398        130.4497                0               0                0               0
1.0462                 0.9971237       -10.37795     0.0004692356        125.1891                0               0                0               0
1.05281                0.9970664       -10.46988     0.0004498138        120.1518                0               0                0               0
1.05941                0.9970065       -10.56281     0.0004282572        115.3843                0               0                0               0
1.06601                0.9969428       -10.65673     0.0004046908        110.9493                0               0                0               0
1.07261                0.9968744       -10.75165     0.0003792973        106.9327                0               0                0               0
1.07921                0.9968001       -10.84755     0.0003523417        103.4536                0               0                0               0
1.08581                0.9967193       -10.94442     0.0003242112        100.6787                0               0                0               0
1.09241                0.9966309       -11.04224     0.0002954803         98.8429                0               0                0               0
1.09901                0.9965342       -11.14096     0.0002670158        98.27209                0               0                0               0
1.10561                0.9964288       -11.24056     0.0002401395        99.39545                0               0                0               0
1.11221                0.9963141       -11.34098     0.0002168419        102.6953                0               0                0               0
1.11881                0.9961898       -11.44219     0.0001999208        108.4826                0               0                0               0
1.12541                0.9960559       -11.54414      0.000192669        116.4155                0               0                0               0
1.13201                0.9959123       -11.64679     0.0001976903        125.1282                0               0                0               0
1.13861                0.9957593       -11.75009     0.0002154835         132.781                0               0                0               0
1.14521                 0.995597       -11.85401     0.0002444068        138.1953                0               0                0               0
1.15182                0.9954262        -11.9585     0.0002819733        141.1957                0               0                0               0
1.15842                0.9952472       -12.06354     0.0003259361        142.1557                0               0                0               0
1.16502                 0.995061       -12.16911     0.0003746145        141.5579                0               0                0               0
1.17162                 0.994868       -12.27521     0.0004268223        139.8137                0               0                0               0
1.17822                0.9946695       -12.38182     0.0004817172         137.231                0               0                0               0
1.18482                0.9944661       -12.48895     0.0005386783         134.031                0               0                0               0
1.19142                0.9942587       -12.59662     0.0005972247        130.3715                0               0                0               0
1.19802                0.9940483       -12.70485     0.0006569643        126.3657                0               0                0               0
1.20462                0.9938354       -12.81369     0.0007175616         122.096                0               0                0               0
1.21122                 0.993621       -12.92318     0.0007787185        117.6236                0               0                0               0
1.21782                0.9934056       -13.03336     0.0008401615        112.9944                0               0                0               0
1.22442                0.9931898       -13.14431     0.0009016346        108.2438                0               0                0               0
1.23102                0.9929737       -13.25609     0.0009628934        103.3995                0               0                0               0
1.23762                0.9927576       -13.36876      0.001023704        98.48318                0               0                0               0
1.24422                0.9925416        -13.4824      0.001083838        93.51276                0               0                0               0
1.25083                0.9923254       -13.59709      0.001143075        88.50276                0               0                0               0
1.25743                0.9921088        -13.7129      0.001201201        83.46539                0               0                0               0
1.26403                0.9918911        -13.8299      0.001258008        78.41107                0               0                0               0
1.27063                0.9916718       -13.94817      0.001313294        73.34883                0               0                0               0
1.27723                0.9914499       -14.06776      0.001366867        68.28668                0               0                0               0
1.28383                0.9912246       -14.18873      0.001418541        63.23182                0               0                0               0
1.29043                0.9909946       -14.31112      0.001468139        58.19088                0               0                0               0
1.29703                 0.990759       -14.43499      0.001515499        53.17007                0               0                0               0
1.30363                0.9905164       -14.56036      0.001560466        48.17531                0               0                0               0
1.31023                0.9902656       -14.68725      0.001602902        43.21232                0               0                0               0
1.31683                0.9900053       -14.81567      0.001642684        38.28674                0               0                0               0
1.32343                0.9897345       -14.94563      0.001679704        33.40421                0               0                0               0
1.33003                0.9894516       -15.07711      0.001713877        28.57041                0               0                0               0
1.33663                 0.989156       -15.21009      0.001745137        23.79113                0               0                0               0
1.34323                0.9888464       -15.34455      0.001773441        19.07232                0               0                0               0
1.34984                0.9885221       -15.48047      0.001798774        14.42014                0               0                0               0
1.35644                0.9881825       -15.61779      0.001821149        9.840959                0               0                0               0
1.36304                0.9878269        -15.7565      0.001840611        5.341398                0               0                0               0
1.36964                0.9874553       -15.89653       0.00185724       0.9283225                0               0                0               0
1.37624                0.9870673       -16.03785      0.001871153       -3.391171                0               0                0               0
1.38284                 0.986663       -16.18042       0.00188251       -7.609793                0               0                0               0
1.38944                0.9862425       -16.32421      0.001891515       -11.72013                0               0                0               0
1.39604                0.9858064       -16.46919       0.00189842       -15.71476                0               0                0               0
1.40264                0.9853552       -16.61533      0.001903528       -19.58636                0               0                0               0
1.40924                0.9848894       -16.76262      0.001907198       -23.32798                0               0                0               0
1.41584                0.9844099       -16.91106      0.001909843       -26.93322                0               0                0               0
1.42244                0.9839173       -17.06066      0.001911935       -30.39664                0               0                0               0
1.42904                0.9834126       -17.21143      0.001914003        -33.7141                0               0                0               0
1.43564                0.9828967       -17.36341       0.00191663       -36.88322                0               0                0               0
1.44224                0.9823703       -17.51665      0.001920451       -39.90392                0               0                0               0
1.44884                0.9818342       -17.67119      0.001926144       -42.77888                0               0                0               0
1.45545                 0.981289       -17.82712      0.001934415       -45.51405                0               0                0               0
1.46205                0.9807352        -17.9845      0.001945992       -48.11899                0               0                0               0
1.46865                0.9801734       -18.14343        0.0019616        -50.6071                0               0                0               0
1.47525                0.9796034       -18.30401      0.001981942       -52.99559                0               0                0               0
1.48185                0.9790253       -18.46633      0.002007678       -55.30514                0               0                0               0
1.48845                0.9784389        -18.6305      0.002039402       -57.55929                0               0                0               0
1.49505                0.9778437       -18.79665      0.002077621       -59.78352                0               0                0               0
1.50165                0.9772389       -18.96486      0.002122736        -62.0041                0               0                0               0
1.50825                0.9766235       -19.13526      0.002175034       -64.24695                0               0                0               0
1.51485                0.9759964       -19.30794      0.002234679       -66.53639                0               0                0               0
1.52145                0.9753563         -19.483      0.002301714       -68.89421                0               0                0               0
1.52805                0.9747012       -19.66053      0.002376064       -71.33886                0               0                0               0
1.53465                0.9740298       -19.84061      0.002457548       -73.88507                0               0                0               0
1.54125                0.9733401       -20.02331      0.002545895       -76.54366                0               0                0               0
1.54785                  0.97263       -20.20868      0.002640751        -79.3217                0               0                0               0
1.55446                0.9718975       -20.39676      0.002741704        -82.2228                0               0                0               0
1.56106                0.9711407       -20.58759       0.00284829       -85.24757                0               0                0               0
1.56766                0.9703576       -20.78116      0.002960012       -88.39412                0               0                0               0
1.57426                0.9695459       -20.97751      0.003076348       -91.65856                0               0                0               0
1.58086                0.9687043       -21.17659       0.00319676        -95.0355                0               0                0               0
1.58746                0.9678308       -21.37841      0.003320707       -98.51841                0               0                0               0
1.59406                0.9669237       -21.58291      0.003447641       -102.1001                0               0                0               0
1.60066                0.9659821       -21.79007      0.003577027       -105.7728                0               0                0               0
1.60726                0.9650046       -21.99985      0.003708333       -109.5286                0               0                0               0
1.61386                0.9639906       -22.21219      0.003841042       -113.3595                0               0                0               0
1.62046                0.9629394       -22.42704      0.003974651       -117.2577                0               0                0               0
1.62706                0.9618507       -22.64438      0.004108674       -121.2154                0               0                0               0
1.63366                0.9607245       -22.86415      0.004242649        -125.225                0               0                0               0
1.64026                0.9595609       -23.08632       0.00437613       -129.2793                0               0                0               0
1.64686                0.9583604       -23.31089      0.004508702       -133.3712                0               0                0               0
1.65347                0.9571236       -23.53783      0.004639971        -137.494                0               0                0               0
1.66007                0.9558511       -23.76717      0.004769576       -141.6412                0               0                0               0
1.66667                0.9545439       -23.99893      0.004897187       -145.8066                0               0                0               0
1.67327                0.9532028       -24.23316      0.005022505       -149.9841                0               0                0               0
1.67987                0.9518291       -24.46993      0.005145273        -154.168                0               0                0               0
1.68647                0.9504234       -24.70933       0.00526527       -158.3527                0               0                0               0
1.69307                0.9489866       -24.95148      0.005382324       -162.5328                0               0                0               0
1.69967                0.9475195       -25.19651      0.005496304       -166.7031                0               0                0               0
1.70627                0.9460226       -25.44457      0.005607132       -170.8586                0               0                0               0
1.71287                0.9444961       -25.69586      0.005714785       -174.9945                0               0                0               0
1.71947                  0.94294       -25.95055        0.0058193       -179.1061                0               0                0               0
1.72607                0.9413538       -26.20886       0.00592077         176.811                0               0                0               0
1.73267                0.9397368       -26.47102      0.006019358        172.7613                0               0                0               0
1.73927                0.9380878       -26.73727      0.006115299        168.7486                0               0                0               0
1.74587                0.9364053       -27.00784      0.006208897        164.7767                0               0                0               0
1.75248                0.9346871       -27.28299      0.006300532        160.8491                0               0                0               0
1.75908                0.9329308       -27.56297      0.006390666        156.9689                0               0                0               0
1.76568                0.9311334       -27.84802      0.006479839        153.1388                0               0                0               0
1.77228                0.9292915       -28.13838      0.006568675         149.361                0               0                0               0
1.77888                0.9274016       -28.43428      0.006657879        145.6371                0               0                0               0
1.78548                0.9254592       -28.73594      0.006748234         141.968                0               0                0               0
1.79208                  0.92346       -29.04356      0.006840603         138.354                0               0                0               0
1.79868                0.9213992       -29.35733      0.006935919        134.7946                0               0                0               0
1.80528                 0.919272       -29.67741      0.007035181        131.2884                0               0                0               0
1.81188                0.9170731       -30.00394      0.007139442        127.8329                0               0                0               0
1.81848                0.9147973       -30.33706        0.0072498        124.4248                0               0                0               0
1.82508                0.9124392       -30.67685      0.007367383        121.0598                0               0                0               0
1.83168                0.9099936        -31.0234      0.007493335        117.7326                0               0                0               0
1.83828                0.9074553       -31.37678      0.007628795         114.437                0               0                0               0
1.84488                0.9048192       -31.73702      0.007774884        111.1659                0               0                0               0
1.85149                0.9020802       -32.10414      0.007932681        107.9114                0               0                0               0
