! TOUCHSTONE file generated by CST MICROWAVE STUDIO
! Date and time: Tue Mar 11 13:57:45 2025
! Project name: transverse.cst
! Parameters = {Fracture=1; B=12.5; D=160; F=25; Feed=2.85625; L=100; M=10; R=0.384908; S=2; Theta=180; length=57.125; wave=114.25}
! Header version: 2024
! Port assignment regex: !\s*Touchstone port\s*([0-9]+)\s*=\s*(CST MWS port|CST DES external port|CST DES block port)\s*(.+)\s* \(\"(.*)\"\)(\s*mode\s*([0-9]+))?.*
! Touchstone port assignment:
! Touchstone port 1 = CST MWS port 1 ("")
! Touchstone port 2 = CST MWS port 2 ("")
# GHz S MA R 50
1                      0.9977814       -10.00328      0.000366465       -164.7084                0               0                0               0
1.00658                0.9976965       -10.09263     0.0003715999        -168.367                0               0                0               0
1.01316                0.9976083       -10.18247     0.0003761904       -171.9018                0               0                0               0
1.01974                 0.997517        -10.2728     0.0003802984       -175.3034                0               0                0               0
1.02632                0.9974227       -10.36362     0.0003840015       -178.5627                0               0                0               0
1.03289                0.9973258       -10.45495     0.0003873946        178.3287                0               0                0               0
1.03947                0.9972265       -10.54678     0.0003905904        175.3779                0               0                0               0
1.04605                0.9971249       -10.63913     0.0003937196        172.5907                0               0                0               0
1.05263                0.9970215       -10.73201     0.0003969315        169.9703                0               0                0               0
1.05921                0.9969163       -10.82546     0.0004003923        167.5172                0               0                0               0
1.06579                0.9968094       -10.91948     0.0004042839        165.2282                0               0                0               0
1.07237                 0.996701        -11.0141     0.0004088006        163.0959                0               0                0               0
1.07895                0.9965912       -11.10935     0.0004141452         161.108                0               0                0               0
1.08553                0.9964799       -11.20526     0.0004205231        159.2474                0               0                0               0
1.09211                0.9963672       -11.30185     0.0004281369         157.492                0               0                0               0
1.09868                0.9962529       -11.39914     0.0004371784        155.8152                0               0                0               0
1.10526                0.9961368       -11.49718      0.000447822        154.1876                0               0                0               0
1.11184                0.9960187       -11.59598     0.0004602184        152.5774                0               0                0               0
1.11842                0.9958984       -11.69557     0.0004744892        150.9528                0               0                0               0
1.125                  0.9957755       -11.79598     0.0004907233        149.2833                0               0                0               0
1.13158                0.9956496       -11.89722     0.0005089756        147.5413                0               0                0               0
1.13816                0.9955205       -11.99932     0.0005292669        145.7033                0               0                0               0
1.14474                0.9953875       -12.10229     0.0005515864        143.7504                0               0                0               0
1.15132                0.9952504       -12.20614     0.0005758944        141.6689                0               0                0               0
1.15789                0.9951086       -12.31089     0.0006021267        139.4499                0               0                0               0
1.16447                0.9949616       -12.41653     0.0006301986        137.0888                0               0                0               0
1.17105                0.9948093       -12.52307     0.0006600091        134.5852                0               0                0               0
1.17763                 0.994651       -12.63052     0.0006914443        131.9415                0               0                0               0
1.18421                0.9944865       -12.73886     0.0007243815        129.1627                0               0                0               0
1.19079                0.9943155        -12.8481     0.0007586909        126.2555                0               0                0               0
1.19737                0.9941375       -12.95822     0.0007942387        123.2281                0               0                0               0
1.20395                0.9939526       -13.06921     0.0008308886        120.0891                0               0                0               0
1.21053                0.9937604       -13.18107     0.0008685032        116.8479                0               0                0               0
1.21711                0.9935609       -13.29379     0.0009069454        113.5136                0               0                0               0
1.22368                0.9933543       -13.40736     0.0009460793        110.0957                0               0                0               0
1.23026                0.9931402       -13.52177     0.0009857708        106.6032                0               0                0               0
1.23684                 0.992919       -13.63701      0.001025888        103.0449                0               0                0               0
1.24342                0.9926909       -13.75309      0.001066304        99.42911                0               0                0               0
1.25                   0.9924561       -13.86999      0.001106894        95.76393                0               0                0               0
1.25658                0.9922146       -13.98772      0.001147538          92.057                0               0                0               0
1.26316                0.9919669       -14.10629      0.001188121        88.31555                0               0                0               0
1.26974                0.9917133       -14.22571      0.001228536        84.54649                0               0                0               0
1.27632                 0.991454         -14.346      0.001268679        80.75633                0               0                0               0
1.28289                0.9911894       -14.46716      0.001308457         76.9513                0               0                0               0
1.28947                0.9909198       -14.58923      0.001347782        73.13728                0               0                0               0
1.29605                0.9906455       -14.71223      0.001386576        69.31993                0               0                0               0
1.30263                0.9903667       -14.83619      0.001424772        65.50458                0               0                0               0
1.30921                0.9900836       -14.96116      0.001462311        61.69639                0               0                0               0
1.31579                0.9897963       -15.08717      0.001499147        57.90025                0               0                0               0
1.32237                0.9895051       -15.21425      0.001535248        54.12084                0               0                0               0
1.32895                0.9892098       -15.34246      0.001570592        50.36266                0               0                0               0
1.33553                0.9889105       -15.47184      0.001605174        46.62996                0               0                0               0
1.34211                 0.988607       -15.60244      0.001639003        42.92682                0               0                0               0
1.34868                0.9882991       -15.73431      0.001672105        39.25707                0               0                0               0
1.35526                0.9879866       -15.86748      0.001704524         35.6243                0               0                0               0
1.36184                0.9876692       -16.00201      0.001736318        32.03184                0               0                0               0
1.36842                0.9873464       -16.13795      0.001767568        28.48276                0               0                0               0
1.375                  0.9870178       -16.27533      0.001798372        24.97976                0               0                0               0
1.38158                0.9866828        -16.4142      0.001828846        21.52519                0               0                0               0
1.38816                0.9863412       -16.55459      0.001859128        18.12101                0               0                0               0
1.39474                0.9859921       -16.69654      0.001889374        14.76869                0               0                0               0
1.40132                0.9856352       -16.84008      0.001919758        11.46921                0               0                0               0
1.40789                0.9852698       -16.98524      0.001950473        8.222965                0               0                0               0
1.41447                0.9848952       -17.13205      0.001981727        5.029766                0               0                0               0
1.42105                0.9845111       -17.28052      0.002013747         1.88875                0               0                0               0
1.42763                0.9841169       -17.43069      0.002046768       -1.201624                0               0                0               0
1.43421                0.9837121       -17.58257      0.002081037       -4.243612                0               0                0               0
1.44079                0.9832963       -17.73618      0.002116811       -7.240184                0               0                0               0
1.44737                0.9828693       -17.89154      0.002154347       -10.19501                0               0                0               0
1.45395                0.9824305       -18.04867      0.002193905       -13.11244                0               0                0               0
1.46053                0.9819799       -18.20759       0.00223574       -15.99741                0               0                0               0
1.46711                0.9815172       -18.36832      0.002280102       -18.85541                0               0                0               0
1.47368                0.9810423       -18.53089      0.002327226       -21.69234                0               0                0               0
1.48026                 0.980555       -18.69533      0.002377335       -24.51441                0               0                0               0
1.48684                0.9800555       -18.86167      0.002430631       -27.32803                0               0                0               0
1.49342                0.9795433       -19.02995      0.002487296        -30.1396                0               0                0               0
1.5                    0.9790189       -19.20021      0.002547486       -32.95547                0               0                0               0
1.50658                 0.978482       -19.37251      0.002611331        -35.7817                0               0                0               0
1.51316                0.9779327        -19.5469      0.002678935         -38.624                0               0                0               0
1.51974                0.9773707       -19.72345       0.00275037       -41.48762                0               0                0               0
1.52632                0.9767962       -19.90224      0.002825684       -44.37722                0               0                0               0
1.53289                0.9762089       -20.08332      0.002904895       -47.29687                0               0                0               0
1.53947                0.9756084       -20.26681      0.002987996       -50.24996                0               0                0               0
1.54605                0.9749946       -20.45277      0.003074954       -53.23917                0               0                0               0
1.55263                0.9743667       -20.64131      0.003165714       -56.26654                0               0                0               0
1.55921                0.9737244       -20.83254      0.003260203       -59.33343                0               0                0               0
1.56579                0.9730668       -21.02655      0.003358328       -62.44056                0               0                0               0
1.57237                0.9723928       -21.22345      0.003459983       -65.58811                0               0                0               0
1.57895                0.9717016       -21.42335      0.003565049        -68.7757                0               0                0               0
1.58553                0.9709919       -21.62637      0.003673401       -72.00249                0               0                0               0
1.59211                0.9702622       -21.83261      0.003784905       -75.26725                0               0                0               0
1.59868                 0.969511       -22.04217      0.003899425        -78.5684                0               0                0               0
1.60526                0.9687366       -22.25518      0.004016827       -81.90406                0               0                0               0
1.61184                 0.967937       -22.47172      0.004136976       -85.27213                0               0                0               0
1.61842                0.9671103       -22.69189      0.004259745       -88.67034                0               0                0               0
1.625                  0.9662543       -22.91579      0.004385013       -92.09629                0               0                0               0
1.63158                0.9653668        -23.1435      0.004512669       -95.54747                0               0                0               0
1.63816                0.9644456       -23.37509      0.004642618       -99.02135                0               0                0               0
1.64474                 0.963488       -23.61063      0.004774772       -102.5154                0               0                0               0
1.65132                0.9624917       -23.85019      0.004909069        -106.027                0               0                0               0
1.65789                0.9614541       -24.09382      0.005045459       -109.5538                0               0                0               0
1.66447                 0.960373       -24.34157      0.005183918       -113.0933                0               0                0               0
1.67105                0.9592456       -24.59347      0.005324438       -116.6432                0               0                0               0
1.67763                0.9580695       -24.84955      0.005467042       -120.2013                0               0                0               0
1.68421                0.9568425       -25.10984      0.005611776       -123.7655                0               0                0               0
1.69079                0.9555623       -25.37436      0.005758711       -127.3341                0               0                0               0
1.69737                0.9542265       -25.64313      0.005907948       -130.9051                0               0                0               0
1.70395                0.9528331       -25.91615      0.006059618       -134.4772                0               0                0               0
1.71053                0.9513801       -26.19345      0.006213879       -138.0489                0               0                0               0
1.71711                0.9498654       -26.47504      0.006370921       -141.6191                0               0                0               0
1.72368                0.9482874       -26.76091      0.006530961       -145.1869                0               0                0               0
1.73026                0.9466443       -27.05111       0.00669425       -148.7516                0               0                0               0
1.73684                0.9449344       -27.34564      0.006861063       -152.3129                0               0                0               0
1.74342                0.9431563       -27.64454      0.007031705       -155.8705                0               0                0               0
1.75                   0.9413085       -27.94784      0.007206508       -159.4244                0               0                0               0
1.75658                0.9393895       -28.25559      0.007385823       -162.9751                0               0                0               0
1.76316                0.9373978       -28.56784      0.007570029       -166.5229                0               0                0               0
1.76974                 0.935332       -28.88466       0.00775952       -170.0688                0               0                0               0
1.77632                0.9331908       -29.20613      0.007954707       -173.6138                0               0                0               0
1.78289                0.9309724       -29.53234      0.008156015        -177.159                0               0                0               0
1.78947                0.9286754        -29.8634      0.008363872        179.2941                0               0                0               0
1.79605                0.9262978       -30.19942      0.008578717        175.7438                0               0                0               0
1.80263                0.9238377       -30.54053      0.008800983        172.1885                0               0                0               0
1.80921                0.9212929       -30.88687      0.009031104        168.6261                0               0                0               0
1.81579                0.9186609       -31.23861      0.009269499        165.0548                0               0                0               0
1.82237                0.9159393       -31.59589      0.009516579        161.4723                0               0                0               0
1.82895                 0.913125       -31.95889      0.009772734        157.8766                0               0                0               0
1.83553                0.9102146       -32.32779       0.01003833        154.2656                0               0                0               0
1.84211                0.9072045       -32.70278       0.01031371        150.6371                0               0                0               0
1.84868                0.9040908       -33.08403       0.01059919        146.9891                0               0                0               0
